
SetupTitle, WW
PrimitiveTest, I/V Sweep
TestParameter, Context.MainFrame, B1500A
TestParameter, Channel.UnitType, SMU, SMU
TestParameter, Channel.Unit, SMU2:HP, SMU1:HP
TestParameter, Channel.IName, I1, I4
TestParameter, Channel.VName, V1, V4
TestParameter, Channel.Mode, V, COMMON
TestParameter, Channel.Func, VAR1, CONST
TestParameter, Channel.Index, 
TestParameter, Channel.Time, 
TestParameter, Measurement.Port.Unit, SMU2:HP, SMU1:HP
TestParameter, Measurement.Port.SeriesResistor, NONE, NONE
TestParameter, Measurement.Port.Filter, ON, ON
TestParameter, Measurement.Port.OutputVoltageComparison, 0, 0
TestParameter, Measurement.Primary.Locus, Single
TestParameter, Measurement.Primary.Scale, LINEAR
TestParameter, Measurement.Primary.Start, -1
TestParameter, Measurement.Primary.Stop, 1
TestParameter, Measurement.Primary.Step, 0.02
TestParameter, Measurement.Primary.Compliance, 0.01
TestParameter, Measurement.Primary.PowerCompliance, 0
TestParameter, Measurement.Aborting.Condition, CONTINUE AT ANY
TestParameter, Measurement.PostOutput.Value, START
TestParameter, Measurement.PostOutput.Retention, OFF
TestParameter, Measurement.Bias.Source, -1, 0
TestParameter, Measurement.Bias.Compliance, 0.01, 1
TestParameter, Measurement.Monitor.Unit, SMU2:HP, SMU1:HP
TestParameter, Measurement.Monitor.Adc, HR ADC, HR ADC
TestParameter, Measurement.Monitor.Measurement, Compliance Side, Compliance Side
TestParameter, Measurement.Monitor.RangingMode, AUTO, AUTO
TestParameter, Measurement.Monitor.RangeBoundary, , 
TestParameter, Measurement.Monitor.RangeRating, BY FULL RANGE, BY FULL RANGE
TestParameter, Measurement.Monitor.RangeRatingCoeff, 50, 50
TestParameter, Measurement.Timing.Hold, 0
TestParameter, Measurement.Timing.Delay, 0.001
TestParameter, Measurement.Adc.HighSpeed.Mode, AUTO
TestParameter, Measurement.Adc.HighSpeed.Coeff, 1
TestParameter, Measurement.Adc.HighResolution.AutoZero, OFF
TestParameter, Measurement.Adc.HighResolution.Mode, PLC
TestParameter, Measurement.Adc.HighResolution.Coeff, 1
TestParameter, Measurement.WaitTime.Source.Coeff, 1
TestParameter, Measurement.WaitTime.Source.Offset, 0
TestParameter, Measurement.WaitTime.Monitor.Coeff, 1
TestParameter, Measurement.WaitTime.Monitor.Offset, 0
TestParameter, Function.User.Name, Ohmic
TestParameter, Function.User.Unit, ohm
TestParameter, Function.User.Definition, avg(V1/I1)
TestParameter, Output.Graph.Enabled, true
TestParameter, Output.Graph.XAxis.Data, V1
TestParameter, Output.Graph.XAxis.Scale, Linear
TestParameter, Output.Graph.XAxis.Left, -5
TestParameter, Output.Graph.XAxis.Right, 5
TestParameter, Output.Graph.YAxis.Data, I1
TestParameter, Output.Graph.YAxis.Scale, Linear
TestParameter, Output.Graph.YAxis.Bottom, -0.001
TestParameter, Output.Graph.YAxis.Top, 0.001
TestParameter, Output.Graph.YAxis.Group, 
TestParameter, Output.Scalar.Data, Ohmic
TestParameter, AutoAnalysis.Interpolation, false
TestParameter, AutoAnalysis.Line1.Enabled, false
TestParameter, AutoAnalysis.Line1.Type, 1
TestParameter, AutoAnalysis.Line1.Fix, True
TestParameter, AutoAnalysis.Line1.YAxis, 0
TestParameter, AutoAnalysis.Line1.Point1.Type, 0
TestParameter, AutoAnalysis.Line1.Point1.XY.X, 
TestParameter, AutoAnalysis.Line1.Point1.XY.Y, 
TestParameter, AutoAnalysis.Line1.Point1.Data.Var, 
TestParameter, AutoAnalysis.Line1.Point1.Data.Condition, 
TestParameter, AutoAnalysis.Line1.Point1.Data.Start, false
TestParameter, AutoAnalysis.Line1.Point1.Data.StartVar, 
TestParameter, AutoAnalysis.Line1.Point1.Data.StartCondition, 
TestParameter, AutoAnalysis.Line1.Point2.Type, 0
TestParameter, AutoAnalysis.Line1.Point2.XY.X, 
TestParameter, AutoAnalysis.Line1.Point2.XY.Y, 
TestParameter, AutoAnalysis.Line1.Point2.Data.Var, 
TestParameter, AutoAnalysis.Line1.Point2.Data.Condition, 
TestParameter, AutoAnalysis.Line1.Point2.Data.Start, false
TestParameter, AutoAnalysis.Line1.Point2.Data.StartVar, 
TestParameter, AutoAnalysis.Line1.Point2.Data.StartCondition, 
TestParameter, AutoAnalysis.Line1.GradientExpr, 0
TestParameter, AutoAnalysis.Line2.Enabled, false
TestParameter, AutoAnalysis.Line2.Type, 1
TestParameter, AutoAnalysis.Line2.Fix, True
TestParameter, AutoAnalysis.Line2.YAxis, 0
TestParameter, AutoAnalysis.Line2.Point1.Type, 0
TestParameter, AutoAnalysis.Line2.Point1.XY.X, 
TestParameter, AutoAnalysis.Line2.Point1.XY.Y, 
TestParameter, AutoAnalysis.Line2.Point1.Data.Var, 
TestParameter, AutoAnalysis.Line2.Point1.Data.Condition, 
TestParameter, AutoAnalysis.Line2.Point1.Data.Start, false
TestParameter, AutoAnalysis.Line2.Point1.Data.StartVar, 
TestParameter, AutoAnalysis.Line2.Point1.Data.StartCondition, 
TestParameter, AutoAnalysis.Line2.Point2.Type, 0
TestParameter, AutoAnalysis.Line2.Point2.XY.X, 
TestParameter, AutoAnalysis.Line2.Point2.XY.Y, 
TestParameter, AutoAnalysis.Line2.Point2.Data.Var, 
TestParameter, AutoAnalysis.Line2.Point2.Data.Condition, 
TestParameter, AutoAnalysis.Line2.Point2.Data.Start, false
TestParameter, AutoAnalysis.Line2.Point2.Data.StartVar, 
TestParameter, AutoAnalysis.Line2.Point2.Data.StartCondition, 
TestParameter, AutoAnalysis.Line2.GradientExpr, 0
TestParameter, AutoAnalysis.Marker.Enabled, false
TestParameter, AutoAnalysis.Marker.Data.Var, 
TestParameter, AutoAnalysis.Marker.Data.Condition, 
TestParameter, AutoAnalysis.Marker.Data.Start, false
TestParameter, AutoAnalysis.Marker.Data.StartVar, 
TestParameter, AutoAnalysis.Marker.Data.StartCondition, 
MetaData, TestRecord.EntryPoint, true
MetaData, TestRecord.RecordTime, 01/18/2020 17:07:53
MetaData, TestRecord.TestTarget, 
MetaData, TestRecord.IterationIndex, 69
MetaData, TestRecord.Preservation, true
MetaData, TestRecord.Flag, 
MetaData, TestRecord.Remarks, 
MetaData, TestRecord.LinkKey, a7f4ed91-5307-4c37-acb6-8ad429673d48
Dimension1, 101, 101, 101
Dimension2, 1, 1, 1
DataName, V1, I1, Ohmic
DataValue, -1, -8.2429999999999993E-11, 8531548986.62551
DataValue, -0.98000000000000009, -7.727E-11, 
DataValue, -0.96000000000000008, -7.771E-11, 
DataValue, -0.94000000000000006, -7.812E-11, 
DataValue, -0.92, -7.064E-11, 
DataValue, -0.9, -5.417E-11, 
DataValue, -0.88, -6.215E-11, 
DataValue, -0.86, -6.848E-11, 
DataValue, -0.84000000000000008, -6.09E-11, 
DataValue, -0.82000000000000006, -5.517E-11, 
DataValue, -0.8, -4.546E-11, 
DataValue, -0.78, -4.059E-11, 
DataValue, -0.76, -4.538E-11, 
DataValue, -0.74, -3.006E-11, 
DataValue, -0.72000000000000008, -4.456E-11, 
DataValue, -0.70000000000000007, -4.617E-11, 
DataValue, -0.68, -4.205E-11, 
DataValue, -0.66, -4.32E-11, 
DataValue, -0.64, -3.161E-11, 
DataValue, -0.62, -2.257E-11, 
DataValue, -0.6, -2.565E-11, 
DataValue, -0.58000000000000007, -2.448E-11, 
DataValue, -0.56, -2.659E-11, 
DataValue, -0.54, -2.695E-11, 
DataValue, -0.52, -2.357E-11, 
DataValue, -0.5, -2.205E-11, 
DataValue, -0.48000000000000004, -2.646E-11, 
DataValue, -0.46, -2.461E-11, 
DataValue, -0.44, -2.101E-11, 
DataValue, -0.42000000000000004, -1.904E-11, 
DataValue, -0.4, -1.728E-11, 
DataValue, -0.38, -7.79E-12, 
DataValue, -0.36000000000000004, -1.87E-11, 
DataValue, -0.34, -3.79E-12, 
DataValue, -0.32, -1.674E-11, 
DataValue, -0.3, -8.85E-12, 
DataValue, -0.28, -1.4549999999999999E-11, 
DataValue, -0.26, -1.029E-11, 
DataValue, -0.24000000000000002, -9.72E-12, 
DataValue, -0.22, -4.31E-12, 
DataValue, -0.2, -8.26E-12, 
DataValue, -0.18000000000000002, -1.436E-11, 
DataValue, -0.16, -2.88E-12, 
DataValue, -0.14, 2.06E-12, 
DataValue, -0.12000000000000001, 1.58E-12, 
DataValue, -0.1, 7.24E-12, 
DataValue, -0.08, 8.63E-12, 
DataValue, -0.060000000000000005, 2.397E-11, 
DataValue, -0.04, 4.09E-11, 
DataValue, -0.02, 7.51E-11, 
DataValue, 0, 1.1251E-10, 
DataValue, 0.02, 1.5776E-10, 
DataValue, 0.04, 1.8006E-10, 
DataValue, 0.060000000000000005, 2.3124E-10, 
DataValue, 0.08, 2.3315E-10, 
DataValue, 0.1, 2.6354E-10, 
DataValue, 0.12000000000000001, 2.7455E-10, 
DataValue, 0.14, 2.8335E-10, 
DataValue, 0.16, 2.884E-10, 
DataValue, 0.18000000000000002, 2.9616E-10, 
DataValue, 0.2, 3.1917E-10, 
DataValue, 0.22, 3.4142E-10, 
DataValue, 0.24000000000000002, 3.389E-10, 
DataValue, 0.26, 3.4521E-10, 
DataValue, 0.28, 3.5393E-10, 
DataValue, 0.3, 3.6061E-10, 
DataValue, 0.32, 3.6127E-10, 
DataValue, 0.34, 4.0007E-10, 
DataValue, 0.36000000000000004, 4.0747E-10, 
DataValue, 0.38, 4.2712E-10, 
DataValue, 0.4, 4.3759E-10, 
DataValue, 0.42000000000000004, 4.6145E-10, 
DataValue, 0.44, 4.5721E-10, 
DataValue, 0.46, 4.4044E-10, 
DataValue, 0.48000000000000004, 4.5374E-10, 
DataValue, 0.5, 4.5375E-10, 
DataValue, 0.52, 4.5637E-10, 
DataValue, 0.54, 4.7173E-10, 
DataValue, 0.56, 4.7534E-10, 
DataValue, 0.58000000000000007, 4.7671E-10, 
DataValue, 0.6, 4.8251E-10, 
DataValue, 0.62, 5.1294E-10, 
DataValue, 0.64, 5.2526E-10, 
DataValue, 0.66, 5.2284E-10, 
DataValue, 0.68, 5.4629E-10, 
DataValue, 0.70000000000000007, 5.4639E-10, 
DataValue, 0.72000000000000008, 5.548E-10, 
DataValue, 0.74, 5.6794E-10, 
DataValue, 0.76, 5.6686E-10, 
DataValue, 0.78, 5.8907E-10, 
DataValue, 0.8, 5.8941E-10, 
DataValue, 0.82000000000000006, 6.0499E-10, 
DataValue, 0.84000000000000008, 6.0897E-10, 
DataValue, 0.86, 6.3755E-10, 
DataValue, 0.88, 6.2816E-10, 
DataValue, 0.9, 6.2108E-10, 
DataValue, 0.92, 6.4254E-10, 
DataValue, 0.94000000000000006, 6.4661E-10, 
DataValue, 0.96000000000000008, 6.5823E-10, 
DataValue, 0.98000000000000009, 6.4124E-10, 
DataValue, 1, 6.6871E-10, 