
SetupTitle, WW
PrimitiveTest, I/V Sweep
TestParameter, Context.MainFrame, B1500A
TestParameter, Channel.UnitType, SMU, SMU
TestParameter, Channel.Unit, SMU2:HP, SMU1:HP
TestParameter, Channel.IName, I1, I4
TestParameter, Channel.VName, V1, V4
TestParameter, Channel.Mode, V, COMMON
TestParameter, Channel.Func, VAR1, CONST
TestParameter, Channel.Index, 
TestParameter, Channel.Time, 
TestParameter, Measurement.Port.Unit, SMU2:HP, SMU1:HP
TestParameter, Measurement.Port.SeriesResistor, NONE, NONE
TestParameter, Measurement.Port.Filter, ON, ON
TestParameter, Measurement.Port.OutputVoltageComparison, 0, 0
TestParameter, Measurement.Primary.Locus, Single
TestParameter, Measurement.Primary.Scale, LINEAR
TestParameter, Measurement.Primary.Start, -1
TestParameter, Measurement.Primary.Stop, 1
TestParameter, Measurement.Primary.Step, 0.02
TestParameter, Measurement.Primary.Compliance, 0.01
TestParameter, Measurement.Primary.PowerCompliance, 0
TestParameter, Measurement.Aborting.Condition, CONTINUE AT ANY
TestParameter, Measurement.PostOutput.Value, START
TestParameter, Measurement.PostOutput.Retention, OFF
TestParameter, Measurement.Bias.Source, -1, 0
TestParameter, Measurement.Bias.Compliance, 0.01, 1
TestParameter, Measurement.Monitor.Unit, SMU2:HP, SMU1:HP
TestParameter, Measurement.Monitor.Adc, HR ADC, HR ADC
TestParameter, Measurement.Monitor.Measurement, Compliance Side, Compliance Side
TestParameter, Measurement.Monitor.RangingMode, AUTO, AUTO
TestParameter, Measurement.Monitor.RangeBoundary, , 
TestParameter, Measurement.Monitor.RangeRating, BY FULL RANGE, BY FULL RANGE
TestParameter, Measurement.Monitor.RangeRatingCoeff, 50, 50
TestParameter, Measurement.Timing.Hold, 0
TestParameter, Measurement.Timing.Delay, 0.001
TestParameter, Measurement.Adc.HighSpeed.Mode, AUTO
TestParameter, Measurement.Adc.HighSpeed.Coeff, 1
TestParameter, Measurement.Adc.HighResolution.AutoZero, OFF
TestParameter, Measurement.Adc.HighResolution.Mode, PLC
TestParameter, Measurement.Adc.HighResolution.Coeff, 1
TestParameter, Measurement.WaitTime.Source.Coeff, 1
TestParameter, Measurement.WaitTime.Source.Offset, 0
TestParameter, Measurement.WaitTime.Monitor.Coeff, 1
TestParameter, Measurement.WaitTime.Monitor.Offset, 0
TestParameter, Function.User.Name, Ohmic
TestParameter, Function.User.Unit, ohm
TestParameter, Function.User.Definition, avg(V1/I1)
TestParameter, Output.Graph.Enabled, true
TestParameter, Output.Graph.XAxis.Data, V1
TestParameter, Output.Graph.XAxis.Scale, Linear
TestParameter, Output.Graph.XAxis.Left, -5
TestParameter, Output.Graph.XAxis.Right, 5
TestParameter, Output.Graph.YAxis.Data, I1
TestParameter, Output.Graph.YAxis.Scale, Linear
TestParameter, Output.Graph.YAxis.Bottom, -0.001
TestParameter, Output.Graph.YAxis.Top, 0.001
TestParameter, Output.Graph.YAxis.Group, 
TestParameter, Output.Scalar.Data, Ohmic
TestParameter, AutoAnalysis.Interpolation, false
TestParameter, AutoAnalysis.Line1.Enabled, false
TestParameter, AutoAnalysis.Line1.Type, 1
TestParameter, AutoAnalysis.Line1.Fix, True
TestParameter, AutoAnalysis.Line1.YAxis, 0
TestParameter, AutoAnalysis.Line1.Point1.Type, 0
TestParameter, AutoAnalysis.Line1.Point1.XY.X, 
TestParameter, AutoAnalysis.Line1.Point1.XY.Y, 
TestParameter, AutoAnalysis.Line1.Point1.Data.Var, 
TestParameter, AutoAnalysis.Line1.Point1.Data.Condition, 
TestParameter, AutoAnalysis.Line1.Point1.Data.Start, false
TestParameter, AutoAnalysis.Line1.Point1.Data.StartVar, 
TestParameter, AutoAnalysis.Line1.Point1.Data.StartCondition, 
TestParameter, AutoAnalysis.Line1.Point2.Type, 0
TestParameter, AutoAnalysis.Line1.Point2.XY.X, 
TestParameter, AutoAnalysis.Line1.Point2.XY.Y, 
TestParameter, AutoAnalysis.Line1.Point2.Data.Var, 
TestParameter, AutoAnalysis.Line1.Point2.Data.Condition, 
TestParameter, AutoAnalysis.Line1.Point2.Data.Start, false
TestParameter, AutoAnalysis.Line1.Point2.Data.StartVar, 
TestParameter, AutoAnalysis.Line1.Point2.Data.StartCondition, 
TestParameter, AutoAnalysis.Line1.GradientExpr, 0
TestParameter, AutoAnalysis.Line2.Enabled, false
TestParameter, AutoAnalysis.Line2.Type, 1
TestParameter, AutoAnalysis.Line2.Fix, True
TestParameter, AutoAnalysis.Line2.YAxis, 0
TestParameter, AutoAnalysis.Line2.Point1.Type, 0
TestParameter, AutoAnalysis.Line2.Point1.XY.X, 
TestParameter, AutoAnalysis.Line2.Point1.XY.Y, 
TestParameter, AutoAnalysis.Line2.Point1.Data.Var, 
TestParameter, AutoAnalysis.Line2.Point1.Data.Condition, 
TestParameter, AutoAnalysis.Line2.Point1.Data.Start, false
TestParameter, AutoAnalysis.Line2.Point1.Data.StartVar, 
TestParameter, AutoAnalysis.Line2.Point1.Data.StartCondition, 
TestParameter, AutoAnalysis.Line2.Point2.Type, 0
TestParameter, AutoAnalysis.Line2.Point2.XY.X, 
TestParameter, AutoAnalysis.Line2.Point2.XY.Y, 
TestParameter, AutoAnalysis.Line2.Point2.Data.Var, 
TestParameter, AutoAnalysis.Line2.Point2.Data.Condition, 
TestParameter, AutoAnalysis.Line2.Point2.Data.Start, false
TestParameter, AutoAnalysis.Line2.Point2.Data.StartVar, 
TestParameter, AutoAnalysis.Line2.Point2.Data.StartCondition, 
TestParameter, AutoAnalysis.Line2.GradientExpr, 0
TestParameter, AutoAnalysis.Marker.Enabled, false
TestParameter, AutoAnalysis.Marker.Data.Var, 
TestParameter, AutoAnalysis.Marker.Data.Condition, 
TestParameter, AutoAnalysis.Marker.Data.Start, false
TestParameter, AutoAnalysis.Marker.Data.StartVar, 
TestParameter, AutoAnalysis.Marker.Data.StartCondition, 
MetaData, TestRecord.EntryPoint, true
MetaData, TestRecord.RecordTime, 01/18/2020 17:07:23
MetaData, TestRecord.TestTarget, 
MetaData, TestRecord.IterationIndex, 68
MetaData, TestRecord.Preservation, true
MetaData, TestRecord.Flag, 
MetaData, TestRecord.Remarks, 
MetaData, TestRecord.LinkKey, c6b69079-3992-43a2-a9a5-1f4a40f0d11a
Dimension1, 101, 101, 101
Dimension2, 1, 1, 1
DataName, V1, I1, Ohmic
DataValue, -1, -9.791E-11, 10035884084.178583
DataValue, -0.98000000000000009, -9.057E-11, 
DataValue, -0.96000000000000008, -8.347E-11, 
DataValue, -0.94000000000000006, -6.974E-11, 
DataValue, -0.92, -7.053E-11, 
DataValue, -0.9, -5.988E-11, 
DataValue, -0.88, -6.884E-11, 
DataValue, -0.86, -5.948E-11, 
DataValue, -0.84000000000000008, -5.944E-11, 
DataValue, -0.82000000000000006, -6.419E-11, 
DataValue, -0.8, -5.715E-11, 
DataValue, -0.78, -5.961E-11, 
DataValue, -0.76, -4.875E-11, 
DataValue, -0.74, -5.302E-11, 
DataValue, -0.72000000000000008, -4.675E-11, 
DataValue, -0.70000000000000007, -4.919E-11, 
DataValue, -0.68, -4.794E-11, 
DataValue, -0.66, -4.194E-11, 
DataValue, -0.64, -4.157E-11, 
DataValue, -0.62, -3.345E-11, 
DataValue, -0.6, -3.117E-11, 
DataValue, -0.58000000000000007, -2.876E-11, 
DataValue, -0.56, -2.451E-11, 
DataValue, -0.54, -3.596E-11, 
DataValue, -0.52, -2.463E-11, 
DataValue, -0.5, -2.404E-11, 
DataValue, -0.48000000000000004, -1.8E-11, 
DataValue, -0.46, -2.63E-11, 
DataValue, -0.44, -1.661E-11, 
DataValue, -0.42000000000000004, -1.713E-11, 
DataValue, -0.4, -2.221E-11, 
DataValue, -0.38, -6.88E-12, 
DataValue, -0.36000000000000004, -1.552E-11, 
DataValue, -0.34, -1.649E-11, 
DataValue, -0.32, -1.286E-11, 
DataValue, -0.3, -1.223E-11, 
DataValue, -0.28, -1.079E-11, 
DataValue, -0.26, -9.34E-12, 
DataValue, -0.24000000000000002, -7.86E-12, 
DataValue, -0.22, -6.4E-12, 
DataValue, -0.2, -1.026E-11, 
DataValue, -0.18000000000000002, -1.445E-11, 
DataValue, -0.16, -3.13E-12, 
DataValue, -0.14, -5.06E-12, 
DataValue, -0.12000000000000001, -3.14E-12, 
DataValue, -0.1, -2.38E-12, 
DataValue, -0.08, 9.4799999999999992E-12, 
DataValue, -0.060000000000000005, 1.998E-11, 
DataValue, -0.04, 3.531E-11, 
DataValue, -0.02, 5.322E-11, 
DataValue, 0, 9.16E-11, 
DataValue, 0.02, 1.2584E-10, 
DataValue, 0.04, 1.5771E-10, 
DataValue, 0.060000000000000005, 1.7982E-10, 
DataValue, 0.08, 2.0476E-10, 
DataValue, 0.1, 2.1919E-10, 
DataValue, 0.12000000000000001, 2.3521E-10, 
DataValue, 0.14, 2.4222E-10, 
DataValue, 0.16, 2.5141E-10, 
DataValue, 0.18000000000000002, 2.546E-10, 
DataValue, 0.2, 2.6932E-10, 
DataValue, 0.22, 2.7459E-10, 
DataValue, 0.24000000000000002, 2.9046E-10, 
DataValue, 0.26, 2.982E-10, 
DataValue, 0.28, 3.063E-10, 
DataValue, 0.3, 3.2362E-10, 
DataValue, 0.32, 3.2224E-10, 
DataValue, 0.34, 3.3355E-10, 
DataValue, 0.36000000000000004, 3.4662E-10, 
DataValue, 0.38, 3.5249E-10, 
DataValue, 0.4, 3.549E-10, 
DataValue, 0.42000000000000004, 3.7546E-10, 
DataValue, 0.44, 3.8396E-10, 
DataValue, 0.46, 3.8494E-10, 
DataValue, 0.48000000000000004, 4.0303E-10, 
DataValue, 0.5, 4.1681E-10, 
DataValue, 0.52, 3.9936E-10, 
DataValue, 0.54, 4.1571E-10, 
DataValue, 0.56, 4.2464E-10, 
DataValue, 0.58000000000000007, 4.3719E-10, 
DataValue, 0.6, 4.6013E-10, 
DataValue, 0.62, 4.4664E-10, 
DataValue, 0.64, 4.7172E-10, 
DataValue, 0.66, 4.6989E-10, 
DataValue, 0.68, 4.777E-10, 
DataValue, 0.70000000000000007, 4.8661E-10, 
DataValue, 0.72000000000000008, 5.0306E-10, 
DataValue, 0.74, 5.0008E-10, 
DataValue, 0.76, 5.0575E-10, 
DataValue, 0.78, 5.1756E-10, 
DataValue, 0.8, 5.0863E-10, 
DataValue, 0.82000000000000006, 5.1166E-10, 
DataValue, 0.84000000000000008, 5.2082E-10, 
DataValue, 0.86, 5.2945E-10, 
DataValue, 0.88, 5.2837E-10, 
DataValue, 0.9, 5.5246E-10, 
DataValue, 0.92, 5.7613E-10, 
DataValue, 0.94000000000000006, 5.7464E-10, 
DataValue, 0.96000000000000008, 5.7872E-10, 
DataValue, 0.98000000000000009, 5.7087E-10, 
DataValue, 1, 5.8169E-10, 