
SetupTitle, WW
PrimitiveTest, I/V Sweep
TestParameter, Context.MainFrame, B1500A
TestParameter, Channel.UnitType, SMU, SMU
TestParameter, Channel.Unit, SMU2:HP, SMU1:HP
TestParameter, Channel.IName, I1, I4
TestParameter, Channel.VName, V1, V4
TestParameter, Channel.Mode, V, COMMON
TestParameter, Channel.Func, VAR1, CONST
TestParameter, Channel.Index, 
TestParameter, Channel.Time, 
TestParameter, Measurement.Port.Unit, SMU2:HP, SMU1:HP
TestParameter, Measurement.Port.SeriesResistor, NONE, NONE
TestParameter, Measurement.Port.Filter, ON, ON
TestParameter, Measurement.Port.OutputVoltageComparison, 0, 0
TestParameter, Measurement.Primary.Locus, Single
TestParameter, Measurement.Primary.Scale, LINEAR
TestParameter, Measurement.Primary.Start, -1
TestParameter, Measurement.Primary.Stop, 1
TestParameter, Measurement.Primary.Step, 0.02
TestParameter, Measurement.Primary.Compliance, 0.01
TestParameter, Measurement.Primary.PowerCompliance, 0
TestParameter, Measurement.Aborting.Condition, CONTINUE AT ANY
TestParameter, Measurement.PostOutput.Value, START
TestParameter, Measurement.PostOutput.Retention, OFF
TestParameter, Measurement.Bias.Source, -1, 0
TestParameter, Measurement.Bias.Compliance, 0.01, 1
TestParameter, Measurement.Monitor.Unit, SMU2:HP, SMU1:HP
TestParameter, Measurement.Monitor.Adc, HR ADC, HR ADC
TestParameter, Measurement.Monitor.Measurement, Compliance Side, Compliance Side
TestParameter, Measurement.Monitor.RangingMode, AUTO, AUTO
TestParameter, Measurement.Monitor.RangeBoundary, , 
TestParameter, Measurement.Monitor.RangeRating, BY FULL RANGE, BY FULL RANGE
TestParameter, Measurement.Monitor.RangeRatingCoeff, 50, 50
TestParameter, Measurement.Timing.Hold, 0
TestParameter, Measurement.Timing.Delay, 0.001
TestParameter, Measurement.Adc.HighSpeed.Mode, AUTO
TestParameter, Measurement.Adc.HighSpeed.Coeff, 1
TestParameter, Measurement.Adc.HighResolution.AutoZero, OFF
TestParameter, Measurement.Adc.HighResolution.Mode, PLC
TestParameter, Measurement.Adc.HighResolution.Coeff, 1
TestParameter, Measurement.WaitTime.Source.Coeff, 1
TestParameter, Measurement.WaitTime.Source.Offset, 0
TestParameter, Measurement.WaitTime.Monitor.Coeff, 1
TestParameter, Measurement.WaitTime.Monitor.Offset, 0
TestParameter, Function.User.Name, Ohmic
TestParameter, Function.User.Unit, ohm
TestParameter, Function.User.Definition, avg(V1/I1)
TestParameter, Output.Graph.Enabled, true
TestParameter, Output.Graph.XAxis.Data, V1
TestParameter, Output.Graph.XAxis.Scale, Linear
TestParameter, Output.Graph.XAxis.Left, -5
TestParameter, Output.Graph.XAxis.Right, 5
TestParameter, Output.Graph.YAxis.Data, I1
TestParameter, Output.Graph.YAxis.Scale, Linear
TestParameter, Output.Graph.YAxis.Bottom, -0.001
TestParameter, Output.Graph.YAxis.Top, 0.001
TestParameter, Output.Graph.YAxis.Group, 
TestParameter, Output.Scalar.Data, Ohmic
TestParameter, AutoAnalysis.Interpolation, false
TestParameter, AutoAnalysis.Line1.Enabled, false
TestParameter, AutoAnalysis.Line1.Type, 1
TestParameter, AutoAnalysis.Line1.Fix, True
TestParameter, AutoAnalysis.Line1.YAxis, 0
TestParameter, AutoAnalysis.Line1.Point1.Type, 0
TestParameter, AutoAnalysis.Line1.Point1.XY.X, 
TestParameter, AutoAnalysis.Line1.Point1.XY.Y, 
TestParameter, AutoAnalysis.Line1.Point1.Data.Var, 
TestParameter, AutoAnalysis.Line1.Point1.Data.Condition, 
TestParameter, AutoAnalysis.Line1.Point1.Data.Start, false
TestParameter, AutoAnalysis.Line1.Point1.Data.StartVar, 
TestParameter, AutoAnalysis.Line1.Point1.Data.StartCondition, 
TestParameter, AutoAnalysis.Line1.Point2.Type, 0
TestParameter, AutoAnalysis.Line1.Point2.XY.X, 
TestParameter, AutoAnalysis.Line1.Point2.XY.Y, 
TestParameter, AutoAnalysis.Line1.Point2.Data.Var, 
TestParameter, AutoAnalysis.Line1.Point2.Data.Condition, 
TestParameter, AutoAnalysis.Line1.Point2.Data.Start, false
TestParameter, AutoAnalysis.Line1.Point2.Data.StartVar, 
TestParameter, AutoAnalysis.Line1.Point2.Data.StartCondition, 
TestParameter, AutoAnalysis.Line1.GradientExpr, 0
TestParameter, AutoAnalysis.Line2.Enabled, false
TestParameter, AutoAnalysis.Line2.Type, 1
TestParameter, AutoAnalysis.Line2.Fix, True
TestParameter, AutoAnalysis.Line2.YAxis, 0
TestParameter, AutoAnalysis.Line2.Point1.Type, 0
TestParameter, AutoAnalysis.Line2.Point1.XY.X, 
TestParameter, AutoAnalysis.Line2.Point1.XY.Y, 
TestParameter, AutoAnalysis.Line2.Point1.Data.Var, 
TestParameter, AutoAnalysis.Line2.Point1.Data.Condition, 
TestParameter, AutoAnalysis.Line2.Point1.Data.Start, false
TestParameter, AutoAnalysis.Line2.Point1.Data.StartVar, 
TestParameter, AutoAnalysis.Line2.Point1.Data.StartCondition, 
TestParameter, AutoAnalysis.Line2.Point2.Type, 0
TestParameter, AutoAnalysis.Line2.Point2.XY.X, 
TestParameter, AutoAnalysis.Line2.Point2.XY.Y, 
TestParameter, AutoAnalysis.Line2.Point2.Data.Var, 
TestParameter, AutoAnalysis.Line2.Point2.Data.Condition, 
TestParameter, AutoAnalysis.Line2.Point2.Data.Start, false
TestParameter, AutoAnalysis.Line2.Point2.Data.StartVar, 
TestParameter, AutoAnalysis.Line2.Point2.Data.StartCondition, 
TestParameter, AutoAnalysis.Line2.GradientExpr, 0
TestParameter, AutoAnalysis.Marker.Enabled, false
TestParameter, AutoAnalysis.Marker.Data.Var, 
TestParameter, AutoAnalysis.Marker.Data.Condition, 
TestParameter, AutoAnalysis.Marker.Data.Start, false
TestParameter, AutoAnalysis.Marker.Data.StartVar, 
TestParameter, AutoAnalysis.Marker.Data.StartCondition, 
MetaData, TestRecord.EntryPoint, true
MetaData, TestRecord.RecordTime, 01/18/2020 17:06:51
MetaData, TestRecord.TestTarget, 
MetaData, TestRecord.IterationIndex, 67
MetaData, TestRecord.Preservation, true
MetaData, TestRecord.Flag, 
MetaData, TestRecord.Remarks, 
MetaData, TestRecord.LinkKey, 9f89b973-7aa7-47d8-88ae-62a4acc9627b
Dimension1, 101, 101, 101
Dimension2, 1, 1, 1
DataName, V1, I1, Ohmic
DataValue, -1, -8.161E-11, 12455343483.507593
DataValue, -0.98000000000000009, -7.117E-11, 
DataValue, -0.96000000000000008, -7.378E-11, 
DataValue, -0.94000000000000006, -6.251E-11, 
DataValue, -0.92, -5.324E-11, 
DataValue, -0.9, -5.801E-11, 
DataValue, -0.88, -5.604E-11, 
DataValue, -0.86, -5.333E-11, 
DataValue, -0.84000000000000008, -5.573E-11, 
DataValue, -0.82000000000000006, -4.887E-11, 
DataValue, -0.8, -3.835E-11, 
DataValue, -0.78, -3.6499999999999997E-11, 
DataValue, -0.76, -3.185E-11, 
DataValue, -0.74, -3.9E-11, 
DataValue, -0.72000000000000008, -2.77E-11, 
DataValue, -0.70000000000000007, -3.504E-11, 
DataValue, -0.68, -4.308E-11, 
DataValue, -0.66, -2.918E-11, 
DataValue, -0.64, -2.388E-11, 
DataValue, -0.62, -2.331E-11, 
DataValue, -0.6, -2.627E-11, 
DataValue, -0.58000000000000007, -2.037E-11, 
DataValue, -0.56, -1.738E-11, 
DataValue, -0.54, -1.999E-11, 
DataValue, -0.52, -2.525E-11, 
DataValue, -0.5, -1.407E-11, 
DataValue, -0.48000000000000004, -1.443E-11, 
DataValue, -0.46, -1.335E-11, 
DataValue, -0.44, -2.421E-11, 
DataValue, -0.42000000000000004, -1.197E-11, 
DataValue, -0.4, -1.826E-11, 
DataValue, -0.38, -1.205E-11, 
DataValue, -0.36000000000000004, -1.2419999999999999E-11, 
DataValue, -0.34, -9.81E-12, 
DataValue, -0.32, -1.237E-11, 
DataValue, -0.3, -6.65E-12, 
DataValue, -0.28, -8.35E-12, 
DataValue, -0.26, -7.08E-12, 
DataValue, -0.24000000000000002, -1.732E-11, 
DataValue, -0.22, -5.25E-12, 
DataValue, -0.2, -1.103E-11, 
DataValue, -0.18000000000000002, -1.69E-12, 
DataValue, -0.16, 3.07E-12, 
DataValue, -0.14, -5.6E-13, 
DataValue, -0.12000000000000001, 1.83E-12, 
DataValue, -0.1, 5.99E-12, 
DataValue, -0.08, 1.283E-11, 
DataValue, -0.060000000000000005, 2.263E-11, 
DataValue, -0.04, 3.485E-11, 
DataValue, -0.02, 7.063E-11, 
DataValue, 0, 1.0524E-10, 
DataValue, 0.02, 1.451E-10, 
DataValue, 0.04, 1.7952E-10, 
DataValue, 0.060000000000000005, 2.0238E-10, 
DataValue, 0.08, 2.273E-10, 
DataValue, 0.1, 2.5476E-10, 
DataValue, 0.12000000000000001, 2.6948E-10, 
DataValue, 0.14, 2.7552E-10, 
DataValue, 0.16, 2.8775E-10, 
DataValue, 0.18000000000000002, 2.9931E-10, 
DataValue, 0.2, 3.0002E-10, 
DataValue, 0.22, 3.0211E-10, 
DataValue, 0.24000000000000002, 3.0668E-10, 
DataValue, 0.26, 3.1723E-10, 
DataValue, 0.28, 3.3205E-10, 
DataValue, 0.3, 3.6049E-10, 
DataValue, 0.32, 3.4643E-10, 
DataValue, 0.34, 3.5442E-10, 
DataValue, 0.36000000000000004, 3.6833E-10, 
DataValue, 0.38, 3.6742E-10, 
DataValue, 0.4, 3.8336E-10, 
DataValue, 0.42000000000000004, 3.9402E-10, 
DataValue, 0.44, 3.9392E-10, 
DataValue, 0.46, 3.9288E-10, 
DataValue, 0.48000000000000004, 4.1903E-10, 
DataValue, 0.5, 4.5239E-10, 
DataValue, 0.52, 4.559E-10, 
DataValue, 0.54, 4.6333999999999997E-10, 
DataValue, 0.56, 4.8545E-10, 
DataValue, 0.58000000000000007, 4.9276E-10, 
DataValue, 0.6, 5.0728E-10, 
DataValue, 0.62, 5.1909E-10, 
DataValue, 0.64, 5.1086E-10, 
DataValue, 0.66, 5.1861E-10, 
DataValue, 0.68, 5.3251E-10, 
DataValue, 0.70000000000000007, 5.3999E-10, 
DataValue, 0.72000000000000008, 5.5025E-10, 
DataValue, 0.74, 5.389E-10, 
DataValue, 0.76, 5.3923E-10, 
DataValue, 0.78, 5.3346E-10, 
DataValue, 0.8, 5.5266E-10, 
DataValue, 0.82000000000000006, 5.6217E-10, 
DataValue, 0.84000000000000008, 5.7237E-10, 
DataValue, 0.86, 5.7004E-10, 
DataValue, 0.88, 5.8024E-10, 
DataValue, 0.9, 6.0092E-10, 
DataValue, 0.92, 6.0808E-10, 
DataValue, 0.94000000000000006, 6.3375E-10, 
DataValue, 0.96000000000000008, 6.268E-10, 
DataValue, 0.98000000000000009, 6.3898E-10, 
DataValue, 1, 6.3767E-10, 