
SetupTitle, WW
PrimitiveTest, I/V Sweep
TestParameter, Context.MainFrame, B1500A
TestParameter, Channel.UnitType, SMU, SMU
TestParameter, Channel.Unit, SMU2:HP, SMU1:HP
TestParameter, Channel.IName, I1, I4
TestParameter, Channel.VName, V1, V4
TestParameter, Channel.Mode, V, COMMON
TestParameter, Channel.Func, VAR1, CONST
TestParameter, Channel.Index, 
TestParameter, Channel.Time, 
TestParameter, Measurement.Port.Unit, SMU2:HP, SMU1:HP
TestParameter, Measurement.Port.SeriesResistor, NONE, NONE
TestParameter, Measurement.Port.Filter, ON, ON
TestParameter, Measurement.Port.OutputVoltageComparison, 0, 0
TestParameter, Measurement.Primary.Locus, Single
TestParameter, Measurement.Primary.Scale, LINEAR
TestParameter, Measurement.Primary.Start, -1
TestParameter, Measurement.Primary.Stop, 1
TestParameter, Measurement.Primary.Step, 0.02
TestParameter, Measurement.Primary.Compliance, 0.01
TestParameter, Measurement.Primary.PowerCompliance, 0
TestParameter, Measurement.Aborting.Condition, CONTINUE AT ANY
TestParameter, Measurement.PostOutput.Value, START
TestParameter, Measurement.PostOutput.Retention, OFF
TestParameter, Measurement.Bias.Source, -1, 0
TestParameter, Measurement.Bias.Compliance, 0.01, 1
TestParameter, Measurement.Monitor.Unit, SMU2:HP, SMU1:HP
TestParameter, Measurement.Monitor.Adc, HR ADC, HR ADC
TestParameter, Measurement.Monitor.Measurement, Compliance Side, Compliance Side
TestParameter, Measurement.Monitor.RangingMode, AUTO, AUTO
TestParameter, Measurement.Monitor.RangeBoundary, , 
TestParameter, Measurement.Monitor.RangeRating, BY FULL RANGE, BY FULL RANGE
TestParameter, Measurement.Monitor.RangeRatingCoeff, 50, 50
TestParameter, Measurement.Timing.Hold, 0
TestParameter, Measurement.Timing.Delay, 0.001
TestParameter, Measurement.Adc.HighSpeed.Mode, AUTO
TestParameter, Measurement.Adc.HighSpeed.Coeff, 1
TestParameter, Measurement.Adc.HighResolution.AutoZero, OFF
TestParameter, Measurement.Adc.HighResolution.Mode, PLC
TestParameter, Measurement.Adc.HighResolution.Coeff, 1
TestParameter, Measurement.WaitTime.Source.Coeff, 1
TestParameter, Measurement.WaitTime.Source.Offset, 0
TestParameter, Measurement.WaitTime.Monitor.Coeff, 1
TestParameter, Measurement.WaitTime.Monitor.Offset, 0
TestParameter, Function.User.Name, Ohmic
TestParameter, Function.User.Unit, ohm
TestParameter, Function.User.Definition, avg(V1/I1)
TestParameter, Output.Graph.Enabled, true
TestParameter, Output.Graph.XAxis.Data, V1
TestParameter, Output.Graph.XAxis.Scale, Linear
TestParameter, Output.Graph.XAxis.Left, -5
TestParameter, Output.Graph.XAxis.Right, 5
TestParameter, Output.Graph.YAxis.Data, I1
TestParameter, Output.Graph.YAxis.Scale, Linear
TestParameter, Output.Graph.YAxis.Bottom, -0.001
TestParameter, Output.Graph.YAxis.Top, 0.001
TestParameter, Output.Graph.YAxis.Group, 
TestParameter, Output.Scalar.Data, Ohmic
TestParameter, AutoAnalysis.Interpolation, false
TestParameter, AutoAnalysis.Line1.Enabled, false
TestParameter, AutoAnalysis.Line1.Type, 1
TestParameter, AutoAnalysis.Line1.Fix, True
TestParameter, AutoAnalysis.Line1.YAxis, 0
TestParameter, AutoAnalysis.Line1.Point1.Type, 0
TestParameter, AutoAnalysis.Line1.Point1.XY.X, 
TestParameter, AutoAnalysis.Line1.Point1.XY.Y, 
TestParameter, AutoAnalysis.Line1.Point1.Data.Var, 
TestParameter, AutoAnalysis.Line1.Point1.Data.Condition, 
TestParameter, AutoAnalysis.Line1.Point1.Data.Start, false
TestParameter, AutoAnalysis.Line1.Point1.Data.StartVar, 
TestParameter, AutoAnalysis.Line1.Point1.Data.StartCondition, 
TestParameter, AutoAnalysis.Line1.Point2.Type, 0
TestParameter, AutoAnalysis.Line1.Point2.XY.X, 
TestParameter, AutoAnalysis.Line1.Point2.XY.Y, 
TestParameter, AutoAnalysis.Line1.Point2.Data.Var, 
TestParameter, AutoAnalysis.Line1.Point2.Data.Condition, 
TestParameter, AutoAnalysis.Line1.Point2.Data.Start, false
TestParameter, AutoAnalysis.Line1.Point2.Data.StartVar, 
TestParameter, AutoAnalysis.Line1.Point2.Data.StartCondition, 
TestParameter, AutoAnalysis.Line1.GradientExpr, 0
TestParameter, AutoAnalysis.Line2.Enabled, false
TestParameter, AutoAnalysis.Line2.Type, 1
TestParameter, AutoAnalysis.Line2.Fix, True
TestParameter, AutoAnalysis.Line2.YAxis, 0
TestParameter, AutoAnalysis.Line2.Point1.Type, 0
TestParameter, AutoAnalysis.Line2.Point1.XY.X, 
TestParameter, AutoAnalysis.Line2.Point1.XY.Y, 
TestParameter, AutoAnalysis.Line2.Point1.Data.Var, 
TestParameter, AutoAnalysis.Line2.Point1.Data.Condition, 
TestParameter, AutoAnalysis.Line2.Point1.Data.Start, false
TestParameter, AutoAnalysis.Line2.Point1.Data.StartVar, 
TestParameter, AutoAnalysis.Line2.Point1.Data.StartCondition, 
TestParameter, AutoAnalysis.Line2.Point2.Type, 0
TestParameter, AutoAnalysis.Line2.Point2.XY.X, 
TestParameter, AutoAnalysis.Line2.Point2.XY.Y, 
TestParameter, AutoAnalysis.Line2.Point2.Data.Var, 
TestParameter, AutoAnalysis.Line2.Point2.Data.Condition, 
TestParameter, AutoAnalysis.Line2.Point2.Data.Start, false
TestParameter, AutoAnalysis.Line2.Point2.Data.StartVar, 
TestParameter, AutoAnalysis.Line2.Point2.Data.StartCondition, 
TestParameter, AutoAnalysis.Line2.GradientExpr, 0
TestParameter, AutoAnalysis.Marker.Enabled, false
TestParameter, AutoAnalysis.Marker.Data.Var, 
TestParameter, AutoAnalysis.Marker.Data.Condition, 
TestParameter, AutoAnalysis.Marker.Data.Start, false
TestParameter, AutoAnalysis.Marker.Data.StartVar, 
TestParameter, AutoAnalysis.Marker.Data.StartCondition, 
MetaData, TestRecord.EntryPoint, true
MetaData, TestRecord.RecordTime, 01/18/2020 17:06:16
MetaData, TestRecord.TestTarget, 
MetaData, TestRecord.IterationIndex, 66
MetaData, TestRecord.Preservation, true
MetaData, TestRecord.Flag, 
MetaData, TestRecord.Remarks, 
MetaData, TestRecord.LinkKey, dc190854-8ba8-42f7-86ee-cf10add16582
Dimension1, 101, 101, 101
Dimension2, 1, 1, 1
DataName, V1, I1, Ohmic
DataValue, -1, -9.066E-11, 8433865008.0880165
DataValue, -0.98000000000000009, -7.997E-11, 
DataValue, -0.96000000000000008, -7.216E-11, 
DataValue, -0.94000000000000006, -7.532E-11, 
DataValue, -0.92, -5.442E-11, 
DataValue, -0.9, -5.675E-11, 
DataValue, -0.88, -5.646E-11, 
DataValue, -0.86, -5.935E-11, 
DataValue, -0.84000000000000008, -5.894E-11, 
DataValue, -0.82000000000000006, -5.428E-11, 
DataValue, -0.8, -4.553E-11, 
DataValue, -0.78, -4.569E-11, 
DataValue, -0.76, -3.97E-11, 
DataValue, -0.74, -4.727E-11, 
DataValue, -0.72000000000000008, -3.841E-11, 
DataValue, -0.70000000000000007, -3.04E-11, 
DataValue, -0.68, -4.598E-11, 
DataValue, -0.66, -3.783E-11, 
DataValue, -0.64, -1.918E-11, 
DataValue, -0.62, -3.573E-11, 
DataValue, -0.6, -3.342E-11, 
DataValue, -0.58000000000000007, -2.825E-11, 
DataValue, -0.56, -2.375E-11, 
DataValue, -0.54, -1.511E-11, 
DataValue, -0.52, -2.341E-11, 
DataValue, -0.5, -2.093E-11, 
DataValue, -0.48000000000000004, -1.469E-11, 
DataValue, -0.46, -1.92E-11, 
DataValue, -0.44, -1.443E-11, 
DataValue, -0.42000000000000004, -1.181E-11, 
DataValue, -0.4, -3.56E-12, 
DataValue, -0.38, -8.97E-12, 
DataValue, -0.36000000000000004, -8.78E-12, 
DataValue, -0.34, -1.09E-11, 
DataValue, -0.32, -2.449E-11, 
DataValue, -0.3, -1.01E-11, 
DataValue, -0.28, -1.598E-11, 
DataValue, -0.26, -8.36E-12, 
DataValue, -0.24000000000000002, 1.13E-12, 
DataValue, -0.22, -8.08E-12, 
DataValue, -0.2, 3.24E-12, 
DataValue, -0.18000000000000002, -1.98E-12, 
DataValue, -0.16, 6.63E-12, 
DataValue, -0.14, -4.77E-12, 
DataValue, -0.12000000000000001, -1.94E-12, 
DataValue, -0.1, 3.95E-12, 
DataValue, -0.08, 1.442E-11, 
DataValue, -0.060000000000000005, 2.516E-11, 
DataValue, -0.04, 4.178E-11, 
DataValue, -0.02, 6.761E-11, 
DataValue, 0, 1.0266E-10, 
DataValue, 0.02, 1.369E-10, 
DataValue, 0.04, 1.735E-10, 
DataValue, 0.060000000000000005, 1.9698E-10, 
DataValue, 0.08, 2.1309E-10, 
DataValue, 0.1, 2.416E-10, 
DataValue, 0.12000000000000001, 2.4031E-10, 
DataValue, 0.14, 2.526E-10, 
DataValue, 0.16, 2.5891E-10, 
DataValue, 0.18000000000000002, 2.6255E-10, 
DataValue, 0.2, 2.8547E-10, 
DataValue, 0.22, 2.9958E-10, 
DataValue, 0.24000000000000002, 2.9179E-10, 
DataValue, 0.26, 3.0934E-10, 
DataValue, 0.28, 3.0796E-10, 
DataValue, 0.3, 3.3417E-10, 
DataValue, 0.32, 3.4902E-10, 
DataValue, 0.34, 3.455E-10, 
DataValue, 0.36000000000000004, 3.4615E-10, 
DataValue, 0.38, 3.6727E-10, 
DataValue, 0.4, 3.5163E-10, 
DataValue, 0.42000000000000004, 3.6259E-10, 
DataValue, 0.44, 3.9136E-10, 
DataValue, 0.46, 3.9712E-10, 
DataValue, 0.48000000000000004, 4.1161E-10, 
DataValue, 0.5, 4.3082E-10, 
DataValue, 0.52, 4.2419E-10, 
DataValue, 0.54, 4.3426E-10, 
DataValue, 0.56, 4.4087E-10, 
DataValue, 0.58000000000000007, 4.5431E-10, 
DataValue, 0.6, 4.666E-10, 
DataValue, 0.62, 4.5381E-10, 
DataValue, 0.64, 4.6797E-10, 
DataValue, 0.66, 4.7794E-10, 
DataValue, 0.68, 4.8972E-10, 
DataValue, 0.70000000000000007, 4.8658E-10, 
DataValue, 0.72000000000000008, 4.9425E-10, 
DataValue, 0.74, 5.2157E-10, 
DataValue, 0.76, 5.4259E-10, 
DataValue, 0.78, 5.4214E-10, 
DataValue, 0.8, 5.5642E-10, 
DataValue, 0.82000000000000006, 5.5219E-10, 
DataValue, 0.84000000000000008, 5.9213E-10, 
DataValue, 0.86, 5.9661E-10, 
DataValue, 0.88, 6.3342E-10, 
DataValue, 0.9, 6.2443E-10, 
DataValue, 0.92, 6.2121E-10, 
DataValue, 0.94000000000000006, 6.2082E-10, 
DataValue, 0.96000000000000008, 6.0866E-10, 
DataValue, 0.98000000000000009, 6.2318E-10, 
DataValue, 1, 6.4043E-10, 