
SetupTitle, WW
PrimitiveTest, I/V Sweep
TestParameter, Context.MainFrame, B1500A
TestParameter, Channel.UnitType, SMU, SMU
TestParameter, Channel.Unit, SMU2:HP, SMU1:HP
TestParameter, Channel.IName, I1, I4
TestParameter, Channel.VName, V1, V4
TestParameter, Channel.Mode, V, COMMON
TestParameter, Channel.Func, VAR1, CONST
TestParameter, Channel.Index, 
TestParameter, Channel.Time, 
TestParameter, Measurement.Port.Unit, SMU2:HP, SMU1:HP
TestParameter, Measurement.Port.SeriesResistor, NONE, NONE
TestParameter, Measurement.Port.Filter, ON, ON
TestParameter, Measurement.Port.OutputVoltageComparison, 0, 0
TestParameter, Measurement.Primary.Locus, Single
TestParameter, Measurement.Primary.Scale, LINEAR
TestParameter, Measurement.Primary.Start, -1
TestParameter, Measurement.Primary.Stop, 1
TestParameter, Measurement.Primary.Step, 0.02
TestParameter, Measurement.Primary.Compliance, 0.01
TestParameter, Measurement.Primary.PowerCompliance, 0
TestParameter, Measurement.Aborting.Condition, CONTINUE AT ANY
TestParameter, Measurement.PostOutput.Value, START
TestParameter, Measurement.PostOutput.Retention, OFF
TestParameter, Measurement.Bias.Source, -1, 0
TestParameter, Measurement.Bias.Compliance, 0.01, 1
TestParameter, Measurement.Monitor.Unit, SMU2:HP, SMU1:HP
TestParameter, Measurement.Monitor.Adc, HR ADC, HR ADC
TestParameter, Measurement.Monitor.Measurement, Compliance Side, Compliance Side
TestParameter, Measurement.Monitor.RangingMode, AUTO, AUTO
TestParameter, Measurement.Monitor.RangeBoundary, , 
TestParameter, Measurement.Monitor.RangeRating, BY FULL RANGE, BY FULL RANGE
TestParameter, Measurement.Monitor.RangeRatingCoeff, 50, 50
TestParameter, Measurement.Timing.Hold, 0
TestParameter, Measurement.Timing.Delay, 0.001
TestParameter, Measurement.Adc.HighSpeed.Mode, AUTO
TestParameter, Measurement.Adc.HighSpeed.Coeff, 1
TestParameter, Measurement.Adc.HighResolution.AutoZero, OFF
TestParameter, Measurement.Adc.HighResolution.Mode, PLC
TestParameter, Measurement.Adc.HighResolution.Coeff, 1
TestParameter, Measurement.WaitTime.Source.Coeff, 1
TestParameter, Measurement.WaitTime.Source.Offset, 0
TestParameter, Measurement.WaitTime.Monitor.Coeff, 1
TestParameter, Measurement.WaitTime.Monitor.Offset, 0
TestParameter, Function.User.Name, Ohmic
TestParameter, Function.User.Unit, ohm
TestParameter, Function.User.Definition, avg(V1/I1)
TestParameter, Output.Graph.Enabled, true
TestParameter, Output.Graph.XAxis.Data, V1
TestParameter, Output.Graph.XAxis.Scale, Linear
TestParameter, Output.Graph.XAxis.Left, -5
TestParameter, Output.Graph.XAxis.Right, 5
TestParameter, Output.Graph.YAxis.Data, I1
TestParameter, Output.Graph.YAxis.Scale, Linear
TestParameter, Output.Graph.YAxis.Bottom, -0.001
TestParameter, Output.Graph.YAxis.Top, 0.001
TestParameter, Output.Graph.YAxis.Group, 
TestParameter, Output.Scalar.Data, Ohmic
TestParameter, AutoAnalysis.Interpolation, false
TestParameter, AutoAnalysis.Line1.Enabled, false
TestParameter, AutoAnalysis.Line1.Type, 1
TestParameter, AutoAnalysis.Line1.Fix, True
TestParameter, AutoAnalysis.Line1.YAxis, 0
TestParameter, AutoAnalysis.Line1.Point1.Type, 0
TestParameter, AutoAnalysis.Line1.Point1.XY.X, 
TestParameter, AutoAnalysis.Line1.Point1.XY.Y, 
TestParameter, AutoAnalysis.Line1.Point1.Data.Var, 
TestParameter, AutoAnalysis.Line1.Point1.Data.Condition, 
TestParameter, AutoAnalysis.Line1.Point1.Data.Start, false
TestParameter, AutoAnalysis.Line1.Point1.Data.StartVar, 
TestParameter, AutoAnalysis.Line1.Point1.Data.StartCondition, 
TestParameter, AutoAnalysis.Line1.Point2.Type, 0
TestParameter, AutoAnalysis.Line1.Point2.XY.X, 
TestParameter, AutoAnalysis.Line1.Point2.XY.Y, 
TestParameter, AutoAnalysis.Line1.Point2.Data.Var, 
TestParameter, AutoAnalysis.Line1.Point2.Data.Condition, 
TestParameter, AutoAnalysis.Line1.Point2.Data.Start, false
TestParameter, AutoAnalysis.Line1.Point2.Data.StartVar, 
TestParameter, AutoAnalysis.Line1.Point2.Data.StartCondition, 
TestParameter, AutoAnalysis.Line1.GradientExpr, 0
TestParameter, AutoAnalysis.Line2.Enabled, false
TestParameter, AutoAnalysis.Line2.Type, 1
TestParameter, AutoAnalysis.Line2.Fix, True
TestParameter, AutoAnalysis.Line2.YAxis, 0
TestParameter, AutoAnalysis.Line2.Point1.Type, 0
TestParameter, AutoAnalysis.Line2.Point1.XY.X, 
TestParameter, AutoAnalysis.Line2.Point1.XY.Y, 
TestParameter, AutoAnalysis.Line2.Point1.Data.Var, 
TestParameter, AutoAnalysis.Line2.Point1.Data.Condition, 
TestParameter, AutoAnalysis.Line2.Point1.Data.Start, false
TestParameter, AutoAnalysis.Line2.Point1.Data.StartVar, 
TestParameter, AutoAnalysis.Line2.Point1.Data.StartCondition, 
TestParameter, AutoAnalysis.Line2.Point2.Type, 0
TestParameter, AutoAnalysis.Line2.Point2.XY.X, 
TestParameter, AutoAnalysis.Line2.Point2.XY.Y, 
TestParameter, AutoAnalysis.Line2.Point2.Data.Var, 
TestParameter, AutoAnalysis.Line2.Point2.Data.Condition, 
TestParameter, AutoAnalysis.Line2.Point2.Data.Start, false
TestParameter, AutoAnalysis.Line2.Point2.Data.StartVar, 
TestParameter, AutoAnalysis.Line2.Point2.Data.StartCondition, 
TestParameter, AutoAnalysis.Line2.GradientExpr, 0
TestParameter, AutoAnalysis.Marker.Enabled, false
TestParameter, AutoAnalysis.Marker.Data.Var, 
TestParameter, AutoAnalysis.Marker.Data.Condition, 
TestParameter, AutoAnalysis.Marker.Data.Start, false
TestParameter, AutoAnalysis.Marker.Data.StartVar, 
TestParameter, AutoAnalysis.Marker.Data.StartCondition, 
MetaData, TestRecord.EntryPoint, true
MetaData, TestRecord.RecordTime, 01/18/2020 17:05:18
MetaData, TestRecord.TestTarget, 
MetaData, TestRecord.IterationIndex, 64
MetaData, TestRecord.Preservation, true
MetaData, TestRecord.Flag, 
MetaData, TestRecord.Remarks, 
MetaData, TestRecord.LinkKey, df2bb3b3-b8ae-4187-b529-a2c299a2a1f5
Dimension1, 101, 101, 101
Dimension2, 1, 1, 1
DataName, V1, I1, Ohmic
DataValue, -1, -9.114E-11, 46409972999.095924
DataValue, -0.98000000000000009, -7.903E-11, 
DataValue, -0.96000000000000008, -6.497E-11, 
DataValue, -0.94000000000000006, -6.99E-11, 
DataValue, -0.92, -6.733E-11, 
DataValue, -0.9, -6.196E-11, 
DataValue, -0.88, -5.042E-11, 
DataValue, -0.86, -4.098E-11, 
DataValue, -0.84000000000000008, -5.095E-11, 
DataValue, -0.82000000000000006, -7.733E-11, 
DataValue, -0.8, -5.844E-11, 
DataValue, -0.78, -5.355E-11, 
DataValue, -0.76, -5.099E-11, 
DataValue, -0.74, -4.192E-11, 
DataValue, -0.72000000000000008, -4.169E-11, 
DataValue, -0.70000000000000007, -3.377E-11, 
DataValue, -0.68, -3.789E-11, 
DataValue, -0.66, -1.588E-11, 
DataValue, -0.64, -3.395E-11, 
DataValue, -0.62, -1.489E-11, 
DataValue, -0.6, -2.284E-11, 
DataValue, -0.58000000000000007, -2.714E-11, 
DataValue, -0.56, -2.399E-11, 
DataValue, -0.54, -4.083E-11, 
DataValue, -0.52, -2.085E-11, 
DataValue, -0.5, -2.675E-11, 
DataValue, -0.48000000000000004, -1.578E-11, 
DataValue, -0.46, -3.005E-11, 
DataValue, -0.44, -1.186E-11, 
DataValue, -0.42000000000000004, -1.14E-12, 
DataValue, -0.4, -5.22E-12, 
DataValue, -0.38, -1.776E-11, 
DataValue, -0.36000000000000004, -7.67E-12, 
DataValue, -0.34, -1.333E-11, 
DataValue, -0.32, -7.2E-13, 
DataValue, -0.3, -8.92E-12, 
DataValue, -0.28, -2E-12, 
DataValue, -0.26, -7.73E-12, 
DataValue, -0.24000000000000002, -4.3E-13, 
DataValue, -0.22, -2.29E-12, 
DataValue, -0.2, -2.21E-12, 
DataValue, -0.18000000000000002, 2.36E-12, 
DataValue, -0.16, -7E-14, 
DataValue, -0.14, -9.38E-12, 
DataValue, -0.12000000000000001, 6.32E-12, 
DataValue, -0.1, 1.26E-12, 
DataValue, -0.08, 1.063E-11, 
DataValue, -0.060000000000000005, 1.919E-11, 
DataValue, -0.04, 3.692E-11, 
DataValue, -0.02, 5.209E-11, 
DataValue, 0, 8.721E-11, 
DataValue, 0.02, 1.1756E-10, 
DataValue, 0.04, 1.4514E-10, 
DataValue, 0.060000000000000005, 1.7438E-10, 
DataValue, 0.08, 2.0019E-10, 
DataValue, 0.1, 2.0808E-10, 
DataValue, 0.12000000000000001, 2.2844E-10, 
DataValue, 0.14, 2.3089E-10, 
DataValue, 0.16, 2.3411E-10, 
DataValue, 0.18000000000000002, 2.5834E-10, 
DataValue, 0.2, 2.8424E-10, 
DataValue, 0.22, 2.7497E-10, 
DataValue, 0.24000000000000002, 2.9317E-10, 
DataValue, 0.26, 2.982E-10, 
DataValue, 0.28, 3.1541E-10, 
DataValue, 0.3, 3.216E-10, 
DataValue, 0.32, 3.4309E-10, 
DataValue, 0.34, 2.9717E-10, 
DataValue, 0.36000000000000004, 2.9491E-10, 
DataValue, 0.38, 3.1163E-10, 
DataValue, 0.4, 3.2153E-10, 
DataValue, 0.42000000000000004, 3.1906E-10, 
DataValue, 0.44, 3.3054E-10, 
DataValue, 0.46, 3.459E-10, 
DataValue, 0.48000000000000004, 3.6247E-10, 
DataValue, 0.5, 3.59E-10, 
DataValue, 0.52, 3.5773E-10, 
DataValue, 0.54, 3.7099E-10, 
DataValue, 0.56, 3.8044E-10, 
DataValue, 0.58000000000000007, 3.9304E-10, 
DataValue, 0.6, 4.163E-10, 
DataValue, 0.62, 4.1383E-10, 
DataValue, 0.64, 4.2618E-10, 
DataValue, 0.66, 4.3543E-10, 
DataValue, 0.68, 4.2976E-10, 
DataValue, 0.70000000000000007, 4.4401E-10, 
DataValue, 0.72000000000000008, 4.5669E-10, 
DataValue, 0.74, 4.5975E-10, 
DataValue, 0.76, 4.7164E-10, 
DataValue, 0.78, 4.6985E-10, 
DataValue, 0.8, 4.8242E-10, 
DataValue, 0.82000000000000006, 4.8564E-10, 
DataValue, 0.84000000000000008, 5.094E-10, 
DataValue, 0.86, 4.7494E-10, 
DataValue, 0.88, 4.8571E-10, 
DataValue, 0.9, 4.6501E-10, 
DataValue, 0.92, 4.8696E-10, 
DataValue, 0.94000000000000006, 4.7805E-10, 
DataValue, 0.96000000000000008, 4.8758E-10, 
DataValue, 0.98000000000000009, 5.0022E-10, 
DataValue, 1, 5.0192E-10, 