
SetupTitle, WW
PrimitiveTest, I/V Sweep
TestParameter, Context.MainFrame, B1500A
TestParameter, Channel.UnitType, SMU, SMU
TestParameter, Channel.Unit, SMU2:HP, SMU1:HP
TestParameter, Channel.IName, I1, I4
TestParameter, Channel.VName, V1, V4
TestParameter, Channel.Mode, V, COMMON
TestParameter, Channel.Func, VAR1, CONST
TestParameter, Channel.Index, 
TestParameter, Channel.Time, 
TestParameter, Measurement.Port.Unit, SMU2:HP, SMU1:HP
TestParameter, Measurement.Port.SeriesResistor, NONE, NONE
TestParameter, Measurement.Port.Filter, ON, ON
TestParameter, Measurement.Port.OutputVoltageComparison, 0, 0
TestParameter, Measurement.Primary.Locus, Single
TestParameter, Measurement.Primary.Scale, LINEAR
TestParameter, Measurement.Primary.Start, -1
TestParameter, Measurement.Primary.Stop, 1
TestParameter, Measurement.Primary.Step, 0.02
TestParameter, Measurement.Primary.Compliance, 0.01
TestParameter, Measurement.Primary.PowerCompliance, 0
TestParameter, Measurement.Aborting.Condition, CONTINUE AT ANY
TestParameter, Measurement.PostOutput.Value, START
TestParameter, Measurement.PostOutput.Retention, OFF
TestParameter, Measurement.Bias.Source, -1, 0
TestParameter, Measurement.Bias.Compliance, 0.01, 1
TestParameter, Measurement.Monitor.Unit, SMU2:HP, SMU1:HP
TestParameter, Measurement.Monitor.Adc, HR ADC, HR ADC
TestParameter, Measurement.Monitor.Measurement, Compliance Side, Compliance Side
TestParameter, Measurement.Monitor.RangingMode, AUTO, AUTO
TestParameter, Measurement.Monitor.RangeBoundary, , 
TestParameter, Measurement.Monitor.RangeRating, BY FULL RANGE, BY FULL RANGE
TestParameter, Measurement.Monitor.RangeRatingCoeff, 50, 50
TestParameter, Measurement.Timing.Hold, 0
TestParameter, Measurement.Timing.Delay, 0.001
TestParameter, Measurement.Adc.HighSpeed.Mode, AUTO
TestParameter, Measurement.Adc.HighSpeed.Coeff, 1
TestParameter, Measurement.Adc.HighResolution.AutoZero, OFF
TestParameter, Measurement.Adc.HighResolution.Mode, PLC
TestParameter, Measurement.Adc.HighResolution.Coeff, 1
TestParameter, Measurement.WaitTime.Source.Coeff, 1
TestParameter, Measurement.WaitTime.Source.Offset, 0
TestParameter, Measurement.WaitTime.Monitor.Coeff, 1
TestParameter, Measurement.WaitTime.Monitor.Offset, 0
TestParameter, Function.User.Name, Ohmic
TestParameter, Function.User.Unit, ohm
TestParameter, Function.User.Definition, avg(V1/I1)
TestParameter, Output.Graph.Enabled, true
TestParameter, Output.Graph.XAxis.Data, V1
TestParameter, Output.Graph.XAxis.Scale, Linear
TestParameter, Output.Graph.XAxis.Left, -5
TestParameter, Output.Graph.XAxis.Right, 5
TestParameter, Output.Graph.YAxis.Data, I1
TestParameter, Output.Graph.YAxis.Scale, Linear
TestParameter, Output.Graph.YAxis.Bottom, -0.001
TestParameter, Output.Graph.YAxis.Top, 0.001
TestParameter, Output.Graph.YAxis.Group, 
TestParameter, Output.Scalar.Data, Ohmic
TestParameter, AutoAnalysis.Interpolation, false
TestParameter, AutoAnalysis.Line1.Enabled, false
TestParameter, AutoAnalysis.Line1.Type, 1
TestParameter, AutoAnalysis.Line1.Fix, True
TestParameter, AutoAnalysis.Line1.YAxis, 0
TestParameter, AutoAnalysis.Line1.Point1.Type, 0
TestParameter, AutoAnalysis.Line1.Point1.XY.X, 
TestParameter, AutoAnalysis.Line1.Point1.XY.Y, 
TestParameter, AutoAnalysis.Line1.Point1.Data.Var, 
TestParameter, AutoAnalysis.Line1.Point1.Data.Condition, 
TestParameter, AutoAnalysis.Line1.Point1.Data.Start, false
TestParameter, AutoAnalysis.Line1.Point1.Data.StartVar, 
TestParameter, AutoAnalysis.Line1.Point1.Data.StartCondition, 
TestParameter, AutoAnalysis.Line1.Point2.Type, 0
TestParameter, AutoAnalysis.Line1.Point2.XY.X, 
TestParameter, AutoAnalysis.Line1.Point2.XY.Y, 
TestParameter, AutoAnalysis.Line1.Point2.Data.Var, 
TestParameter, AutoAnalysis.Line1.Point2.Data.Condition, 
TestParameter, AutoAnalysis.Line1.Point2.Data.Start, false
TestParameter, AutoAnalysis.Line1.Point2.Data.StartVar, 
TestParameter, AutoAnalysis.Line1.Point2.Data.StartCondition, 
TestParameter, AutoAnalysis.Line1.GradientExpr, 0
TestParameter, AutoAnalysis.Line2.Enabled, false
TestParameter, AutoAnalysis.Line2.Type, 1
TestParameter, AutoAnalysis.Line2.Fix, True
TestParameter, AutoAnalysis.Line2.YAxis, 0
TestParameter, AutoAnalysis.Line2.Point1.Type, 0
TestParameter, AutoAnalysis.Line2.Point1.XY.X, 
TestParameter, AutoAnalysis.Line2.Point1.XY.Y, 
TestParameter, AutoAnalysis.Line2.Point1.Data.Var, 
TestParameter, AutoAnalysis.Line2.Point1.Data.Condition, 
TestParameter, AutoAnalysis.Line2.Point1.Data.Start, false
TestParameter, AutoAnalysis.Line2.Point1.Data.StartVar, 
TestParameter, AutoAnalysis.Line2.Point1.Data.StartCondition, 
TestParameter, AutoAnalysis.Line2.Point2.Type, 0
TestParameter, AutoAnalysis.Line2.Point2.XY.X, 
TestParameter, AutoAnalysis.Line2.Point2.XY.Y, 
TestParameter, AutoAnalysis.Line2.Point2.Data.Var, 
TestParameter, AutoAnalysis.Line2.Point2.Data.Condition, 
TestParameter, AutoAnalysis.Line2.Point2.Data.Start, false
TestParameter, AutoAnalysis.Line2.Point2.Data.StartVar, 
TestParameter, AutoAnalysis.Line2.Point2.Data.StartCondition, 
TestParameter, AutoAnalysis.Line2.GradientExpr, 0
TestParameter, AutoAnalysis.Marker.Enabled, false
TestParameter, AutoAnalysis.Marker.Data.Var, 
TestParameter, AutoAnalysis.Marker.Data.Condition, 
TestParameter, AutoAnalysis.Marker.Data.Start, false
TestParameter, AutoAnalysis.Marker.Data.StartVar, 
TestParameter, AutoAnalysis.Marker.Data.StartCondition, 
MetaData, TestRecord.EntryPoint, true
MetaData, TestRecord.RecordTime, 01/18/2020 17:04:19
MetaData, TestRecord.TestTarget, 
MetaData, TestRecord.IterationIndex, 62
MetaData, TestRecord.Preservation, true
MetaData, TestRecord.Flag, 
MetaData, TestRecord.Remarks, 
MetaData, TestRecord.LinkKey, 14256960-12f8-4609-af66-99e4536d062f
Dimension1, 101, 101, 101
Dimension2, 1, 1, 1
DataName, V1, I1, Ohmic
DataValue, -1, -6.995E-11, 6976759155.2212992
DataValue, -0.98000000000000009, -5.631E-11, 
DataValue, -0.96000000000000008, -5.088E-11, 
DataValue, -0.94000000000000006, -5.455E-11, 
DataValue, -0.92, -4.653E-11, 
DataValue, -0.9, -4.124E-11, 
DataValue, -0.88, -3.745E-11, 
DataValue, -0.86, -3.998E-11, 
DataValue, -0.84000000000000008, -4.099E-11, 
DataValue, -0.82000000000000006, -3.719E-11, 
DataValue, -0.8, -3.722E-11, 
DataValue, -0.78, -3.065E-11, 
DataValue, -0.76, -2.811E-11, 
DataValue, -0.74, -2.333E-11, 
DataValue, -0.72000000000000008, -1.621E-11, 
DataValue, -0.70000000000000007, -2.727E-11, 
DataValue, -0.68, -2.362E-11, 
DataValue, -0.66, -2.095E-11, 
DataValue, -0.64, -1.374E-11, 
DataValue, -0.62, -1.771E-11, 
DataValue, -0.6, -1.254E-11, 
DataValue, -0.58000000000000007, -1.678E-11, 
DataValue, -0.56, -1.51E-11, 
DataValue, -0.54, -1.593E-11, 
DataValue, -0.52, -1.086E-11, 
DataValue, -0.5, -1.708E-11, 
DataValue, -0.48000000000000004, -1.308E-11, 
DataValue, -0.46, -1.581E-11, 
DataValue, -0.44, -9.42E-12, 
DataValue, -0.42000000000000004, -7.76E-12, 
DataValue, -0.4, -1.61E-12, 
DataValue, -0.38, -7.75E-12, 
DataValue, -0.36000000000000004, -1.322E-11, 
DataValue, -0.34, 1.35E-12, 
DataValue, -0.32, -2.63E-12, 
DataValue, -0.3, -3.66E-12, 
DataValue, -0.28, 6.28E-12, 
DataValue, -0.26, -7.26E-12, 
DataValue, -0.24000000000000002, -9.66E-12, 
DataValue, -0.22, -4.81E-12, 
DataValue, -0.2, 7.3E-13, 
DataValue, -0.18000000000000002, -1.38E-12, 
DataValue, -0.16, 1.067E-11, 
DataValue, -0.14, 3.1E-13, 
DataValue, -0.12000000000000001, -2.54E-12, 
DataValue, -0.1, 3.55E-12, 
DataValue, -0.08, 1.661E-11, 
DataValue, -0.060000000000000005, 3.027E-11, 
DataValue, -0.04, 4.1669999999999997E-11, 
DataValue, -0.02, 7.036E-11, 
DataValue, 0, 1.0457E-10, 
DataValue, 0.02, 1.4324E-10, 
DataValue, 0.04, 1.9485E-10, 
DataValue, 0.060000000000000005, 2.1331E-10, 
DataValue, 0.08, 2.3781E-10, 
DataValue, 0.1, 2.528E-10, 
DataValue, 0.12000000000000001, 2.7733E-10, 
DataValue, 0.14, 2.8311E-10, 
DataValue, 0.16, 2.8097E-10, 
DataValue, 0.18000000000000002, 3.0253E-10, 
DataValue, 0.2, 3.1095E-10, 
DataValue, 0.22, 3.1909E-10, 
DataValue, 0.24000000000000002, 3.3338E-10, 
DataValue, 0.26, 3.2913E-10, 
DataValue, 0.28, 3.7499E-10, 
DataValue, 0.3, 3.7228E-10, 
DataValue, 0.32, 3.767E-10, 
DataValue, 0.34, 3.7313E-10, 
DataValue, 0.36000000000000004, 4.0177E-10, 
DataValue, 0.38, 4.017E-10, 
DataValue, 0.4, 4.1246E-10, 
DataValue, 0.42000000000000004, 4.1164E-10, 
DataValue, 0.44, 4.2646E-10, 
DataValue, 0.46, 4.6193E-10, 
DataValue, 0.48000000000000004, 4.4142E-10, 
DataValue, 0.5, 4.4431E-10, 
DataValue, 0.52, 4.4776E-10, 
DataValue, 0.54, 4.5742E-10, 
DataValue, 0.56, 4.6721E-10, 
DataValue, 0.58000000000000007, 4.7512E-10, 
DataValue, 0.6, 4.6979E-10, 
DataValue, 0.62, 4.8003E-10, 
DataValue, 0.64, 4.9446E-10, 
DataValue, 0.66, 5.0355E-10, 
DataValue, 0.68, 5.0946E-10, 
DataValue, 0.70000000000000007, 5.2503E-10, 
DataValue, 0.72000000000000008, 5.2687E-10, 
DataValue, 0.74, 5.3339E-10, 
DataValue, 0.76, 5.5145E-10, 
DataValue, 0.78, 5.4826E-10, 
DataValue, 0.8, 5.407E-10, 
DataValue, 0.82000000000000006, 5.5177E-10, 
DataValue, 0.84000000000000008, 5.4313E-10, 
DataValue, 0.86, 5.6521E-10, 
DataValue, 0.88, 5.6127999999999995E-10, 
DataValue, 0.9, 5.7276E-10, 
DataValue, 0.92, 5.8336E-10, 
DataValue, 0.94000000000000006, 5.4393E-10, 
DataValue, 0.96000000000000008, 5.4834E-10, 
DataValue, 0.98000000000000009, 5.4696E-10, 
DataValue, 1, 5.5161E-10, 