
SetupTitle, WW
PrimitiveTest, I/V Sweep
TestParameter, Context.MainFrame, B1500A
TestParameter, Channel.UnitType, SMU, SMU
TestParameter, Channel.Unit, SMU2:HP, SMU1:HP
TestParameter, Channel.IName, I1, I4
TestParameter, Channel.VName, V1, V4
TestParameter, Channel.Mode, V, COMMON
TestParameter, Channel.Func, VAR1, CONST
TestParameter, Channel.Index, 
TestParameter, Channel.Time, 
TestParameter, Measurement.Port.Unit, SMU2:HP, SMU1:HP
TestParameter, Measurement.Port.SeriesResistor, NONE, NONE
TestParameter, Measurement.Port.Filter, ON, ON
TestParameter, Measurement.Port.OutputVoltageComparison, 0, 0
TestParameter, Measurement.Primary.Locus, Single
TestParameter, Measurement.Primary.Scale, LINEAR
TestParameter, Measurement.Primary.Start, -1
TestParameter, Measurement.Primary.Stop, 1
TestParameter, Measurement.Primary.Step, 0.02
TestParameter, Measurement.Primary.Compliance, 0.01
TestParameter, Measurement.Primary.PowerCompliance, 0
TestParameter, Measurement.Aborting.Condition, CONTINUE AT ANY
TestParameter, Measurement.PostOutput.Value, START
TestParameter, Measurement.PostOutput.Retention, OFF
TestParameter, Measurement.Bias.Source, -1, 0
TestParameter, Measurement.Bias.Compliance, 0.01, 1
TestParameter, Measurement.Monitor.Unit, SMU2:HP, SMU1:HP
TestParameter, Measurement.Monitor.Adc, HR ADC, HR ADC
TestParameter, Measurement.Monitor.Measurement, Compliance Side, Compliance Side
TestParameter, Measurement.Monitor.RangingMode, AUTO, AUTO
TestParameter, Measurement.Monitor.RangeBoundary, , 
TestParameter, Measurement.Monitor.RangeRating, BY FULL RANGE, BY FULL RANGE
TestParameter, Measurement.Monitor.RangeRatingCoeff, 50, 50
TestParameter, Measurement.Timing.Hold, 0
TestParameter, Measurement.Timing.Delay, 0.001
TestParameter, Measurement.Adc.HighSpeed.Mode, AUTO
TestParameter, Measurement.Adc.HighSpeed.Coeff, 1
TestParameter, Measurement.Adc.HighResolution.AutoZero, OFF
TestParameter, Measurement.Adc.HighResolution.Mode, PLC
TestParameter, Measurement.Adc.HighResolution.Coeff, 1
TestParameter, Measurement.WaitTime.Source.Coeff, 1
TestParameter, Measurement.WaitTime.Source.Offset, 0
TestParameter, Measurement.WaitTime.Monitor.Coeff, 1
TestParameter, Measurement.WaitTime.Monitor.Offset, 0
TestParameter, Function.User.Name, Ohmic
TestParameter, Function.User.Unit, ohm
TestParameter, Function.User.Definition, avg(V1/I1)
TestParameter, Output.Graph.Enabled, true
TestParameter, Output.Graph.XAxis.Data, V1
TestParameter, Output.Graph.XAxis.Scale, Linear
TestParameter, Output.Graph.XAxis.Left, -5
TestParameter, Output.Graph.XAxis.Right, 5
TestParameter, Output.Graph.YAxis.Data, I1
TestParameter, Output.Graph.YAxis.Scale, Linear
TestParameter, Output.Graph.YAxis.Bottom, -0.001
TestParameter, Output.Graph.YAxis.Top, 0.001
TestParameter, Output.Graph.YAxis.Group, 
TestParameter, Output.Scalar.Data, Ohmic
TestParameter, AutoAnalysis.Interpolation, false
TestParameter, AutoAnalysis.Line1.Enabled, false
TestParameter, AutoAnalysis.Line1.Type, 1
TestParameter, AutoAnalysis.Line1.Fix, True
TestParameter, AutoAnalysis.Line1.YAxis, 0
TestParameter, AutoAnalysis.Line1.Point1.Type, 0
TestParameter, AutoAnalysis.Line1.Point1.XY.X, 
TestParameter, AutoAnalysis.Line1.Point1.XY.Y, 
TestParameter, AutoAnalysis.Line1.Point1.Data.Var, 
TestParameter, AutoAnalysis.Line1.Point1.Data.Condition, 
TestParameter, AutoAnalysis.Line1.Point1.Data.Start, false
TestParameter, AutoAnalysis.Line1.Point1.Data.StartVar, 
TestParameter, AutoAnalysis.Line1.Point1.Data.StartCondition, 
TestParameter, AutoAnalysis.Line1.Point2.Type, 0
TestParameter, AutoAnalysis.Line1.Point2.XY.X, 
TestParameter, AutoAnalysis.Line1.Point2.XY.Y, 
TestParameter, AutoAnalysis.Line1.Point2.Data.Var, 
TestParameter, AutoAnalysis.Line1.Point2.Data.Condition, 
TestParameter, AutoAnalysis.Line1.Point2.Data.Start, false
TestParameter, AutoAnalysis.Line1.Point2.Data.StartVar, 
TestParameter, AutoAnalysis.Line1.Point2.Data.StartCondition, 
TestParameter, AutoAnalysis.Line1.GradientExpr, 0
TestParameter, AutoAnalysis.Line2.Enabled, false
TestParameter, AutoAnalysis.Line2.Type, 1
TestParameter, AutoAnalysis.Line2.Fix, True
TestParameter, AutoAnalysis.Line2.YAxis, 0
TestParameter, AutoAnalysis.Line2.Point1.Type, 0
TestParameter, AutoAnalysis.Line2.Point1.XY.X, 
TestParameter, AutoAnalysis.Line2.Point1.XY.Y, 
TestParameter, AutoAnalysis.Line2.Point1.Data.Var, 
TestParameter, AutoAnalysis.Line2.Point1.Data.Condition, 
TestParameter, AutoAnalysis.Line2.Point1.Data.Start, false
TestParameter, AutoAnalysis.Line2.Point1.Data.StartVar, 
TestParameter, AutoAnalysis.Line2.Point1.Data.StartCondition, 
TestParameter, AutoAnalysis.Line2.Point2.Type, 0
TestParameter, AutoAnalysis.Line2.Point2.XY.X, 
TestParameter, AutoAnalysis.Line2.Point2.XY.Y, 
TestParameter, AutoAnalysis.Line2.Point2.Data.Var, 
TestParameter, AutoAnalysis.Line2.Point2.Data.Condition, 
TestParameter, AutoAnalysis.Line2.Point2.Data.Start, false
TestParameter, AutoAnalysis.Line2.Point2.Data.StartVar, 
TestParameter, AutoAnalysis.Line2.Point2.Data.StartCondition, 
TestParameter, AutoAnalysis.Line2.GradientExpr, 0
TestParameter, AutoAnalysis.Marker.Enabled, false
TestParameter, AutoAnalysis.Marker.Data.Var, 
TestParameter, AutoAnalysis.Marker.Data.Condition, 
TestParameter, AutoAnalysis.Marker.Data.Start, false
TestParameter, AutoAnalysis.Marker.Data.StartVar, 
TestParameter, AutoAnalysis.Marker.Data.StartCondition, 
MetaData, TestRecord.EntryPoint, true
MetaData, TestRecord.RecordTime, 01/18/2020 17:03:09
MetaData, TestRecord.TestTarget, 
MetaData, TestRecord.IterationIndex, 60
MetaData, TestRecord.Preservation, true
MetaData, TestRecord.Flag, 
MetaData, TestRecord.Remarks, 
MetaData, TestRecord.LinkKey, 59191e67-2641-402c-972b-f6930f3903bb
Dimension1, 101, 101, 101
Dimension2, 1, 1, 1
DataName, V1, I1, Ohmic
DataValue, -1, -8.976E-11, -11301202761.443335
DataValue, -0.98000000000000009, -7.911E-11, 
DataValue, -0.96000000000000008, -6.305E-11, 
DataValue, -0.94000000000000006, -6.612E-11, 
DataValue, -0.92, -5.8E-11, 
DataValue, -0.9, -5.95E-11, 
DataValue, -0.88, -5.731E-11, 
DataValue, -0.86, -5.227E-11, 
DataValue, -0.84000000000000008, -4.699E-11, 
DataValue, -0.82000000000000006, -5.026E-11, 
DataValue, -0.8, -4.412E-11, 
DataValue, -0.78, -4.418E-11, 
DataValue, -0.76, -3.077E-11, 
DataValue, -0.74, -3.396E-11, 
DataValue, -0.72000000000000008, -3.038E-11, 
DataValue, -0.70000000000000007, -3.562E-11, 
DataValue, -0.68, -2.654E-11, 
DataValue, -0.66, -2.747E-11, 
DataValue, -0.64, -2.09E-11, 
DataValue, -0.62, -1.61E-11, 
DataValue, -0.6, -8.78E-12, 
DataValue, -0.58000000000000007, -1.846E-11, 
DataValue, -0.56, -7.77E-12, 
DataValue, -0.54, -1.459E-11, 
DataValue, -0.52, -1.261E-11, 
DataValue, -0.5, -1.528E-11, 
DataValue, -0.48000000000000004, -1.928E-11, 
DataValue, -0.46, -7.11E-12, 
DataValue, -0.44, -6.08E-12, 
DataValue, -0.42000000000000004, -1.421E-11, 
DataValue, -0.4, 5.96E-12, 
DataValue, -0.38, -1.233E-11, 
DataValue, -0.36000000000000004, 2.01E-12, 
DataValue, -0.34, -3.72E-12, 
DataValue, -0.32, 3.3E-13, 
DataValue, -0.3, -5.96E-12, 
DataValue, -0.28, 6.97E-12, 
DataValue, -0.26, -3.3E-13, 
DataValue, -0.24000000000000002, -1.142E-11, 
DataValue, -0.22, 1.3E-13, 
DataValue, -0.2, -1.051E-11, 
DataValue, -0.18000000000000002, 7.35E-12, 
DataValue, -0.16, 5.5E-12, 
DataValue, -0.14, 3.47E-12, 
DataValue, -0.12000000000000001, 1.326E-11, 
DataValue, -0.1, 7.9E-12, 
DataValue, -0.08, 9.34E-12, 
DataValue, -0.060000000000000005, 1.926E-11, 
DataValue, -0.04, 3.856E-11, 
DataValue, -0.02, 5.725E-11, 
DataValue, 0, 8.892E-11, 
DataValue, 0.02, 1.1491E-10, 
DataValue, 0.04, 1.3969E-10, 
DataValue, 0.060000000000000005, 1.5923E-10, 
DataValue, 0.08, 1.9755E-10, 
DataValue, 0.1, 2.0229E-10, 
DataValue, 0.12000000000000001, 2.1595E-10, 
DataValue, 0.14, 1.9729E-10, 
DataValue, 0.16, 2.1514E-10, 
DataValue, 0.18000000000000002, 2.1385E-10, 
DataValue, 0.2, 2.179E-10, 
DataValue, 0.22, 2.2578E-10, 
DataValue, 0.24000000000000002, 2.4818E-10, 
DataValue, 0.26, 2.6327E-10, 
DataValue, 0.28, 2.567E-10, 
DataValue, 0.3, 2.6324E-10, 
DataValue, 0.32, 2.7303E-10, 
DataValue, 0.34, 2.8438E-10, 
DataValue, 0.36000000000000004, 2.7653E-10, 
DataValue, 0.38, 2.8509E-10, 
DataValue, 0.4, 3.0831E-10, 
DataValue, 0.42000000000000004, 3.1748E-10, 
DataValue, 0.44, 3.2342E-10, 
DataValue, 0.46, 3.2421E-10, 
DataValue, 0.48000000000000004, 3.3874E-10, 
DataValue, 0.5, 3.3837E-10, 
DataValue, 0.52, 3.6072E-10, 
DataValue, 0.54, 3.5839E-10, 
DataValue, 0.56, 3.8286E-10, 
DataValue, 0.58000000000000007, 3.8133E-10, 
DataValue, 0.6, 3.8915E-10, 
DataValue, 0.62, 4.1082E-10, 
DataValue, 0.64, 3.9153E-10, 
DataValue, 0.66, 4.0689E-10, 
DataValue, 0.68, 4.2286E-10, 
DataValue, 0.70000000000000007, 4.3129E-10, 
DataValue, 0.72000000000000008, 4.1633E-10, 
DataValue, 0.74, 4.2475E-10, 
DataValue, 0.76, 4.3474E-10, 
DataValue, 0.78, 4.5883E-10, 
DataValue, 0.8, 4.4573E-10, 
DataValue, 0.82000000000000006, 4.7313E-10, 
DataValue, 0.84000000000000008, 4.8051E-10, 
DataValue, 0.86, 4.7719E-10, 
DataValue, 0.88, 5.0304E-10, 
DataValue, 0.9, 4.8518E-10, 
DataValue, 0.92, 4.9859E-10, 
DataValue, 0.94000000000000006, 5.0246E-10, 
DataValue, 0.96000000000000008, 5.0824E-10, 
DataValue, 0.98000000000000009, 5.0126E-10, 
DataValue, 1, 5.2103E-10, 