
SetupTitle, WW
PrimitiveTest, I/V Sweep
TestParameter, Context.MainFrame, B1500A
TestParameter, Channel.UnitType, SMU, SMU
TestParameter, Channel.Unit, SMU2:HP, SMU1:HP
TestParameter, Channel.IName, I1, I4
TestParameter, Channel.VName, V1, V4
TestParameter, Channel.Mode, V, COMMON
TestParameter, Channel.Func, VAR1, CONST
TestParameter, Channel.Index, 
TestParameter, Channel.Time, 
TestParameter, Measurement.Port.Unit, SMU2:HP, SMU1:HP
TestParameter, Measurement.Port.SeriesResistor, NONE, NONE
TestParameter, Measurement.Port.Filter, ON, ON
TestParameter, Measurement.Port.OutputVoltageComparison, 0, 0
TestParameter, Measurement.Primary.Locus, Single
TestParameter, Measurement.Primary.Scale, LINEAR
TestParameter, Measurement.Primary.Start, -1
TestParameter, Measurement.Primary.Stop, 1
TestParameter, Measurement.Primary.Step, 0.02
TestParameter, Measurement.Primary.Compliance, 0.01
TestParameter, Measurement.Primary.PowerCompliance, 0
TestParameter, Measurement.Aborting.Condition, CONTINUE AT ANY
TestParameter, Measurement.PostOutput.Value, START
TestParameter, Measurement.PostOutput.Retention, OFF
TestParameter, Measurement.Bias.Source, -1, 0
TestParameter, Measurement.Bias.Compliance, 0.01, 1
TestParameter, Measurement.Monitor.Unit, SMU2:HP, SMU1:HP
TestParameter, Measurement.Monitor.Adc, HR ADC, HR ADC
TestParameter, Measurement.Monitor.Measurement, Compliance Side, Compliance Side
TestParameter, Measurement.Monitor.RangingMode, AUTO, AUTO
TestParameter, Measurement.Monitor.RangeBoundary, , 
TestParameter, Measurement.Monitor.RangeRating, BY FULL RANGE, BY FULL RANGE
TestParameter, Measurement.Monitor.RangeRatingCoeff, 50, 50
TestParameter, Measurement.Timing.Hold, 0
TestParameter, Measurement.Timing.Delay, 0.001
TestParameter, Measurement.Adc.HighSpeed.Mode, AUTO
TestParameter, Measurement.Adc.HighSpeed.Coeff, 1
TestParameter, Measurement.Adc.HighResolution.AutoZero, OFF
TestParameter, Measurement.Adc.HighResolution.Mode, PLC
TestParameter, Measurement.Adc.HighResolution.Coeff, 1
TestParameter, Measurement.WaitTime.Source.Coeff, 1
TestParameter, Measurement.WaitTime.Source.Offset, 0
TestParameter, Measurement.WaitTime.Monitor.Coeff, 1
TestParameter, Measurement.WaitTime.Monitor.Offset, 0
TestParameter, Function.User.Name, Ohmic
TestParameter, Function.User.Unit, ohm
TestParameter, Function.User.Definition, avg(V1/I1)
TestParameter, Output.Graph.Enabled, true
TestParameter, Output.Graph.XAxis.Data, V1
TestParameter, Output.Graph.XAxis.Scale, Linear
TestParameter, Output.Graph.XAxis.Left, -5
TestParameter, Output.Graph.XAxis.Right, 5
TestParameter, Output.Graph.YAxis.Data, I1
TestParameter, Output.Graph.YAxis.Scale, Linear
TestParameter, Output.Graph.YAxis.Bottom, -0.001
TestParameter, Output.Graph.YAxis.Top, 0.001
TestParameter, Output.Graph.YAxis.Group, 
TestParameter, Output.Scalar.Data, Ohmic
TestParameter, AutoAnalysis.Interpolation, false
TestParameter, AutoAnalysis.Line1.Enabled, false
TestParameter, AutoAnalysis.Line1.Type, 1
TestParameter, AutoAnalysis.Line1.Fix, True
TestParameter, AutoAnalysis.Line1.YAxis, 0
TestParameter, AutoAnalysis.Line1.Point1.Type, 0
TestParameter, AutoAnalysis.Line1.Point1.XY.X, 
TestParameter, AutoAnalysis.Line1.Point1.XY.Y, 
TestParameter, AutoAnalysis.Line1.Point1.Data.Var, 
TestParameter, AutoAnalysis.Line1.Point1.Data.Condition, 
TestParameter, AutoAnalysis.Line1.Point1.Data.Start, false
TestParameter, AutoAnalysis.Line1.Point1.Data.StartVar, 
TestParameter, AutoAnalysis.Line1.Point1.Data.StartCondition, 
TestParameter, AutoAnalysis.Line1.Point2.Type, 0
TestParameter, AutoAnalysis.Line1.Point2.XY.X, 
TestParameter, AutoAnalysis.Line1.Point2.XY.Y, 
TestParameter, AutoAnalysis.Line1.Point2.Data.Var, 
TestParameter, AutoAnalysis.Line1.Point2.Data.Condition, 
TestParameter, AutoAnalysis.Line1.Point2.Data.Start, false
TestParameter, AutoAnalysis.Line1.Point2.Data.StartVar, 
TestParameter, AutoAnalysis.Line1.Point2.Data.StartCondition, 
TestParameter, AutoAnalysis.Line1.GradientExpr, 0
TestParameter, AutoAnalysis.Line2.Enabled, false
TestParameter, AutoAnalysis.Line2.Type, 1
TestParameter, AutoAnalysis.Line2.Fix, True
TestParameter, AutoAnalysis.Line2.YAxis, 0
TestParameter, AutoAnalysis.Line2.Point1.Type, 0
TestParameter, AutoAnalysis.Line2.Point1.XY.X, 
TestParameter, AutoAnalysis.Line2.Point1.XY.Y, 
TestParameter, AutoAnalysis.Line2.Point1.Data.Var, 
TestParameter, AutoAnalysis.Line2.Point1.Data.Condition, 
TestParameter, AutoAnalysis.Line2.Point1.Data.Start, false
TestParameter, AutoAnalysis.Line2.Point1.Data.StartVar, 
TestParameter, AutoAnalysis.Line2.Point1.Data.StartCondition, 
TestParameter, AutoAnalysis.Line2.Point2.Type, 0
TestParameter, AutoAnalysis.Line2.Point2.XY.X, 
TestParameter, AutoAnalysis.Line2.Point2.XY.Y, 
TestParameter, AutoAnalysis.Line2.Point2.Data.Var, 
TestParameter, AutoAnalysis.Line2.Point2.Data.Condition, 
TestParameter, AutoAnalysis.Line2.Point2.Data.Start, false
TestParameter, AutoAnalysis.Line2.Point2.Data.StartVar, 
TestParameter, AutoAnalysis.Line2.Point2.Data.StartCondition, 
TestParameter, AutoAnalysis.Line2.GradientExpr, 0
TestParameter, AutoAnalysis.Marker.Enabled, false
TestParameter, AutoAnalysis.Marker.Data.Var, 
TestParameter, AutoAnalysis.Marker.Data.Condition, 
TestParameter, AutoAnalysis.Marker.Data.Start, false
TestParameter, AutoAnalysis.Marker.Data.StartVar, 
TestParameter, AutoAnalysis.Marker.Data.StartCondition, 
MetaData, TestRecord.EntryPoint, true
MetaData, TestRecord.RecordTime, 01/18/2020 17:00:32
MetaData, TestRecord.TestTarget, 
MetaData, TestRecord.IterationIndex, 57
MetaData, TestRecord.Preservation, true
MetaData, TestRecord.Flag, 
MetaData, TestRecord.Remarks, 
MetaData, TestRecord.LinkKey, c282e606-123d-4736-8fc5-fa05cc98ebba
Dimension1, 101, 101, 101
Dimension2, 1, 1, 1
DataName, V1, I1, Ohmic
DataValue, -1, -6.058E-11, 9269298206.3043365
DataValue, -0.98000000000000009, -7.235E-11, 
DataValue, -0.96000000000000008, -5.668E-11, 
DataValue, -0.94000000000000006, -6.691E-11, 
DataValue, -0.92, -6.132E-11, 
DataValue, -0.9, -6.174E-11, 
DataValue, -0.88, -6.526E-11, 
DataValue, -0.86, -5.46E-11, 
DataValue, -0.84000000000000008, -5.005E-11, 
DataValue, -0.82000000000000006, -5.937E-11, 
DataValue, -0.8, -4.338E-11, 
DataValue, -0.78, -4.908E-11, 
DataValue, -0.76, -3.922E-11, 
DataValue, -0.74, -4.779E-11, 
DataValue, -0.72000000000000008, -3.198E-11, 
DataValue, -0.70000000000000007, -3.609E-11, 
DataValue, -0.68, -3.906E-11, 
DataValue, -0.66, -3.752E-11, 
DataValue, -0.64, -2.094E-11, 
DataValue, -0.62, -3.306E-11, 
DataValue, -0.6, -3.066E-11, 
DataValue, -0.58000000000000007, -3.521E-11, 
DataValue, -0.56, -2.627E-11, 
DataValue, -0.54, -2.975E-11, 
DataValue, -0.52, -1.975E-11, 
DataValue, -0.5, -2.61E-11, 
DataValue, -0.48000000000000004, -2.365E-11, 
DataValue, -0.46, -1.837E-11, 
DataValue, -0.44, -1.2419999999999999E-11, 
DataValue, -0.42000000000000004, -1.752E-11, 
DataValue, -0.4, -1.011E-11, 
DataValue, -0.38, -1.746E-11, 
DataValue, -0.36000000000000004, -1.449E-11, 
DataValue, -0.34, -1.388E-11, 
DataValue, -0.32, -1.177E-11, 
DataValue, -0.3, -1.134E-11, 
DataValue, -0.28, -8.13E-12, 
DataValue, -0.26, -8.62E-12, 
DataValue, -0.24000000000000002, -1.368E-11, 
DataValue, -0.22, -7.97E-12, 
DataValue, -0.2, -1.62E-11, 
DataValue, -0.18000000000000002, -1.0189999999999999E-11, 
DataValue, -0.16, 3.87E-12, 
DataValue, -0.14, -5.01E-12, 
DataValue, -0.12000000000000001, 2.53E-12, 
DataValue, -0.1, -1.24E-12, 
DataValue, -0.08, 1.098E-11, 
DataValue, -0.060000000000000005, 1.619E-11, 
DataValue, -0.04, 3.534E-11, 
DataValue, -0.02, 5.895E-11, 
DataValue, 0, 9.531E-11, 
DataValue, 0.02, 1.2161E-10, 
DataValue, 0.04, 1.5405E-10, 
DataValue, 0.060000000000000005, 1.8104E-10, 
DataValue, 0.08, 1.9955E-10, 
DataValue, 0.1, 2.1835E-10, 
DataValue, 0.12000000000000001, 2.3708E-10, 
DataValue, 0.14, 2.3987E-10, 
DataValue, 0.16, 2.4746E-10, 
DataValue, 0.18000000000000002, 2.5643E-10, 
DataValue, 0.2, 2.7045E-10, 
DataValue, 0.22, 2.8388E-10, 
DataValue, 0.24000000000000002, 3.1487E-10, 
DataValue, 0.26, 3.2162E-10, 
DataValue, 0.28, 3.2836E-10, 
DataValue, 0.3, 3.2172E-10, 
DataValue, 0.32, 3.4143E-10, 
DataValue, 0.34, 3.6482E-10, 
DataValue, 0.36000000000000004, 3.6792E-10, 
DataValue, 0.38, 3.8974E-10, 
DataValue, 0.4, 3.8249E-10, 
DataValue, 0.42000000000000004, 3.7996E-10, 
DataValue, 0.44, 4.2237E-10, 
DataValue, 0.46, 4.42E-10, 
DataValue, 0.48000000000000004, 4.4441E-10, 
DataValue, 0.5, 4.5978E-10, 
DataValue, 0.52, 4.5182E-10, 
DataValue, 0.54, 4.8201E-10, 
DataValue, 0.56, 4.7579E-10, 
DataValue, 0.58000000000000007, 4.7028E-10, 
DataValue, 0.6, 4.8813E-10, 
DataValue, 0.62, 5.1061E-10, 
DataValue, 0.64, 5.145E-10, 
DataValue, 0.66, 5.2446E-10, 
DataValue, 0.68, 5.2925E-10, 
DataValue, 0.70000000000000007, 5.2634E-10, 
DataValue, 0.72000000000000008, 5.3663E-10, 
DataValue, 0.74, 5.5427E-10, 
DataValue, 0.76, 5.6203E-10, 
DataValue, 0.78, 5.7345E-10, 
DataValue, 0.8, 5.7007E-10, 
DataValue, 0.82000000000000006, 5.7609E-10, 
DataValue, 0.84000000000000008, 5.8136E-10, 
DataValue, 0.86, 6.0192E-10, 
DataValue, 0.88, 5.9524E-10, 
DataValue, 0.9, 6.2292E-10, 
DataValue, 0.92, 6.0519E-10, 
DataValue, 0.94000000000000006, 6.2292E-10, 
DataValue, 0.96000000000000008, 6.149E-10, 
DataValue, 0.98000000000000009, 6.1176E-10, 
DataValue, 1, 6.3462E-10, 