
SetupTitle, WW
PrimitiveTest, I/V Sweep
TestParameter, Context.MainFrame, B1500A
TestParameter, Channel.UnitType, SMU, SMU
TestParameter, Channel.Unit, SMU2:HP, SMU1:HP
TestParameter, Channel.IName, I1, I4
TestParameter, Channel.VName, V1, V4
TestParameter, Channel.Mode, V, COMMON
TestParameter, Channel.Func, VAR1, CONST
TestParameter, Channel.Index, 
TestParameter, Channel.Time, 
TestParameter, Measurement.Port.Unit, SMU2:HP, SMU1:HP
TestParameter, Measurement.Port.SeriesResistor, NONE, NONE
TestParameter, Measurement.Port.Filter, ON, ON
TestParameter, Measurement.Port.OutputVoltageComparison, 0, 0
TestParameter, Measurement.Primary.Locus, Single
TestParameter, Measurement.Primary.Scale, LINEAR
TestParameter, Measurement.Primary.Start, -1
TestParameter, Measurement.Primary.Stop, 1
TestParameter, Measurement.Primary.Step, 0.02
TestParameter, Measurement.Primary.Compliance, 0.01
TestParameter, Measurement.Primary.PowerCompliance, 0
TestParameter, Measurement.Aborting.Condition, CONTINUE AT ANY
TestParameter, Measurement.PostOutput.Value, START
TestParameter, Measurement.PostOutput.Retention, OFF
TestParameter, Measurement.Bias.Source, -1, 0
TestParameter, Measurement.Bias.Compliance, 0.01, 1
TestParameter, Measurement.Monitor.Unit, SMU2:HP, SMU1:HP
TestParameter, Measurement.Monitor.Adc, HR ADC, HR ADC
TestParameter, Measurement.Monitor.Measurement, Compliance Side, Compliance Side
TestParameter, Measurement.Monitor.RangingMode, AUTO, AUTO
TestParameter, Measurement.Monitor.RangeBoundary, , 
TestParameter, Measurement.Monitor.RangeRating, BY FULL RANGE, BY FULL RANGE
TestParameter, Measurement.Monitor.RangeRatingCoeff, 50, 50
TestParameter, Measurement.Timing.Hold, 0
TestParameter, Measurement.Timing.Delay, 0.001
TestParameter, Measurement.Adc.HighSpeed.Mode, AUTO
TestParameter, Measurement.Adc.HighSpeed.Coeff, 1
TestParameter, Measurement.Adc.HighResolution.AutoZero, OFF
TestParameter, Measurement.Adc.HighResolution.Mode, PLC
TestParameter, Measurement.Adc.HighResolution.Coeff, 1
TestParameter, Measurement.WaitTime.Source.Coeff, 1
TestParameter, Measurement.WaitTime.Source.Offset, 0
TestParameter, Measurement.WaitTime.Monitor.Coeff, 1
TestParameter, Measurement.WaitTime.Monitor.Offset, 0
TestParameter, Function.User.Name, Ohmic
TestParameter, Function.User.Unit, ohm
TestParameter, Function.User.Definition, avg(V1/I1)
TestParameter, Output.Graph.Enabled, true
TestParameter, Output.Graph.XAxis.Data, V1
TestParameter, Output.Graph.XAxis.Scale, Linear
TestParameter, Output.Graph.XAxis.Left, -5
TestParameter, Output.Graph.XAxis.Right, 5
TestParameter, Output.Graph.YAxis.Data, I1
TestParameter, Output.Graph.YAxis.Scale, Linear
TestParameter, Output.Graph.YAxis.Bottom, -0.001
TestParameter, Output.Graph.YAxis.Top, 0.001
TestParameter, Output.Graph.YAxis.Group, 
TestParameter, Output.Scalar.Data, Ohmic
TestParameter, AutoAnalysis.Interpolation, false
TestParameter, AutoAnalysis.Line1.Enabled, false
TestParameter, AutoAnalysis.Line1.Type, 1
TestParameter, AutoAnalysis.Line1.Fix, True
TestParameter, AutoAnalysis.Line1.YAxis, 0
TestParameter, AutoAnalysis.Line1.Point1.Type, 0
TestParameter, AutoAnalysis.Line1.Point1.XY.X, 
TestParameter, AutoAnalysis.Line1.Point1.XY.Y, 
TestParameter, AutoAnalysis.Line1.Point1.Data.Var, 
TestParameter, AutoAnalysis.Line1.Point1.Data.Condition, 
TestParameter, AutoAnalysis.Line1.Point1.Data.Start, false
TestParameter, AutoAnalysis.Line1.Point1.Data.StartVar, 
TestParameter, AutoAnalysis.Line1.Point1.Data.StartCondition, 
TestParameter, AutoAnalysis.Line1.Point2.Type, 0
TestParameter, AutoAnalysis.Line1.Point2.XY.X, 
TestParameter, AutoAnalysis.Line1.Point2.XY.Y, 
TestParameter, AutoAnalysis.Line1.Point2.Data.Var, 
TestParameter, AutoAnalysis.Line1.Point2.Data.Condition, 
TestParameter, AutoAnalysis.Line1.Point2.Data.Start, false
TestParameter, AutoAnalysis.Line1.Point2.Data.StartVar, 
TestParameter, AutoAnalysis.Line1.Point2.Data.StartCondition, 
TestParameter, AutoAnalysis.Line1.GradientExpr, 0
TestParameter, AutoAnalysis.Line2.Enabled, false
TestParameter, AutoAnalysis.Line2.Type, 1
TestParameter, AutoAnalysis.Line2.Fix, True
TestParameter, AutoAnalysis.Line2.YAxis, 0
TestParameter, AutoAnalysis.Line2.Point1.Type, 0
TestParameter, AutoAnalysis.Line2.Point1.XY.X, 
TestParameter, AutoAnalysis.Line2.Point1.XY.Y, 
TestParameter, AutoAnalysis.Line2.Point1.Data.Var, 
TestParameter, AutoAnalysis.Line2.Point1.Data.Condition, 
TestParameter, AutoAnalysis.Line2.Point1.Data.Start, false
TestParameter, AutoAnalysis.Line2.Point1.Data.StartVar, 
TestParameter, AutoAnalysis.Line2.Point1.Data.StartCondition, 
TestParameter, AutoAnalysis.Line2.Point2.Type, 0
TestParameter, AutoAnalysis.Line2.Point2.XY.X, 
TestParameter, AutoAnalysis.Line2.Point2.XY.Y, 
TestParameter, AutoAnalysis.Line2.Point2.Data.Var, 
TestParameter, AutoAnalysis.Line2.Point2.Data.Condition, 
TestParameter, AutoAnalysis.Line2.Point2.Data.Start, false
TestParameter, AutoAnalysis.Line2.Point2.Data.StartVar, 
TestParameter, AutoAnalysis.Line2.Point2.Data.StartCondition, 
TestParameter, AutoAnalysis.Line2.GradientExpr, 0
TestParameter, AutoAnalysis.Marker.Enabled, false
TestParameter, AutoAnalysis.Marker.Data.Var, 
TestParameter, AutoAnalysis.Marker.Data.Condition, 
TestParameter, AutoAnalysis.Marker.Data.Start, false
TestParameter, AutoAnalysis.Marker.Data.StartVar, 
TestParameter, AutoAnalysis.Marker.Data.StartCondition, 
MetaData, TestRecord.EntryPoint, true
MetaData, TestRecord.RecordTime, 01/18/2020 17:00:02
MetaData, TestRecord.TestTarget, 
MetaData, TestRecord.IterationIndex, 56
MetaData, TestRecord.Preservation, true
MetaData, TestRecord.Flag, 
MetaData, TestRecord.Remarks, 
MetaData, TestRecord.LinkKey, 580570fd-4953-47d1-9457-2ea52d9d7f27
Dimension1, 101, 101, 101
Dimension2, 1, 1, 1
DataName, V1, I1, Ohmic
DataValue, -1, -8.534E-11, 5413834343.1892281
DataValue, -0.98000000000000009, -8.647E-11, 
DataValue, -0.96000000000000008, -7.993E-11, 
DataValue, -0.94000000000000006, -7.663E-11, 
DataValue, -0.92, -7.008E-11, 
DataValue, -0.9, -6.665E-11, 
DataValue, -0.88, -7.197E-11, 
DataValue, -0.86, -6.883E-11, 
DataValue, -0.84000000000000008, -4.09E-11, 
DataValue, -0.82000000000000006, -5.073E-11, 
DataValue, -0.8, -4.988E-11, 
DataValue, -0.78, -5.246E-11, 
DataValue, -0.76, -5.302E-11, 
DataValue, -0.74, -4.975E-11, 
DataValue, -0.72000000000000008, -4.115E-11, 
DataValue, -0.70000000000000007, -4.899E-11, 
DataValue, -0.68, -6.549E-11, 
DataValue, -0.66, -5.359E-11, 
DataValue, -0.64, -3.83E-11, 
DataValue, -0.62, -4.394E-11, 
DataValue, -0.6, -4.812E-11, 
DataValue, -0.58000000000000007, -4.325E-11, 
DataValue, -0.56, -4.578E-11, 
DataValue, -0.54, -4.731E-11, 
DataValue, -0.52, -3.5E-11, 
DataValue, -0.5, -3.429E-11, 
DataValue, -0.48000000000000004, -3.649E-11, 
DataValue, -0.46, -3.511E-11, 
DataValue, -0.44, -3.093E-11, 
DataValue, -0.42000000000000004, -3.314E-11, 
DataValue, -0.4, -2.778E-11, 
DataValue, -0.38, -2.982E-11, 
DataValue, -0.36000000000000004, -3.243E-11, 
DataValue, -0.34, -2.801E-11, 
DataValue, -0.32, -1.718E-11, 
DataValue, -0.3, -5.72E-12, 
DataValue, -0.28, -1.154E-11, 
DataValue, -0.26, -4.84E-12, 
DataValue, -0.24000000000000002, 6.09E-12, 
DataValue, -0.22, -2.77E-12, 
DataValue, -0.2, 6.05E-12, 
DataValue, -0.18000000000000002, 2.19E-12, 
DataValue, -0.16, 1.602E-11, 
DataValue, -0.14, 8.85E-12, 
DataValue, -0.12000000000000001, 1.894E-11, 
DataValue, -0.1, 1.44E-11, 
DataValue, -0.08, 2.572E-11, 
DataValue, -0.060000000000000005, 2.426E-11, 
DataValue, -0.04, 5.291E-11, 
DataValue, -0.02, 7.775E-11, 
DataValue, 0, 1.0615E-10, 
DataValue, 0.02, 1.3544E-10, 
DataValue, 0.04, 1.7267E-10, 
DataValue, 0.060000000000000005, 1.954E-10, 
DataValue, 0.08, 2.1579E-10, 
DataValue, 0.1, 2.2039E-10, 
DataValue, 0.12000000000000001, 2.4182E-10, 
DataValue, 0.14, 2.4714E-10, 
DataValue, 0.16, 2.4643E-10, 
DataValue, 0.18000000000000002, 2.4786E-10, 
DataValue, 0.2, 2.7325E-10, 
DataValue, 0.22, 2.7283E-10, 
DataValue, 0.24000000000000002, 2.8315E-10, 
DataValue, 0.26, 2.8835999999999997E-10, 
DataValue, 0.28, 3.0191E-10, 
DataValue, 0.3, 3.353E-10, 
DataValue, 0.32, 3.1361E-10, 
DataValue, 0.34, 3.3223E-10, 
DataValue, 0.36000000000000004, 3.3573E-10, 
DataValue, 0.38, 3.4253E-10, 
DataValue, 0.4, 3.7609E-10, 
DataValue, 0.42000000000000004, 3.7953E-10, 
DataValue, 0.44, 3.7604E-10, 
DataValue, 0.46, 3.8123E-10, 
DataValue, 0.48000000000000004, 4.0016E-10, 
DataValue, 0.5, 4.149E-10, 
DataValue, 0.52, 4.2664E-10, 
DataValue, 0.54, 4.2717E-10, 
DataValue, 0.56, 4.3702E-10, 
DataValue, 0.58000000000000007, 4.5154E-10, 
DataValue, 0.6, 4.6482E-10, 
DataValue, 0.62, 4.72E-10, 
DataValue, 0.64, 4.8689E-10, 
DataValue, 0.66, 4.991E-10, 
DataValue, 0.68, 5.0021E-10, 
DataValue, 0.70000000000000007, 5.28E-10, 
DataValue, 0.72000000000000008, 5.4167E-10, 
DataValue, 0.74, 5.4423E-10, 
DataValue, 0.76, 5.5353E-10, 
DataValue, 0.78, 5.4375E-10, 
DataValue, 0.8, 5.4602E-10, 
DataValue, 0.82000000000000006, 5.8397E-10, 
DataValue, 0.84000000000000008, 5.6971E-10, 
DataValue, 0.86, 5.549E-10, 
DataValue, 0.88, 5.8782E-10, 
DataValue, 0.9, 5.9459E-10, 
DataValue, 0.92, 5.9777E-10, 
DataValue, 0.94000000000000006, 5.9501E-10, 
DataValue, 0.96000000000000008, 6.2503E-10, 
DataValue, 0.98000000000000009, 6.3889E-10, 
DataValue, 1, 6.4282E-10, 