
SetupTitle, WW
PrimitiveTest, I/V Sweep
TestParameter, Context.MainFrame, B1500A
TestParameter, Channel.UnitType, SMU, SMU
TestParameter, Channel.Unit, SMU2:HP, SMU1:HP
TestParameter, Channel.IName, I1, I4
TestParameter, Channel.VName, V1, V4
TestParameter, Channel.Mode, V, COMMON
TestParameter, Channel.Func, VAR1, CONST
TestParameter, Channel.Index, 
TestParameter, Channel.Time, 
TestParameter, Measurement.Port.Unit, SMU2:HP, SMU1:HP
TestParameter, Measurement.Port.SeriesResistor, NONE, NONE
TestParameter, Measurement.Port.Filter, ON, ON
TestParameter, Measurement.Port.OutputVoltageComparison, 0, 0
TestParameter, Measurement.Primary.Locus, Single
TestParameter, Measurement.Primary.Scale, LINEAR
TestParameter, Measurement.Primary.Start, -1
TestParameter, Measurement.Primary.Stop, 1
TestParameter, Measurement.Primary.Step, 0.02
TestParameter, Measurement.Primary.Compliance, 0.01
TestParameter, Measurement.Primary.PowerCompliance, 0
TestParameter, Measurement.Aborting.Condition, CONTINUE AT ANY
TestParameter, Measurement.PostOutput.Value, START
TestParameter, Measurement.PostOutput.Retention, OFF
TestParameter, Measurement.Bias.Source, -1, 0
TestParameter, Measurement.Bias.Compliance, 0.01, 1
TestParameter, Measurement.Monitor.Unit, SMU2:HP, SMU1:HP
TestParameter, Measurement.Monitor.Adc, HR ADC, HR ADC
TestParameter, Measurement.Monitor.Measurement, Compliance Side, Compliance Side
TestParameter, Measurement.Monitor.RangingMode, AUTO, AUTO
TestParameter, Measurement.Monitor.RangeBoundary, , 
TestParameter, Measurement.Monitor.RangeRating, BY FULL RANGE, BY FULL RANGE
TestParameter, Measurement.Monitor.RangeRatingCoeff, 50, 50
TestParameter, Measurement.Timing.Hold, 0
TestParameter, Measurement.Timing.Delay, 0.001
TestParameter, Measurement.Adc.HighSpeed.Mode, AUTO
TestParameter, Measurement.Adc.HighSpeed.Coeff, 1
TestParameter, Measurement.Adc.HighResolution.AutoZero, OFF
TestParameter, Measurement.Adc.HighResolution.Mode, PLC
TestParameter, Measurement.Adc.HighResolution.Coeff, 1
TestParameter, Measurement.WaitTime.Source.Coeff, 1
TestParameter, Measurement.WaitTime.Source.Offset, 0
TestParameter, Measurement.WaitTime.Monitor.Coeff, 1
TestParameter, Measurement.WaitTime.Monitor.Offset, 0
TestParameter, Function.User.Name, Ohmic
TestParameter, Function.User.Unit, ohm
TestParameter, Function.User.Definition, avg(V1/I1)
TestParameter, Output.Graph.Enabled, true
TestParameter, Output.Graph.XAxis.Data, V1
TestParameter, Output.Graph.XAxis.Scale, Linear
TestParameter, Output.Graph.XAxis.Left, -5
TestParameter, Output.Graph.XAxis.Right, 5
TestParameter, Output.Graph.YAxis.Data, I1
TestParameter, Output.Graph.YAxis.Scale, Linear
TestParameter, Output.Graph.YAxis.Bottom, -0.001
TestParameter, Output.Graph.YAxis.Top, 0.001
TestParameter, Output.Graph.YAxis.Group, 
TestParameter, Output.Scalar.Data, Ohmic
TestParameter, AutoAnalysis.Interpolation, false
TestParameter, AutoAnalysis.Line1.Enabled, false
TestParameter, AutoAnalysis.Line1.Type, 1
TestParameter, AutoAnalysis.Line1.Fix, True
TestParameter, AutoAnalysis.Line1.YAxis, 0
TestParameter, AutoAnalysis.Line1.Point1.Type, 0
TestParameter, AutoAnalysis.Line1.Point1.XY.X, 
TestParameter, AutoAnalysis.Line1.Point1.XY.Y, 
TestParameter, AutoAnalysis.Line1.Point1.Data.Var, 
TestParameter, AutoAnalysis.Line1.Point1.Data.Condition, 
TestParameter, AutoAnalysis.Line1.Point1.Data.Start, false
TestParameter, AutoAnalysis.Line1.Point1.Data.StartVar, 
TestParameter, AutoAnalysis.Line1.Point1.Data.StartCondition, 
TestParameter, AutoAnalysis.Line1.Point2.Type, 0
TestParameter, AutoAnalysis.Line1.Point2.XY.X, 
TestParameter, AutoAnalysis.Line1.Point2.XY.Y, 
TestParameter, AutoAnalysis.Line1.Point2.Data.Var, 
TestParameter, AutoAnalysis.Line1.Point2.Data.Condition, 
TestParameter, AutoAnalysis.Line1.Point2.Data.Start, false
TestParameter, AutoAnalysis.Line1.Point2.Data.StartVar, 
TestParameter, AutoAnalysis.Line1.Point2.Data.StartCondition, 
TestParameter, AutoAnalysis.Line1.GradientExpr, 0
TestParameter, AutoAnalysis.Line2.Enabled, false
TestParameter, AutoAnalysis.Line2.Type, 1
TestParameter, AutoAnalysis.Line2.Fix, True
TestParameter, AutoAnalysis.Line2.YAxis, 0
TestParameter, AutoAnalysis.Line2.Point1.Type, 0
TestParameter, AutoAnalysis.Line2.Point1.XY.X, 
TestParameter, AutoAnalysis.Line2.Point1.XY.Y, 
TestParameter, AutoAnalysis.Line2.Point1.Data.Var, 
TestParameter, AutoAnalysis.Line2.Point1.Data.Condition, 
TestParameter, AutoAnalysis.Line2.Point1.Data.Start, false
TestParameter, AutoAnalysis.Line2.Point1.Data.StartVar, 
TestParameter, AutoAnalysis.Line2.Point1.Data.StartCondition, 
TestParameter, AutoAnalysis.Line2.Point2.Type, 0
TestParameter, AutoAnalysis.Line2.Point2.XY.X, 
TestParameter, AutoAnalysis.Line2.Point2.XY.Y, 
TestParameter, AutoAnalysis.Line2.Point2.Data.Var, 
TestParameter, AutoAnalysis.Line2.Point2.Data.Condition, 
TestParameter, AutoAnalysis.Line2.Point2.Data.Start, false
TestParameter, AutoAnalysis.Line2.Point2.Data.StartVar, 
TestParameter, AutoAnalysis.Line2.Point2.Data.StartCondition, 
TestParameter, AutoAnalysis.Line2.GradientExpr, 0
TestParameter, AutoAnalysis.Marker.Enabled, false
TestParameter, AutoAnalysis.Marker.Data.Var, 
TestParameter, AutoAnalysis.Marker.Data.Condition, 
TestParameter, AutoAnalysis.Marker.Data.Start, false
TestParameter, AutoAnalysis.Marker.Data.StartVar, 
TestParameter, AutoAnalysis.Marker.Data.StartCondition, 
MetaData, TestRecord.EntryPoint, true
MetaData, TestRecord.RecordTime, 01/18/2020 16:59:26
MetaData, TestRecord.TestTarget, 
MetaData, TestRecord.IterationIndex, 55
MetaData, TestRecord.Preservation, true
MetaData, TestRecord.Flag, 
MetaData, TestRecord.Remarks, 
MetaData, TestRecord.LinkKey, 0919d885-2852-4b8a-aa02-964f000318f2
Dimension1, 101, 101, 101
Dimension2, 1, 1, 1
DataName, V1, I1, Ohmic
DataValue, -1, -5.006E-11, 10895925217.851502
DataValue, -0.98000000000000009, -4.192E-11, 
DataValue, -0.96000000000000008, -5.65E-11, 
DataValue, -0.94000000000000006, -3.378E-11, 
DataValue, -0.92, -5.353E-11, 
DataValue, -0.9, -3.626E-11, 
DataValue, -0.88, -4.333E-11, 
DataValue, -0.86, -3.232E-11, 
DataValue, -0.84000000000000008, -3.47E-11, 
DataValue, -0.82000000000000006, -2.892E-11, 
DataValue, -0.8, -2.623E-11, 
DataValue, -0.78, -2.876E-11, 
DataValue, -0.76, -2.341E-11, 
DataValue, -0.74, -3.117E-11, 
DataValue, -0.72000000000000008, -3.47E-11, 
DataValue, -0.70000000000000007, -3.256E-11, 
DataValue, -0.68, -2.527E-11, 
DataValue, -0.66, -2.129E-11, 
DataValue, -0.64, -2.59E-11, 
DataValue, -0.62, -2.962E-11, 
DataValue, -0.6, -2.744E-11, 
DataValue, -0.58000000000000007, -2.406E-11, 
DataValue, -0.56, -5.475E-11, 
DataValue, -0.54, -2.295E-11, 
DataValue, -0.52, -3.058E-11, 
DataValue, -0.5, -1.596E-11, 
DataValue, -0.48000000000000004, -1.53E-11, 
DataValue, -0.46, -1.418E-11, 
DataValue, -0.44, -1.847E-11, 
DataValue, -0.42000000000000004, -1.121E-11, 
DataValue, -0.4, -1.633E-11, 
DataValue, -0.38, -1.418E-11, 
DataValue, -0.36000000000000004, -7.82E-12, 
DataValue, -0.34, -1.533E-11, 
DataValue, -0.32, -1.694E-11, 
DataValue, -0.3, -2.91E-12, 
DataValue, -0.28, 6.48E-12, 
DataValue, -0.26, -7.07E-12, 
DataValue, -0.24000000000000002, -1.199E-11, 
DataValue, -0.22, -6.41E-12, 
DataValue, -0.2, -7.03E-12, 
DataValue, -0.18000000000000002, -3.54E-12, 
DataValue, -0.16, -8E-13, 
DataValue, -0.14, 1.02E-12, 
DataValue, -0.12000000000000001, 1.41E-12, 
DataValue, -0.1, 5.49E-12, 
DataValue, -0.08, 1.381E-11, 
DataValue, -0.060000000000000005, 4.363E-11, 
DataValue, -0.04, 5.792E-11, 
DataValue, -0.02, 1.1551E-10, 
DataValue, 0, 1.4947E-10, 
DataValue, 0.02, 2.1838E-10, 
DataValue, 0.04, 2.531E-10, 
DataValue, 0.060000000000000005, 2.8948E-10, 
DataValue, 0.08, 3.2045E-10, 
DataValue, 0.1, 3.3062E-10, 
DataValue, 0.12000000000000001, 3.6031E-10, 
DataValue, 0.14, 3.6923E-10, 
DataValue, 0.16, 4.0637E-10, 
DataValue, 0.18000000000000002, 4.2227E-10, 
DataValue, 0.2, 4.1738E-10, 
DataValue, 0.22, 4.4254E-10, 
DataValue, 0.24000000000000002, 4.6257E-10, 
DataValue, 0.26, 4.8232E-10, 
DataValue, 0.28, 4.8691E-10, 
DataValue, 0.3, 5.0073E-10, 
DataValue, 0.32, 5.1139E-10, 
DataValue, 0.34, 5.1941E-10, 
DataValue, 0.36000000000000004, 5.5569E-10, 
DataValue, 0.38, 5.4396E-10, 
DataValue, 0.4, 5.6769E-10, 
DataValue, 0.42000000000000004, 5.774E-10, 
DataValue, 0.44, 6.0401E-10, 
DataValue, 0.46, 6.1736E-10, 
DataValue, 0.48000000000000004, 6.2023E-10, 
DataValue, 0.5, 6.0359E-10, 
DataValue, 0.52, 6.1904E-10, 
DataValue, 0.54, 6.6314E-10, 
DataValue, 0.56, 6.6392E-10, 
DataValue, 0.58000000000000007, 6.7128E-10, 
DataValue, 0.6, 7.2279E-10, 
DataValue, 0.62, 7.1793E-10, 
DataValue, 0.64, 7.1475E-10, 
DataValue, 0.66, 7.3318E-10, 
DataValue, 0.68, 7.4639E-10, 
DataValue, 0.70000000000000007, 7.6944E-10, 
DataValue, 0.72000000000000008, 7.6492E-10, 
DataValue, 0.74, 7.6735E-10, 
DataValue, 0.76, 7.6006E-10, 
DataValue, 0.78, 7.6869E-10, 
DataValue, 0.8, 7.5533E-10, 
DataValue, 0.82000000000000006, 7.5969E-10, 
DataValue, 0.84000000000000008, 7.5892E-10, 
DataValue, 0.86, 7.8411E-10, 
DataValue, 0.88, 7.94E-10, 
DataValue, 0.9, 8.0388E-10, 
DataValue, 0.92, 8.039E-10, 
DataValue, 0.94000000000000006, 8.1223E-10, 
DataValue, 0.96000000000000008, 8.122E-10, 
DataValue, 0.98000000000000009, 8.1647E-10, 
DataValue, 1, 8.1608E-10, 