
SetupTitle, WW
PrimitiveTest, I/V Sweep
TestParameter, Context.MainFrame, B1500A
TestParameter, Channel.UnitType, SMU, SMU
TestParameter, Channel.Unit, SMU2:HP, SMU1:HP
TestParameter, Channel.IName, I1, I4
TestParameter, Channel.VName, V1, V4
TestParameter, Channel.Mode, V, COMMON
TestParameter, Channel.Func, VAR1, CONST
TestParameter, Channel.Index, 
TestParameter, Channel.Time, 
TestParameter, Measurement.Port.Unit, SMU2:HP, SMU1:HP
TestParameter, Measurement.Port.SeriesResistor, NONE, NONE
TestParameter, Measurement.Port.Filter, ON, ON
TestParameter, Measurement.Port.OutputVoltageComparison, 0, 0
TestParameter, Measurement.Primary.Locus, Single
TestParameter, Measurement.Primary.Scale, LINEAR
TestParameter, Measurement.Primary.Start, -1
TestParameter, Measurement.Primary.Stop, 1
TestParameter, Measurement.Primary.Step, 0.02
TestParameter, Measurement.Primary.Compliance, 0.01
TestParameter, Measurement.Primary.PowerCompliance, 0
TestParameter, Measurement.Aborting.Condition, CONTINUE AT ANY
TestParameter, Measurement.PostOutput.Value, START
TestParameter, Measurement.PostOutput.Retention, OFF
TestParameter, Measurement.Bias.Source, -1, 0
TestParameter, Measurement.Bias.Compliance, 0.01, 1
TestParameter, Measurement.Monitor.Unit, SMU2:HP, SMU1:HP
TestParameter, Measurement.Monitor.Adc, HR ADC, HR ADC
TestParameter, Measurement.Monitor.Measurement, Compliance Side, Compliance Side
TestParameter, Measurement.Monitor.RangingMode, AUTO, AUTO
TestParameter, Measurement.Monitor.RangeBoundary, , 
TestParameter, Measurement.Monitor.RangeRating, BY FULL RANGE, BY FULL RANGE
TestParameter, Measurement.Monitor.RangeRatingCoeff, 50, 50
TestParameter, Measurement.Timing.Hold, 0
TestParameter, Measurement.Timing.Delay, 0.001
TestParameter, Measurement.Adc.HighSpeed.Mode, AUTO
TestParameter, Measurement.Adc.HighSpeed.Coeff, 1
TestParameter, Measurement.Adc.HighResolution.AutoZero, OFF
TestParameter, Measurement.Adc.HighResolution.Mode, PLC
TestParameter, Measurement.Adc.HighResolution.Coeff, 1
TestParameter, Measurement.WaitTime.Source.Coeff, 1
TestParameter, Measurement.WaitTime.Source.Offset, 0
TestParameter, Measurement.WaitTime.Monitor.Coeff, 1
TestParameter, Measurement.WaitTime.Monitor.Offset, 0
TestParameter, Function.User.Name, Ohmic
TestParameter, Function.User.Unit, ohm
TestParameter, Function.User.Definition, avg(V1/I1)
TestParameter, Output.Graph.Enabled, true
TestParameter, Output.Graph.XAxis.Data, V1
TestParameter, Output.Graph.XAxis.Scale, Linear
TestParameter, Output.Graph.XAxis.Left, -5
TestParameter, Output.Graph.XAxis.Right, 5
TestParameter, Output.Graph.YAxis.Data, I1
TestParameter, Output.Graph.YAxis.Scale, Linear
TestParameter, Output.Graph.YAxis.Bottom, -0.001
TestParameter, Output.Graph.YAxis.Top, 0.001
TestParameter, Output.Graph.YAxis.Group, 
TestParameter, Output.Scalar.Data, Ohmic
TestParameter, AutoAnalysis.Interpolation, false
TestParameter, AutoAnalysis.Line1.Enabled, false
TestParameter, AutoAnalysis.Line1.Type, 1
TestParameter, AutoAnalysis.Line1.Fix, True
TestParameter, AutoAnalysis.Line1.YAxis, 0
TestParameter, AutoAnalysis.Line1.Point1.Type, 0
TestParameter, AutoAnalysis.Line1.Point1.XY.X, 
TestParameter, AutoAnalysis.Line1.Point1.XY.Y, 
TestParameter, AutoAnalysis.Line1.Point1.Data.Var, 
TestParameter, AutoAnalysis.Line1.Point1.Data.Condition, 
TestParameter, AutoAnalysis.Line1.Point1.Data.Start, false
TestParameter, AutoAnalysis.Line1.Point1.Data.StartVar, 
TestParameter, AutoAnalysis.Line1.Point1.Data.StartCondition, 
TestParameter, AutoAnalysis.Line1.Point2.Type, 0
TestParameter, AutoAnalysis.Line1.Point2.XY.X, 
TestParameter, AutoAnalysis.Line1.Point2.XY.Y, 
TestParameter, AutoAnalysis.Line1.Point2.Data.Var, 
TestParameter, AutoAnalysis.Line1.Point2.Data.Condition, 
TestParameter, AutoAnalysis.Line1.Point2.Data.Start, false
TestParameter, AutoAnalysis.Line1.Point2.Data.StartVar, 
TestParameter, AutoAnalysis.Line1.Point2.Data.StartCondition, 
TestParameter, AutoAnalysis.Line1.GradientExpr, 0
TestParameter, AutoAnalysis.Line2.Enabled, false
TestParameter, AutoAnalysis.Line2.Type, 1
TestParameter, AutoAnalysis.Line2.Fix, True
TestParameter, AutoAnalysis.Line2.YAxis, 0
TestParameter, AutoAnalysis.Line2.Point1.Type, 0
TestParameter, AutoAnalysis.Line2.Point1.XY.X, 
TestParameter, AutoAnalysis.Line2.Point1.XY.Y, 
TestParameter, AutoAnalysis.Line2.Point1.Data.Var, 
TestParameter, AutoAnalysis.Line2.Point1.Data.Condition, 
TestParameter, AutoAnalysis.Line2.Point1.Data.Start, false
TestParameter, AutoAnalysis.Line2.Point1.Data.StartVar, 
TestParameter, AutoAnalysis.Line2.Point1.Data.StartCondition, 
TestParameter, AutoAnalysis.Line2.Point2.Type, 0
TestParameter, AutoAnalysis.Line2.Point2.XY.X, 
TestParameter, AutoAnalysis.Line2.Point2.XY.Y, 
TestParameter, AutoAnalysis.Line2.Point2.Data.Var, 
TestParameter, AutoAnalysis.Line2.Point2.Data.Condition, 
TestParameter, AutoAnalysis.Line2.Point2.Data.Start, false
TestParameter, AutoAnalysis.Line2.Point2.Data.StartVar, 
TestParameter, AutoAnalysis.Line2.Point2.Data.StartCondition, 
TestParameter, AutoAnalysis.Line2.GradientExpr, 0
TestParameter, AutoAnalysis.Marker.Enabled, false
TestParameter, AutoAnalysis.Marker.Data.Var, 
TestParameter, AutoAnalysis.Marker.Data.Condition, 
TestParameter, AutoAnalysis.Marker.Data.Start, false
TestParameter, AutoAnalysis.Marker.Data.StartVar, 
TestParameter, AutoAnalysis.Marker.Data.StartCondition, 
MetaData, TestRecord.EntryPoint, true
MetaData, TestRecord.RecordTime, 01/18/2020 16:57:11
MetaData, TestRecord.TestTarget, 
MetaData, TestRecord.IterationIndex, 53
MetaData, TestRecord.Preservation, true
MetaData, TestRecord.Flag, 
MetaData, TestRecord.Remarks, 
MetaData, TestRecord.LinkKey, fd4a3ec1-f16d-4921-9ddd-69241772afc9
Dimension1, 101, 101, 101
Dimension2, 1, 1, 1
DataName, V1, I1, Ohmic
DataValue, -1, -8.701E-11, 21304614442.803909
DataValue, -0.98000000000000009, -6.25E-11, 
DataValue, -0.96000000000000008, -6.419E-11, 
DataValue, -0.94000000000000006, -8.176E-11, 
DataValue, -0.92, -5.273E-11, 
DataValue, -0.9, -5.062E-11, 
DataValue, -0.88, -4.608E-11, 
DataValue, -0.86, -4.822E-11, 
DataValue, -0.84000000000000008, -5.071E-11, 
DataValue, -0.82000000000000006, -4.36E-11, 
DataValue, -0.8, -4.355E-11, 
DataValue, -0.78, -4.418E-11, 
DataValue, -0.76, -4.231E-11, 
DataValue, -0.74, -3.766E-11, 
DataValue, -0.72000000000000008, -2.132E-11, 
DataValue, -0.70000000000000007, -3.155E-11, 
DataValue, -0.68, -2.88E-11, 
DataValue, -0.66, -1.919E-11, 
DataValue, -0.64, -2.453E-11, 
DataValue, -0.62, -1.104E-11, 
DataValue, -0.6, 4.78E-12, 
DataValue, -0.58000000000000007, -5.18E-12, 
DataValue, -0.56, 2.54E-12, 
DataValue, -0.54, -9.06E-12, 
DataValue, -0.52, -1.027E-11, 
DataValue, -0.5, -1.014E-11, 
DataValue, -0.48000000000000004, -1.984E-11, 
DataValue, -0.46, -1.307E-11, 
DataValue, -0.44, -1.373E-11, 
DataValue, -0.42000000000000004, -8.27E-12, 
DataValue, -0.4, -1.42E-11, 
DataValue, -0.38, -6.16E-12, 
DataValue, -0.36000000000000004, -1.266E-11, 
DataValue, -0.34, -9.89E-12, 
DataValue, -0.32, 7.21E-12, 
DataValue, -0.3, -3.83E-12, 
DataValue, -0.28, -1.06E-11, 
DataValue, -0.26, -3.07E-12, 
DataValue, -0.24000000000000002, -6E-13, 
DataValue, -0.22, -2.6E-13, 
DataValue, -0.2, -3.2E-12, 
DataValue, -0.18000000000000002, -1.65E-12, 
DataValue, -0.16, 3.44E-12, 
DataValue, -0.14, -5.12E-12, 
DataValue, -0.12000000000000001, -1.0189999999999999E-11, 
DataValue, -0.1, 1.06E-12, 
DataValue, -0.08, 1.231E-11, 
DataValue, -0.060000000000000005, 2.467E-11, 
DataValue, -0.04, 4.541E-11, 
DataValue, -0.02, 7.533E-11, 
DataValue, 0, 1.1869E-10, 
DataValue, 0.02, 1.5859E-10, 
DataValue, 0.04, 1.9694E-10, 
DataValue, 0.060000000000000005, 2.2353E-10, 
DataValue, 0.08, 2.512E-10, 
DataValue, 0.1, 2.5695E-10, 
DataValue, 0.12000000000000001, 2.8022E-10, 
DataValue, 0.14, 2.8339E-10, 
DataValue, 0.16, 3.0117E-10, 
DataValue, 0.18000000000000002, 3.0786E-10, 
DataValue, 0.2, 3.2544E-10, 
DataValue, 0.22, 3.1212E-10, 
DataValue, 0.24000000000000002, 3.3984E-10, 
DataValue, 0.26, 3.5265E-10, 
DataValue, 0.28, 3.6514E-10, 
DataValue, 0.3, 3.786E-10, 
DataValue, 0.32, 3.9412E-10, 
DataValue, 0.34, 4.031E-10, 
DataValue, 0.36000000000000004, 4.0898E-10, 
DataValue, 0.38, 4.0443E-10, 
DataValue, 0.4, 4.2725E-10, 
DataValue, 0.42000000000000004, 3.8358E-10, 
DataValue, 0.44, 4.0359E-10, 
DataValue, 0.46, 4.1912E-10, 
DataValue, 0.48000000000000004, 4.1094E-10, 
DataValue, 0.5, 4.3821E-10, 
DataValue, 0.52, 4.516E-10, 
DataValue, 0.54, 4.6358E-10, 
DataValue, 0.56, 4.8484E-10, 
DataValue, 0.58000000000000007, 4.8934E-10, 
DataValue, 0.6, 5.174E-10, 
DataValue, 0.62, 5.2105E-10, 
DataValue, 0.64, 5.1878E-10, 
DataValue, 0.66, 5.322E-10, 
DataValue, 0.68, 5.6425E-10, 
DataValue, 0.70000000000000007, 5.6625E-10, 
DataValue, 0.72000000000000008, 5.7413E-10, 
DataValue, 0.74, 5.815E-10, 
DataValue, 0.76, 5.7865E-10, 
DataValue, 0.78, 6.0553E-10, 
DataValue, 0.8, 6.2041E-10, 
DataValue, 0.82000000000000006, 6.219E-10, 
DataValue, 0.84000000000000008, 6.2962E-10, 
DataValue, 0.86, 6.3765E-10, 
DataValue, 0.88, 6.6871E-10, 
DataValue, 0.9, 6.7853E-10, 
DataValue, 0.92, 6.718E-10, 
DataValue, 0.94000000000000006, 7.1215E-10, 
DataValue, 0.96000000000000008, 7.2827E-10, 
DataValue, 0.98000000000000009, 7.2511E-10, 
DataValue, 1, 7.4073E-10, 