
SetupTitle, WW
PrimitiveTest, I/V Sweep
TestParameter, Context.MainFrame, B1500A
TestParameter, Channel.UnitType, SMU, SMU
TestParameter, Channel.Unit, SMU2:HP, SMU1:HP
TestParameter, Channel.IName, I1, I4
TestParameter, Channel.VName, V1, V4
TestParameter, Channel.Mode, V, COMMON
TestParameter, Channel.Func, VAR1, CONST
TestParameter, Channel.Index, 
TestParameter, Channel.Time, 
TestParameter, Measurement.Port.Unit, SMU2:HP, SMU1:HP
TestParameter, Measurement.Port.SeriesResistor, NONE, NONE
TestParameter, Measurement.Port.Filter, ON, ON
TestParameter, Measurement.Port.OutputVoltageComparison, 0, 0
TestParameter, Measurement.Primary.Locus, Single
TestParameter, Measurement.Primary.Scale, LINEAR
TestParameter, Measurement.Primary.Start, -1
TestParameter, Measurement.Primary.Stop, 1
TestParameter, Measurement.Primary.Step, 0.02
TestParameter, Measurement.Primary.Compliance, 0.01
TestParameter, Measurement.Primary.PowerCompliance, 0
TestParameter, Measurement.Aborting.Condition, CONTINUE AT ANY
TestParameter, Measurement.PostOutput.Value, START
TestParameter, Measurement.PostOutput.Retention, OFF
TestParameter, Measurement.Bias.Source, -1, 0
TestParameter, Measurement.Bias.Compliance, 0.01, 1
TestParameter, Measurement.Monitor.Unit, SMU2:HP, SMU1:HP
TestParameter, Measurement.Monitor.Adc, HR ADC, HR ADC
TestParameter, Measurement.Monitor.Measurement, Compliance Side, Compliance Side
TestParameter, Measurement.Monitor.RangingMode, AUTO, AUTO
TestParameter, Measurement.Monitor.RangeBoundary, , 
TestParameter, Measurement.Monitor.RangeRating, BY FULL RANGE, BY FULL RANGE
TestParameter, Measurement.Monitor.RangeRatingCoeff, 50, 50
TestParameter, Measurement.Timing.Hold, 0
TestParameter, Measurement.Timing.Delay, 0.001
TestParameter, Measurement.Adc.HighSpeed.Mode, AUTO
TestParameter, Measurement.Adc.HighSpeed.Coeff, 1
TestParameter, Measurement.Adc.HighResolution.AutoZero, OFF
TestParameter, Measurement.Adc.HighResolution.Mode, PLC
TestParameter, Measurement.Adc.HighResolution.Coeff, 1
TestParameter, Measurement.WaitTime.Source.Coeff, 1
TestParameter, Measurement.WaitTime.Source.Offset, 0
TestParameter, Measurement.WaitTime.Monitor.Coeff, 1
TestParameter, Measurement.WaitTime.Monitor.Offset, 0
TestParameter, Function.User.Name, Ohmic
TestParameter, Function.User.Unit, ohm
TestParameter, Function.User.Definition, avg(V1/I1)
TestParameter, Output.Graph.Enabled, true
TestParameter, Output.Graph.XAxis.Data, V1
TestParameter, Output.Graph.XAxis.Scale, Linear
TestParameter, Output.Graph.XAxis.Left, -5
TestParameter, Output.Graph.XAxis.Right, 5
TestParameter, Output.Graph.YAxis.Data, I1
TestParameter, Output.Graph.YAxis.Scale, Linear
TestParameter, Output.Graph.YAxis.Bottom, -0.001
TestParameter, Output.Graph.YAxis.Top, 0.001
TestParameter, Output.Graph.YAxis.Group, 
TestParameter, Output.Scalar.Data, Ohmic
TestParameter, AutoAnalysis.Interpolation, false
TestParameter, AutoAnalysis.Line1.Enabled, false
TestParameter, AutoAnalysis.Line1.Type, 1
TestParameter, AutoAnalysis.Line1.Fix, True
TestParameter, AutoAnalysis.Line1.YAxis, 0
TestParameter, AutoAnalysis.Line1.Point1.Type, 0
TestParameter, AutoAnalysis.Line1.Point1.XY.X, 
TestParameter, AutoAnalysis.Line1.Point1.XY.Y, 
TestParameter, AutoAnalysis.Line1.Point1.Data.Var, 
TestParameter, AutoAnalysis.Line1.Point1.Data.Condition, 
TestParameter, AutoAnalysis.Line1.Point1.Data.Start, false
TestParameter, AutoAnalysis.Line1.Point1.Data.StartVar, 
TestParameter, AutoAnalysis.Line1.Point1.Data.StartCondition, 
TestParameter, AutoAnalysis.Line1.Point2.Type, 0
TestParameter, AutoAnalysis.Line1.Point2.XY.X, 
TestParameter, AutoAnalysis.Line1.Point2.XY.Y, 
TestParameter, AutoAnalysis.Line1.Point2.Data.Var, 
TestParameter, AutoAnalysis.Line1.Point2.Data.Condition, 
TestParameter, AutoAnalysis.Line1.Point2.Data.Start, false
TestParameter, AutoAnalysis.Line1.Point2.Data.StartVar, 
TestParameter, AutoAnalysis.Line1.Point2.Data.StartCondition, 
TestParameter, AutoAnalysis.Line1.GradientExpr, 0
TestParameter, AutoAnalysis.Line2.Enabled, false
TestParameter, AutoAnalysis.Line2.Type, 1
TestParameter, AutoAnalysis.Line2.Fix, True
TestParameter, AutoAnalysis.Line2.YAxis, 0
TestParameter, AutoAnalysis.Line2.Point1.Type, 0
TestParameter, AutoAnalysis.Line2.Point1.XY.X, 
TestParameter, AutoAnalysis.Line2.Point1.XY.Y, 
TestParameter, AutoAnalysis.Line2.Point1.Data.Var, 
TestParameter, AutoAnalysis.Line2.Point1.Data.Condition, 
TestParameter, AutoAnalysis.Line2.Point1.Data.Start, false
TestParameter, AutoAnalysis.Line2.Point1.Data.StartVar, 
TestParameter, AutoAnalysis.Line2.Point1.Data.StartCondition, 
TestParameter, AutoAnalysis.Line2.Point2.Type, 0
TestParameter, AutoAnalysis.Line2.Point2.XY.X, 
TestParameter, AutoAnalysis.Line2.Point2.XY.Y, 
TestParameter, AutoAnalysis.Line2.Point2.Data.Var, 
TestParameter, AutoAnalysis.Line2.Point2.Data.Condition, 
TestParameter, AutoAnalysis.Line2.Point2.Data.Start, false
TestParameter, AutoAnalysis.Line2.Point2.Data.StartVar, 
TestParameter, AutoAnalysis.Line2.Point2.Data.StartCondition, 
TestParameter, AutoAnalysis.Line2.GradientExpr, 0
TestParameter, AutoAnalysis.Marker.Enabled, false
TestParameter, AutoAnalysis.Marker.Data.Var, 
TestParameter, AutoAnalysis.Marker.Data.Condition, 
TestParameter, AutoAnalysis.Marker.Data.Start, false
TestParameter, AutoAnalysis.Marker.Data.StartVar, 
TestParameter, AutoAnalysis.Marker.Data.StartCondition, 
MetaData, TestRecord.EntryPoint, true
MetaData, TestRecord.RecordTime, 01/18/2020 16:56:06
MetaData, TestRecord.TestTarget, 
MetaData, TestRecord.IterationIndex, 51
MetaData, TestRecord.Preservation, true
MetaData, TestRecord.Flag, 
MetaData, TestRecord.Remarks, 
MetaData, TestRecord.LinkKey, 06f67f93-edde-4739-8ae7-a64989c83664
Dimension1, 101, 101, 101
Dimension2, 1, 1, 1
DataName, V1, I1, Ohmic
DataValue, -1, -5.134E-11, 9617396528.24525
DataValue, -0.98000000000000009, -6.78E-11, 
DataValue, -0.96000000000000008, -7.681E-11, 
DataValue, -0.94000000000000006, -5.558E-11, 
DataValue, -0.92, -7.4E-11, 
DataValue, -0.9, -6.134E-11, 
DataValue, -0.88, -3.985E-11, 
DataValue, -0.86, -4.638E-11, 
DataValue, -0.84000000000000008, -4.547E-11, 
DataValue, -0.82000000000000006, -4.458E-11, 
DataValue, -0.8, -4.734E-11, 
DataValue, -0.78, -3.822E-11, 
DataValue, -0.76, -3.054E-11, 
DataValue, -0.74, -4.032E-11, 
DataValue, -0.72000000000000008, -3.647E-11, 
DataValue, -0.70000000000000007, -3.859E-11, 
DataValue, -0.68, -3.335E-11, 
DataValue, -0.66, -4.052E-11, 
DataValue, -0.64, -3.951E-11, 
DataValue, -0.62, -3.552E-11, 
DataValue, -0.6, -5.16E-11, 
DataValue, -0.58000000000000007, -3.046E-11, 
DataValue, -0.56, -1.704E-11, 
DataValue, -0.54, -2.881E-11, 
DataValue, -0.52, -2.79E-11, 
DataValue, -0.5, -3.007E-11, 
DataValue, -0.48000000000000004, -1.903E-11, 
DataValue, -0.46, -2.424E-11, 
DataValue, -0.44, -2.644E-11, 
DataValue, -0.42000000000000004, -2.124E-11, 
DataValue, -0.4, -1.671E-11, 
DataValue, -0.38, -2.03E-11, 
DataValue, -0.36000000000000004, -3.01E-12, 
DataValue, -0.34, -1.16E-11, 
DataValue, -0.32, -1.783E-11, 
DataValue, -0.3, -1.178E-11, 
DataValue, -0.28, -4.1E-12, 
DataValue, -0.26, -1.46E-11, 
DataValue, -0.24000000000000002, -5.69E-12, 
DataValue, -0.22, -1.199E-11, 
DataValue, -0.2, 6.73E-12, 
DataValue, -0.18000000000000002, -5.75E-12, 
DataValue, -0.16, -4.37E-12, 
DataValue, -0.14, -7.88E-12, 
DataValue, -0.12000000000000001, 6.7E-12, 
DataValue, -0.1, 2.24E-12, 
DataValue, -0.08, 1.79E-11, 
DataValue, -0.060000000000000005, 3.101E-11, 
DataValue, -0.04, 4.768E-11, 
DataValue, -0.02, 6.375E-11, 
DataValue, 0, 1.0816E-10, 
DataValue, 0.02, 1.4851E-10, 
DataValue, 0.04, 1.8711E-10, 
DataValue, 0.060000000000000005, 2.0347E-10, 
DataValue, 0.08, 2.3936E-10, 
DataValue, 0.1, 2.504E-10, 
DataValue, 0.12000000000000001, 2.6755E-10, 
DataValue, 0.14, 2.864E-10, 
DataValue, 0.16, 2.8505E-10, 
DataValue, 0.18000000000000002, 3.034E-10, 
DataValue, 0.2, 3.2226E-10, 
DataValue, 0.22, 3.3649E-10, 
DataValue, 0.24000000000000002, 3.2734E-10, 
DataValue, 0.26, 3.4293E-10, 
DataValue, 0.28, 3.4148E-10, 
DataValue, 0.3, 3.6438E-10, 
DataValue, 0.32, 3.6517E-10, 
DataValue, 0.34, 3.5512E-10, 
DataValue, 0.36000000000000004, 3.7497E-10, 
DataValue, 0.38, 3.8961E-10, 
DataValue, 0.4, 4.0626E-10, 
DataValue, 0.42000000000000004, 4.13E-10, 
DataValue, 0.44, 4.3134E-10, 
DataValue, 0.46, 4.3062E-10, 
DataValue, 0.48000000000000004, 4.6174E-10, 
DataValue, 0.5, 4.6502E-10, 
DataValue, 0.52, 4.7319E-10, 
DataValue, 0.54, 4.5761E-10, 
DataValue, 0.56, 4.8177E-10, 
DataValue, 0.58000000000000007, 5.0382E-10, 
DataValue, 0.6, 5.0394E-10, 
DataValue, 0.62, 5.1825E-10, 
DataValue, 0.64, 5.3048E-10, 
DataValue, 0.66, 5.5121E-10, 
DataValue, 0.68, 5.5574E-10, 
DataValue, 0.70000000000000007, 5.5631E-10, 
DataValue, 0.72000000000000008, 5.8102E-10, 
DataValue, 0.74, 5.8466E-10, 
DataValue, 0.76, 6.0113E-10, 
DataValue, 0.78, 6.2333E-10, 
DataValue, 0.8, 6.545E-10, 
DataValue, 0.82000000000000006, 6.4609E-10, 
DataValue, 0.84000000000000008, 6.6273E-10, 
DataValue, 0.86, 6.6452E-10, 
DataValue, 0.88, 6.855E-10, 
DataValue, 0.9, 7.0495E-10, 
DataValue, 0.92, 7.0915E-10, 
DataValue, 0.94000000000000006, 6.8834E-10, 
DataValue, 0.96000000000000008, 7.1112E-10, 
DataValue, 0.98000000000000009, 7.4466E-10, 
DataValue, 1, 7.4002E-10, 