
SetupTitle, WW
PrimitiveTest, I/V Sweep
TestParameter, Context.MainFrame, B1500A
TestParameter, Channel.UnitType, SMU, SMU
TestParameter, Channel.Unit, SMU2:HP, SMU1:HP
TestParameter, Channel.IName, I1, I4
TestParameter, Channel.VName, V1, V4
TestParameter, Channel.Mode, V, COMMON
TestParameter, Channel.Func, VAR1, CONST
TestParameter, Channel.Index, 
TestParameter, Channel.Time, 
TestParameter, Measurement.Port.Unit, SMU2:HP, SMU1:HP
TestParameter, Measurement.Port.SeriesResistor, NONE, NONE
TestParameter, Measurement.Port.Filter, ON, ON
TestParameter, Measurement.Port.OutputVoltageComparison, 0, 0
TestParameter, Measurement.Primary.Locus, Single
TestParameter, Measurement.Primary.Scale, LINEAR
TestParameter, Measurement.Primary.Start, -1
TestParameter, Measurement.Primary.Stop, 1
TestParameter, Measurement.Primary.Step, 0.02
TestParameter, Measurement.Primary.Compliance, 0.01
TestParameter, Measurement.Primary.PowerCompliance, 0
TestParameter, Measurement.Aborting.Condition, CONTINUE AT ANY
TestParameter, Measurement.PostOutput.Value, START
TestParameter, Measurement.PostOutput.Retention, OFF
TestParameter, Measurement.Bias.Source, -1, 0
TestParameter, Measurement.Bias.Compliance, 0.01, 1
TestParameter, Measurement.Monitor.Unit, SMU2:HP, SMU1:HP
TestParameter, Measurement.Monitor.Adc, HR ADC, HR ADC
TestParameter, Measurement.Monitor.Measurement, Compliance Side, Compliance Side
TestParameter, Measurement.Monitor.RangingMode, AUTO, AUTO
TestParameter, Measurement.Monitor.RangeBoundary, , 
TestParameter, Measurement.Monitor.RangeRating, BY FULL RANGE, BY FULL RANGE
TestParameter, Measurement.Monitor.RangeRatingCoeff, 50, 50
TestParameter, Measurement.Timing.Hold, 0
TestParameter, Measurement.Timing.Delay, 0.001
TestParameter, Measurement.Adc.HighSpeed.Mode, AUTO
TestParameter, Measurement.Adc.HighSpeed.Coeff, 1
TestParameter, Measurement.Adc.HighResolution.AutoZero, OFF
TestParameter, Measurement.Adc.HighResolution.Mode, PLC
TestParameter, Measurement.Adc.HighResolution.Coeff, 1
TestParameter, Measurement.WaitTime.Source.Coeff, 1
TestParameter, Measurement.WaitTime.Source.Offset, 0
TestParameter, Measurement.WaitTime.Monitor.Coeff, 1
TestParameter, Measurement.WaitTime.Monitor.Offset, 0
TestParameter, Function.User.Name, Ohmic
TestParameter, Function.User.Unit, ohm
TestParameter, Function.User.Definition, avg(V1/I1)
TestParameter, Output.Graph.Enabled, true
TestParameter, Output.Graph.XAxis.Data, V1
TestParameter, Output.Graph.XAxis.Scale, Linear
TestParameter, Output.Graph.XAxis.Left, -5
TestParameter, Output.Graph.XAxis.Right, 5
TestParameter, Output.Graph.YAxis.Data, I1
TestParameter, Output.Graph.YAxis.Scale, Linear
TestParameter, Output.Graph.YAxis.Bottom, -0.001
TestParameter, Output.Graph.YAxis.Top, 0.001
TestParameter, Output.Graph.YAxis.Group, 
TestParameter, Output.Scalar.Data, Ohmic
TestParameter, AutoAnalysis.Interpolation, false
TestParameter, AutoAnalysis.Line1.Enabled, false
TestParameter, AutoAnalysis.Line1.Type, 1
TestParameter, AutoAnalysis.Line1.Fix, True
TestParameter, AutoAnalysis.Line1.YAxis, 0
TestParameter, AutoAnalysis.Line1.Point1.Type, 0
TestParameter, AutoAnalysis.Line1.Point1.XY.X, 
TestParameter, AutoAnalysis.Line1.Point1.XY.Y, 
TestParameter, AutoAnalysis.Line1.Point1.Data.Var, 
TestParameter, AutoAnalysis.Line1.Point1.Data.Condition, 
TestParameter, AutoAnalysis.Line1.Point1.Data.Start, false
TestParameter, AutoAnalysis.Line1.Point1.Data.StartVar, 
TestParameter, AutoAnalysis.Line1.Point1.Data.StartCondition, 
TestParameter, AutoAnalysis.Line1.Point2.Type, 0
TestParameter, AutoAnalysis.Line1.Point2.XY.X, 
TestParameter, AutoAnalysis.Line1.Point2.XY.Y, 
TestParameter, AutoAnalysis.Line1.Point2.Data.Var, 
TestParameter, AutoAnalysis.Line1.Point2.Data.Condition, 
TestParameter, AutoAnalysis.Line1.Point2.Data.Start, false
TestParameter, AutoAnalysis.Line1.Point2.Data.StartVar, 
TestParameter, AutoAnalysis.Line1.Point2.Data.StartCondition, 
TestParameter, AutoAnalysis.Line1.GradientExpr, 0
TestParameter, AutoAnalysis.Line2.Enabled, false
TestParameter, AutoAnalysis.Line2.Type, 1
TestParameter, AutoAnalysis.Line2.Fix, True
TestParameter, AutoAnalysis.Line2.YAxis, 0
TestParameter, AutoAnalysis.Line2.Point1.Type, 0
TestParameter, AutoAnalysis.Line2.Point1.XY.X, 
TestParameter, AutoAnalysis.Line2.Point1.XY.Y, 
TestParameter, AutoAnalysis.Line2.Point1.Data.Var, 
TestParameter, AutoAnalysis.Line2.Point1.Data.Condition, 
TestParameter, AutoAnalysis.Line2.Point1.Data.Start, false
TestParameter, AutoAnalysis.Line2.Point1.Data.StartVar, 
TestParameter, AutoAnalysis.Line2.Point1.Data.StartCondition, 
TestParameter, AutoAnalysis.Line2.Point2.Type, 0
TestParameter, AutoAnalysis.Line2.Point2.XY.X, 
TestParameter, AutoAnalysis.Line2.Point2.XY.Y, 
TestParameter, AutoAnalysis.Line2.Point2.Data.Var, 
TestParameter, AutoAnalysis.Line2.Point2.Data.Condition, 
TestParameter, AutoAnalysis.Line2.Point2.Data.Start, false
TestParameter, AutoAnalysis.Line2.Point2.Data.StartVar, 
TestParameter, AutoAnalysis.Line2.Point2.Data.StartCondition, 
TestParameter, AutoAnalysis.Line2.GradientExpr, 0
TestParameter, AutoAnalysis.Marker.Enabled, false
TestParameter, AutoAnalysis.Marker.Data.Var, 
TestParameter, AutoAnalysis.Marker.Data.Condition, 
TestParameter, AutoAnalysis.Marker.Data.Start, false
TestParameter, AutoAnalysis.Marker.Data.StartVar, 
TestParameter, AutoAnalysis.Marker.Data.StartCondition, 
MetaData, TestRecord.EntryPoint, true
MetaData, TestRecord.RecordTime, 01/18/2020 16:55:03
MetaData, TestRecord.TestTarget, 
MetaData, TestRecord.IterationIndex, 49
MetaData, TestRecord.Preservation, true
MetaData, TestRecord.Flag, 
MetaData, TestRecord.Remarks, 
MetaData, TestRecord.LinkKey, a9e48fe1-a98c-405c-9e38-3ec91eb09ac3
Dimension1, 101, 101, 101
Dimension2, 1, 1, 1
DataName, V1, I1, Ohmic
DataValue, -1, -8.58E-11, 7769044598.0133
DataValue, -0.98000000000000009, -6.128E-11, 
DataValue, -0.96000000000000008, -7.872E-11, 
DataValue, -0.94000000000000006, -7.271E-11, 
DataValue, -0.92, -6.783E-11, 
DataValue, -0.9, -6.292E-11, 
DataValue, -0.88, -7.135E-11, 
DataValue, -0.86, -6.011E-11, 
DataValue, -0.84000000000000008, -6.054E-11, 
DataValue, -0.82000000000000006, -6.121E-11, 
DataValue, -0.8, -5.898E-11, 
DataValue, -0.78, -5.813E-11, 
DataValue, -0.76, -5.081E-11, 
DataValue, -0.74, -6.733E-11, 
DataValue, -0.72000000000000008, -6.513E-11, 
DataValue, -0.70000000000000007, -5.267E-11, 
DataValue, -0.68, -5.579E-11, 
DataValue, -0.66, -4.188E-11, 
DataValue, -0.64, -3.727E-11, 
DataValue, -0.62, -3.498E-11, 
DataValue, -0.6, -3.618E-11, 
DataValue, -0.58000000000000007, -3.728E-11, 
DataValue, -0.56, -3.972E-11, 
DataValue, -0.54, -2.892E-11, 
DataValue, -0.52, -2.807E-11, 
DataValue, -0.5, -2.291E-11, 
DataValue, -0.48000000000000004, -3.279E-11, 
DataValue, -0.46, -2.59E-11, 
DataValue, -0.44, -2.662E-11, 
DataValue, -0.42000000000000004, -1.615E-11, 
DataValue, -0.4, -1.785E-11, 
DataValue, -0.38, -1.866E-11, 
DataValue, -0.36000000000000004, -1.682E-11, 
DataValue, -0.34, -1.65E-11, 
DataValue, -0.32, -2.787E-11, 
DataValue, -0.3, -1.217E-11, 
DataValue, -0.28, 1.588E-11, 
DataValue, -0.26, -8.71E-12, 
DataValue, -0.24000000000000002, -5.12E-12, 
DataValue, -0.22, -3.49E-12, 
DataValue, -0.2, -9.57E-12, 
DataValue, -0.18000000000000002, -5.71E-12, 
DataValue, -0.16, -3.06E-12, 
DataValue, -0.14, -1.17E-12, 
DataValue, -0.12000000000000001, 7.5E-13, 
DataValue, -0.1, 9.9E-12, 
DataValue, -0.08, 4.7E-12, 
DataValue, -0.060000000000000005, 3.356E-11, 
DataValue, -0.04, 3.767E-11, 
DataValue, -0.02, 7.881E-11, 
DataValue, 0, 8.403E-11, 
DataValue, 0.02, 1.5944E-10, 
DataValue, 0.04, 1.7294E-10, 
DataValue, 0.060000000000000005, 2.0684E-10, 
DataValue, 0.08, 2.3745E-10, 
DataValue, 0.1, 2.3282E-10, 
DataValue, 0.12000000000000001, 2.4321E-10, 
DataValue, 0.14, 2.7037E-10, 
DataValue, 0.16, 2.7461E-10, 
DataValue, 0.18000000000000002, 2.903E-10, 
DataValue, 0.2, 2.9319E-10, 
DataValue, 0.22, 2.9269E-10, 
DataValue, 0.24000000000000002, 3.1833E-10, 
DataValue, 0.26, 3.2975E-10, 
DataValue, 0.28, 3.2482E-10, 
DataValue, 0.3, 3.4759E-10, 
DataValue, 0.32, 3.361E-10, 
DataValue, 0.34, 3.4487E-10, 
DataValue, 0.36000000000000004, 3.5372E-10, 
DataValue, 0.38, 3.7798E-10, 
DataValue, 0.4, 3.855E-10, 
DataValue, 0.42000000000000004, 3.9975E-10, 
DataValue, 0.44, 3.929E-10, 
DataValue, 0.46, 3.9335E-10, 
DataValue, 0.48000000000000004, 4.1954E-10, 
DataValue, 0.5, 4.4475E-10, 
DataValue, 0.52, 4.3197E-10, 
DataValue, 0.54, 4.3689E-10, 
DataValue, 0.56, 4.5683E-10, 
DataValue, 0.58000000000000007, 4.4544E-10, 
DataValue, 0.6, 4.5012E-10, 
DataValue, 0.62, 4.6394E-10, 
DataValue, 0.64, 4.782E-10, 
DataValue, 0.66, 5.4384E-10, 
DataValue, 0.68, 5.811E-10, 
DataValue, 0.70000000000000007, 5.9671E-10, 
DataValue, 0.72000000000000008, 5.7101E-10, 
DataValue, 0.74, 5.9194E-10, 
DataValue, 0.76, 6.0352E-10, 
DataValue, 0.78, 5.8715E-10, 
DataValue, 0.8, 5.9684E-10, 
DataValue, 0.82000000000000006, 5.592E-10, 
DataValue, 0.84000000000000008, 5.8416E-10, 
DataValue, 0.86, 5.3358E-10, 
DataValue, 0.88, 5.9811E-10, 
DataValue, 0.9, 6.4467E-10, 
DataValue, 0.92, 6.2791E-10, 
DataValue, 0.94000000000000006, 6.5565E-10, 
DataValue, 0.96000000000000008, 6.4551E-10, 
DataValue, 0.98000000000000009, 6.7097E-10, 
DataValue, 1, 6.7476E-10, 