
SetupTitle, WW
PrimitiveTest, I/V Sweep
TestParameter, Context.MainFrame, B1500A
TestParameter, Channel.UnitType, SMU, SMU
TestParameter, Channel.Unit, SMU2:HP, SMU1:HP
TestParameter, Channel.IName, I1, I4
TestParameter, Channel.VName, V1, V4
TestParameter, Channel.Mode, V, COMMON
TestParameter, Channel.Func, VAR1, CONST
TestParameter, Channel.Index, 
TestParameter, Channel.Time, 
TestParameter, Measurement.Port.Unit, SMU2:HP, SMU1:HP
TestParameter, Measurement.Port.SeriesResistor, NONE, NONE
TestParameter, Measurement.Port.Filter, ON, ON
TestParameter, Measurement.Port.OutputVoltageComparison, 0, 0
TestParameter, Measurement.Primary.Locus, Single
TestParameter, Measurement.Primary.Scale, LINEAR
TestParameter, Measurement.Primary.Start, -1
TestParameter, Measurement.Primary.Stop, 1
TestParameter, Measurement.Primary.Step, 0.02
TestParameter, Measurement.Primary.Compliance, 0.01
TestParameter, Measurement.Primary.PowerCompliance, 0
TestParameter, Measurement.Aborting.Condition, CONTINUE AT ANY
TestParameter, Measurement.PostOutput.Value, START
TestParameter, Measurement.PostOutput.Retention, OFF
TestParameter, Measurement.Bias.Source, -1, 0
TestParameter, Measurement.Bias.Compliance, 0.01, 1
TestParameter, Measurement.Monitor.Unit, SMU2:HP, SMU1:HP
TestParameter, Measurement.Monitor.Adc, HR ADC, HR ADC
TestParameter, Measurement.Monitor.Measurement, Compliance Side, Compliance Side
TestParameter, Measurement.Monitor.RangingMode, AUTO, AUTO
TestParameter, Measurement.Monitor.RangeBoundary, , 
TestParameter, Measurement.Monitor.RangeRating, BY FULL RANGE, BY FULL RANGE
TestParameter, Measurement.Monitor.RangeRatingCoeff, 50, 50
TestParameter, Measurement.Timing.Hold, 0
TestParameter, Measurement.Timing.Delay, 0.001
TestParameter, Measurement.Adc.HighSpeed.Mode, AUTO
TestParameter, Measurement.Adc.HighSpeed.Coeff, 1
TestParameter, Measurement.Adc.HighResolution.AutoZero, OFF
TestParameter, Measurement.Adc.HighResolution.Mode, PLC
TestParameter, Measurement.Adc.HighResolution.Coeff, 1
TestParameter, Measurement.WaitTime.Source.Coeff, 1
TestParameter, Measurement.WaitTime.Source.Offset, 0
TestParameter, Measurement.WaitTime.Monitor.Coeff, 1
TestParameter, Measurement.WaitTime.Monitor.Offset, 0
TestParameter, Function.User.Name, Ohmic
TestParameter, Function.User.Unit, ohm
TestParameter, Function.User.Definition, avg(V1/I1)
TestParameter, Output.Graph.Enabled, true
TestParameter, Output.Graph.XAxis.Data, V1
TestParameter, Output.Graph.XAxis.Scale, Linear
TestParameter, Output.Graph.XAxis.Left, -5
TestParameter, Output.Graph.XAxis.Right, 5
TestParameter, Output.Graph.YAxis.Data, I1
TestParameter, Output.Graph.YAxis.Scale, Linear
TestParameter, Output.Graph.YAxis.Bottom, -0.001
TestParameter, Output.Graph.YAxis.Top, 0.001
TestParameter, Output.Graph.YAxis.Group, 
TestParameter, Output.Scalar.Data, Ohmic
TestParameter, AutoAnalysis.Interpolation, false
TestParameter, AutoAnalysis.Line1.Enabled, false
TestParameter, AutoAnalysis.Line1.Type, 1
TestParameter, AutoAnalysis.Line1.Fix, True
TestParameter, AutoAnalysis.Line1.YAxis, 0
TestParameter, AutoAnalysis.Line1.Point1.Type, 0
TestParameter, AutoAnalysis.Line1.Point1.XY.X, 
TestParameter, AutoAnalysis.Line1.Point1.XY.Y, 
TestParameter, AutoAnalysis.Line1.Point1.Data.Var, 
TestParameter, AutoAnalysis.Line1.Point1.Data.Condition, 
TestParameter, AutoAnalysis.Line1.Point1.Data.Start, false
TestParameter, AutoAnalysis.Line1.Point1.Data.StartVar, 
TestParameter, AutoAnalysis.Line1.Point1.Data.StartCondition, 
TestParameter, AutoAnalysis.Line1.Point2.Type, 0
TestParameter, AutoAnalysis.Line1.Point2.XY.X, 
TestParameter, AutoAnalysis.Line1.Point2.XY.Y, 
TestParameter, AutoAnalysis.Line1.Point2.Data.Var, 
TestParameter, AutoAnalysis.Line1.Point2.Data.Condition, 
TestParameter, AutoAnalysis.Line1.Point2.Data.Start, false
TestParameter, AutoAnalysis.Line1.Point2.Data.StartVar, 
TestParameter, AutoAnalysis.Line1.Point2.Data.StartCondition, 
TestParameter, AutoAnalysis.Line1.GradientExpr, 0
TestParameter, AutoAnalysis.Line2.Enabled, false
TestParameter, AutoAnalysis.Line2.Type, 1
TestParameter, AutoAnalysis.Line2.Fix, True
TestParameter, AutoAnalysis.Line2.YAxis, 0
TestParameter, AutoAnalysis.Line2.Point1.Type, 0
TestParameter, AutoAnalysis.Line2.Point1.XY.X, 
TestParameter, AutoAnalysis.Line2.Point1.XY.Y, 
TestParameter, AutoAnalysis.Line2.Point1.Data.Var, 
TestParameter, AutoAnalysis.Line2.Point1.Data.Condition, 
TestParameter, AutoAnalysis.Line2.Point1.Data.Start, false
TestParameter, AutoAnalysis.Line2.Point1.Data.StartVar, 
TestParameter, AutoAnalysis.Line2.Point1.Data.StartCondition, 
TestParameter, AutoAnalysis.Line2.Point2.Type, 0
TestParameter, AutoAnalysis.Line2.Point2.XY.X, 
TestParameter, AutoAnalysis.Line2.Point2.XY.Y, 
TestParameter, AutoAnalysis.Line2.Point2.Data.Var, 
TestParameter, AutoAnalysis.Line2.Point2.Data.Condition, 
TestParameter, AutoAnalysis.Line2.Point2.Data.Start, false
TestParameter, AutoAnalysis.Line2.Point2.Data.StartVar, 
TestParameter, AutoAnalysis.Line2.Point2.Data.StartCondition, 
TestParameter, AutoAnalysis.Line2.GradientExpr, 0
TestParameter, AutoAnalysis.Marker.Enabled, false
TestParameter, AutoAnalysis.Marker.Data.Var, 
TestParameter, AutoAnalysis.Marker.Data.Condition, 
TestParameter, AutoAnalysis.Marker.Data.Start, false
TestParameter, AutoAnalysis.Marker.Data.StartVar, 
TestParameter, AutoAnalysis.Marker.Data.StartCondition, 
MetaData, TestRecord.EntryPoint, true
MetaData, TestRecord.RecordTime, 01/18/2020 16:54:33
MetaData, TestRecord.TestTarget, 
MetaData, TestRecord.IterationIndex, 48
MetaData, TestRecord.Preservation, true
MetaData, TestRecord.Flag, 
MetaData, TestRecord.Remarks, 
MetaData, TestRecord.LinkKey, c71c2550-9793-4788-8f0a-450c8a5ed1a0
Dimension1, 101, 101, 101
Dimension2, 1, 1, 1
DataName, V1, I1, Ohmic
DataValue, -1, -9.342E-11, 8394486291.0931816
DataValue, -0.98000000000000009, -7.858E-11, 
DataValue, -0.96000000000000008, -8.161E-11, 
DataValue, -0.94000000000000006, -7.173E-11, 
DataValue, -0.92, -7.153E-11, 
DataValue, -0.9, -6.681E-11, 
DataValue, -0.88, -6.827E-11, 
DataValue, -0.86, -6.324E-11, 
DataValue, -0.84000000000000008, -5.643E-11, 
DataValue, -0.82000000000000006, -5.96E-11, 
DataValue, -0.8, -5.284E-11, 
DataValue, -0.78, -5.223E-11, 
DataValue, -0.76, -5.534E-11, 
DataValue, -0.74, -5.3939999999999997E-11, 
DataValue, -0.72000000000000008, -5.052E-11, 
DataValue, -0.70000000000000007, -4.308E-11, 
DataValue, -0.68, -4.682E-11, 
DataValue, -0.66, -3.626E-11, 
DataValue, -0.64, -3.049E-11, 
DataValue, -0.62, -3.232E-11, 
DataValue, -0.6, -4.654E-11, 
DataValue, -0.58000000000000007, -3.108E-11, 
DataValue, -0.56, -2.293E-11, 
DataValue, -0.54, -3.109E-11, 
DataValue, -0.52, -3.526E-11, 
DataValue, -0.5, -2.606E-11, 
DataValue, -0.48000000000000004, -2.326E-11, 
DataValue, -0.46, -2.159E-11, 
DataValue, -0.44, -2.174E-11, 
DataValue, -0.42000000000000004, -2.249E-11, 
DataValue, -0.4, -1.902E-11, 
DataValue, -0.38, -1.823E-11, 
DataValue, -0.36000000000000004, -2.033E-11, 
DataValue, -0.34, -1.68E-11, 
DataValue, -0.32, -1.071E-11, 
DataValue, -0.3, -1.085E-11, 
DataValue, -0.28, -1.695E-11, 
DataValue, -0.26, -6.82E-12, 
DataValue, -0.24000000000000002, -1.332E-11, 
DataValue, -0.22, -5.13E-12, 
DataValue, -0.2, -2.113E-11, 
DataValue, -0.18000000000000002, -6.35E-12, 
DataValue, -0.16, -1.109E-11, 
DataValue, -0.14, -6.35E-12, 
DataValue, -0.12000000000000001, -3.2E-12, 
DataValue, -0.1, 5.13E-12, 
DataValue, -0.08, 1.86E-12, 
DataValue, -0.060000000000000005, 1.295E-11, 
DataValue, -0.04, 1.837E-11, 
DataValue, -0.02, 4.56E-11, 
DataValue, 0, 6.414E-11, 
DataValue, 0.02, 1.0066E-10, 
DataValue, 0.04, 1.153E-10, 
DataValue, 0.060000000000000005, 1.4013E-10, 
DataValue, 0.08, 1.4805E-10, 
DataValue, 0.1, 1.6063E-10, 
DataValue, 0.12000000000000001, 1.6404E-10, 
DataValue, 0.14, 1.7746E-10, 
DataValue, 0.16, 1.8501E-10, 
DataValue, 0.18000000000000002, 1.9875E-10, 
DataValue, 0.2, 1.9953E-10, 
DataValue, 0.22, 2.1117E-10, 
DataValue, 0.24000000000000002, 1.9827E-10, 
DataValue, 0.26, 2.1731E-10, 
DataValue, 0.28, 2.3157E-10, 
DataValue, 0.3, 2.5384E-10, 
DataValue, 0.32, 2.5397E-10, 
DataValue, 0.34, 2.582E-10, 
DataValue, 0.36000000000000004, 2.5668E-10, 
DataValue, 0.38, 2.5626E-10, 
DataValue, 0.4, 2.6133E-10, 
DataValue, 0.42000000000000004, 2.8219E-10, 
DataValue, 0.44, 2.6704E-10, 
DataValue, 0.46, 2.8966E-10, 
DataValue, 0.48000000000000004, 3.2192E-10, 
DataValue, 0.5, 3.257E-10, 
DataValue, 0.52, 3.3185E-10, 
DataValue, 0.54, 3.1786E-10, 
DataValue, 0.56, 3.4559E-10, 
DataValue, 0.58000000000000007, 3.4648E-10, 
DataValue, 0.6, 3.444E-10, 
DataValue, 0.62, 3.7461E-10, 
DataValue, 0.64, 3.7395E-10, 
DataValue, 0.66, 3.9951E-10, 
DataValue, 0.68, 3.9029E-10, 
DataValue, 0.70000000000000007, 3.7395E-10, 
DataValue, 0.72000000000000008, 3.8235E-10, 
DataValue, 0.74, 3.705E-10, 
DataValue, 0.76, 4.0511E-10, 
DataValue, 0.78, 4.2813E-10, 
DataValue, 0.8, 4.0504E-10, 
DataValue, 0.82000000000000006, 3.9389E-10, 
DataValue, 0.84000000000000008, 3.9182E-10, 
DataValue, 0.86, 4.251E-10, 
DataValue, 0.88, 4.1973E-10, 
DataValue, 0.9, 4.6458E-10, 
DataValue, 0.92, 4.2274E-10, 
DataValue, 0.94000000000000006, 4.4817E-10, 
DataValue, 0.96000000000000008, 4.4839E-10, 
DataValue, 0.98000000000000009, 4.7753E-10, 
DataValue, 1, 4.7773E-10, 