
SetupTitle, WW
PrimitiveTest, I/V Sweep
TestParameter, Context.MainFrame, B1500A
TestParameter, Channel.UnitType, SMU, SMU
TestParameter, Channel.Unit, SMU2:HP, SMU1:HP
TestParameter, Channel.IName, I1, I4
TestParameter, Channel.VName, V1, V4
TestParameter, Channel.Mode, V, COMMON
TestParameter, Channel.Func, VAR1, CONST
TestParameter, Channel.Index, 
TestParameter, Channel.Time, 
TestParameter, Measurement.Port.Unit, SMU2:HP, SMU1:HP
TestParameter, Measurement.Port.SeriesResistor, NONE, NONE
TestParameter, Measurement.Port.Filter, ON, ON
TestParameter, Measurement.Port.OutputVoltageComparison, 0, 0
TestParameter, Measurement.Primary.Locus, Single
TestParameter, Measurement.Primary.Scale, LINEAR
TestParameter, Measurement.Primary.Start, -1
TestParameter, Measurement.Primary.Stop, 1
TestParameter, Measurement.Primary.Step, 0.02
TestParameter, Measurement.Primary.Compliance, 0.01
TestParameter, Measurement.Primary.PowerCompliance, 0
TestParameter, Measurement.Aborting.Condition, CONTINUE AT ANY
TestParameter, Measurement.PostOutput.Value, START
TestParameter, Measurement.PostOutput.Retention, OFF
TestParameter, Measurement.Bias.Source, -1, 0
TestParameter, Measurement.Bias.Compliance, 0.01, 1
TestParameter, Measurement.Monitor.Unit, SMU2:HP, SMU1:HP
TestParameter, Measurement.Monitor.Adc, HR ADC, HR ADC
TestParameter, Measurement.Monitor.Measurement, Compliance Side, Compliance Side
TestParameter, Measurement.Monitor.RangingMode, AUTO, AUTO
TestParameter, Measurement.Monitor.RangeBoundary, , 
TestParameter, Measurement.Monitor.RangeRating, BY FULL RANGE, BY FULL RANGE
TestParameter, Measurement.Monitor.RangeRatingCoeff, 50, 50
TestParameter, Measurement.Timing.Hold, 0
TestParameter, Measurement.Timing.Delay, 0.001
TestParameter, Measurement.Adc.HighSpeed.Mode, AUTO
TestParameter, Measurement.Adc.HighSpeed.Coeff, 1
TestParameter, Measurement.Adc.HighResolution.AutoZero, OFF
TestParameter, Measurement.Adc.HighResolution.Mode, PLC
TestParameter, Measurement.Adc.HighResolution.Coeff, 1
TestParameter, Measurement.WaitTime.Source.Coeff, 1
TestParameter, Measurement.WaitTime.Source.Offset, 0
TestParameter, Measurement.WaitTime.Monitor.Coeff, 1
TestParameter, Measurement.WaitTime.Monitor.Offset, 0
TestParameter, Function.User.Name, Ohmic
TestParameter, Function.User.Unit, ohm
TestParameter, Function.User.Definition, avg(V1/I1)
TestParameter, Output.Graph.Enabled, true
TestParameter, Output.Graph.XAxis.Data, V1
TestParameter, Output.Graph.XAxis.Scale, Linear
TestParameter, Output.Graph.XAxis.Left, -5
TestParameter, Output.Graph.XAxis.Right, 5
TestParameter, Output.Graph.YAxis.Data, I1
TestParameter, Output.Graph.YAxis.Scale, Linear
TestParameter, Output.Graph.YAxis.Bottom, -0.001
TestParameter, Output.Graph.YAxis.Top, 0.001
TestParameter, Output.Graph.YAxis.Group, 
TestParameter, Output.Scalar.Data, Ohmic
TestParameter, AutoAnalysis.Interpolation, false
TestParameter, AutoAnalysis.Line1.Enabled, false
TestParameter, AutoAnalysis.Line1.Type, 1
TestParameter, AutoAnalysis.Line1.Fix, True
TestParameter, AutoAnalysis.Line1.YAxis, 0
TestParameter, AutoAnalysis.Line1.Point1.Type, 0
TestParameter, AutoAnalysis.Line1.Point1.XY.X, 
TestParameter, AutoAnalysis.Line1.Point1.XY.Y, 
TestParameter, AutoAnalysis.Line1.Point1.Data.Var, 
TestParameter, AutoAnalysis.Line1.Point1.Data.Condition, 
TestParameter, AutoAnalysis.Line1.Point1.Data.Start, false
TestParameter, AutoAnalysis.Line1.Point1.Data.StartVar, 
TestParameter, AutoAnalysis.Line1.Point1.Data.StartCondition, 
TestParameter, AutoAnalysis.Line1.Point2.Type, 0
TestParameter, AutoAnalysis.Line1.Point2.XY.X, 
TestParameter, AutoAnalysis.Line1.Point2.XY.Y, 
TestParameter, AutoAnalysis.Line1.Point2.Data.Var, 
TestParameter, AutoAnalysis.Line1.Point2.Data.Condition, 
TestParameter, AutoAnalysis.Line1.Point2.Data.Start, false
TestParameter, AutoAnalysis.Line1.Point2.Data.StartVar, 
TestParameter, AutoAnalysis.Line1.Point2.Data.StartCondition, 
TestParameter, AutoAnalysis.Line1.GradientExpr, 0
TestParameter, AutoAnalysis.Line2.Enabled, false
TestParameter, AutoAnalysis.Line2.Type, 1
TestParameter, AutoAnalysis.Line2.Fix, True
TestParameter, AutoAnalysis.Line2.YAxis, 0
TestParameter, AutoAnalysis.Line2.Point1.Type, 0
TestParameter, AutoAnalysis.Line2.Point1.XY.X, 
TestParameter, AutoAnalysis.Line2.Point1.XY.Y, 
TestParameter, AutoAnalysis.Line2.Point1.Data.Var, 
TestParameter, AutoAnalysis.Line2.Point1.Data.Condition, 
TestParameter, AutoAnalysis.Line2.Point1.Data.Start, false
TestParameter, AutoAnalysis.Line2.Point1.Data.StartVar, 
TestParameter, AutoAnalysis.Line2.Point1.Data.StartCondition, 
TestParameter, AutoAnalysis.Line2.Point2.Type, 0
TestParameter, AutoAnalysis.Line2.Point2.XY.X, 
TestParameter, AutoAnalysis.Line2.Point2.XY.Y, 
TestParameter, AutoAnalysis.Line2.Point2.Data.Var, 
TestParameter, AutoAnalysis.Line2.Point2.Data.Condition, 
TestParameter, AutoAnalysis.Line2.Point2.Data.Start, false
TestParameter, AutoAnalysis.Line2.Point2.Data.StartVar, 
TestParameter, AutoAnalysis.Line2.Point2.Data.StartCondition, 
TestParameter, AutoAnalysis.Line2.GradientExpr, 0
TestParameter, AutoAnalysis.Marker.Enabled, false
TestParameter, AutoAnalysis.Marker.Data.Var, 
TestParameter, AutoAnalysis.Marker.Data.Condition, 
TestParameter, AutoAnalysis.Marker.Data.Start, false
TestParameter, AutoAnalysis.Marker.Data.StartVar, 
TestParameter, AutoAnalysis.Marker.Data.StartCondition, 
MetaData, TestRecord.EntryPoint, true
MetaData, TestRecord.RecordTime, 01/18/2020 16:54:03
MetaData, TestRecord.TestTarget, 
MetaData, TestRecord.IterationIndex, 47
MetaData, TestRecord.Preservation, true
MetaData, TestRecord.Flag, 
MetaData, TestRecord.Remarks, 
MetaData, TestRecord.LinkKey, 65c6f121-c666-4f6b-a795-9aeee882a8c5
Dimension1, 101, 101, 101
Dimension2, 1, 1, 1
DataName, V1, I1, Ohmic
DataValue, -1, -6.039E-11, 13947002596.073479
DataValue, -0.98000000000000009, -6.723E-11, 
DataValue, -0.96000000000000008, -6.056E-11, 
DataValue, -0.94000000000000006, -6.257E-11, 
DataValue, -0.92, -4.951E-11, 
DataValue, -0.9, -6.27E-11, 
DataValue, -0.88, -4.005E-11, 
DataValue, -0.86, -4.875E-11, 
DataValue, -0.84000000000000008, -4.633E-11, 
DataValue, -0.82000000000000006, -2.974E-11, 
DataValue, -0.8, -3.254E-11, 
DataValue, -0.78, -3.31E-11, 
DataValue, -0.76, -3.832E-11, 
DataValue, -0.74, -3.998E-11, 
DataValue, -0.72000000000000008, -4.895E-11, 
DataValue, -0.70000000000000007, -2.97E-11, 
DataValue, -0.68, -3.828E-11, 
DataValue, -0.66, -3.1E-11, 
DataValue, -0.64, -3.674E-11, 
DataValue, -0.62, -3.206E-11, 
DataValue, -0.6, -2.116E-11, 
DataValue, -0.58000000000000007, -2.33E-11, 
DataValue, -0.56, -1.136E-11, 
DataValue, -0.54, -1.464E-11, 
DataValue, -0.52, -3.705E-11, 
DataValue, -0.5, -2.599E-11, 
DataValue, -0.48000000000000004, -3.512E-11, 
DataValue, -0.46, -1.765E-11, 
DataValue, -0.44, -1.793E-11, 
DataValue, -0.42000000000000004, -2.433E-11, 
DataValue, -0.4, -2.704E-11, 
DataValue, -0.38, -1.779E-11, 
DataValue, -0.36000000000000004, -6.88E-12, 
DataValue, -0.34, -1.126E-11, 
DataValue, -0.32, -1.66E-12, 
DataValue, -0.3, -1.79E-11, 
DataValue, -0.28, -2.126E-11, 
DataValue, -0.26, -1.696E-11, 
DataValue, -0.24000000000000002, -1.707E-11, 
DataValue, -0.22, -6.61E-12, 
DataValue, -0.2, 1.604E-11, 
DataValue, -0.18000000000000002, 8.9E-13, 
DataValue, -0.16, 7.23E-12, 
DataValue, -0.14, -1.36E-12, 
DataValue, -0.12000000000000001, -2.5E-13, 
DataValue, -0.1, 4.98E-12, 
DataValue, -0.08, 2.012E-11, 
DataValue, -0.060000000000000005, 2.685E-11, 
DataValue, -0.04, 4.356E-11, 
DataValue, -0.02, 7.908E-11, 
DataValue, 0, 1.1589E-10, 
DataValue, 0.02, 1.4917E-10, 
DataValue, 0.04, 1.8668E-10, 
DataValue, 0.060000000000000005, 2.4961E-10, 
DataValue, 0.08, 2.5695E-10, 
DataValue, 0.1, 2.6643E-10, 
DataValue, 0.12000000000000001, 2.7522E-10, 
DataValue, 0.14, 2.8358E-10, 
DataValue, 0.16, 2.9374E-10, 
DataValue, 0.18000000000000002, 2.919E-10, 
DataValue, 0.2, 3.1092E-10, 
DataValue, 0.22, 3.0014E-10, 
DataValue, 0.24000000000000002, 3.0426E-10, 
DataValue, 0.26, 3.15E-10, 
DataValue, 0.28, 3.2916E-10, 
DataValue, 0.3, 3.489E-10, 
DataValue, 0.32, 3.5880999999999997E-10, 
DataValue, 0.34, 3.7848E-10, 
DataValue, 0.36000000000000004, 3.8429E-10, 
DataValue, 0.38, 4.0644E-10, 
DataValue, 0.4, 4.1838E-10, 
DataValue, 0.42000000000000004, 4.1012E-10, 
DataValue, 0.44, 3.9578E-10, 
DataValue, 0.46, 4.4606E-10, 
DataValue, 0.48000000000000004, 4.0072E-10, 
DataValue, 0.5, 4.1921E-10, 
DataValue, 0.52, 4.4313E-10, 
DataValue, 0.54, 4.5039E-10, 
DataValue, 0.56, 4.5187E-10, 
DataValue, 0.58000000000000007, 4.7229E-10, 
DataValue, 0.6, 4.7583E-10, 
DataValue, 0.62, 4.7868E-10, 
DataValue, 0.64, 4.8397E-10, 
DataValue, 0.66, 5.055E-10, 
DataValue, 0.68, 5.1171E-10, 
DataValue, 0.70000000000000007, 5.2856E-10, 
DataValue, 0.72000000000000008, 5.2595E-10, 
DataValue, 0.74, 5.6958E-10, 
DataValue, 0.76, 5.9966E-10, 
DataValue, 0.78, 5.8662E-10, 
DataValue, 0.8, 6.3682E-10, 
DataValue, 0.82000000000000006, 6.0793E-10, 
DataValue, 0.84000000000000008, 6.5402E-10, 
DataValue, 0.86, 6.7036E-10, 
DataValue, 0.88, 6.6504E-10, 
DataValue, 0.9, 6.8173E-10, 
DataValue, 0.92, 6.9186E-10, 
DataValue, 0.94000000000000006, 6.8733E-10, 
DataValue, 0.96000000000000008, 6.919E-10, 
DataValue, 0.98000000000000009, 6.9988999999999995E-10, 
DataValue, 1, 7.1498E-10, 