
SetupTitle, WW
PrimitiveTest, I/V Sweep
TestParameter, Context.MainFrame, B1500A
TestParameter, Channel.UnitType, SMU, SMU
TestParameter, Channel.Unit, SMU2:HP, SMU1:HP
TestParameter, Channel.IName, I1, I4
TestParameter, Channel.VName, V1, V4
TestParameter, Channel.Mode, V, COMMON
TestParameter, Channel.Func, VAR1, CONST
TestParameter, Channel.Index, 
TestParameter, Channel.Time, 
TestParameter, Measurement.Port.Unit, SMU2:HP, SMU1:HP
TestParameter, Measurement.Port.SeriesResistor, NONE, NONE
TestParameter, Measurement.Port.Filter, ON, ON
TestParameter, Measurement.Port.OutputVoltageComparison, 0, 0
TestParameter, Measurement.Primary.Locus, Single
TestParameter, Measurement.Primary.Scale, LINEAR
TestParameter, Measurement.Primary.Start, -1
TestParameter, Measurement.Primary.Stop, 1
TestParameter, Measurement.Primary.Step, 0.02
TestParameter, Measurement.Primary.Compliance, 0.01
TestParameter, Measurement.Primary.PowerCompliance, 0
TestParameter, Measurement.Aborting.Condition, CONTINUE AT ANY
TestParameter, Measurement.PostOutput.Value, START
TestParameter, Measurement.PostOutput.Retention, OFF
TestParameter, Measurement.Bias.Source, -1, 0
TestParameter, Measurement.Bias.Compliance, 0.01, 1
TestParameter, Measurement.Monitor.Unit, SMU2:HP, SMU1:HP
TestParameter, Measurement.Monitor.Adc, HR ADC, HR ADC
TestParameter, Measurement.Monitor.Measurement, Compliance Side, Compliance Side
TestParameter, Measurement.Monitor.RangingMode, AUTO, AUTO
TestParameter, Measurement.Monitor.RangeBoundary, , 
TestParameter, Measurement.Monitor.RangeRating, BY FULL RANGE, BY FULL RANGE
TestParameter, Measurement.Monitor.RangeRatingCoeff, 50, 50
TestParameter, Measurement.Timing.Hold, 0
TestParameter, Measurement.Timing.Delay, 0.001
TestParameter, Measurement.Adc.HighSpeed.Mode, AUTO
TestParameter, Measurement.Adc.HighSpeed.Coeff, 1
TestParameter, Measurement.Adc.HighResolution.AutoZero, OFF
TestParameter, Measurement.Adc.HighResolution.Mode, PLC
TestParameter, Measurement.Adc.HighResolution.Coeff, 1
TestParameter, Measurement.WaitTime.Source.Coeff, 1
TestParameter, Measurement.WaitTime.Source.Offset, 0
TestParameter, Measurement.WaitTime.Monitor.Coeff, 1
TestParameter, Measurement.WaitTime.Monitor.Offset, 0
TestParameter, Function.User.Name, Ohmic
TestParameter, Function.User.Unit, ohm
TestParameter, Function.User.Definition, avg(V1/I1)
TestParameter, Output.Graph.Enabled, true
TestParameter, Output.Graph.XAxis.Data, V1
TestParameter, Output.Graph.XAxis.Scale, Linear
TestParameter, Output.Graph.XAxis.Left, -5
TestParameter, Output.Graph.XAxis.Right, 5
TestParameter, Output.Graph.YAxis.Data, I1
TestParameter, Output.Graph.YAxis.Scale, Linear
TestParameter, Output.Graph.YAxis.Bottom, -0.001
TestParameter, Output.Graph.YAxis.Top, 0.001
TestParameter, Output.Graph.YAxis.Group, 
TestParameter, Output.Scalar.Data, Ohmic
TestParameter, AutoAnalysis.Interpolation, false
TestParameter, AutoAnalysis.Line1.Enabled, false
TestParameter, AutoAnalysis.Line1.Type, 1
TestParameter, AutoAnalysis.Line1.Fix, True
TestParameter, AutoAnalysis.Line1.YAxis, 0
TestParameter, AutoAnalysis.Line1.Point1.Type, 0
TestParameter, AutoAnalysis.Line1.Point1.XY.X, 
TestParameter, AutoAnalysis.Line1.Point1.XY.Y, 
TestParameter, AutoAnalysis.Line1.Point1.Data.Var, 
TestParameter, AutoAnalysis.Line1.Point1.Data.Condition, 
TestParameter, AutoAnalysis.Line1.Point1.Data.Start, false
TestParameter, AutoAnalysis.Line1.Point1.Data.StartVar, 
TestParameter, AutoAnalysis.Line1.Point1.Data.StartCondition, 
TestParameter, AutoAnalysis.Line1.Point2.Type, 0
TestParameter, AutoAnalysis.Line1.Point2.XY.X, 
TestParameter, AutoAnalysis.Line1.Point2.XY.Y, 
TestParameter, AutoAnalysis.Line1.Point2.Data.Var, 
TestParameter, AutoAnalysis.Line1.Point2.Data.Condition, 
TestParameter, AutoAnalysis.Line1.Point2.Data.Start, false
TestParameter, AutoAnalysis.Line1.Point2.Data.StartVar, 
TestParameter, AutoAnalysis.Line1.Point2.Data.StartCondition, 
TestParameter, AutoAnalysis.Line1.GradientExpr, 0
TestParameter, AutoAnalysis.Line2.Enabled, false
TestParameter, AutoAnalysis.Line2.Type, 1
TestParameter, AutoAnalysis.Line2.Fix, True
TestParameter, AutoAnalysis.Line2.YAxis, 0
TestParameter, AutoAnalysis.Line2.Point1.Type, 0
TestParameter, AutoAnalysis.Line2.Point1.XY.X, 
TestParameter, AutoAnalysis.Line2.Point1.XY.Y, 
TestParameter, AutoAnalysis.Line2.Point1.Data.Var, 
TestParameter, AutoAnalysis.Line2.Point1.Data.Condition, 
TestParameter, AutoAnalysis.Line2.Point1.Data.Start, false
TestParameter, AutoAnalysis.Line2.Point1.Data.StartVar, 
TestParameter, AutoAnalysis.Line2.Point1.Data.StartCondition, 
TestParameter, AutoAnalysis.Line2.Point2.Type, 0
TestParameter, AutoAnalysis.Line2.Point2.XY.X, 
TestParameter, AutoAnalysis.Line2.Point2.XY.Y, 
TestParameter, AutoAnalysis.Line2.Point2.Data.Var, 
TestParameter, AutoAnalysis.Line2.Point2.Data.Condition, 
TestParameter, AutoAnalysis.Line2.Point2.Data.Start, false
TestParameter, AutoAnalysis.Line2.Point2.Data.StartVar, 
TestParameter, AutoAnalysis.Line2.Point2.Data.StartCondition, 
TestParameter, AutoAnalysis.Line2.GradientExpr, 0
TestParameter, AutoAnalysis.Marker.Enabled, false
TestParameter, AutoAnalysis.Marker.Data.Var, 
TestParameter, AutoAnalysis.Marker.Data.Condition, 
TestParameter, AutoAnalysis.Marker.Data.Start, false
TestParameter, AutoAnalysis.Marker.Data.StartVar, 
TestParameter, AutoAnalysis.Marker.Data.StartCondition, 
MetaData, TestRecord.EntryPoint, true
MetaData, TestRecord.RecordTime, 01/18/2020 16:53:00
MetaData, TestRecord.TestTarget, 
MetaData, TestRecord.IterationIndex, 45
MetaData, TestRecord.Preservation, true
MetaData, TestRecord.Flag, 
MetaData, TestRecord.Remarks, 
MetaData, TestRecord.LinkKey, 92468d82-2988-4b85-a581-64a9c720e379
Dimension1, 101, 101, 101
Dimension2, 1, 1, 1
DataName, V1, I1, Ohmic
DataValue, -1, -7.912E-11, 8398075045.209527
DataValue, -0.98000000000000009, -6.274E-11, 
DataValue, -0.96000000000000008, -7.712E-11, 
DataValue, -0.94000000000000006, -6.834E-11, 
DataValue, -0.92, -6.766E-11, 
DataValue, -0.9, -6.721E-11, 
DataValue, -0.88, -5.249E-11, 
DataValue, -0.86, -5.841E-11, 
DataValue, -0.84000000000000008, -6.758E-11, 
DataValue, -0.82000000000000006, -4.887E-11, 
DataValue, -0.8, -4.836E-11, 
DataValue, -0.78, -4.119E-11, 
DataValue, -0.76, -4.745E-11, 
DataValue, -0.74, -4.253E-11, 
DataValue, -0.72000000000000008, -4.453E-11, 
DataValue, -0.70000000000000007, -3.716E-11, 
DataValue, -0.68, -4.181E-11, 
DataValue, -0.66, -2.778E-11, 
DataValue, -0.64, -2.246E-11, 
DataValue, -0.62, -2.829E-11, 
DataValue, -0.6, -3.117E-11, 
DataValue, -0.58000000000000007, -2.419E-11, 
DataValue, -0.56, -2.844E-11, 
DataValue, -0.54, -2.466E-11, 
DataValue, -0.52, -3.099E-11, 
DataValue, -0.5, -1.795E-11, 
DataValue, -0.48000000000000004, -2.096E-11, 
DataValue, -0.46, -1.432E-11, 
DataValue, -0.44, -2.215E-11, 
DataValue, -0.42000000000000004, -2.224E-11, 
DataValue, -0.4, -1.41E-11, 
DataValue, -0.38, -1.256E-11, 
DataValue, -0.36000000000000004, -1.148E-11, 
DataValue, -0.34, -9.36E-12, 
DataValue, -0.32, -1.953E-11, 
DataValue, -0.3, -3.98E-12, 
DataValue, -0.28, -6.29E-12, 
DataValue, -0.26, -7.95E-12, 
DataValue, -0.24000000000000002, -2.98E-12, 
DataValue, -0.22, -2.25E-12, 
DataValue, -0.2, -5.07E-12, 
DataValue, -0.18000000000000002, 1.74E-12, 
DataValue, -0.16, 5.71E-12, 
DataValue, -0.14, 4.11E-12, 
DataValue, -0.12000000000000001, 1.19E-12, 
DataValue, -0.1, 8.58E-12, 
DataValue, -0.08, 8.47E-12, 
DataValue, -0.060000000000000005, 2.034E-11, 
DataValue, -0.04, 3.099E-11, 
DataValue, -0.02, 5.114E-11, 
DataValue, 0, 7.673E-11, 
DataValue, 0.02, 9.564E-11, 
DataValue, 0.04, 1.2435E-10, 
DataValue, 0.060000000000000005, 1.3489E-10, 
DataValue, 0.08, 1.4434E-10, 
DataValue, 0.1, 1.6872E-10, 
DataValue, 0.12000000000000001, 1.7317E-10, 
DataValue, 0.14, 1.9143E-10, 
DataValue, 0.16, 1.9901E-10, 
DataValue, 0.18000000000000002, 2.0666E-10, 
DataValue, 0.2, 2.1087E-10, 
DataValue, 0.22, 2.2631E-10, 
DataValue, 0.24000000000000002, 2.3549E-10, 
DataValue, 0.26, 2.4091E-10, 
DataValue, 0.28, 2.2872E-10, 
DataValue, 0.3, 2.6652E-10, 
DataValue, 0.32, 2.8617E-10, 
DataValue, 0.34, 2.9623E-10, 
DataValue, 0.36000000000000004, 2.9964E-10, 
DataValue, 0.38, 3.0558E-10, 
DataValue, 0.4, 2.9797E-10, 
DataValue, 0.42000000000000004, 3.0383E-10, 
DataValue, 0.44, 2.9693E-10, 
DataValue, 0.46, 3.154E-10, 
DataValue, 0.48000000000000004, 3.2123E-10, 
DataValue, 0.5, 3.3491E-10, 
DataValue, 0.52, 3.4117E-10, 
DataValue, 0.54, 3.4478E-10, 
DataValue, 0.56, 3.5677E-10, 
DataValue, 0.58000000000000007, 3.7174E-10, 
DataValue, 0.6, 3.6734E-10, 
DataValue, 0.62, 3.7104E-10, 
DataValue, 0.64, 3.7143E-10, 
DataValue, 0.66, 4.2928E-10, 
DataValue, 0.68, 4.0302E-10, 
DataValue, 0.70000000000000007, 4.0223E-10, 
DataValue, 0.72000000000000008, 4.1037E-10, 
DataValue, 0.74, 4.3783E-10, 
DataValue, 0.76, 4.4693E-10, 
DataValue, 0.78, 4.484E-10, 
DataValue, 0.8, 4.5212E-10, 
DataValue, 0.82000000000000006, 4.5381E-10, 
DataValue, 0.84000000000000008, 4.8054E-10, 
DataValue, 0.86, 5.2674E-10, 
DataValue, 0.88, 5.009E-10, 
DataValue, 0.9, 5.1104E-10, 
DataValue, 0.92, 5.0927E-10, 
DataValue, 0.94000000000000006, 5.3363E-10, 
DataValue, 0.96000000000000008, 5.2236E-10, 
DataValue, 0.98000000000000009, 5.3917E-10, 
DataValue, 1, 5.5422E-10, 