
SetupTitle, WW
PrimitiveTest, I/V Sweep
TestParameter, Context.MainFrame, B1500A
TestParameter, Channel.UnitType, SMU, SMU
TestParameter, Channel.Unit, SMU2:HP, SMU1:HP
TestParameter, Channel.IName, I1, I4
TestParameter, Channel.VName, V1, V4
TestParameter, Channel.Mode, V, COMMON
TestParameter, Channel.Func, VAR1, CONST
TestParameter, Channel.Index, 
TestParameter, Channel.Time, 
TestParameter, Measurement.Port.Unit, SMU2:HP, SMU1:HP
TestParameter, Measurement.Port.SeriesResistor, NONE, NONE
TestParameter, Measurement.Port.Filter, ON, ON
TestParameter, Measurement.Port.OutputVoltageComparison, 0, 0
TestParameter, Measurement.Primary.Locus, Single
TestParameter, Measurement.Primary.Scale, LINEAR
TestParameter, Measurement.Primary.Start, -1
TestParameter, Measurement.Primary.Stop, 1
TestParameter, Measurement.Primary.Step, 0.02
TestParameter, Measurement.Primary.Compliance, 0.01
TestParameter, Measurement.Primary.PowerCompliance, 0
TestParameter, Measurement.Aborting.Condition, CONTINUE AT ANY
TestParameter, Measurement.PostOutput.Value, START
TestParameter, Measurement.PostOutput.Retention, OFF
TestParameter, Measurement.Bias.Source, -1, 0
TestParameter, Measurement.Bias.Compliance, 0.01, 1
TestParameter, Measurement.Monitor.Unit, SMU2:HP, SMU1:HP
TestParameter, Measurement.Monitor.Adc, HR ADC, HR ADC
TestParameter, Measurement.Monitor.Measurement, Compliance Side, Compliance Side
TestParameter, Measurement.Monitor.RangingMode, AUTO, AUTO
TestParameter, Measurement.Monitor.RangeBoundary, , 
TestParameter, Measurement.Monitor.RangeRating, BY FULL RANGE, BY FULL RANGE
TestParameter, Measurement.Monitor.RangeRatingCoeff, 50, 50
TestParameter, Measurement.Timing.Hold, 0
TestParameter, Measurement.Timing.Delay, 0.001
TestParameter, Measurement.Adc.HighSpeed.Mode, AUTO
TestParameter, Measurement.Adc.HighSpeed.Coeff, 1
TestParameter, Measurement.Adc.HighResolution.AutoZero, OFF
TestParameter, Measurement.Adc.HighResolution.Mode, PLC
TestParameter, Measurement.Adc.HighResolution.Coeff, 1
TestParameter, Measurement.WaitTime.Source.Coeff, 1
TestParameter, Measurement.WaitTime.Source.Offset, 0
TestParameter, Measurement.WaitTime.Monitor.Coeff, 1
TestParameter, Measurement.WaitTime.Monitor.Offset, 0
TestParameter, Function.User.Name, Ohmic
TestParameter, Function.User.Unit, ohm
TestParameter, Function.User.Definition, avg(V1/I1)
TestParameter, Output.Graph.Enabled, true
TestParameter, Output.Graph.XAxis.Data, V1
TestParameter, Output.Graph.XAxis.Scale, Linear
TestParameter, Output.Graph.XAxis.Left, -5
TestParameter, Output.Graph.XAxis.Right, 5
TestParameter, Output.Graph.YAxis.Data, I1
TestParameter, Output.Graph.YAxis.Scale, Linear
TestParameter, Output.Graph.YAxis.Bottom, -0.001
TestParameter, Output.Graph.YAxis.Top, 0.001
TestParameter, Output.Graph.YAxis.Group, 
TestParameter, Output.Scalar.Data, Ohmic
TestParameter, AutoAnalysis.Interpolation, false
TestParameter, AutoAnalysis.Line1.Enabled, false
TestParameter, AutoAnalysis.Line1.Type, 1
TestParameter, AutoAnalysis.Line1.Fix, True
TestParameter, AutoAnalysis.Line1.YAxis, 0
TestParameter, AutoAnalysis.Line1.Point1.Type, 0
TestParameter, AutoAnalysis.Line1.Point1.XY.X, 
TestParameter, AutoAnalysis.Line1.Point1.XY.Y, 
TestParameter, AutoAnalysis.Line1.Point1.Data.Var, 
TestParameter, AutoAnalysis.Line1.Point1.Data.Condition, 
TestParameter, AutoAnalysis.Line1.Point1.Data.Start, false
TestParameter, AutoAnalysis.Line1.Point1.Data.StartVar, 
TestParameter, AutoAnalysis.Line1.Point1.Data.StartCondition, 
TestParameter, AutoAnalysis.Line1.Point2.Type, 0
TestParameter, AutoAnalysis.Line1.Point2.XY.X, 
TestParameter, AutoAnalysis.Line1.Point2.XY.Y, 
TestParameter, AutoAnalysis.Line1.Point2.Data.Var, 
TestParameter, AutoAnalysis.Line1.Point2.Data.Condition, 
TestParameter, AutoAnalysis.Line1.Point2.Data.Start, false
TestParameter, AutoAnalysis.Line1.Point2.Data.StartVar, 
TestParameter, AutoAnalysis.Line1.Point2.Data.StartCondition, 
TestParameter, AutoAnalysis.Line1.GradientExpr, 0
TestParameter, AutoAnalysis.Line2.Enabled, false
TestParameter, AutoAnalysis.Line2.Type, 1
TestParameter, AutoAnalysis.Line2.Fix, True
TestParameter, AutoAnalysis.Line2.YAxis, 0
TestParameter, AutoAnalysis.Line2.Point1.Type, 0
TestParameter, AutoAnalysis.Line2.Point1.XY.X, 
TestParameter, AutoAnalysis.Line2.Point1.XY.Y, 
TestParameter, AutoAnalysis.Line2.Point1.Data.Var, 
TestParameter, AutoAnalysis.Line2.Point1.Data.Condition, 
TestParameter, AutoAnalysis.Line2.Point1.Data.Start, false
TestParameter, AutoAnalysis.Line2.Point1.Data.StartVar, 
TestParameter, AutoAnalysis.Line2.Point1.Data.StartCondition, 
TestParameter, AutoAnalysis.Line2.Point2.Type, 0
TestParameter, AutoAnalysis.Line2.Point2.XY.X, 
TestParameter, AutoAnalysis.Line2.Point2.XY.Y, 
TestParameter, AutoAnalysis.Line2.Point2.Data.Var, 
TestParameter, AutoAnalysis.Line2.Point2.Data.Condition, 
TestParameter, AutoAnalysis.Line2.Point2.Data.Start, false
TestParameter, AutoAnalysis.Line2.Point2.Data.StartVar, 
TestParameter, AutoAnalysis.Line2.Point2.Data.StartCondition, 
TestParameter, AutoAnalysis.Line2.GradientExpr, 0
TestParameter, AutoAnalysis.Marker.Enabled, false
TestParameter, AutoAnalysis.Marker.Data.Var, 
TestParameter, AutoAnalysis.Marker.Data.Condition, 
TestParameter, AutoAnalysis.Marker.Data.Start, false
TestParameter, AutoAnalysis.Marker.Data.StartVar, 
TestParameter, AutoAnalysis.Marker.Data.StartCondition, 
MetaData, TestRecord.EntryPoint, true
MetaData, TestRecord.RecordTime, 01/18/2020 16:50:56
MetaData, TestRecord.TestTarget, 
MetaData, TestRecord.IterationIndex, 41
MetaData, TestRecord.Preservation, true
MetaData, TestRecord.Flag, 
MetaData, TestRecord.Remarks, 
MetaData, TestRecord.LinkKey, 9781a953-fafa-4104-8104-ae08026f0994
Dimension1, 101, 101, 101
Dimension2, 1, 1, 1
DataName, V1, I1, Ohmic
DataValue, -1, -7.759E-11, 4336951047.2167215
DataValue, -0.98000000000000009, -5.212E-11, 
DataValue, -0.96000000000000008, -6.345E-11, 
DataValue, -0.94000000000000006, -3.94E-11, 
DataValue, -0.92, -4.196E-11, 
DataValue, -0.9, -5.315E-11, 
DataValue, -0.88, -4.269E-11, 
DataValue, -0.86, -2.1E-11, 
DataValue, -0.84000000000000008, -3.945E-11, 
DataValue, -0.82000000000000006, -2.452E-11, 
DataValue, -0.8, -2.899E-11, 
DataValue, -0.78, -1.83E-11, 
DataValue, -0.76, -2.995E-11, 
DataValue, -0.74, -2.799E-11, 
DataValue, -0.72000000000000008, -2.288E-11, 
DataValue, -0.70000000000000007, -3.255E-11, 
DataValue, -0.68, -2.918E-11, 
DataValue, -0.66, -1.731E-11, 
DataValue, -0.64, -1.767E-11, 
DataValue, -0.62, -3.307E-11, 
DataValue, -0.6, -1.868E-11, 
DataValue, -0.58000000000000007, -1.92E-11, 
DataValue, -0.56, -7.27E-12, 
DataValue, -0.54, 1.75E-12, 
DataValue, -0.52, -1.708E-11, 
DataValue, -0.5, 1.39E-12, 
DataValue, -0.48000000000000004, -1.3129999999999999E-11, 
DataValue, -0.46, -9.28E-12, 
DataValue, -0.44, -1.171E-11, 
DataValue, -0.42000000000000004, 1.915E-11, 
DataValue, -0.4, -1.184E-11, 
DataValue, -0.38, -2.035E-11, 
DataValue, -0.36000000000000004, -8.16E-12, 
DataValue, -0.34, -1.984E-11, 
DataValue, -0.32, -1.647E-11, 
DataValue, -0.3, 4.65E-12, 
DataValue, -0.28, -1.022E-11, 
DataValue, -0.26, -9.78E-12, 
DataValue, -0.24000000000000002, -8.03E-12, 
DataValue, -0.22, -5.03E-12, 
DataValue, -0.2, -4.79E-12, 
DataValue, -0.18000000000000002, 1.289E-11, 
DataValue, -0.16, -4.17E-12, 
DataValue, -0.14, -1.661E-11, 
DataValue, -0.12000000000000001, -6.55E-12, 
DataValue, -0.1, 4.45E-12, 
DataValue, -0.08, 6.79E-12, 
DataValue, -0.060000000000000005, 1.102E-11, 
DataValue, -0.04, 2.515E-11, 
DataValue, -0.02, 6.085E-11, 
DataValue, 0, 7.403E-11, 
DataValue, 0.02, 1.0847E-10, 
DataValue, 0.04, 1.2748E-10, 
DataValue, 0.060000000000000005, 1.4739E-10, 
DataValue, 0.08, 1.5666E-10, 
DataValue, 0.1, 1.5899E-10, 
DataValue, 0.12000000000000001, 1.8604E-10, 
DataValue, 0.14, 1.86E-10, 
DataValue, 0.16, 1.919E-10, 
DataValue, 0.18000000000000002, 1.8997E-10, 
DataValue, 0.2, 1.9418E-10, 
DataValue, 0.22, 2.1226E-10, 
DataValue, 0.24000000000000002, 2.2984999999999999E-10, 
DataValue, 0.26, 2.4118E-10, 
DataValue, 0.28, 2.3974E-10, 
DataValue, 0.3, 2.3759E-10, 
DataValue, 0.32, 2.4297E-10, 
DataValue, 0.34, 2.5187E-10, 
DataValue, 0.36000000000000004, 2.5568E-10, 
DataValue, 0.38, 2.748E-10, 
DataValue, 0.4, 3.1751E-10, 
DataValue, 0.42000000000000004, 2.9527E-10, 
DataValue, 0.44, 3.0021E-10, 
DataValue, 0.46, 3.3497E-10, 
DataValue, 0.48000000000000004, 3.4155E-10, 
DataValue, 0.5, 3.2577E-10, 
DataValue, 0.52, 3.4327E-10, 
DataValue, 0.54, 3.626E-10, 
DataValue, 0.56, 3.3757E-10, 
DataValue, 0.58000000000000007, 3.4382E-10, 
DataValue, 0.6, 3.6304E-10, 
DataValue, 0.62, 3.6988E-10, 
DataValue, 0.64, 3.7594E-10, 
DataValue, 0.66, 3.8421E-10, 
DataValue, 0.68, 3.9492E-10, 
DataValue, 0.70000000000000007, 3.873E-10, 
DataValue, 0.72000000000000008, 3.8565E-10, 
DataValue, 0.74, 4.1309E-10, 
DataValue, 0.76, 4.0178E-10, 
DataValue, 0.78, 4.2874E-10, 
DataValue, 0.8, 4.7712E-10, 
DataValue, 0.82000000000000006, 4.4876E-10, 
DataValue, 0.84000000000000008, 4.5215E-10, 
DataValue, 0.86, 5.1203E-10, 
DataValue, 0.88, 4.7962E-10, 
DataValue, 0.9, 4.6349E-10, 
DataValue, 0.92, 4.9328E-10, 
DataValue, 0.94000000000000006, 5.1497E-10, 
DataValue, 0.96000000000000008, 4.9877E-10, 
DataValue, 0.98000000000000009, 5.0654E-10, 
DataValue, 1, 5.406E-10, 