
SetupTitle, WW
PrimitiveTest, I/V Sweep
TestParameter, Context.MainFrame, B1500A
TestParameter, Channel.UnitType, SMU, SMU
TestParameter, Channel.Unit, SMU2:HP, SMU1:HP
TestParameter, Channel.IName, I1, I4
TestParameter, Channel.VName, V1, V4
TestParameter, Channel.Mode, V, COMMON
TestParameter, Channel.Func, VAR1, CONST
TestParameter, Channel.Index, 
TestParameter, Channel.Time, 
TestParameter, Measurement.Port.Unit, SMU2:HP, SMU1:HP
TestParameter, Measurement.Port.SeriesResistor, NONE, NONE
TestParameter, Measurement.Port.Filter, ON, ON
TestParameter, Measurement.Port.OutputVoltageComparison, 0, 0
TestParameter, Measurement.Primary.Locus, Single
TestParameter, Measurement.Primary.Scale, LINEAR
TestParameter, Measurement.Primary.Start, -1
TestParameter, Measurement.Primary.Stop, 1
TestParameter, Measurement.Primary.Step, 0.02
TestParameter, Measurement.Primary.Compliance, 0.01
TestParameter, Measurement.Primary.PowerCompliance, 0
TestParameter, Measurement.Aborting.Condition, CONTINUE AT ANY
TestParameter, Measurement.PostOutput.Value, START
TestParameter, Measurement.PostOutput.Retention, OFF
TestParameter, Measurement.Bias.Source, -1, 0
TestParameter, Measurement.Bias.Compliance, 0.01, 1
TestParameter, Measurement.Monitor.Unit, SMU2:HP, SMU1:HP
TestParameter, Measurement.Monitor.Adc, HR ADC, HR ADC
TestParameter, Measurement.Monitor.Measurement, Compliance Side, Compliance Side
TestParameter, Measurement.Monitor.RangingMode, AUTO, AUTO
TestParameter, Measurement.Monitor.RangeBoundary, , 
TestParameter, Measurement.Monitor.RangeRating, BY FULL RANGE, BY FULL RANGE
TestParameter, Measurement.Monitor.RangeRatingCoeff, 50, 50
TestParameter, Measurement.Timing.Hold, 0
TestParameter, Measurement.Timing.Delay, 0.001
TestParameter, Measurement.Adc.HighSpeed.Mode, AUTO
TestParameter, Measurement.Adc.HighSpeed.Coeff, 1
TestParameter, Measurement.Adc.HighResolution.AutoZero, OFF
TestParameter, Measurement.Adc.HighResolution.Mode, PLC
TestParameter, Measurement.Adc.HighResolution.Coeff, 1
TestParameter, Measurement.WaitTime.Source.Coeff, 1
TestParameter, Measurement.WaitTime.Source.Offset, 0
TestParameter, Measurement.WaitTime.Monitor.Coeff, 1
TestParameter, Measurement.WaitTime.Monitor.Offset, 0
TestParameter, Function.User.Name, Ohmic
TestParameter, Function.User.Unit, ohm
TestParameter, Function.User.Definition, avg(V1/I1)
TestParameter, Output.Graph.Enabled, true
TestParameter, Output.Graph.XAxis.Data, V1
TestParameter, Output.Graph.XAxis.Scale, Linear
TestParameter, Output.Graph.XAxis.Left, -5
TestParameter, Output.Graph.XAxis.Right, 5
TestParameter, Output.Graph.YAxis.Data, I1
TestParameter, Output.Graph.YAxis.Scale, Linear
TestParameter, Output.Graph.YAxis.Bottom, -0.001
TestParameter, Output.Graph.YAxis.Top, 0.001
TestParameter, Output.Graph.YAxis.Group, 
TestParameter, Output.Scalar.Data, Ohmic
TestParameter, AutoAnalysis.Interpolation, false
TestParameter, AutoAnalysis.Line1.Enabled, false
TestParameter, AutoAnalysis.Line1.Type, 1
TestParameter, AutoAnalysis.Line1.Fix, True
TestParameter, AutoAnalysis.Line1.YAxis, 0
TestParameter, AutoAnalysis.Line1.Point1.Type, 0
TestParameter, AutoAnalysis.Line1.Point1.XY.X, 
TestParameter, AutoAnalysis.Line1.Point1.XY.Y, 
TestParameter, AutoAnalysis.Line1.Point1.Data.Var, 
TestParameter, AutoAnalysis.Line1.Point1.Data.Condition, 
TestParameter, AutoAnalysis.Line1.Point1.Data.Start, false
TestParameter, AutoAnalysis.Line1.Point1.Data.StartVar, 
TestParameter, AutoAnalysis.Line1.Point1.Data.StartCondition, 
TestParameter, AutoAnalysis.Line1.Point2.Type, 0
TestParameter, AutoAnalysis.Line1.Point2.XY.X, 
TestParameter, AutoAnalysis.Line1.Point2.XY.Y, 
TestParameter, AutoAnalysis.Line1.Point2.Data.Var, 
TestParameter, AutoAnalysis.Line1.Point2.Data.Condition, 
TestParameter, AutoAnalysis.Line1.Point2.Data.Start, false
TestParameter, AutoAnalysis.Line1.Point2.Data.StartVar, 
TestParameter, AutoAnalysis.Line1.Point2.Data.StartCondition, 
TestParameter, AutoAnalysis.Line1.GradientExpr, 0
TestParameter, AutoAnalysis.Line2.Enabled, false
TestParameter, AutoAnalysis.Line2.Type, 1
TestParameter, AutoAnalysis.Line2.Fix, True
TestParameter, AutoAnalysis.Line2.YAxis, 0
TestParameter, AutoAnalysis.Line2.Point1.Type, 0
TestParameter, AutoAnalysis.Line2.Point1.XY.X, 
TestParameter, AutoAnalysis.Line2.Point1.XY.Y, 
TestParameter, AutoAnalysis.Line2.Point1.Data.Var, 
TestParameter, AutoAnalysis.Line2.Point1.Data.Condition, 
TestParameter, AutoAnalysis.Line2.Point1.Data.Start, false
TestParameter, AutoAnalysis.Line2.Point1.Data.StartVar, 
TestParameter, AutoAnalysis.Line2.Point1.Data.StartCondition, 
TestParameter, AutoAnalysis.Line2.Point2.Type, 0
TestParameter, AutoAnalysis.Line2.Point2.XY.X, 
TestParameter, AutoAnalysis.Line2.Point2.XY.Y, 
TestParameter, AutoAnalysis.Line2.Point2.Data.Var, 
TestParameter, AutoAnalysis.Line2.Point2.Data.Condition, 
TestParameter, AutoAnalysis.Line2.Point2.Data.Start, false
TestParameter, AutoAnalysis.Line2.Point2.Data.StartVar, 
TestParameter, AutoAnalysis.Line2.Point2.Data.StartCondition, 
TestParameter, AutoAnalysis.Line2.GradientExpr, 0
TestParameter, AutoAnalysis.Marker.Enabled, false
TestParameter, AutoAnalysis.Marker.Data.Var, 
TestParameter, AutoAnalysis.Marker.Data.Condition, 
TestParameter, AutoAnalysis.Marker.Data.Start, false
TestParameter, AutoAnalysis.Marker.Data.StartVar, 
TestParameter, AutoAnalysis.Marker.Data.StartCondition, 
MetaData, TestRecord.EntryPoint, true
MetaData, TestRecord.RecordTime, 01/18/2020 16:50:22
MetaData, TestRecord.TestTarget, 
MetaData, TestRecord.IterationIndex, 40
MetaData, TestRecord.Preservation, true
MetaData, TestRecord.Flag, 
MetaData, TestRecord.Remarks, 
MetaData, TestRecord.LinkKey, 8a399ad5-d9fc-4d12-ad9d-bb9d55233045
Dimension1, 101, 101, 101
Dimension2, 1, 1, 1
DataName, V1, I1, Ohmic
DataValue, -1, -6.523E-11, 26798195973.835342
DataValue, -0.98000000000000009, -4.328E-11, 
DataValue, -0.96000000000000008, -2.321E-11, 
DataValue, -0.94000000000000006, -4.648E-11, 
DataValue, -0.92, -4.06E-12, 
DataValue, -0.9, -3.219E-11, 
DataValue, -0.88, -1.67E-11, 
DataValue, -0.86, -2.77E-11, 
DataValue, -0.84000000000000008, -1.38E-11, 
DataValue, -0.82000000000000006, -3.551E-11, 
DataValue, -0.8, -2.245E-11, 
DataValue, -0.78, -3.532E-11, 
DataValue, -0.76, -7.2E-12, 
DataValue, -0.74, -2.588E-11, 
DataValue, -0.72000000000000008, -1.934E-11, 
DataValue, -0.70000000000000007, -1.758E-11, 
DataValue, -0.68, -2.609E-11, 
DataValue, -0.66, -2.375E-11, 
DataValue, -0.64, -2.804E-11, 
DataValue, -0.62, -1.663E-11, 
DataValue, -0.6, -1.347E-11, 
DataValue, -0.58000000000000007, -2.373E-11, 
DataValue, -0.56, -1.559E-11, 
DataValue, -0.54, -1.747E-11, 
DataValue, -0.52, -3.307E-11, 
DataValue, -0.5, -1.484E-11, 
DataValue, -0.48000000000000004, -1.99E-11, 
DataValue, -0.46, -1.999E-11, 
DataValue, -0.44, -9.92E-12, 
DataValue, -0.42000000000000004, -2.232E-11, 
DataValue, -0.4, 1.055E-11, 
DataValue, -0.38, -1.136E-11, 
DataValue, -0.36000000000000004, -2.897E-11, 
DataValue, -0.34, -9.12E-12, 
DataValue, -0.32, -7.46E-12, 
DataValue, -0.3, -1.446E-11, 
DataValue, -0.28, -1.206E-11, 
DataValue, -0.26, -6.85E-12, 
DataValue, -0.24000000000000002, -9.22E-12, 
DataValue, -0.22, -1.67E-12, 
DataValue, -0.2, -5.1E-13, 
DataValue, -0.18000000000000002, 4.7E-13, 
DataValue, -0.16, -5.09E-12, 
DataValue, -0.14, 1.22E-12, 
DataValue, -0.12000000000000001, -1E-13, 
DataValue, -0.1, 7.84E-12, 
DataValue, -0.08, 1.554E-11, 
DataValue, -0.060000000000000005, 2.107E-11, 
DataValue, -0.04, 3.486E-11, 
DataValue, -0.02, 5.195E-11, 
DataValue, 0, 6.573E-11, 
DataValue, 0.02, 8.794E-11, 
DataValue, 0.04, 1.0941E-10, 
DataValue, 0.060000000000000005, 1.4385E-10, 
DataValue, 0.08, 1.5247E-10, 
DataValue, 0.1, 1.4489E-10, 
DataValue, 0.12000000000000001, 1.7693E-10, 
DataValue, 0.14, 1.7699E-10, 
DataValue, 0.16, 2.0434E-10, 
DataValue, 0.18000000000000002, 2.2191E-10, 
DataValue, 0.2, 2.3697E-10, 
DataValue, 0.22, 2.4309E-10, 
DataValue, 0.24000000000000002, 2.2225E-10, 
DataValue, 0.26, 2.1466E-10, 
DataValue, 0.28, 2.1475E-10, 
DataValue, 0.3, 2.3296E-10, 
DataValue, 0.32, 2.3953E-10, 
DataValue, 0.34, 2.5874E-10, 
DataValue, 0.36000000000000004, 2.817E-10, 
DataValue, 0.38, 2.6948E-10, 
DataValue, 0.4, 2.818E-10, 
DataValue, 0.42000000000000004, 3.0394E-10, 
DataValue, 0.44, 3.2037E-10, 
DataValue, 0.46, 3.207E-10, 
DataValue, 0.48000000000000004, 3.1361E-10, 
DataValue, 0.5, 3.542E-10, 
DataValue, 0.52, 3.5393E-10, 
DataValue, 0.54, 3.4378E-10, 
DataValue, 0.56, 3.594E-10, 
DataValue, 0.58000000000000007, 3.6795E-10, 
DataValue, 0.6, 3.8946E-10, 
DataValue, 0.62, 3.994E-10, 
DataValue, 0.64, 3.9996E-10, 
DataValue, 0.66, 3.7165E-10, 
DataValue, 0.68, 3.7849E-10, 
DataValue, 0.70000000000000007, 3.6157E-10, 
DataValue, 0.72000000000000008, 4.0374E-10, 
DataValue, 0.74, 3.7985E-10, 
DataValue, 0.76, 4.1782E-10, 
DataValue, 0.78, 3.8596E-10, 
DataValue, 0.8, 3.7535E-10, 
DataValue, 0.82000000000000006, 3.7018E-10, 
DataValue, 0.84000000000000008, 3.9565E-10, 
DataValue, 0.86, 3.8848E-10, 
DataValue, 0.88, 4.0269E-10, 
DataValue, 0.9, 3.7287E-10, 
DataValue, 0.92, 3.9633E-10, 
DataValue, 0.94000000000000006, 3.8252E-10, 
DataValue, 0.96000000000000008, 4.0589E-10, 
DataValue, 0.98000000000000009, 3.9513E-10, 
DataValue, 1, 4.3086E-10, 