
SetupTitle, WW
PrimitiveTest, I/V Sweep
TestParameter, Context.MainFrame, B1500A
TestParameter, Channel.UnitType, SMU, SMU
TestParameter, Channel.Unit, SMU2:HP, SMU1:HP
TestParameter, Channel.IName, I1, I4
TestParameter, Channel.VName, V1, V4
TestParameter, Channel.Mode, V, COMMON
TestParameter, Channel.Func, VAR1, CONST
TestParameter, Channel.Index, 
TestParameter, Channel.Time, 
TestParameter, Measurement.Port.Unit, SMU2:HP, SMU1:HP
TestParameter, Measurement.Port.SeriesResistor, NONE, NONE
TestParameter, Measurement.Port.Filter, ON, ON
TestParameter, Measurement.Port.OutputVoltageComparison, 0, 0
TestParameter, Measurement.Primary.Locus, Single
TestParameter, Measurement.Primary.Scale, LINEAR
TestParameter, Measurement.Primary.Start, -1
TestParameter, Measurement.Primary.Stop, 1
TestParameter, Measurement.Primary.Step, 0.02
TestParameter, Measurement.Primary.Compliance, 0.01
TestParameter, Measurement.Primary.PowerCompliance, 0
TestParameter, Measurement.Aborting.Condition, CONTINUE AT ANY
TestParameter, Measurement.PostOutput.Value, START
TestParameter, Measurement.PostOutput.Retention, OFF
TestParameter, Measurement.Bias.Source, -1, 0
TestParameter, Measurement.Bias.Compliance, 0.01, 1
TestParameter, Measurement.Monitor.Unit, SMU2:HP, SMU1:HP
TestParameter, Measurement.Monitor.Adc, HR ADC, HR ADC
TestParameter, Measurement.Monitor.Measurement, Compliance Side, Compliance Side
TestParameter, Measurement.Monitor.RangingMode, AUTO, AUTO
TestParameter, Measurement.Monitor.RangeBoundary, , 
TestParameter, Measurement.Monitor.RangeRating, BY FULL RANGE, BY FULL RANGE
TestParameter, Measurement.Monitor.RangeRatingCoeff, 50, 50
TestParameter, Measurement.Timing.Hold, 0
TestParameter, Measurement.Timing.Delay, 0.001
TestParameter, Measurement.Adc.HighSpeed.Mode, AUTO
TestParameter, Measurement.Adc.HighSpeed.Coeff, 1
TestParameter, Measurement.Adc.HighResolution.AutoZero, OFF
TestParameter, Measurement.Adc.HighResolution.Mode, PLC
TestParameter, Measurement.Adc.HighResolution.Coeff, 1
TestParameter, Measurement.WaitTime.Source.Coeff, 1
TestParameter, Measurement.WaitTime.Source.Offset, 0
TestParameter, Measurement.WaitTime.Monitor.Coeff, 1
TestParameter, Measurement.WaitTime.Monitor.Offset, 0
TestParameter, Function.User.Name, Ohmic
TestParameter, Function.User.Unit, ohm
TestParameter, Function.User.Definition, avg(V1/I1)
TestParameter, Output.Graph.Enabled, true
TestParameter, Output.Graph.XAxis.Data, V1
TestParameter, Output.Graph.XAxis.Scale, Linear
TestParameter, Output.Graph.XAxis.Left, -5
TestParameter, Output.Graph.XAxis.Right, 5
TestParameter, Output.Graph.YAxis.Data, I1
TestParameter, Output.Graph.YAxis.Scale, Linear
TestParameter, Output.Graph.YAxis.Bottom, -0.001
TestParameter, Output.Graph.YAxis.Top, 0.001
TestParameter, Output.Graph.YAxis.Group, 
TestParameter, Output.Scalar.Data, Ohmic
TestParameter, AutoAnalysis.Interpolation, false
TestParameter, AutoAnalysis.Line1.Enabled, false
TestParameter, AutoAnalysis.Line1.Type, 1
TestParameter, AutoAnalysis.Line1.Fix, True
TestParameter, AutoAnalysis.Line1.YAxis, 0
TestParameter, AutoAnalysis.Line1.Point1.Type, 0
TestParameter, AutoAnalysis.Line1.Point1.XY.X, 
TestParameter, AutoAnalysis.Line1.Point1.XY.Y, 
TestParameter, AutoAnalysis.Line1.Point1.Data.Var, 
TestParameter, AutoAnalysis.Line1.Point1.Data.Condition, 
TestParameter, AutoAnalysis.Line1.Point1.Data.Start, false
TestParameter, AutoAnalysis.Line1.Point1.Data.StartVar, 
TestParameter, AutoAnalysis.Line1.Point1.Data.StartCondition, 
TestParameter, AutoAnalysis.Line1.Point2.Type, 0
TestParameter, AutoAnalysis.Line1.Point2.XY.X, 
TestParameter, AutoAnalysis.Line1.Point2.XY.Y, 
TestParameter, AutoAnalysis.Line1.Point2.Data.Var, 
TestParameter, AutoAnalysis.Line1.Point2.Data.Condition, 
TestParameter, AutoAnalysis.Line1.Point2.Data.Start, false
TestParameter, AutoAnalysis.Line1.Point2.Data.StartVar, 
TestParameter, AutoAnalysis.Line1.Point2.Data.StartCondition, 
TestParameter, AutoAnalysis.Line1.GradientExpr, 0
TestParameter, AutoAnalysis.Line2.Enabled, false
TestParameter, AutoAnalysis.Line2.Type, 1
TestParameter, AutoAnalysis.Line2.Fix, True
TestParameter, AutoAnalysis.Line2.YAxis, 0
TestParameter, AutoAnalysis.Line2.Point1.Type, 0
TestParameter, AutoAnalysis.Line2.Point1.XY.X, 
TestParameter, AutoAnalysis.Line2.Point1.XY.Y, 
TestParameter, AutoAnalysis.Line2.Point1.Data.Var, 
TestParameter, AutoAnalysis.Line2.Point1.Data.Condition, 
TestParameter, AutoAnalysis.Line2.Point1.Data.Start, false
TestParameter, AutoAnalysis.Line2.Point1.Data.StartVar, 
TestParameter, AutoAnalysis.Line2.Point1.Data.StartCondition, 
TestParameter, AutoAnalysis.Line2.Point2.Type, 0
TestParameter, AutoAnalysis.Line2.Point2.XY.X, 
TestParameter, AutoAnalysis.Line2.Point2.XY.Y, 
TestParameter, AutoAnalysis.Line2.Point2.Data.Var, 
TestParameter, AutoAnalysis.Line2.Point2.Data.Condition, 
TestParameter, AutoAnalysis.Line2.Point2.Data.Start, false
TestParameter, AutoAnalysis.Line2.Point2.Data.StartVar, 
TestParameter, AutoAnalysis.Line2.Point2.Data.StartCondition, 
TestParameter, AutoAnalysis.Line2.GradientExpr, 0
TestParameter, AutoAnalysis.Marker.Enabled, false
TestParameter, AutoAnalysis.Marker.Data.Var, 
TestParameter, AutoAnalysis.Marker.Data.Condition, 
TestParameter, AutoAnalysis.Marker.Data.Start, false
TestParameter, AutoAnalysis.Marker.Data.StartVar, 
TestParameter, AutoAnalysis.Marker.Data.StartCondition, 
MetaData, TestRecord.EntryPoint, true
MetaData, TestRecord.RecordTime, 01/18/2020 16:49:15
MetaData, TestRecord.TestTarget, 
MetaData, TestRecord.IterationIndex, 38
MetaData, TestRecord.Preservation, true
MetaData, TestRecord.Flag, 
MetaData, TestRecord.Remarks, 
MetaData, TestRecord.LinkKey, 98c1a163-a7ac-4923-adc7-79e3374c3abb
Dimension1, 101, 101, 101
Dimension2, 1, 1, 1
DataName, V1, I1, Ohmic
DataValue, -1, -4.138E-11, 9671626630.0483971
DataValue, -0.98000000000000009, -1.956E-11, 
DataValue, -0.96000000000000008, 1.571E-11, 
DataValue, -0.94000000000000006, -3.837E-11, 
DataValue, -0.92, -2.16E-11, 
DataValue, -0.9, -1.156E-11, 
DataValue, -0.88, -1.609E-11, 
DataValue, -0.86, -1.897E-11, 
DataValue, -0.84000000000000008, -2.324E-11, 
DataValue, -0.82000000000000006, -1.115E-11, 
DataValue, -0.8, -3.259E-11, 
DataValue, -0.78, -2.751E-11, 
DataValue, -0.76, -2.719E-11, 
DataValue, -0.74, -3.178E-11, 
DataValue, -0.72000000000000008, -5.706E-11, 
DataValue, -0.70000000000000007, -4.592E-11, 
DataValue, -0.68, -5.246E-11, 
DataValue, -0.66, -3.485E-11, 
DataValue, -0.64, -1.21E-12, 
DataValue, -0.62, 3.06E-12, 
DataValue, -0.6, 1.332E-11, 
DataValue, -0.58000000000000007, 1.882E-11, 
DataValue, -0.56, -3.61E-12, 
DataValue, -0.54, 8.9E-13, 
DataValue, -0.52, -1.318E-11, 
DataValue, -0.5, -6.72E-12, 
DataValue, -0.48000000000000004, -4.53E-12, 
DataValue, -0.46, -7.05E-12, 
DataValue, -0.44, 5.3E-12, 
DataValue, -0.42000000000000004, -1.142E-11, 
DataValue, -0.4, -2.52E-12, 
DataValue, -0.38, -1.72E-12, 
DataValue, -0.36000000000000004, -2.3E-12, 
DataValue, -0.34, 1.83E-12, 
DataValue, -0.32, -8.49E-12, 
DataValue, -0.3, -5.08E-12, 
DataValue, -0.28, -8.36E-12, 
DataValue, -0.26, 3.55E-12, 
DataValue, -0.24000000000000002, 1.168E-11, 
DataValue, -0.22, 1.302E-11, 
DataValue, -0.2, 4.77E-12, 
DataValue, -0.18000000000000002, 5.24E-12, 
DataValue, -0.16, -1.48E-12, 
DataValue, -0.14, 7.84E-12, 
DataValue, -0.12000000000000001, 3.25E-12, 
DataValue, -0.1, 1.33E-11, 
DataValue, -0.08, 1.479E-11, 
DataValue, -0.060000000000000005, 2.833E-11, 
DataValue, -0.04, 2.52E-11, 
DataValue, -0.02, 5.966E-11, 
DataValue, 0, 8.496E-11, 
DataValue, 0.02, 1.0803E-10, 
DataValue, 0.04, 1.3113E-10, 
DataValue, 0.060000000000000005, 1.4828E-10, 
DataValue, 0.08, 1.516E-10, 
DataValue, 0.1, 1.6598E-10, 
DataValue, 0.12000000000000001, 1.6755E-10, 
DataValue, 0.14, 1.858E-10, 
DataValue, 0.16, 1.923E-10, 
DataValue, 0.18000000000000002, 1.973E-10, 
DataValue, 0.2, 1.98E-10, 
DataValue, 0.22, 2.1299E-10, 
DataValue, 0.24000000000000002, 2.1421E-10, 
DataValue, 0.26, 2.2107E-10, 
DataValue, 0.28, 2.2007E-10, 
DataValue, 0.3, 2.3293E-10, 
DataValue, 0.32, 2.2737E-10, 
DataValue, 0.34, 2.6112E-10, 
DataValue, 0.36000000000000004, 2.6357E-10, 
DataValue, 0.38, 2.6172E-10, 
DataValue, 0.4, 2.7647E-10, 
DataValue, 0.42000000000000004, 2.8168E-10, 
DataValue, 0.44, 2.7785E-10, 
DataValue, 0.46, 2.7559E-10, 
DataValue, 0.48000000000000004, 2.8188E-10, 
DataValue, 0.5, 3.1857E-10, 
DataValue, 0.52, 3.1233E-10, 
DataValue, 0.54, 3.1127E-10, 
DataValue, 0.56, 3.0567E-10, 
DataValue, 0.58000000000000007, 3.2532E-10, 
DataValue, 0.6, 3.3067E-10, 
DataValue, 0.62, 3.5453E-10, 
DataValue, 0.64, 3.4177E-10, 
DataValue, 0.66, 3.409E-10, 
DataValue, 0.68, 3.4463E-10, 
DataValue, 0.70000000000000007, 3.5459E-10, 
DataValue, 0.72000000000000008, 3.5254E-10, 
DataValue, 0.74, 3.4139E-10, 
DataValue, 0.76, 3.8351E-10, 
DataValue, 0.78, 4.0081E-10, 
DataValue, 0.8, 3.9573E-10, 
DataValue, 0.82000000000000006, 4.1588E-10, 
DataValue, 0.84000000000000008, 3.8267E-10, 
DataValue, 0.86, 4.1871E-10, 
DataValue, 0.88, 4.0998E-10, 
DataValue, 0.9, 4.1335E-10, 
DataValue, 0.92, 4.1216E-10, 
DataValue, 0.94000000000000006, 4.1475E-10, 
DataValue, 0.96000000000000008, 4.1058E-10, 
DataValue, 0.98000000000000009, 4.4557E-10, 
DataValue, 1, 4.4852E-10, 