
SetupTitle, WW
PrimitiveTest, I/V Sweep
TestParameter, Context.MainFrame, B1500A
TestParameter, Channel.UnitType, SMU, SMU
TestParameter, Channel.Unit, SMU2:HP, SMU1:HP
TestParameter, Channel.IName, I1, I4
TestParameter, Channel.VName, V1, V4
TestParameter, Channel.Mode, V, COMMON
TestParameter, Channel.Func, VAR1, CONST
TestParameter, Channel.Index, 
TestParameter, Channel.Time, 
TestParameter, Measurement.Port.Unit, SMU2:HP, SMU1:HP
TestParameter, Measurement.Port.SeriesResistor, NONE, NONE
TestParameter, Measurement.Port.Filter, ON, ON
TestParameter, Measurement.Port.OutputVoltageComparison, 0, 0
TestParameter, Measurement.Primary.Locus, Single
TestParameter, Measurement.Primary.Scale, LINEAR
TestParameter, Measurement.Primary.Start, -1
TestParameter, Measurement.Primary.Stop, 1
TestParameter, Measurement.Primary.Step, 0.02
TestParameter, Measurement.Primary.Compliance, 0.01
TestParameter, Measurement.Primary.PowerCompliance, 0
TestParameter, Measurement.Aborting.Condition, CONTINUE AT ANY
TestParameter, Measurement.PostOutput.Value, START
TestParameter, Measurement.PostOutput.Retention, OFF
TestParameter, Measurement.Bias.Source, -1, 0
TestParameter, Measurement.Bias.Compliance, 0.01, 1
TestParameter, Measurement.Monitor.Unit, SMU2:HP, SMU1:HP
TestParameter, Measurement.Monitor.Adc, HR ADC, HR ADC
TestParameter, Measurement.Monitor.Measurement, Compliance Side, Compliance Side
TestParameter, Measurement.Monitor.RangingMode, AUTO, AUTO
TestParameter, Measurement.Monitor.RangeBoundary, , 
TestParameter, Measurement.Monitor.RangeRating, BY FULL RANGE, BY FULL RANGE
TestParameter, Measurement.Monitor.RangeRatingCoeff, 50, 50
TestParameter, Measurement.Timing.Hold, 0
TestParameter, Measurement.Timing.Delay, 0.001
TestParameter, Measurement.Adc.HighSpeed.Mode, AUTO
TestParameter, Measurement.Adc.HighSpeed.Coeff, 1
TestParameter, Measurement.Adc.HighResolution.AutoZero, OFF
TestParameter, Measurement.Adc.HighResolution.Mode, PLC
TestParameter, Measurement.Adc.HighResolution.Coeff, 1
TestParameter, Measurement.WaitTime.Source.Coeff, 1
TestParameter, Measurement.WaitTime.Source.Offset, 0
TestParameter, Measurement.WaitTime.Monitor.Coeff, 1
TestParameter, Measurement.WaitTime.Monitor.Offset, 0
TestParameter, Function.User.Name, Ohmic
TestParameter, Function.User.Unit, ohm
TestParameter, Function.User.Definition, avg(V1/I1)
TestParameter, Output.Graph.Enabled, true
TestParameter, Output.Graph.XAxis.Data, V1
TestParameter, Output.Graph.XAxis.Scale, Linear
TestParameter, Output.Graph.XAxis.Left, -5
TestParameter, Output.Graph.XAxis.Right, 5
TestParameter, Output.Graph.YAxis.Data, I1
TestParameter, Output.Graph.YAxis.Scale, Linear
TestParameter, Output.Graph.YAxis.Bottom, -0.001
TestParameter, Output.Graph.YAxis.Top, 0.001
TestParameter, Output.Graph.YAxis.Group, 
TestParameter, Output.Scalar.Data, Ohmic
TestParameter, AutoAnalysis.Interpolation, false
TestParameter, AutoAnalysis.Line1.Enabled, false
TestParameter, AutoAnalysis.Line1.Type, 1
TestParameter, AutoAnalysis.Line1.Fix, True
TestParameter, AutoAnalysis.Line1.YAxis, 0
TestParameter, AutoAnalysis.Line1.Point1.Type, 0
TestParameter, AutoAnalysis.Line1.Point1.XY.X, 
TestParameter, AutoAnalysis.Line1.Point1.XY.Y, 
TestParameter, AutoAnalysis.Line1.Point1.Data.Var, 
TestParameter, AutoAnalysis.Line1.Point1.Data.Condition, 
TestParameter, AutoAnalysis.Line1.Point1.Data.Start, false
TestParameter, AutoAnalysis.Line1.Point1.Data.StartVar, 
TestParameter, AutoAnalysis.Line1.Point1.Data.StartCondition, 
TestParameter, AutoAnalysis.Line1.Point2.Type, 0
TestParameter, AutoAnalysis.Line1.Point2.XY.X, 
TestParameter, AutoAnalysis.Line1.Point2.XY.Y, 
TestParameter, AutoAnalysis.Line1.Point2.Data.Var, 
TestParameter, AutoAnalysis.Line1.Point2.Data.Condition, 
TestParameter, AutoAnalysis.Line1.Point2.Data.Start, false
TestParameter, AutoAnalysis.Line1.Point2.Data.StartVar, 
TestParameter, AutoAnalysis.Line1.Point2.Data.StartCondition, 
TestParameter, AutoAnalysis.Line1.GradientExpr, 0
TestParameter, AutoAnalysis.Line2.Enabled, false
TestParameter, AutoAnalysis.Line2.Type, 1
TestParameter, AutoAnalysis.Line2.Fix, True
TestParameter, AutoAnalysis.Line2.YAxis, 0
TestParameter, AutoAnalysis.Line2.Point1.Type, 0
TestParameter, AutoAnalysis.Line2.Point1.XY.X, 
TestParameter, AutoAnalysis.Line2.Point1.XY.Y, 
TestParameter, AutoAnalysis.Line2.Point1.Data.Var, 
TestParameter, AutoAnalysis.Line2.Point1.Data.Condition, 
TestParameter, AutoAnalysis.Line2.Point1.Data.Start, false
TestParameter, AutoAnalysis.Line2.Point1.Data.StartVar, 
TestParameter, AutoAnalysis.Line2.Point1.Data.StartCondition, 
TestParameter, AutoAnalysis.Line2.Point2.Type, 0
TestParameter, AutoAnalysis.Line2.Point2.XY.X, 
TestParameter, AutoAnalysis.Line2.Point2.XY.Y, 
TestParameter, AutoAnalysis.Line2.Point2.Data.Var, 
TestParameter, AutoAnalysis.Line2.Point2.Data.Condition, 
TestParameter, AutoAnalysis.Line2.Point2.Data.Start, false
TestParameter, AutoAnalysis.Line2.Point2.Data.StartVar, 
TestParameter, AutoAnalysis.Line2.Point2.Data.StartCondition, 
TestParameter, AutoAnalysis.Line2.GradientExpr, 0
TestParameter, AutoAnalysis.Marker.Enabled, false
TestParameter, AutoAnalysis.Marker.Data.Var, 
TestParameter, AutoAnalysis.Marker.Data.Condition, 
TestParameter, AutoAnalysis.Marker.Data.Start, false
TestParameter, AutoAnalysis.Marker.Data.StartVar, 
TestParameter, AutoAnalysis.Marker.Data.StartCondition, 
MetaData, TestRecord.EntryPoint, true
MetaData, TestRecord.RecordTime, 01/18/2020 16:48:30
MetaData, TestRecord.TestTarget, 
MetaData, TestRecord.IterationIndex, 37
MetaData, TestRecord.Preservation, true
MetaData, TestRecord.Flag, 
MetaData, TestRecord.Remarks, 
MetaData, TestRecord.LinkKey, 840f9dbd-1da9-4991-a625-bfa32fb973b7
Dimension1, 101, 101, 101
Dimension2, 1, 1, 1
DataName, V1, I1, Ohmic
DataValue, -1, -3.886E-11, 12091897295.986429
DataValue, -0.98000000000000009, -1.731E-11, 
DataValue, -0.96000000000000008, -1.822E-11, 
DataValue, -0.94000000000000006, -3.507E-11, 
DataValue, -0.92, -2.049E-11, 
DataValue, -0.9, -1.2419999999999999E-11, 
DataValue, -0.88, -1.379E-11, 
DataValue, -0.86, -2.604E-11, 
DataValue, -0.84000000000000008, -1.973E-11, 
DataValue, -0.82000000000000006, -2.112E-11, 
DataValue, -0.8, -2.059E-11, 
DataValue, -0.78, -1.148E-11, 
DataValue, -0.76, -2.229E-11, 
DataValue, -0.74, -1.987E-11, 
DataValue, -0.72000000000000008, -2.047E-11, 
DataValue, -0.70000000000000007, -2.352E-11, 
DataValue, -0.68, -2.429E-11, 
DataValue, -0.66, -3.364E-11, 
DataValue, -0.64, -3.928E-11, 
DataValue, -0.62, -3.729E-11, 
DataValue, -0.6, -5.253E-11, 
DataValue, -0.58000000000000007, -4.363E-11, 
DataValue, -0.56, -2.56E-11, 
DataValue, -0.54, -1.703E-11, 
DataValue, -0.52, -2.035E-11, 
DataValue, -0.5, -1.003E-11, 
DataValue, -0.48000000000000004, -1.813E-11, 
DataValue, -0.46, -3.288E-11, 
DataValue, -0.44, -2.795E-11, 
DataValue, -0.42000000000000004, -1.884E-11, 
DataValue, -0.4, -2.078E-11, 
DataValue, -0.38, -3.394E-11, 
DataValue, -0.36000000000000004, -3.035E-11, 
DataValue, -0.34, -3.905E-11, 
DataValue, -0.32, -3.632E-11, 
DataValue, -0.3, -3.187E-11, 
DataValue, -0.28, -2.212E-11, 
DataValue, -0.26, -2.715E-11, 
DataValue, -0.24000000000000002, -2.51E-11, 
DataValue, -0.22, -2.705E-11, 
DataValue, -0.2, -2.363E-11, 
DataValue, -0.18000000000000002, -1.921E-11, 
DataValue, -0.16, -1.959E-11, 
DataValue, -0.14, -2.445E-11, 
DataValue, -0.12000000000000001, -1.851E-11, 
DataValue, -0.1, -1.2419999999999999E-11, 
DataValue, -0.08, -1.615E-11, 
DataValue, -0.060000000000000005, 1.36E-12, 
DataValue, -0.04, 4.75E-12, 
DataValue, -0.02, 2.146E-11, 
DataValue, 0, 5.122E-11, 
DataValue, 0.02, 6.743E-11, 
DataValue, 0.04, 8.048E-11, 
DataValue, 0.060000000000000005, 1.0679E-10, 
DataValue, 0.08, 1.134E-10, 
DataValue, 0.1, 1.1164E-10, 
DataValue, 0.12000000000000001, 1.1155E-10, 
DataValue, 0.14, 1.0906E-10, 
DataValue, 0.16, 1.1583E-10, 
DataValue, 0.18000000000000002, 1.2141E-10, 
DataValue, 0.2, 1.3426E-10, 
DataValue, 0.22, 1.3239E-10, 
DataValue, 0.24000000000000002, 1.2276E-10, 
DataValue, 0.26, 1.4399E-10, 
DataValue, 0.28, 1.6132E-10, 
DataValue, 0.3, 1.6365E-10, 
DataValue, 0.32, 1.5751E-10, 
DataValue, 0.34, 1.5978E-10, 
DataValue, 0.36000000000000004, 1.737E-10, 
DataValue, 0.38, 1.8744E-10, 
DataValue, 0.4, 1.9788E-10, 
DataValue, 0.42000000000000004, 2.0357E-10, 
DataValue, 0.44, 2.1932E-10, 
DataValue, 0.46, 2.1366E-10, 
DataValue, 0.48000000000000004, 2.127E-10, 
DataValue, 0.5, 2.3257E-10, 
DataValue, 0.52, 2.3194E-10, 
DataValue, 0.54, 2.5371E-10, 
DataValue, 0.56, 2.4998E-10, 
DataValue, 0.58000000000000007, 2.4247E-10, 
DataValue, 0.6, 2.5084E-10, 
DataValue, 0.62, 2.5128E-10, 
DataValue, 0.64, 2.4105E-10, 
DataValue, 0.66, 2.4638E-10, 
DataValue, 0.68, 2.8009E-10, 
DataValue, 0.70000000000000007, 2.7329E-10, 
DataValue, 0.72000000000000008, 2.8658E-10, 
DataValue, 0.74, 3.0095E-10, 
DataValue, 0.76, 2.8304E-10, 
DataValue, 0.78, 3.3726E-10, 
DataValue, 0.8, 3.3639E-10, 
DataValue, 0.82000000000000006, 3.1284E-10, 
DataValue, 0.84000000000000008, 3.4184E-10, 
DataValue, 0.86, 3.3135E-10, 
DataValue, 0.88, 3.6925999999999997E-10, 
DataValue, 0.9, 3.6737E-10, 
DataValue, 0.92, 3.9238E-10, 
DataValue, 0.94000000000000006, 3.9358E-10, 
DataValue, 0.96000000000000008, 4.035E-10, 
DataValue, 0.98000000000000009, 3.6369E-10, 
DataValue, 1, 3.7068E-10, 