
SetupTitle, WW
PrimitiveTest, I/V Sweep
TestParameter, Context.MainFrame, B1500A
TestParameter, Channel.UnitType, SMU, SMU
TestParameter, Channel.Unit, SMU2:HP, SMU1:HP
TestParameter, Channel.IName, I1, I4
TestParameter, Channel.VName, V1, V4
TestParameter, Channel.Mode, V, COMMON
TestParameter, Channel.Func, VAR1, CONST
TestParameter, Channel.Index, 
TestParameter, Channel.Time, 
TestParameter, Measurement.Port.Unit, SMU2:HP, SMU1:HP
TestParameter, Measurement.Port.SeriesResistor, NONE, NONE
TestParameter, Measurement.Port.Filter, ON, ON
TestParameter, Measurement.Port.OutputVoltageComparison, 0, 0
TestParameter, Measurement.Primary.Locus, Single
TestParameter, Measurement.Primary.Scale, LINEAR
TestParameter, Measurement.Primary.Start, -1
TestParameter, Measurement.Primary.Stop, 1
TestParameter, Measurement.Primary.Step, 0.02
TestParameter, Measurement.Primary.Compliance, 0.01
TestParameter, Measurement.Primary.PowerCompliance, 0
TestParameter, Measurement.Aborting.Condition, CONTINUE AT ANY
TestParameter, Measurement.PostOutput.Value, START
TestParameter, Measurement.PostOutput.Retention, OFF
TestParameter, Measurement.Bias.Source, -1, 0
TestParameter, Measurement.Bias.Compliance, 0.01, 1
TestParameter, Measurement.Monitor.Unit, SMU2:HP, SMU1:HP
TestParameter, Measurement.Monitor.Adc, HR ADC, HR ADC
TestParameter, Measurement.Monitor.Measurement, Compliance Side, Compliance Side
TestParameter, Measurement.Monitor.RangingMode, AUTO, AUTO
TestParameter, Measurement.Monitor.RangeBoundary, , 
TestParameter, Measurement.Monitor.RangeRating, BY FULL RANGE, BY FULL RANGE
TestParameter, Measurement.Monitor.RangeRatingCoeff, 50, 50
TestParameter, Measurement.Timing.Hold, 0
TestParameter, Measurement.Timing.Delay, 0.001
TestParameter, Measurement.Adc.HighSpeed.Mode, AUTO
TestParameter, Measurement.Adc.HighSpeed.Coeff, 1
TestParameter, Measurement.Adc.HighResolution.AutoZero, OFF
TestParameter, Measurement.Adc.HighResolution.Mode, PLC
TestParameter, Measurement.Adc.HighResolution.Coeff, 1
TestParameter, Measurement.WaitTime.Source.Coeff, 1
TestParameter, Measurement.WaitTime.Source.Offset, 0
TestParameter, Measurement.WaitTime.Monitor.Coeff, 1
TestParameter, Measurement.WaitTime.Monitor.Offset, 0
TestParameter, Function.User.Name, Ohmic
TestParameter, Function.User.Unit, ohm
TestParameter, Function.User.Definition, avg(V1/I1)
TestParameter, Output.Graph.Enabled, true
TestParameter, Output.Graph.XAxis.Data, V1
TestParameter, Output.Graph.XAxis.Scale, Linear
TestParameter, Output.Graph.XAxis.Left, -5
TestParameter, Output.Graph.XAxis.Right, 5
TestParameter, Output.Graph.YAxis.Data, I1
TestParameter, Output.Graph.YAxis.Scale, Linear
TestParameter, Output.Graph.YAxis.Bottom, -0.001
TestParameter, Output.Graph.YAxis.Top, 0.001
TestParameter, Output.Graph.YAxis.Group, 
TestParameter, Output.Scalar.Data, Ohmic
TestParameter, AutoAnalysis.Interpolation, false
TestParameter, AutoAnalysis.Line1.Enabled, false
TestParameter, AutoAnalysis.Line1.Type, 1
TestParameter, AutoAnalysis.Line1.Fix, True
TestParameter, AutoAnalysis.Line1.YAxis, 0
TestParameter, AutoAnalysis.Line1.Point1.Type, 0
TestParameter, AutoAnalysis.Line1.Point1.XY.X, 
TestParameter, AutoAnalysis.Line1.Point1.XY.Y, 
TestParameter, AutoAnalysis.Line1.Point1.Data.Var, 
TestParameter, AutoAnalysis.Line1.Point1.Data.Condition, 
TestParameter, AutoAnalysis.Line1.Point1.Data.Start, false
TestParameter, AutoAnalysis.Line1.Point1.Data.StartVar, 
TestParameter, AutoAnalysis.Line1.Point1.Data.StartCondition, 
TestParameter, AutoAnalysis.Line1.Point2.Type, 0
TestParameter, AutoAnalysis.Line1.Point2.XY.X, 
TestParameter, AutoAnalysis.Line1.Point2.XY.Y, 
TestParameter, AutoAnalysis.Line1.Point2.Data.Var, 
TestParameter, AutoAnalysis.Line1.Point2.Data.Condition, 
TestParameter, AutoAnalysis.Line1.Point2.Data.Start, false
TestParameter, AutoAnalysis.Line1.Point2.Data.StartVar, 
TestParameter, AutoAnalysis.Line1.Point2.Data.StartCondition, 
TestParameter, AutoAnalysis.Line1.GradientExpr, 0
TestParameter, AutoAnalysis.Line2.Enabled, false
TestParameter, AutoAnalysis.Line2.Type, 1
TestParameter, AutoAnalysis.Line2.Fix, True
TestParameter, AutoAnalysis.Line2.YAxis, 0
TestParameter, AutoAnalysis.Line2.Point1.Type, 0
TestParameter, AutoAnalysis.Line2.Point1.XY.X, 
TestParameter, AutoAnalysis.Line2.Point1.XY.Y, 
TestParameter, AutoAnalysis.Line2.Point1.Data.Var, 
TestParameter, AutoAnalysis.Line2.Point1.Data.Condition, 
TestParameter, AutoAnalysis.Line2.Point1.Data.Start, false
TestParameter, AutoAnalysis.Line2.Point1.Data.StartVar, 
TestParameter, AutoAnalysis.Line2.Point1.Data.StartCondition, 
TestParameter, AutoAnalysis.Line2.Point2.Type, 0
TestParameter, AutoAnalysis.Line2.Point2.XY.X, 
TestParameter, AutoAnalysis.Line2.Point2.XY.Y, 
TestParameter, AutoAnalysis.Line2.Point2.Data.Var, 
TestParameter, AutoAnalysis.Line2.Point2.Data.Condition, 
TestParameter, AutoAnalysis.Line2.Point2.Data.Start, false
TestParameter, AutoAnalysis.Line2.Point2.Data.StartVar, 
TestParameter, AutoAnalysis.Line2.Point2.Data.StartCondition, 
TestParameter, AutoAnalysis.Line2.GradientExpr, 0
TestParameter, AutoAnalysis.Marker.Enabled, false
TestParameter, AutoAnalysis.Marker.Data.Var, 
TestParameter, AutoAnalysis.Marker.Data.Condition, 
TestParameter, AutoAnalysis.Marker.Data.Start, false
TestParameter, AutoAnalysis.Marker.Data.StartVar, 
TestParameter, AutoAnalysis.Marker.Data.StartCondition, 
MetaData, TestRecord.EntryPoint, true
MetaData, TestRecord.RecordTime, 01/18/2020 16:47:30
MetaData, TestRecord.TestTarget, 
MetaData, TestRecord.IterationIndex, 35
MetaData, TestRecord.Preservation, true
MetaData, TestRecord.Flag, 
MetaData, TestRecord.Remarks, 
MetaData, TestRecord.LinkKey, 96962367-4106-4685-9533-e48ca358558b
Dimension1, 101, 101, 101
Dimension2, 1, 1, 1
DataName, V1, I1, Ohmic
DataValue, -1, -4.084E-11, 2214828841.3641372
DataValue, -0.98000000000000009, -4.117E-11, 
DataValue, -0.96000000000000008, -1.015E-11, 
DataValue, -0.94000000000000006, -2.722E-11, 
DataValue, -0.92, -1.055E-11, 
DataValue, -0.9, -1.404E-11, 
DataValue, -0.88, 4.83E-12, 
DataValue, -0.86, 7.57E-12, 
DataValue, -0.84000000000000008, 1.012E-11, 
DataValue, -0.82000000000000006, -1.527E-11, 
DataValue, -0.8, 5.72E-12, 
DataValue, -0.78, 5.57E-12, 
DataValue, -0.76, 7.09E-12, 
DataValue, -0.74, 4.7E-12, 
DataValue, -0.72000000000000008, 8.52E-12, 
DataValue, -0.70000000000000007, 4.56E-12, 
DataValue, -0.68, 3.58E-12, 
DataValue, -0.66, -6.82E-12, 
DataValue, -0.64, -8.07E-12, 
DataValue, -0.62, -1.011E-11, 
DataValue, -0.6, -1.388E-11, 
DataValue, -0.58000000000000007, 2.23E-12, 
DataValue, -0.56, -1.495E-11, 
DataValue, -0.54, -2.363E-11, 
DataValue, -0.52, -1.352E-11, 
DataValue, -0.5, -1.292E-11, 
DataValue, -0.48000000000000004, -2.73E-12, 
DataValue, -0.46, -9.56E-12, 
DataValue, -0.44, -6.2E-13, 
DataValue, -0.42000000000000004, -9.3E-12, 
DataValue, -0.4, -2.25E-12, 
DataValue, -0.38, 9.57E-12, 
DataValue, -0.36000000000000004, -5.63E-12, 
DataValue, -0.34, -1.364E-11, 
DataValue, -0.32, -7.8E-12, 
DataValue, -0.3, -9.81E-12, 
DataValue, -0.28, -1.504E-11, 
DataValue, -0.26, -1.588E-11, 
DataValue, -0.24000000000000002, -3.37E-11, 
DataValue, -0.22, -2.712E-11, 
DataValue, -0.2, -3.249E-11, 
DataValue, -0.18000000000000002, -1.823E-11, 
DataValue, -0.16, -8.29E-12, 
DataValue, -0.14, -1.782E-11, 
DataValue, -0.12000000000000001, -1.132E-11, 
DataValue, -0.1, -7.99E-12, 
DataValue, -0.08, 3.7E-13, 
DataValue, -0.060000000000000005, 2.7E-13, 
DataValue, -0.04, 2.706E-11, 
DataValue, -0.02, 4.557E-11, 
DataValue, 0, 7.716E-11, 
DataValue, 0.02, 8.613E-11, 
DataValue, 0.04, 1.0163E-10, 
DataValue, 0.060000000000000005, 1.3099E-10, 
DataValue, 0.08, 1.5001E-10, 
DataValue, 0.1, 1.5601E-10, 
DataValue, 0.12000000000000001, 1.57E-10, 
DataValue, 0.14, 1.5973E-10, 
DataValue, 0.16, 1.6244E-10, 
DataValue, 0.18000000000000002, 1.6432E-10, 
DataValue, 0.2, 2.0248E-10, 
DataValue, 0.22, 1.9175E-10, 
DataValue, 0.24000000000000002, 1.9105E-10, 
DataValue, 0.26, 2.0949E-10, 
DataValue, 0.28, 2.3666E-10, 
DataValue, 0.3, 2.2431E-10, 
DataValue, 0.32, 2.074E-10, 
DataValue, 0.34, 2.2572E-10, 
DataValue, 0.36000000000000004, 2.3593E-10, 
DataValue, 0.38, 2.6674E-10, 
DataValue, 0.4, 2.5946E-10, 
DataValue, 0.42000000000000004, 2.7955E-10, 
DataValue, 0.44, 2.6436E-10, 
DataValue, 0.46, 2.9357E-10, 
DataValue, 0.48000000000000004, 2.906E-10, 
DataValue, 0.5, 2.6685E-10, 
DataValue, 0.52, 3.027E-10, 
DataValue, 0.54, 3.1323E-10, 
DataValue, 0.56, 3.0194E-10, 
DataValue, 0.58000000000000007, 3.0184E-10, 
DataValue, 0.6, 2.9884E-10, 
DataValue, 0.62, 2.9725E-10, 
DataValue, 0.64, 3.2726E-10, 
DataValue, 0.66, 3.1478E-10, 
DataValue, 0.68, 3.4374E-10, 
DataValue, 0.70000000000000007, 3.346E-10, 
DataValue, 0.72000000000000008, 3.5817E-10, 
DataValue, 0.74, 3.6347E-10, 
DataValue, 0.76, 3.8811E-10, 
DataValue, 0.78, 3.9337E-10, 
DataValue, 0.8, 3.6032E-10, 
DataValue, 0.82000000000000006, 4.0467E-10, 
DataValue, 0.84000000000000008, 4.0071E-10, 
DataValue, 0.86, 3.9876E-10, 
DataValue, 0.88, 3.8634E-10, 
DataValue, 0.9, 3.8409E-10, 
DataValue, 0.92, 3.8373E-10, 
DataValue, 0.94000000000000006, 4.0101E-10, 
DataValue, 0.96000000000000008, 3.911E-10, 
DataValue, 0.98000000000000009, 4.324E-10, 
DataValue, 1, 4.6784E-10, 