
SetupTitle, WW
PrimitiveTest, I/V Sweep
TestParameter, Context.MainFrame, B1500A
TestParameter, Channel.UnitType, SMU, SMU
TestParameter, Channel.Unit, SMU2:HP, SMU1:HP
TestParameter, Channel.IName, I1, I4
TestParameter, Channel.VName, V1, V4
TestParameter, Channel.Mode, V, COMMON
TestParameter, Channel.Func, VAR1, CONST
TestParameter, Channel.Index, 
TestParameter, Channel.Time, 
TestParameter, Measurement.Port.Unit, SMU2:HP, SMU1:HP
TestParameter, Measurement.Port.SeriesResistor, NONE, NONE
TestParameter, Measurement.Port.Filter, ON, ON
TestParameter, Measurement.Port.OutputVoltageComparison, 0, 0
TestParameter, Measurement.Primary.Locus, Single
TestParameter, Measurement.Primary.Scale, LINEAR
TestParameter, Measurement.Primary.Start, -1
TestParameter, Measurement.Primary.Stop, 1
TestParameter, Measurement.Primary.Step, 0.02
TestParameter, Measurement.Primary.Compliance, 0.01
TestParameter, Measurement.Primary.PowerCompliance, 0
TestParameter, Measurement.Aborting.Condition, CONTINUE AT ANY
TestParameter, Measurement.PostOutput.Value, START
TestParameter, Measurement.PostOutput.Retention, OFF
TestParameter, Measurement.Bias.Source, -1, 0
TestParameter, Measurement.Bias.Compliance, 0.01, 1
TestParameter, Measurement.Monitor.Unit, SMU2:HP, SMU1:HP
TestParameter, Measurement.Monitor.Adc, HR ADC, HR ADC
TestParameter, Measurement.Monitor.Measurement, Compliance Side, Compliance Side
TestParameter, Measurement.Monitor.RangingMode, AUTO, AUTO
TestParameter, Measurement.Monitor.RangeBoundary, , 
TestParameter, Measurement.Monitor.RangeRating, BY FULL RANGE, BY FULL RANGE
TestParameter, Measurement.Monitor.RangeRatingCoeff, 50, 50
TestParameter, Measurement.Timing.Hold, 0
TestParameter, Measurement.Timing.Delay, 0.001
TestParameter, Measurement.Adc.HighSpeed.Mode, AUTO
TestParameter, Measurement.Adc.HighSpeed.Coeff, 1
TestParameter, Measurement.Adc.HighResolution.AutoZero, OFF
TestParameter, Measurement.Adc.HighResolution.Mode, PLC
TestParameter, Measurement.Adc.HighResolution.Coeff, 1
TestParameter, Measurement.WaitTime.Source.Coeff, 1
TestParameter, Measurement.WaitTime.Source.Offset, 0
TestParameter, Measurement.WaitTime.Monitor.Coeff, 1
TestParameter, Measurement.WaitTime.Monitor.Offset, 0
TestParameter, Function.User.Name, Ohmic
TestParameter, Function.User.Unit, ohm
TestParameter, Function.User.Definition, avg(V1/I1)
TestParameter, Output.Graph.Enabled, true
TestParameter, Output.Graph.XAxis.Data, V1
TestParameter, Output.Graph.XAxis.Scale, Linear
TestParameter, Output.Graph.XAxis.Left, -5
TestParameter, Output.Graph.XAxis.Right, 5
TestParameter, Output.Graph.YAxis.Data, I1
TestParameter, Output.Graph.YAxis.Scale, Linear
TestParameter, Output.Graph.YAxis.Bottom, -0.001
TestParameter, Output.Graph.YAxis.Top, 0.001
TestParameter, Output.Graph.YAxis.Group, 
TestParameter, Output.Scalar.Data, Ohmic
TestParameter, AutoAnalysis.Interpolation, false
TestParameter, AutoAnalysis.Line1.Enabled, false
TestParameter, AutoAnalysis.Line1.Type, 1
TestParameter, AutoAnalysis.Line1.Fix, True
TestParameter, AutoAnalysis.Line1.YAxis, 0
TestParameter, AutoAnalysis.Line1.Point1.Type, 0
TestParameter, AutoAnalysis.Line1.Point1.XY.X, 
TestParameter, AutoAnalysis.Line1.Point1.XY.Y, 
TestParameter, AutoAnalysis.Line1.Point1.Data.Var, 
TestParameter, AutoAnalysis.Line1.Point1.Data.Condition, 
TestParameter, AutoAnalysis.Line1.Point1.Data.Start, false
TestParameter, AutoAnalysis.Line1.Point1.Data.StartVar, 
TestParameter, AutoAnalysis.Line1.Point1.Data.StartCondition, 
TestParameter, AutoAnalysis.Line1.Point2.Type, 0
TestParameter, AutoAnalysis.Line1.Point2.XY.X, 
TestParameter, AutoAnalysis.Line1.Point2.XY.Y, 
TestParameter, AutoAnalysis.Line1.Point2.Data.Var, 
TestParameter, AutoAnalysis.Line1.Point2.Data.Condition, 
TestParameter, AutoAnalysis.Line1.Point2.Data.Start, false
TestParameter, AutoAnalysis.Line1.Point2.Data.StartVar, 
TestParameter, AutoAnalysis.Line1.Point2.Data.StartCondition, 
TestParameter, AutoAnalysis.Line1.GradientExpr, 0
TestParameter, AutoAnalysis.Line2.Enabled, false
TestParameter, AutoAnalysis.Line2.Type, 1
TestParameter, AutoAnalysis.Line2.Fix, True
TestParameter, AutoAnalysis.Line2.YAxis, 0
TestParameter, AutoAnalysis.Line2.Point1.Type, 0
TestParameter, AutoAnalysis.Line2.Point1.XY.X, 
TestParameter, AutoAnalysis.Line2.Point1.XY.Y, 
TestParameter, AutoAnalysis.Line2.Point1.Data.Var, 
TestParameter, AutoAnalysis.Line2.Point1.Data.Condition, 
TestParameter, AutoAnalysis.Line2.Point1.Data.Start, false
TestParameter, AutoAnalysis.Line2.Point1.Data.StartVar, 
TestParameter, AutoAnalysis.Line2.Point1.Data.StartCondition, 
TestParameter, AutoAnalysis.Line2.Point2.Type, 0
TestParameter, AutoAnalysis.Line2.Point2.XY.X, 
TestParameter, AutoAnalysis.Line2.Point2.XY.Y, 
TestParameter, AutoAnalysis.Line2.Point2.Data.Var, 
TestParameter, AutoAnalysis.Line2.Point2.Data.Condition, 
TestParameter, AutoAnalysis.Line2.Point2.Data.Start, false
TestParameter, AutoAnalysis.Line2.Point2.Data.StartVar, 
TestParameter, AutoAnalysis.Line2.Point2.Data.StartCondition, 
TestParameter, AutoAnalysis.Line2.GradientExpr, 0
TestParameter, AutoAnalysis.Marker.Enabled, false
TestParameter, AutoAnalysis.Marker.Data.Var, 
TestParameter, AutoAnalysis.Marker.Data.Condition, 
TestParameter, AutoAnalysis.Marker.Data.Start, false
TestParameter, AutoAnalysis.Marker.Data.StartVar, 
TestParameter, AutoAnalysis.Marker.Data.StartCondition, 
MetaData, TestRecord.EntryPoint, true
MetaData, TestRecord.RecordTime, 01/18/2020 16:46:53
MetaData, TestRecord.TestTarget, 
MetaData, TestRecord.IterationIndex, 34
MetaData, TestRecord.Preservation, true
MetaData, TestRecord.Flag, 
MetaData, TestRecord.Remarks, 
MetaData, TestRecord.LinkKey, 4069763a-426b-4212-bd67-c31123270d2b
Dimension1, 101, 101, 101
Dimension2, 1, 1, 1
DataName, V1, I1, Ohmic
DataValue, -1, -5.928E-11, 14823837338.246998
DataValue, -0.98000000000000009, -4.629E-11, 
DataValue, -0.96000000000000008, -5.047E-11, 
DataValue, -0.94000000000000006, -4.988E-11, 
DataValue, -0.92, -4.705E-11, 
DataValue, -0.9, -3.705E-11, 
DataValue, -0.88, -2.927E-11, 
DataValue, -0.86, -2.604E-11, 
DataValue, -0.84000000000000008, -2.695E-11, 
DataValue, -0.82000000000000006, -3.099E-11, 
DataValue, -0.8, -2.003E-11, 
DataValue, -0.78, -3.263E-11, 
DataValue, -0.76, -2.861E-11, 
DataValue, -0.74, -6.45E-12, 
DataValue, -0.72000000000000008, -1.923E-11, 
DataValue, -0.70000000000000007, -1.341E-11, 
DataValue, -0.68, -2.217E-11, 
DataValue, -0.66, -7.66E-12, 
DataValue, -0.64, -1.953E-11, 
DataValue, -0.62, -2.393E-11, 
DataValue, -0.6, -1.145E-11, 
DataValue, -0.58000000000000007, -4.58E-12, 
DataValue, -0.56, -1.883E-11, 
DataValue, -0.54, -1.344E-11, 
DataValue, -0.52, -4.77E-12, 
DataValue, -0.5, -1.797E-11, 
DataValue, -0.48000000000000004, -9.86E-12, 
DataValue, -0.46, 2.48E-12, 
DataValue, -0.44, -3.77E-12, 
DataValue, -0.42000000000000004, -7.64E-12, 
DataValue, -0.4, 4.18E-12, 
DataValue, -0.38, -1.91E-11, 
DataValue, -0.36000000000000004, -4.03E-12, 
DataValue, -0.34, -2.81E-12, 
DataValue, -0.32, -1.4E-12, 
DataValue, -0.3, -1.892E-11, 
DataValue, -0.28, -3.02E-12, 
DataValue, -0.26, 2.98E-12, 
DataValue, -0.24000000000000002, -9.74E-12, 
DataValue, -0.22, 7.62E-12, 
DataValue, -0.2, -3.4E-12, 
DataValue, -0.18000000000000002, -1.585E-11, 
DataValue, -0.16, 7.79E-12, 
DataValue, -0.14, 3.08E-12, 
DataValue, -0.12000000000000001, 1.58E-12, 
DataValue, -0.1, 1.068E-11, 
DataValue, -0.08, 9.11E-12, 
DataValue, -0.060000000000000005, 1.187E-11, 
DataValue, -0.04, 3.943E-11, 
DataValue, -0.02, 5.299E-11, 
DataValue, 0, 6.557E-11, 
DataValue, 0.02, 8.862E-11, 
DataValue, 0.04, 9.964E-11, 
DataValue, 0.060000000000000005, 1.1533E-10, 
DataValue, 0.08, 1.2787E-10, 
DataValue, 0.1, 1.4078E-10, 
DataValue, 0.12000000000000001, 1.5015E-10, 
DataValue, 0.14, 1.5114E-10, 
DataValue, 0.16, 1.7037E-10, 
DataValue, 0.18000000000000002, 1.5612E-10, 
DataValue, 0.2, 1.7024E-10, 
DataValue, 0.22, 1.7096E-10, 
DataValue, 0.24000000000000002, 2.079E-10, 
DataValue, 0.26, 1.8787E-10, 
DataValue, 0.28, 2.0644E-10, 
DataValue, 0.3, 2.1983E-10, 
DataValue, 0.32, 2.1388E-10, 
DataValue, 0.34, 2.3958E-10, 
DataValue, 0.36000000000000004, 2.3388E-10, 
DataValue, 0.38, 2.4429E-10, 
DataValue, 0.4, 2.47E-10, 
DataValue, 0.42000000000000004, 2.4787E-10, 
DataValue, 0.44, 2.5033E-10, 
DataValue, 0.46, 2.6418E-10, 
DataValue, 0.48000000000000004, 3.0092E-10, 
DataValue, 0.5, 2.7401E-10, 
DataValue, 0.52, 2.9872E-10, 
DataValue, 0.54, 2.8264E-10, 
DataValue, 0.56, 2.9492E-10, 
DataValue, 0.58000000000000007, 3.0934E-10, 
DataValue, 0.6, 3.1908E-10, 
DataValue, 0.62, 3.2696E-10, 
DataValue, 0.64, 3.3804E-10, 
DataValue, 0.66, 3.708E-10, 
DataValue, 0.68, 3.8053E-10, 
DataValue, 0.70000000000000007, 3.8732E-10, 
DataValue, 0.72000000000000008, 3.7572E-10, 
DataValue, 0.74, 3.9304E-10, 
DataValue, 0.76, 3.7808E-10, 
DataValue, 0.78, 4.0788999999999997E-10, 
DataValue, 0.8, 4.0915E-10, 
DataValue, 0.82000000000000006, 3.9116E-10, 
DataValue, 0.84000000000000008, 3.8495E-10, 
DataValue, 0.86, 3.8197E-10, 
DataValue, 0.88, 3.6952E-10, 
DataValue, 0.9, 3.878E-10, 
DataValue, 0.92, 3.8225E-10, 
DataValue, 0.94000000000000006, 3.6366E-10, 
DataValue, 0.96000000000000008, 3.6577E-10, 
DataValue, 0.98000000000000009, 4.1808E-10, 
DataValue, 1, 4.3008E-10, 