
SetupTitle, WW
PrimitiveTest, I/V Sweep
TestParameter, Context.MainFrame, B1500A
TestParameter, Channel.UnitType, SMU, SMU
TestParameter, Channel.Unit, SMU2:HP, SMU1:HP
TestParameter, Channel.IName, I1, I4
TestParameter, Channel.VName, V1, V4
TestParameter, Channel.Mode, V, COMMON
TestParameter, Channel.Func, VAR1, CONST
TestParameter, Channel.Index, 
TestParameter, Channel.Time, 
TestParameter, Measurement.Port.Unit, SMU2:HP, SMU1:HP
TestParameter, Measurement.Port.SeriesResistor, NONE, NONE
TestParameter, Measurement.Port.Filter, ON, ON
TestParameter, Measurement.Port.OutputVoltageComparison, 0, 0
TestParameter, Measurement.Primary.Locus, Single
TestParameter, Measurement.Primary.Scale, LINEAR
TestParameter, Measurement.Primary.Start, -1
TestParameter, Measurement.Primary.Stop, 1
TestParameter, Measurement.Primary.Step, 0.02
TestParameter, Measurement.Primary.Compliance, 0.01
TestParameter, Measurement.Primary.PowerCompliance, 0
TestParameter, Measurement.Aborting.Condition, CONTINUE AT ANY
TestParameter, Measurement.PostOutput.Value, START
TestParameter, Measurement.PostOutput.Retention, OFF
TestParameter, Measurement.Bias.Source, -1, 0
TestParameter, Measurement.Bias.Compliance, 0.01, 1
TestParameter, Measurement.Monitor.Unit, SMU2:HP, SMU1:HP
TestParameter, Measurement.Monitor.Adc, HR ADC, HR ADC
TestParameter, Measurement.Monitor.Measurement, Compliance Side, Compliance Side
TestParameter, Measurement.Monitor.RangingMode, AUTO, AUTO
TestParameter, Measurement.Monitor.RangeBoundary, , 
TestParameter, Measurement.Monitor.RangeRating, BY FULL RANGE, BY FULL RANGE
TestParameter, Measurement.Monitor.RangeRatingCoeff, 50, 50
TestParameter, Measurement.Timing.Hold, 0
TestParameter, Measurement.Timing.Delay, 0.001
TestParameter, Measurement.Adc.HighSpeed.Mode, AUTO
TestParameter, Measurement.Adc.HighSpeed.Coeff, 1
TestParameter, Measurement.Adc.HighResolution.AutoZero, OFF
TestParameter, Measurement.Adc.HighResolution.Mode, PLC
TestParameter, Measurement.Adc.HighResolution.Coeff, 1
TestParameter, Measurement.WaitTime.Source.Coeff, 1
TestParameter, Measurement.WaitTime.Source.Offset, 0
TestParameter, Measurement.WaitTime.Monitor.Coeff, 1
TestParameter, Measurement.WaitTime.Monitor.Offset, 0
TestParameter, Function.User.Name, Ohmic
TestParameter, Function.User.Unit, ohm
TestParameter, Function.User.Definition, avg(V1/I1)
TestParameter, Output.Graph.Enabled, true
TestParameter, Output.Graph.XAxis.Data, V1
TestParameter, Output.Graph.XAxis.Scale, Linear
TestParameter, Output.Graph.XAxis.Left, -5
TestParameter, Output.Graph.XAxis.Right, 5
TestParameter, Output.Graph.YAxis.Data, I1
TestParameter, Output.Graph.YAxis.Scale, Linear
TestParameter, Output.Graph.YAxis.Bottom, -0.001
TestParameter, Output.Graph.YAxis.Top, 0.001
TestParameter, Output.Graph.YAxis.Group, 
TestParameter, Output.Scalar.Data, Ohmic
TestParameter, AutoAnalysis.Interpolation, false
TestParameter, AutoAnalysis.Line1.Enabled, false
TestParameter, AutoAnalysis.Line1.Type, 1
TestParameter, AutoAnalysis.Line1.Fix, True
TestParameter, AutoAnalysis.Line1.YAxis, 0
TestParameter, AutoAnalysis.Line1.Point1.Type, 0
TestParameter, AutoAnalysis.Line1.Point1.XY.X, 
TestParameter, AutoAnalysis.Line1.Point1.XY.Y, 
TestParameter, AutoAnalysis.Line1.Point1.Data.Var, 
TestParameter, AutoAnalysis.Line1.Point1.Data.Condition, 
TestParameter, AutoAnalysis.Line1.Point1.Data.Start, false
TestParameter, AutoAnalysis.Line1.Point1.Data.StartVar, 
TestParameter, AutoAnalysis.Line1.Point1.Data.StartCondition, 
TestParameter, AutoAnalysis.Line1.Point2.Type, 0
TestParameter, AutoAnalysis.Line1.Point2.XY.X, 
TestParameter, AutoAnalysis.Line1.Point2.XY.Y, 
TestParameter, AutoAnalysis.Line1.Point2.Data.Var, 
TestParameter, AutoAnalysis.Line1.Point2.Data.Condition, 
TestParameter, AutoAnalysis.Line1.Point2.Data.Start, false
TestParameter, AutoAnalysis.Line1.Point2.Data.StartVar, 
TestParameter, AutoAnalysis.Line1.Point2.Data.StartCondition, 
TestParameter, AutoAnalysis.Line1.GradientExpr, 0
TestParameter, AutoAnalysis.Line2.Enabled, false
TestParameter, AutoAnalysis.Line2.Type, 1
TestParameter, AutoAnalysis.Line2.Fix, True
TestParameter, AutoAnalysis.Line2.YAxis, 0
TestParameter, AutoAnalysis.Line2.Point1.Type, 0
TestParameter, AutoAnalysis.Line2.Point1.XY.X, 
TestParameter, AutoAnalysis.Line2.Point1.XY.Y, 
TestParameter, AutoAnalysis.Line2.Point1.Data.Var, 
TestParameter, AutoAnalysis.Line2.Point1.Data.Condition, 
TestParameter, AutoAnalysis.Line2.Point1.Data.Start, false
TestParameter, AutoAnalysis.Line2.Point1.Data.StartVar, 
TestParameter, AutoAnalysis.Line2.Point1.Data.StartCondition, 
TestParameter, AutoAnalysis.Line2.Point2.Type, 0
TestParameter, AutoAnalysis.Line2.Point2.XY.X, 
TestParameter, AutoAnalysis.Line2.Point2.XY.Y, 
TestParameter, AutoAnalysis.Line2.Point2.Data.Var, 
TestParameter, AutoAnalysis.Line2.Point2.Data.Condition, 
TestParameter, AutoAnalysis.Line2.Point2.Data.Start, false
TestParameter, AutoAnalysis.Line2.Point2.Data.StartVar, 
TestParameter, AutoAnalysis.Line2.Point2.Data.StartCondition, 
TestParameter, AutoAnalysis.Line2.GradientExpr, 0
TestParameter, AutoAnalysis.Marker.Enabled, false
TestParameter, AutoAnalysis.Marker.Data.Var, 
TestParameter, AutoAnalysis.Marker.Data.Condition, 
TestParameter, AutoAnalysis.Marker.Data.Start, false
TestParameter, AutoAnalysis.Marker.Data.StartVar, 
TestParameter, AutoAnalysis.Marker.Data.StartCondition, 
MetaData, TestRecord.EntryPoint, true
MetaData, TestRecord.RecordTime, 01/18/2020 16:46:21
MetaData, TestRecord.TestTarget, 
MetaData, TestRecord.IterationIndex, 33
MetaData, TestRecord.Preservation, true
MetaData, TestRecord.Flag, 
MetaData, TestRecord.Remarks, 
MetaData, TestRecord.LinkKey, 585df615-d660-4818-b9dc-235aa3ff6f02
Dimension1, 101, 101, 101
Dimension2, 1, 1, 1
DataName, V1, I1, Ohmic
DataValue, -1, -3.511E-11, 10543335000.749043
DataValue, -0.98000000000000009, -2.864E-11, 
DataValue, -0.96000000000000008, -2.509E-11, 
DataValue, -0.94000000000000006, -2.056E-11, 
DataValue, -0.92, -3.102E-11, 
DataValue, -0.9, -1.542E-11, 
DataValue, -0.88, -1.583E-11, 
DataValue, -0.86, -1.935E-11, 
DataValue, -0.84000000000000008, -1.798E-11, 
DataValue, -0.82000000000000006, -1.523E-11, 
DataValue, -0.8, -9.91E-12, 
DataValue, -0.78, -1.451E-11, 
DataValue, -0.76, -1.208E-11, 
DataValue, -0.74, -1.143E-11, 
DataValue, -0.72000000000000008, -5.98E-12, 
DataValue, -0.70000000000000007, -2.43E-11, 
DataValue, -0.68, -2.552E-11, 
DataValue, -0.66, -2.775E-11, 
DataValue, -0.64, -1.982E-11, 
DataValue, -0.62, -3.243E-11, 
DataValue, -0.6, -2.699E-11, 
DataValue, -0.58000000000000007, -3.431E-11, 
DataValue, -0.56, -2.989E-11, 
DataValue, -0.54, -3.442E-11, 
DataValue, -0.52, -2.499E-11, 
DataValue, -0.5, -3.536E-11, 
DataValue, -0.48000000000000004, -2.667E-11, 
DataValue, -0.46, -2.731E-11, 
DataValue, -0.44, -1.943E-11, 
DataValue, -0.42000000000000004, -1.376E-11, 
DataValue, -0.4, 1.052E-11, 
DataValue, -0.38, 1.24E-11, 
DataValue, -0.36000000000000004, 2.949E-11, 
DataValue, -0.34, 2.123E-11, 
DataValue, -0.32, 2.756E-11, 
DataValue, -0.3, 2.382E-11, 
DataValue, -0.28, 4.242E-11, 
DataValue, -0.26, 3.412E-11, 
DataValue, -0.24000000000000002, 3.212E-11, 
DataValue, -0.22, 2.937E-11, 
DataValue, -0.2, 3.071E-11, 
DataValue, -0.18000000000000002, 2.107E-11, 
DataValue, -0.16, 3.108E-11, 
DataValue, -0.14, 2.108E-11, 
DataValue, -0.12000000000000001, 1.875E-11, 
DataValue, -0.1, 2.446E-11, 
DataValue, -0.08, 2.383E-11, 
DataValue, -0.060000000000000005, 2.634E-11, 
DataValue, -0.04, 2.744E-11, 
DataValue, -0.02, 2.944E-11, 
DataValue, 0, 4.032E-11, 
DataValue, 0.02, 4.111E-11, 
DataValue, 0.04, 6.137E-11, 
DataValue, 0.060000000000000005, 6.481E-11, 
DataValue, 0.08, 7.496E-11, 
DataValue, 0.1, 8.027E-11, 
DataValue, 0.12000000000000001, 8.6179999999999993E-11, 
DataValue, 0.14, 8.748E-11, 
DataValue, 0.16, 1.0372E-10, 
DataValue, 0.18000000000000002, 1.0425E-10, 
DataValue, 0.2, 1.1196E-10, 
DataValue, 0.22, 1.1614E-10, 
DataValue, 0.24000000000000002, 1.3137E-10, 
DataValue, 0.26, 1.3335E-10, 
DataValue, 0.28, 1.4288E-10, 
DataValue, 0.3, 1.4891E-10, 
DataValue, 0.32, 1.5386E-10, 
DataValue, 0.34, 1.515E-10, 
DataValue, 0.36000000000000004, 1.6901E-10, 
DataValue, 0.38, 1.5776E-10, 
DataValue, 0.4, 1.6747E-10, 
DataValue, 0.42000000000000004, 1.9272E-10, 
DataValue, 0.44, 1.9925E-10, 
DataValue, 0.46, 1.9292E-10, 
DataValue, 0.48000000000000004, 1.9802E-10, 
DataValue, 0.5, 2.0649E-10, 
DataValue, 0.52, 2.2485E-10, 
DataValue, 0.54, 2.2811E-10, 
DataValue, 0.56, 2.2994E-10, 
DataValue, 0.58000000000000007, 2.4058E-10, 
DataValue, 0.6, 2.229E-10, 
DataValue, 0.62, 2.4824E-10, 
DataValue, 0.64, 2.5044E-10, 
DataValue, 0.66, 2.4845E-10, 
DataValue, 0.68, 2.5658E-10, 
DataValue, 0.70000000000000007, 2.5922E-10, 
DataValue, 0.72000000000000008, 2.7227E-10, 
DataValue, 0.74, 2.6709E-10, 
DataValue, 0.76, 2.7873E-10, 
DataValue, 0.78, 2.7881999999999997E-10, 
DataValue, 0.8, 2.7247E-10, 
DataValue, 0.82000000000000006, 2.7033E-10, 
DataValue, 0.84000000000000008, 2.6403E-10, 
DataValue, 0.86, 2.6264E-10, 
DataValue, 0.88, 2.7525E-10, 
DataValue, 0.9, 2.885E-10, 
DataValue, 0.92, 3.1153E-10, 
DataValue, 0.94000000000000006, 2.8992E-10, 
DataValue, 0.96000000000000008, 3.1663E-10, 
DataValue, 0.98000000000000009, 3.1861E-10, 
DataValue, 1, 3.2717E-10, 