
SetupTitle, WW
PrimitiveTest, I/V Sweep
TestParameter, Context.MainFrame, B1500A
TestParameter, Channel.UnitType, SMU, SMU
TestParameter, Channel.Unit, SMU2:HP, SMU1:HP
TestParameter, Channel.IName, I1, I4
TestParameter, Channel.VName, V1, V4
TestParameter, Channel.Mode, V, COMMON
TestParameter, Channel.Func, VAR1, CONST
TestParameter, Channel.Index, 
TestParameter, Channel.Time, 
TestParameter, Measurement.Port.Unit, SMU2:HP, SMU1:HP
TestParameter, Measurement.Port.SeriesResistor, NONE, NONE
TestParameter, Measurement.Port.Filter, ON, ON
TestParameter, Measurement.Port.OutputVoltageComparison, 0, 0
TestParameter, Measurement.Primary.Locus, Single
TestParameter, Measurement.Primary.Scale, LINEAR
TestParameter, Measurement.Primary.Start, -1
TestParameter, Measurement.Primary.Stop, 1
TestParameter, Measurement.Primary.Step, 0.02
TestParameter, Measurement.Primary.Compliance, 0.01
TestParameter, Measurement.Primary.PowerCompliance, 0
TestParameter, Measurement.Aborting.Condition, CONTINUE AT ANY
TestParameter, Measurement.PostOutput.Value, START
TestParameter, Measurement.PostOutput.Retention, OFF
TestParameter, Measurement.Bias.Source, -1, 0
TestParameter, Measurement.Bias.Compliance, 0.01, 1
TestParameter, Measurement.Monitor.Unit, SMU2:HP, SMU1:HP
TestParameter, Measurement.Monitor.Adc, HR ADC, HR ADC
TestParameter, Measurement.Monitor.Measurement, Compliance Side, Compliance Side
TestParameter, Measurement.Monitor.RangingMode, AUTO, AUTO
TestParameter, Measurement.Monitor.RangeBoundary, , 
TestParameter, Measurement.Monitor.RangeRating, BY FULL RANGE, BY FULL RANGE
TestParameter, Measurement.Monitor.RangeRatingCoeff, 50, 50
TestParameter, Measurement.Timing.Hold, 0
TestParameter, Measurement.Timing.Delay, 0.001
TestParameter, Measurement.Adc.HighSpeed.Mode, AUTO
TestParameter, Measurement.Adc.HighSpeed.Coeff, 1
TestParameter, Measurement.Adc.HighResolution.AutoZero, OFF
TestParameter, Measurement.Adc.HighResolution.Mode, PLC
TestParameter, Measurement.Adc.HighResolution.Coeff, 1
TestParameter, Measurement.WaitTime.Source.Coeff, 1
TestParameter, Measurement.WaitTime.Source.Offset, 0
TestParameter, Measurement.WaitTime.Monitor.Coeff, 1
TestParameter, Measurement.WaitTime.Monitor.Offset, 0
TestParameter, Function.User.Name, Ohmic
TestParameter, Function.User.Unit, ohm
TestParameter, Function.User.Definition, avg(V1/I1)
TestParameter, Output.Graph.Enabled, true
TestParameter, Output.Graph.XAxis.Data, V1
TestParameter, Output.Graph.XAxis.Scale, Linear
TestParameter, Output.Graph.XAxis.Left, -5
TestParameter, Output.Graph.XAxis.Right, 5
TestParameter, Output.Graph.YAxis.Data, I1
TestParameter, Output.Graph.YAxis.Scale, Linear
TestParameter, Output.Graph.YAxis.Bottom, -0.001
TestParameter, Output.Graph.YAxis.Top, 0.001
TestParameter, Output.Graph.YAxis.Group, 
TestParameter, Output.Scalar.Data, Ohmic
TestParameter, AutoAnalysis.Interpolation, false
TestParameter, AutoAnalysis.Line1.Enabled, false
TestParameter, AutoAnalysis.Line1.Type, 1
TestParameter, AutoAnalysis.Line1.Fix, True
TestParameter, AutoAnalysis.Line1.YAxis, 0
TestParameter, AutoAnalysis.Line1.Point1.Type, 0
TestParameter, AutoAnalysis.Line1.Point1.XY.X, 
TestParameter, AutoAnalysis.Line1.Point1.XY.Y, 
TestParameter, AutoAnalysis.Line1.Point1.Data.Var, 
TestParameter, AutoAnalysis.Line1.Point1.Data.Condition, 
TestParameter, AutoAnalysis.Line1.Point1.Data.Start, false
TestParameter, AutoAnalysis.Line1.Point1.Data.StartVar, 
TestParameter, AutoAnalysis.Line1.Point1.Data.StartCondition, 
TestParameter, AutoAnalysis.Line1.Point2.Type, 0
TestParameter, AutoAnalysis.Line1.Point2.XY.X, 
TestParameter, AutoAnalysis.Line1.Point2.XY.Y, 
TestParameter, AutoAnalysis.Line1.Point2.Data.Var, 
TestParameter, AutoAnalysis.Line1.Point2.Data.Condition, 
TestParameter, AutoAnalysis.Line1.Point2.Data.Start, false
TestParameter, AutoAnalysis.Line1.Point2.Data.StartVar, 
TestParameter, AutoAnalysis.Line1.Point2.Data.StartCondition, 
TestParameter, AutoAnalysis.Line1.GradientExpr, 0
TestParameter, AutoAnalysis.Line2.Enabled, false
TestParameter, AutoAnalysis.Line2.Type, 1
TestParameter, AutoAnalysis.Line2.Fix, True
TestParameter, AutoAnalysis.Line2.YAxis, 0
TestParameter, AutoAnalysis.Line2.Point1.Type, 0
TestParameter, AutoAnalysis.Line2.Point1.XY.X, 
TestParameter, AutoAnalysis.Line2.Point1.XY.Y, 
TestParameter, AutoAnalysis.Line2.Point1.Data.Var, 
TestParameter, AutoAnalysis.Line2.Point1.Data.Condition, 
TestParameter, AutoAnalysis.Line2.Point1.Data.Start, false
TestParameter, AutoAnalysis.Line2.Point1.Data.StartVar, 
TestParameter, AutoAnalysis.Line2.Point1.Data.StartCondition, 
TestParameter, AutoAnalysis.Line2.Point2.Type, 0
TestParameter, AutoAnalysis.Line2.Point2.XY.X, 
TestParameter, AutoAnalysis.Line2.Point2.XY.Y, 
TestParameter, AutoAnalysis.Line2.Point2.Data.Var, 
TestParameter, AutoAnalysis.Line2.Point2.Data.Condition, 
TestParameter, AutoAnalysis.Line2.Point2.Data.Start, false
TestParameter, AutoAnalysis.Line2.Point2.Data.StartVar, 
TestParameter, AutoAnalysis.Line2.Point2.Data.StartCondition, 
TestParameter, AutoAnalysis.Line2.GradientExpr, 0
TestParameter, AutoAnalysis.Marker.Enabled, false
TestParameter, AutoAnalysis.Marker.Data.Var, 
TestParameter, AutoAnalysis.Marker.Data.Condition, 
TestParameter, AutoAnalysis.Marker.Data.Start, false
TestParameter, AutoAnalysis.Marker.Data.StartVar, 
TestParameter, AutoAnalysis.Marker.Data.StartCondition, 
MetaData, TestRecord.EntryPoint, true
MetaData, TestRecord.RecordTime, 01/18/2020 16:45:12
MetaData, TestRecord.TestTarget, 
MetaData, TestRecord.IterationIndex, 31
MetaData, TestRecord.Preservation, true
MetaData, TestRecord.Flag, 
MetaData, TestRecord.Remarks, 
MetaData, TestRecord.LinkKey, 79f4d27a-fc9c-4ead-81ec-4c3332b47fbb
Dimension1, 101, 101, 101
Dimension2, 1, 1, 1
DataName, V1, I1, Ohmic
DataValue, -1, 1.249E-11, -6239505627.0633078
DataValue, -0.98000000000000009, 1.888E-11, 
DataValue, -0.96000000000000008, 2.628E-11, 
DataValue, -0.94000000000000006, 2.007E-11, 
DataValue, -0.92, 2.475E-11, 
DataValue, -0.9, 1.993E-11, 
DataValue, -0.88, 7.31E-12, 
DataValue, -0.86, 1.744E-11, 
DataValue, -0.84000000000000008, 1.906E-11, 
DataValue, -0.82000000000000006, 1.512E-11, 
DataValue, -0.8, 2.407E-11, 
DataValue, -0.78, 1.834E-11, 
DataValue, -0.76, 1.609E-11, 
DataValue, -0.74, 1.297E-11, 
DataValue, -0.72000000000000008, 1.997E-11, 
DataValue, -0.70000000000000007, 1.915E-11, 
DataValue, -0.68, 1.952E-11, 
DataValue, -0.66, 1.645E-11, 
DataValue, -0.64, 1.647E-11, 
DataValue, -0.62, 1.593E-11, 
DataValue, -0.6, 1.543E-11, 
DataValue, -0.58000000000000007, 1.383E-11, 
DataValue, -0.56, 7.6E-12, 
DataValue, -0.54, 8.6E-13, 
DataValue, -0.52, -4.36E-12, 
DataValue, -0.5, 1.2E-13, 
DataValue, -0.48000000000000004, -2.2E-13, 
DataValue, -0.46, -3.5E-12, 
DataValue, -0.44, -1.8E-12, 
DataValue, -0.42000000000000004, -2.59E-12, 
DataValue, -0.4, 1.3E-12, 
DataValue, -0.38, 3.4E-13, 
DataValue, -0.36000000000000004, -2.01E-12, 
DataValue, -0.34, -5.01E-12, 
DataValue, -0.32, -1.116E-11, 
DataValue, -0.3, -1.184E-11, 
DataValue, -0.28, -7.03E-12, 
DataValue, -0.26, -8E-14, 
DataValue, -0.24000000000000002, -1.49E-12, 
DataValue, -0.22, -3.33E-12, 
DataValue, -0.2, -8.7699999999999992E-12, 
DataValue, -0.18000000000000002, -1.643E-11, 
DataValue, -0.16, 5.84E-12, 
DataValue, -0.14, 3.65E-12, 
DataValue, -0.12000000000000001, 6.9199999999999996E-12, 
DataValue, -0.1, 1.165E-11, 
DataValue, -0.08, 8.37E-12, 
DataValue, -0.060000000000000005, 1.664E-11, 
DataValue, -0.04, 1.432E-11, 
DataValue, -0.02, 2.741E-11, 
DataValue, 0, 2.566E-11, 
DataValue, 0.02, 3.559E-11, 
DataValue, 0.04, 4.834E-11, 
DataValue, 0.060000000000000005, 5.607E-11, 
DataValue, 0.08, 6.366E-11, 
DataValue, 0.1, 7.349E-11, 
DataValue, 0.12000000000000001, 7.825E-11, 
DataValue, 0.14, 8.25E-11, 
DataValue, 0.16, 8.651E-11, 
DataValue, 0.18000000000000002, 9.107E-11, 
DataValue, 0.2, 9.556E-11, 
DataValue, 0.22, 1.0146E-10, 
DataValue, 0.24000000000000002, 1.0310999999999999E-10, 
DataValue, 0.26, 1.0479E-10, 
DataValue, 0.28, 1.1421E-10, 
DataValue, 0.3, 1.1275E-10, 
DataValue, 0.32, 1.386E-10, 
DataValue, 0.34, 1.2216E-10, 
DataValue, 0.36000000000000004, 1.3376E-10, 
DataValue, 0.38, 1.4475E-10, 
DataValue, 0.4, 1.4824E-10, 
DataValue, 0.42000000000000004, 1.4803E-10, 
DataValue, 0.44, 1.5417E-10, 
DataValue, 0.46, 1.6382E-10, 
DataValue, 0.48000000000000004, 1.6985E-10, 
DataValue, 0.5, 1.7441E-10, 
DataValue, 0.52, 1.8272E-10, 
DataValue, 0.54, 1.8603E-10, 
DataValue, 0.56, 1.8945E-10, 
DataValue, 0.58000000000000007, 2.0244E-10, 
DataValue, 0.6, 2.1415E-10, 
DataValue, 0.62, 2.0136E-10, 
DataValue, 0.64, 2.0156E-10, 
DataValue, 0.66, 2.0752E-10, 
DataValue, 0.68, 2.1003E-10, 
DataValue, 0.70000000000000007, 2.2471E-10, 
DataValue, 0.72000000000000008, 2.3029E-10, 
DataValue, 0.74, 2.4144E-10, 
DataValue, 0.76, 2.3981E-10, 
DataValue, 0.78, 2.389E-10, 
DataValue, 0.8, 2.4337E-10, 
DataValue, 0.82000000000000006, 2.4622E-10, 
DataValue, 0.84000000000000008, 2.4911E-10, 
DataValue, 0.86, 2.561E-10, 
DataValue, 0.88, 2.5934E-10, 
DataValue, 0.9, 2.731E-10, 
DataValue, 0.92, 2.8924E-10, 
DataValue, 0.94000000000000006, 3.1834E-10, 
DataValue, 0.96000000000000008, 2.7648E-10, 
DataValue, 0.98000000000000009, 2.8996E-10, 
DataValue, 1, 2.9332E-10, 