
SetupTitle, WW
PrimitiveTest, I/V Sweep
TestParameter, Context.MainFrame, B1500A
TestParameter, Channel.UnitType, SMU, SMU
TestParameter, Channel.Unit, SMU2:HP, SMU1:HP
TestParameter, Channel.IName, I1, I4
TestParameter, Channel.VName, V1, V4
TestParameter, Channel.Mode, V, COMMON
TestParameter, Channel.Func, VAR1, CONST
TestParameter, Channel.Index, 
TestParameter, Channel.Time, 
TestParameter, Measurement.Port.Unit, SMU2:HP, SMU1:HP
TestParameter, Measurement.Port.SeriesResistor, NONE, NONE
TestParameter, Measurement.Port.Filter, ON, ON
TestParameter, Measurement.Port.OutputVoltageComparison, 0, 0
TestParameter, Measurement.Primary.Locus, Single
TestParameter, Measurement.Primary.Scale, LINEAR
TestParameter, Measurement.Primary.Start, -1
TestParameter, Measurement.Primary.Stop, 1
TestParameter, Measurement.Primary.Step, 0.02
TestParameter, Measurement.Primary.Compliance, 0.01
TestParameter, Measurement.Primary.PowerCompliance, 0
TestParameter, Measurement.Aborting.Condition, CONTINUE AT ANY
TestParameter, Measurement.PostOutput.Value, START
TestParameter, Measurement.PostOutput.Retention, OFF
TestParameter, Measurement.Bias.Source, -1, 0
TestParameter, Measurement.Bias.Compliance, 0.01, 1
TestParameter, Measurement.Monitor.Unit, SMU2:HP, SMU1:HP
TestParameter, Measurement.Monitor.Adc, HR ADC, HR ADC
TestParameter, Measurement.Monitor.Measurement, Compliance Side, Compliance Side
TestParameter, Measurement.Monitor.RangingMode, AUTO, AUTO
TestParameter, Measurement.Monitor.RangeBoundary, , 
TestParameter, Measurement.Monitor.RangeRating, BY FULL RANGE, BY FULL RANGE
TestParameter, Measurement.Monitor.RangeRatingCoeff, 50, 50
TestParameter, Measurement.Timing.Hold, 0
TestParameter, Measurement.Timing.Delay, 0.001
TestParameter, Measurement.Adc.HighSpeed.Mode, AUTO
TestParameter, Measurement.Adc.HighSpeed.Coeff, 1
TestParameter, Measurement.Adc.HighResolution.AutoZero, OFF
TestParameter, Measurement.Adc.HighResolution.Mode, PLC
TestParameter, Measurement.Adc.HighResolution.Coeff, 1
TestParameter, Measurement.WaitTime.Source.Coeff, 1
TestParameter, Measurement.WaitTime.Source.Offset, 0
TestParameter, Measurement.WaitTime.Monitor.Coeff, 1
TestParameter, Measurement.WaitTime.Monitor.Offset, 0
TestParameter, Function.User.Name, Ohmic
TestParameter, Function.User.Unit, ohm
TestParameter, Function.User.Definition, avg(V1/I1)
TestParameter, Output.Graph.Enabled, true
TestParameter, Output.Graph.XAxis.Data, V1
TestParameter, Output.Graph.XAxis.Scale, Linear
TestParameter, Output.Graph.XAxis.Left, -5
TestParameter, Output.Graph.XAxis.Right, 5
TestParameter, Output.Graph.YAxis.Data, I1
TestParameter, Output.Graph.YAxis.Scale, Linear
TestParameter, Output.Graph.YAxis.Bottom, -0.001
TestParameter, Output.Graph.YAxis.Top, 0.001
TestParameter, Output.Graph.YAxis.Group, 
TestParameter, Output.Scalar.Data, Ohmic
TestParameter, AutoAnalysis.Interpolation, false
TestParameter, AutoAnalysis.Line1.Enabled, false
TestParameter, AutoAnalysis.Line1.Type, 1
TestParameter, AutoAnalysis.Line1.Fix, True
TestParameter, AutoAnalysis.Line1.YAxis, 0
TestParameter, AutoAnalysis.Line1.Point1.Type, 0
TestParameter, AutoAnalysis.Line1.Point1.XY.X, 
TestParameter, AutoAnalysis.Line1.Point1.XY.Y, 
TestParameter, AutoAnalysis.Line1.Point1.Data.Var, 
TestParameter, AutoAnalysis.Line1.Point1.Data.Condition, 
TestParameter, AutoAnalysis.Line1.Point1.Data.Start, false
TestParameter, AutoAnalysis.Line1.Point1.Data.StartVar, 
TestParameter, AutoAnalysis.Line1.Point1.Data.StartCondition, 
TestParameter, AutoAnalysis.Line1.Point2.Type, 0
TestParameter, AutoAnalysis.Line1.Point2.XY.X, 
TestParameter, AutoAnalysis.Line1.Point2.XY.Y, 
TestParameter, AutoAnalysis.Line1.Point2.Data.Var, 
TestParameter, AutoAnalysis.Line1.Point2.Data.Condition, 
TestParameter, AutoAnalysis.Line1.Point2.Data.Start, false
TestParameter, AutoAnalysis.Line1.Point2.Data.StartVar, 
TestParameter, AutoAnalysis.Line1.Point2.Data.StartCondition, 
TestParameter, AutoAnalysis.Line1.GradientExpr, 0
TestParameter, AutoAnalysis.Line2.Enabled, false
TestParameter, AutoAnalysis.Line2.Type, 1
TestParameter, AutoAnalysis.Line2.Fix, True
TestParameter, AutoAnalysis.Line2.YAxis, 0
TestParameter, AutoAnalysis.Line2.Point1.Type, 0
TestParameter, AutoAnalysis.Line2.Point1.XY.X, 
TestParameter, AutoAnalysis.Line2.Point1.XY.Y, 
TestParameter, AutoAnalysis.Line2.Point1.Data.Var, 
TestParameter, AutoAnalysis.Line2.Point1.Data.Condition, 
TestParameter, AutoAnalysis.Line2.Point1.Data.Start, false
TestParameter, AutoAnalysis.Line2.Point1.Data.StartVar, 
TestParameter, AutoAnalysis.Line2.Point1.Data.StartCondition, 
TestParameter, AutoAnalysis.Line2.Point2.Type, 0
TestParameter, AutoAnalysis.Line2.Point2.XY.X, 
TestParameter, AutoAnalysis.Line2.Point2.XY.Y, 
TestParameter, AutoAnalysis.Line2.Point2.Data.Var, 
TestParameter, AutoAnalysis.Line2.Point2.Data.Condition, 
TestParameter, AutoAnalysis.Line2.Point2.Data.Start, false
TestParameter, AutoAnalysis.Line2.Point2.Data.StartVar, 
TestParameter, AutoAnalysis.Line2.Point2.Data.StartCondition, 
TestParameter, AutoAnalysis.Line2.GradientExpr, 0
TestParameter, AutoAnalysis.Marker.Enabled, false
TestParameter, AutoAnalysis.Marker.Data.Var, 
TestParameter, AutoAnalysis.Marker.Data.Condition, 
TestParameter, AutoAnalysis.Marker.Data.Start, false
TestParameter, AutoAnalysis.Marker.Data.StartVar, 
TestParameter, AutoAnalysis.Marker.Data.StartCondition, 
MetaData, TestRecord.EntryPoint, true
MetaData, TestRecord.RecordTime, 01/18/2020 16:43:51
MetaData, TestRecord.TestTarget, 
MetaData, TestRecord.IterationIndex, 29
MetaData, TestRecord.Preservation, true
MetaData, TestRecord.Flag, 
MetaData, TestRecord.Remarks, 
MetaData, TestRecord.LinkKey, 027b0021-005b-43ef-b616-0cdf98ba20f9
Dimension1, 101, 101, 101
Dimension2, 1, 1, 1
DataName, V1, I1, Ohmic
DataValue, -1, -7.053E-11, -11969586493.160303
DataValue, -0.98000000000000009, -5.179E-11, 
DataValue, -0.96000000000000008, -4.864E-11, 
DataValue, -0.94000000000000006, -4.502E-11, 
DataValue, -0.92, -4.427E-11, 
DataValue, -0.9, -3.592E-11, 
DataValue, -0.88, -2.904E-11, 
DataValue, -0.86, -3.402E-11, 
DataValue, -0.84000000000000008, -2.66E-11, 
DataValue, -0.82000000000000006, -3.078E-11, 
DataValue, -0.8, -3.064E-11, 
DataValue, -0.78, -2.746E-11, 
DataValue, -0.76, -2.65E-11, 
DataValue, -0.74, -2.269E-11, 
DataValue, -0.72000000000000008, -2.028E-11, 
DataValue, -0.70000000000000007, -1.664E-11, 
DataValue, -0.68, -1.883E-11, 
DataValue, -0.66, -2.201E-11, 
DataValue, -0.64, -1.555E-11, 
DataValue, -0.62, -1.393E-11, 
DataValue, -0.6, -9.93E-12, 
DataValue, -0.58000000000000007, -1.214E-11, 
DataValue, -0.56, -1.415E-11, 
DataValue, -0.54, -1.003E-11, 
DataValue, -0.52, -8.62E-12, 
DataValue, -0.5, -8.43E-12, 
DataValue, -0.48000000000000004, -5.53E-12, 
DataValue, -0.46, -7.93E-12, 
DataValue, -0.44, -6.36E-12, 
DataValue, -0.42000000000000004, -3.9E-12, 
DataValue, -0.4, -2.07E-12, 
DataValue, -0.38, -2.32E-12, 
DataValue, -0.36000000000000004, 2.29E-12, 
DataValue, -0.34, 1.3E-13, 
DataValue, -0.32, -2.94E-12, 
DataValue, -0.3, 3.01E-12, 
DataValue, -0.28, 4.51E-12, 
DataValue, -0.26, 3.72E-12, 
DataValue, -0.24000000000000002, 9.32E-12, 
DataValue, -0.22, 7.81E-12, 
DataValue, -0.2, 9.92E-12, 
DataValue, -0.18000000000000002, 7.53E-12, 
DataValue, -0.16, -1.33E-12, 
DataValue, -0.14, 1.008E-11, 
DataValue, -0.12000000000000001, 9.75E-12, 
DataValue, -0.1, 1.107E-11, 
DataValue, -0.08, 7.54E-12, 
DataValue, -0.060000000000000005, 1.824E-11, 
DataValue, -0.04, 1.681E-11, 
DataValue, -0.02, 3.078E-11, 
DataValue, 0, 4.463E-11, 
DataValue, 0.02, 4.647E-11, 
DataValue, 0.04, 5.62E-11, 
DataValue, 0.060000000000000005, 6.963E-11, 
DataValue, 0.08, 7.261E-11, 
DataValue, 0.1, 8.205E-11, 
DataValue, 0.12000000000000001, 8.521E-11, 
DataValue, 0.14, 9.443E-11, 
DataValue, 0.16, 9.215E-11, 
DataValue, 0.18000000000000002, 8.74E-11, 
DataValue, 0.2, 9.856E-11, 
DataValue, 0.22, 1.0836E-10, 
DataValue, 0.24000000000000002, 1.096E-10, 
DataValue, 0.26, 1.0821E-10, 
DataValue, 0.28, 1.1682E-10, 
DataValue, 0.3, 1.2476E-10, 
DataValue, 0.32, 1.2575E-10, 
DataValue, 0.34, 1.3163E-10, 
DataValue, 0.36000000000000004, 1.2762E-10, 
DataValue, 0.38, 1.4962E-10, 
DataValue, 0.4, 1.4571E-10, 
DataValue, 0.42000000000000004, 1.5421E-10, 
DataValue, 0.44, 1.5249E-10, 
DataValue, 0.46, 1.6496E-10, 
DataValue, 0.48000000000000004, 1.5917999999999999E-10, 
DataValue, 0.5, 1.5582E-10, 
DataValue, 0.52, 1.5635E-10, 
DataValue, 0.54, 1.8303E-10, 
DataValue, 0.56, 1.8543E-10, 
DataValue, 0.58000000000000007, 2.0325E-10, 
DataValue, 0.6, 1.9811E-10, 
DataValue, 0.62, 1.9511E-10, 
DataValue, 0.64, 2.0228E-10, 
DataValue, 0.66, 2.1291E-10, 
DataValue, 0.68, 2.2022E-10, 
DataValue, 0.70000000000000007, 2.2045E-10, 
DataValue, 0.72000000000000008, 2.3348E-10, 
DataValue, 0.74, 2.2101E-10, 
DataValue, 0.76, 2.2007E-10, 
DataValue, 0.78, 2.2523E-10, 
DataValue, 0.8, 2.1928E-10, 
DataValue, 0.82000000000000006, 2.2509E-10, 
DataValue, 0.84000000000000008, 2.318E-10, 
DataValue, 0.86, 2.3762E-10, 
DataValue, 0.88, 2.2606E-10, 
DataValue, 0.9, 2.4877E-10, 
DataValue, 0.92, 2.4668E-10, 
DataValue, 0.94000000000000006, 2.377E-10, 
DataValue, 0.96000000000000008, 2.4203E-10, 
DataValue, 0.98000000000000009, 2.6414E-10, 
DataValue, 1, 2.5715E-10, 