
SetupTitle, WW
PrimitiveTest, I/V Sweep
TestParameter, Context.MainFrame, B1500A
TestParameter, Channel.UnitType, SMU, SMU
TestParameter, Channel.Unit, SMU2:HP, SMU1:HP
TestParameter, Channel.IName, I1, I4
TestParameter, Channel.VName, V1, V4
TestParameter, Channel.Mode, V, COMMON
TestParameter, Channel.Func, VAR1, CONST
TestParameter, Channel.Index, 
TestParameter, Channel.Time, 
TestParameter, Measurement.Port.Unit, SMU2:HP, SMU1:HP
TestParameter, Measurement.Port.SeriesResistor, NONE, NONE
TestParameter, Measurement.Port.Filter, ON, ON
TestParameter, Measurement.Port.OutputVoltageComparison, 0, 0
TestParameter, Measurement.Primary.Locus, Single
TestParameter, Measurement.Primary.Scale, LINEAR
TestParameter, Measurement.Primary.Start, -5
TestParameter, Measurement.Primary.Stop, 5
TestParameter, Measurement.Primary.Step, 0.1
TestParameter, Measurement.Primary.Compliance, 0.1
TestParameter, Measurement.Primary.PowerCompliance, 0
TestParameter, Measurement.Aborting.Condition, CONTINUE AT ANY
TestParameter, Measurement.PostOutput.Value, START
TestParameter, Measurement.PostOutput.Retention, OFF
TestParameter, Measurement.Bias.Source, -5, 0
TestParameter, Measurement.Bias.Compliance, 0.1, 1
TestParameter, Measurement.Monitor.Unit, SMU2:HP, SMU1:HP
TestParameter, Measurement.Monitor.Adc, HR ADC, HR ADC
TestParameter, Measurement.Monitor.Measurement, Compliance Side, Compliance Side
TestParameter, Measurement.Monitor.RangingMode, AUTO, AUTO
TestParameter, Measurement.Monitor.RangeBoundary, , 
TestParameter, Measurement.Monitor.RangeRating, BY FULL RANGE, BY FULL RANGE
TestParameter, Measurement.Monitor.RangeRatingCoeff, 50, 50
TestParameter, Measurement.Timing.Hold, 0
TestParameter, Measurement.Timing.Delay, 0.001
TestParameter, Measurement.Adc.HighSpeed.Mode, AUTO
TestParameter, Measurement.Adc.HighSpeed.Coeff, 1
TestParameter, Measurement.Adc.HighResolution.AutoZero, OFF
TestParameter, Measurement.Adc.HighResolution.Mode, PLC
TestParameter, Measurement.Adc.HighResolution.Coeff, 1
TestParameter, Measurement.WaitTime.Source.Coeff, 1
TestParameter, Measurement.WaitTime.Source.Offset, 0
TestParameter, Measurement.WaitTime.Monitor.Coeff, 1
TestParameter, Measurement.WaitTime.Monitor.Offset, 0
TestParameter, Function.User.Name, Ohmic
TestParameter, Function.User.Unit, ohm
TestParameter, Function.User.Definition, avg(V1/I1)
TestParameter, Output.Graph.Enabled, true
TestParameter, Output.Graph.XAxis.Data, V1
TestParameter, Output.Graph.XAxis.Scale, Linear
TestParameter, Output.Graph.XAxis.Left, -5
TestParameter, Output.Graph.XAxis.Right, 5
TestParameter, Output.Graph.YAxis.Data, I1
TestParameter, Output.Graph.YAxis.Scale, Linear
TestParameter, Output.Graph.YAxis.Bottom, -0.001
TestParameter, Output.Graph.YAxis.Top, 0.001
TestParameter, Output.Graph.YAxis.Group, 
TestParameter, Output.Scalar.Data, Ohmic
TestParameter, AutoAnalysis.Interpolation, false
TestParameter, AutoAnalysis.Line1.Enabled, false
TestParameter, AutoAnalysis.Line1.Type, 1
TestParameter, AutoAnalysis.Line1.Fix, True
TestParameter, AutoAnalysis.Line1.YAxis, 0
TestParameter, AutoAnalysis.Line1.Point1.Type, 0
TestParameter, AutoAnalysis.Line1.Point1.XY.X, 
TestParameter, AutoAnalysis.Line1.Point1.XY.Y, 
TestParameter, AutoAnalysis.Line1.Point1.Data.Var, 
TestParameter, AutoAnalysis.Line1.Point1.Data.Condition, 
TestParameter, AutoAnalysis.Line1.Point1.Data.Start, false
TestParameter, AutoAnalysis.Line1.Point1.Data.StartVar, 
TestParameter, AutoAnalysis.Line1.Point1.Data.StartCondition, 
TestParameter, AutoAnalysis.Line1.Point2.Type, 0
TestParameter, AutoAnalysis.Line1.Point2.XY.X, 
TestParameter, AutoAnalysis.Line1.Point2.XY.Y, 
TestParameter, AutoAnalysis.Line1.Point2.Data.Var, 
TestParameter, AutoAnalysis.Line1.Point2.Data.Condition, 
TestParameter, AutoAnalysis.Line1.Point2.Data.Start, false
TestParameter, AutoAnalysis.Line1.Point2.Data.StartVar, 
TestParameter, AutoAnalysis.Line1.Point2.Data.StartCondition, 
TestParameter, AutoAnalysis.Line1.GradientExpr, 0
TestParameter, AutoAnalysis.Line2.Enabled, false
TestParameter, AutoAnalysis.Line2.Type, 1
TestParameter, AutoAnalysis.Line2.Fix, True
TestParameter, AutoAnalysis.Line2.YAxis, 0
TestParameter, AutoAnalysis.Line2.Point1.Type, 0
TestParameter, AutoAnalysis.Line2.Point1.XY.X, 
TestParameter, AutoAnalysis.Line2.Point1.XY.Y, 
TestParameter, AutoAnalysis.Line2.Point1.Data.Var, 
TestParameter, AutoAnalysis.Line2.Point1.Data.Condition, 
TestParameter, AutoAnalysis.Line2.Point1.Data.Start, false
TestParameter, AutoAnalysis.Line2.Point1.Data.StartVar, 
TestParameter, AutoAnalysis.Line2.Point1.Data.StartCondition, 
TestParameter, AutoAnalysis.Line2.Point2.Type, 0
TestParameter, AutoAnalysis.Line2.Point2.XY.X, 
TestParameter, AutoAnalysis.Line2.Point2.XY.Y, 
TestParameter, AutoAnalysis.Line2.Point2.Data.Var, 
TestParameter, AutoAnalysis.Line2.Point2.Data.Condition, 
TestParameter, AutoAnalysis.Line2.Point2.Data.Start, false
TestParameter, AutoAnalysis.Line2.Point2.Data.StartVar, 
TestParameter, AutoAnalysis.Line2.Point2.Data.StartCondition, 
TestParameter, AutoAnalysis.Line2.GradientExpr, 0
TestParameter, AutoAnalysis.Marker.Enabled, false
TestParameter, AutoAnalysis.Marker.Data.Var, 
TestParameter, AutoAnalysis.Marker.Data.Condition, 
TestParameter, AutoAnalysis.Marker.Data.Start, false
TestParameter, AutoAnalysis.Marker.Data.StartVar, 
TestParameter, AutoAnalysis.Marker.Data.StartCondition, 
MetaData, TestRecord.EntryPoint, true
MetaData, TestRecord.RecordTime, 09/05/2020 11:10:27
MetaData, TestRecord.TestTarget, 
MetaData, TestRecord.IterationIndex, 42
MetaData, TestRecord.Preservation, true
MetaData, TestRecord.Flag, 
MetaData, TestRecord.Remarks, 
MetaData, TestRecord.LinkKey, de61bd8d-0cce-48f7-8b52-92b8cd0d6559
Dimension1, 101, 101, 101
Dimension2, 1, 1, 1
DataName, V1, I1, Ohmic
DataValue, -5, -7.378E-10, 3519446492.229135
DataValue, -4.9, -7.185E-10, 
DataValue, -4.8, -7.0499999999999994E-10, 
DataValue, -4.7, -6.7159999999999993E-10, 
DataValue, -4.6000000000000005, -6.4489999999999991E-10, 
DataValue, -4.5, -6.1759999999999991E-10, 
DataValue, -4.4, -6.033999999999999E-10, 
DataValue, -4.3, -6.269E-10, 
DataValue, -4.2, -5.6809999999999993E-10, 
DataValue, -4.1, -5.456E-10, 
DataValue, -4, -5.103E-10, 
DataValue, -3.9, -5.5059999999999994E-10, 
DataValue, -3.8000000000000003, -5.453E-10, 
DataValue, -3.7, -5.244E-10, 
DataValue, -3.6, -4.819E-10, 
DataValue, -3.5, -4.614E-10, 
DataValue, -3.4, -4.6799999999999993E-10, 
DataValue, -3.3000000000000003, -4.4999999999999995E-10, 
DataValue, -3.2, -4.678999999999999E-10, 
DataValue, -3.1, -4.3739999999999996E-10, 
DataValue, -3, -4.1779999999999994E-10, 
DataValue, -2.9, -4.358E-10, 
DataValue, -2.8000000000000003, -4.3249999999999995E-10, 
DataValue, -2.7, -4.0539999999999996E-10, 
DataValue, -2.6, -3.9249999999999994E-10, 
DataValue, -2.5, -4.2579999999999997E-10, 
DataValue, -2.4, -3.9369999999999994E-10, 
DataValue, -2.3000000000000003, -3.8819999999999996E-10, 
DataValue, -2.2, -3.886E-10, 
DataValue, -2.1, -3.6859999999999995E-10, 
DataValue, -2, -3.6559999999999996E-10, 
DataValue, -1.9000000000000001, -3.6909999999999995E-10, 
DataValue, -1.8, -3.4469999999999996E-10, 
DataValue, -1.7, -3.4689999999999996E-10, 
DataValue, -1.6, -3.2729999999999995E-10, 
DataValue, -1.5, -3.1709999999999997E-10, 
DataValue, -1.4000000000000001, -3.165E-10, 
DataValue, -1.3, -2.9999999999999995E-10, 
DataValue, -1.2, -3.082E-10, 
DataValue, -1.1, -2.9579999999999995E-10, 
DataValue, -1, -2.4729999999999996E-10, 
DataValue, -0.9, -2.592E-10, 
DataValue, -0.8, -1.8049999999999997E-10, 
DataValue, -0.70000000000000007, -9.18E-11, 
DataValue, -0.6, -1.6699999999999998E-11, 
DataValue, -0.5, 1.236E-10, 
DataValue, -0.4, 2.998E-10, 
DataValue, -0.3, 4.6059999999999994E-10, 
DataValue, -0.2, 6.5309999999999995E-10, 
DataValue, -0.1, 8.857E-10, 
DataValue, 0, 1.2480999999999999E-09, 
DataValue, 0.1, 1.58379E-09, 
DataValue, 0.2, 1.74924E-09, 
DataValue, 0.3, 1.80843E-09, 
DataValue, 0.4, 1.8697E-09, 
DataValue, 0.5, 1.88633E-09, 
DataValue, 0.6, 1.91508E-09, 
DataValue, 0.70000000000000007, 1.93198E-09, 
DataValue, 0.8, 1.94014E-09, 
DataValue, 0.9, 1.97871E-09, 
DataValue, 1, 2.0094E-09, 
DataValue, 1.1, 2.00029E-09, 
DataValue, 1.2, 2.08262E-09, 
DataValue, 1.3, 2.08279E-09, 
DataValue, 1.4000000000000001, 2.1449E-09, 
DataValue, 1.5, 2.15013E-09, 
DataValue, 1.6, 2.16594E-09, 
DataValue, 1.7, 2.16938E-09, 
DataValue, 1.8, 2.20908E-09, 
DataValue, 1.9000000000000001, 2.21125E-09, 
DataValue, 2, 2.19561E-09, 
DataValue, 2.1, 2.22121E-09, 
DataValue, 2.2, 2.22843E-09, 
DataValue, 2.3000000000000003, 2.23491E-09, 
DataValue, 2.4, 2.26492E-09, 
DataValue, 2.5, 2.29144E-09, 
DataValue, 2.6, 2.29661E-09, 
DataValue, 2.7, 2.33714E-09, 
DataValue, 2.8000000000000003, 2.38724E-09, 
DataValue, 2.9, 2.38277E-09, 
DataValue, 3, 2.39915E-09, 
DataValue, 3.1, 2.35935E-09, 
DataValue, 3.2, 2.41905E-09, 
DataValue, 3.3000000000000003, 2.39805E-09, 
DataValue, 3.4, 2.45496E-09, 
DataValue, 3.5, 2.44405E-09, 
DataValue, 3.6, 2.42847E-09, 
DataValue, 3.7, 2.44582E-09, 
DataValue, 3.8000000000000003, 2.45255E-09, 
DataValue, 3.9, 2.46887E-09, 
DataValue, 4, 2.42074E-09, 
DataValue, 4.1, 2.46846E-09, 
DataValue, 4.2, 2.52604E-09, 
DataValue, 4.3, 2.50851E-09, 
DataValue, 4.4, 2.54067E-09, 
DataValue, 4.5, 2.56987E-09, 
DataValue, 4.6000000000000005, 2.55316E-09, 
DataValue, 4.7, 2.60797E-09, 
DataValue, 4.8, 2.60715E-09, 
DataValue, 4.9, 2.63011E-09, 
DataValue, 5, 2.65125E-09, 
SetupTitle, WW
PrimitiveTest, I/V Sweep
TestParameter, Context.MainFrame, B1500A
TestParameter, Channel.UnitType, SMU, SMU
TestParameter, Channel.Unit, SMU2:HP, SMU1:HP
TestParameter, Channel.IName, I1, I4
TestParameter, Channel.VName, V1, V4
TestParameter, Channel.Mode, V, COMMON
TestParameter, Channel.Func, VAR1, CONST
TestParameter, Channel.Index, 
TestParameter, Channel.Time, 
TestParameter, Measurement.Port.Unit, SMU2:HP, SMU1:HP
TestParameter, Measurement.Port.SeriesResistor, NONE, NONE
TestParameter, Measurement.Port.Filter, ON, ON
TestParameter, Measurement.Port.OutputVoltageComparison, 0, 0
TestParameter, Measurement.Primary.Locus, Single
TestParameter, Measurement.Primary.Scale, LINEAR
TestParameter, Measurement.Primary.Start, -5
TestParameter, Measurement.Primary.Stop, 5
TestParameter, Measurement.Primary.Step, 0.1
TestParameter, Measurement.Primary.Compliance, 0.1
TestParameter, Measurement.Primary.PowerCompliance, 0
TestParameter, Measurement.Aborting.Condition, CONTINUE AT ANY
TestParameter, Measurement.PostOutput.Value, START
TestParameter, Measurement.PostOutput.Retention, OFF
TestParameter, Measurement.Bias.Source, -5, 0
TestParameter, Measurement.Bias.Compliance, 0.1, 1
TestParameter, Measurement.Monitor.Unit, SMU2:HP, SMU1:HP
TestParameter, Measurement.Monitor.Adc, HR ADC, HR ADC
TestParameter, Measurement.Monitor.Measurement, Compliance Side, Compliance Side
TestParameter, Measurement.Monitor.RangingMode, AUTO, AUTO
TestParameter, Measurement.Monitor.RangeBoundary, , 
TestParameter, Measurement.Monitor.RangeRating, BY FULL RANGE, BY FULL RANGE
TestParameter, Measurement.Monitor.RangeRatingCoeff, 50, 50
TestParameter, Measurement.Timing.Hold, 0
TestParameter, Measurement.Timing.Delay, 0.001
TestParameter, Measurement.Adc.HighSpeed.Mode, AUTO
TestParameter, Measurement.Adc.HighSpeed.Coeff, 1
TestParameter, Measurement.Adc.HighResolution.AutoZero, OFF
TestParameter, Measurement.Adc.HighResolution.Mode, PLC
TestParameter, Measurement.Adc.HighResolution.Coeff, 1
TestParameter, Measurement.WaitTime.Source.Coeff, 1
TestParameter, Measurement.WaitTime.Source.Offset, 0
TestParameter, Measurement.WaitTime.Monitor.Coeff, 1
TestParameter, Measurement.WaitTime.Monitor.Offset, 0
TestParameter, Function.User.Name, Ohmic
TestParameter, Function.User.Unit, ohm
TestParameter, Function.User.Definition, avg(V1/I1)
TestParameter, Output.Graph.Enabled, true
TestParameter, Output.Graph.XAxis.Data, V1
TestParameter, Output.Graph.XAxis.Scale, Linear
TestParameter, Output.Graph.XAxis.Left, -5
TestParameter, Output.Graph.XAxis.Right, 5
TestParameter, Output.Graph.YAxis.Data, I1
TestParameter, Output.Graph.YAxis.Scale, Linear
TestParameter, Output.Graph.YAxis.Bottom, -0.001
TestParameter, Output.Graph.YAxis.Top, 0.001
TestParameter, Output.Graph.YAxis.Group, 
TestParameter, Output.Scalar.Data, Ohmic
TestParameter, AutoAnalysis.Interpolation, false
TestParameter, AutoAnalysis.Line1.Enabled, false
TestParameter, AutoAnalysis.Line1.Type, 1
TestParameter, AutoAnalysis.Line1.Fix, True
TestParameter, AutoAnalysis.Line1.YAxis, 0
TestParameter, AutoAnalysis.Line1.Point1.Type, 0
TestParameter, AutoAnalysis.Line1.Point1.XY.X, 
TestParameter, AutoAnalysis.Line1.Point1.XY.Y, 
TestParameter, AutoAnalysis.Line1.Point1.Data.Var, 
TestParameter, AutoAnalysis.Line1.Point1.Data.Condition, 
TestParameter, AutoAnalysis.Line1.Point1.Data.Start, false
TestParameter, AutoAnalysis.Line1.Point1.Data.StartVar, 
TestParameter, AutoAnalysis.Line1.Point1.Data.StartCondition, 
TestParameter, AutoAnalysis.Line1.Point2.Type, 0
TestParameter, AutoAnalysis.Line1.Point2.XY.X, 
TestParameter, AutoAnalysis.Line1.Point2.XY.Y, 
TestParameter, AutoAnalysis.Line1.Point2.Data.Var, 
TestParameter, AutoAnalysis.Line1.Point2.Data.Condition, 
TestParameter, AutoAnalysis.Line1.Point2.Data.Start, false
TestParameter, AutoAnalysis.Line1.Point2.Data.StartVar, 
TestParameter, AutoAnalysis.Line1.Point2.Data.StartCondition, 
TestParameter, AutoAnalysis.Line1.GradientExpr, 0
TestParameter, AutoAnalysis.Line2.Enabled, false
TestParameter, AutoAnalysis.Line2.Type, 1
TestParameter, AutoAnalysis.Line2.Fix, True
TestParameter, AutoAnalysis.Line2.YAxis, 0
TestParameter, AutoAnalysis.Line2.Point1.Type, 0
TestParameter, AutoAnalysis.Line2.Point1.XY.X, 
TestParameter, AutoAnalysis.Line2.Point1.XY.Y, 
TestParameter, AutoAnalysis.Line2.Point1.Data.Var, 
TestParameter, AutoAnalysis.Line2.Point1.Data.Condition, 
TestParameter, AutoAnalysis.Line2.Point1.Data.Start, false
TestParameter, AutoAnalysis.Line2.Point1.Data.StartVar, 
TestParameter, AutoAnalysis.Line2.Point1.Data.StartCondition, 
TestParameter, AutoAnalysis.Line2.Point2.Type, 0
TestParameter, AutoAnalysis.Line2.Point2.XY.X, 
TestParameter, AutoAnalysis.Line2.Point2.XY.Y, 
TestParameter, AutoAnalysis.Line2.Point2.Data.Var, 
TestParameter, AutoAnalysis.Line2.Point2.Data.Condition, 
TestParameter, AutoAnalysis.Line2.Point2.Data.Start, false
TestParameter, AutoAnalysis.Line2.Point2.Data.StartVar, 
TestParameter, AutoAnalysis.Line2.Point2.Data.StartCondition, 
TestParameter, AutoAnalysis.Line2.GradientExpr, 0
TestParameter, AutoAnalysis.Marker.Enabled, false
TestParameter, AutoAnalysis.Marker.Data.Var, 
TestParameter, AutoAnalysis.Marker.Data.Condition, 
TestParameter, AutoAnalysis.Marker.Data.Start, false
TestParameter, AutoAnalysis.Marker.Data.StartVar, 
TestParameter, AutoAnalysis.Marker.Data.StartCondition, 
MetaData, TestRecord.EntryPoint, true
MetaData, TestRecord.RecordTime, 09/05/2020 11:09:47
MetaData, TestRecord.TestTarget, 
MetaData, TestRecord.IterationIndex, 41
MetaData, TestRecord.Preservation, true
MetaData, TestRecord.Flag, 
MetaData, TestRecord.Remarks, 
MetaData, TestRecord.LinkKey, de61bd8d-0cce-48f7-8b52-92b8cd0d6559
Dimension1, 101, 101, 101
Dimension2, 1, 1, 1
DataName, V1, I1, Ohmic
DataValue, -5, -6.943999999999999E-10, 3667198843.3115106
DataValue, -4.9, -6.8129999999999991E-10, 
DataValue, -4.8, -6.4389999999999992E-10, 
DataValue, -4.7, -6.0319999999999994E-10, 
DataValue, -4.6000000000000005, -6.121E-10, 
DataValue, -4.5, -5.594E-10, 
DataValue, -4.4, -5.4989999999999993E-10, 
DataValue, -4.3, -5.315999999999999E-10, 
DataValue, -4.2, -5.224E-10, 
DataValue, -4.1, -5.204E-10, 
DataValue, -4, -4.7949999999999995E-10, 
DataValue, -3.9, -4.844E-10, 
DataValue, -3.8000000000000003, -4.3789999999999996E-10, 
DataValue, -3.7, -4.641E-10, 
DataValue, -3.6, -4.4659999999999994E-10, 
DataValue, -3.5, -4.3939999999999995E-10, 
DataValue, -3.4, -4.785E-10, 
DataValue, -3.3000000000000003, -4.4489999999999993E-10, 
DataValue, -3.2, -4.1079999999999997E-10, 
DataValue, -3.1, -4.2109999999999997E-10, 
DataValue, -3, -4.4249999999999997E-10, 
DataValue, -2.9, -4.031E-10, 
DataValue, -2.8000000000000003, -4.0519999999999996E-10, 
DataValue, -2.7, -3.9039999999999996E-10, 
DataValue, -2.6, -3.748E-10, 
DataValue, -2.5, -3.613E-10, 
DataValue, -2.4, -4.0009999999999994E-10, 
DataValue, -2.3000000000000003, -3.4789999999999996E-10, 
DataValue, -2.2, -3.5649999999999996E-10, 
DataValue, -2.1, -3.3439999999999995E-10, 
DataValue, -2, -3.456E-10, 
DataValue, -1.9000000000000001, -3.4319999999999996E-10, 
DataValue, -1.8, -3.136E-10, 
DataValue, -1.7, -3.379E-10, 
DataValue, -1.6, -2.8959999999999996E-10, 
DataValue, -1.5, -2.799E-10, 
DataValue, -1.4000000000000001, -2.838E-10, 
DataValue, -1.3, -2.996E-10, 
DataValue, -1.2, -2.964E-10, 
DataValue, -1.1, -2.2929999999999997E-10, 
DataValue, -1, -2.013E-10, 
DataValue, -0.9, -1.5819999999999998E-10, 
DataValue, -0.8, -1.2539999999999998E-10, 
DataValue, -0.70000000000000007, -2.0099999999999997E-11, 
DataValue, -0.6, 9.8299999999999986E-11, 
DataValue, -0.5, 2.1639999999999997E-10, 
DataValue, -0.4, 3.633E-10, 
DataValue, -0.3, 5.528E-10, 
DataValue, -0.2, 7.432E-10, 
DataValue, -0.1, 9.685E-10, 
DataValue, 0, 1.2639E-09, 
DataValue, 0.1, 1.55847E-09, 
DataValue, 0.2, 1.68422E-09, 
DataValue, 0.3, 1.77348E-09, 
DataValue, 0.4, 1.80246E-09, 
DataValue, 0.5, 1.83413E-09, 
DataValue, 0.6, 1.85313E-09, 
DataValue, 0.70000000000000007, 1.87542E-09, 
DataValue, 0.8, 1.90159E-09, 
DataValue, 0.9, 1.95003E-09, 
DataValue, 1, 1.9459E-09, 
DataValue, 1.1, 1.97126E-09, 
DataValue, 1.2, 2.00626E-09, 
DataValue, 1.3, 2.01326E-09, 
DataValue, 1.4000000000000001, 2.02379E-09, 
DataValue, 1.5, 2.0403E-09, 
DataValue, 1.6, 2.05907E-09, 
DataValue, 1.7, 2.07206E-09, 
DataValue, 1.8, 2.1215E-09, 
DataValue, 1.9000000000000001, 2.12175E-09, 
DataValue, 2, 2.12956E-09, 
DataValue, 2.1, 2.13916E-09, 
DataValue, 2.2, 2.1692099999999998E-09, 
DataValue, 2.3000000000000003, 2.1648E-09, 
DataValue, 2.4, 2.18171E-09, 
DataValue, 2.5, 2.20326E-09, 
DataValue, 2.6, 2.23538E-09, 
DataValue, 2.7, 2.26639E-09, 
DataValue, 2.8000000000000003, 2.24826E-09, 
DataValue, 2.9, 2.26765E-09, 
DataValue, 3, 2.25338E-09, 
DataValue, 3.1, 2.24009E-09, 
DataValue, 3.2, 2.3322E-09, 
DataValue, 3.3000000000000003, 2.3148E-09, 
DataValue, 3.4, 2.33856E-09, 
DataValue, 3.5, 2.33126E-09, 
DataValue, 3.6, 2.3495E-09, 
DataValue, 3.7, 2.38535E-09, 
DataValue, 3.8000000000000003, 2.41167E-09, 
DataValue, 3.9, 2.41098E-09, 
DataValue, 4, 2.41488E-09, 
DataValue, 4.1, 2.40977E-09, 
DataValue, 4.2, 2.44047E-09, 
DataValue, 4.3, 2.44682E-09, 
DataValue, 4.4, 2.47231E-09, 
DataValue, 4.5, 2.49299E-09, 
DataValue, 4.6000000000000005, 2.49736E-09, 
DataValue, 4.7, 2.54463E-09, 
DataValue, 4.8, 2.54093E-09, 
DataValue, 4.9, 2.5779E-09, 
DataValue, 5, 2.59646E-09, 
SetupTitle, WW
PrimitiveTest, I/V Sweep
TestParameter, Context.MainFrame, B1500A
TestParameter, Channel.UnitType, SMU, SMU
TestParameter, Channel.Unit, SMU2:HP, SMU1:HP
TestParameter, Channel.IName, I1, I4
TestParameter, Channel.VName, V1, V4
TestParameter, Channel.Mode, V, COMMON
TestParameter, Channel.Func, VAR1, CONST
TestParameter, Channel.Index, 
TestParameter, Channel.Time, 
TestParameter, Measurement.Port.Unit, SMU2:HP, SMU1:HP
TestParameter, Measurement.Port.SeriesResistor, NONE, NONE
TestParameter, Measurement.Port.Filter, ON, ON
TestParameter, Measurement.Port.OutputVoltageComparison, 0, 0
TestParameter, Measurement.Primary.Locus, Single
TestParameter, Measurement.Primary.Scale, LINEAR
TestParameter, Measurement.Primary.Start, -5
TestParameter, Measurement.Primary.Stop, 5
TestParameter, Measurement.Primary.Step, 0.1
TestParameter, Measurement.Primary.Compliance, 0.1
TestParameter, Measurement.Primary.PowerCompliance, 0
TestParameter, Measurement.Aborting.Condition, CONTINUE AT ANY
TestParameter, Measurement.PostOutput.Value, START
