
SetupTitle, WW
PrimitiveTest, I/V Sweep
TestParameter, Context.MainFrame, B1500A
TestParameter, Channel.UnitType, SMU, SMU
TestParameter, Channel.Unit, SMU2:HP, SMU1:HP
TestParameter, Channel.IName, I1, I4
TestParameter, Channel.VName, V1, V4
TestParameter, Channel.Mode, V, COMMON
TestParameter, Channel.Func, VAR1, CONST
TestParameter, Channel.Index, 
TestParameter, Channel.Time, 
TestParameter, Measurement.Port.Unit, SMU2:HP, SMU1:HP
TestParameter, Measurement.Port.SeriesResistor, NONE, NONE
TestParameter, Measurement.Port.Filter, ON, ON
TestParameter, Measurement.Port.OutputVoltageComparison, 0, 0
TestParameter, Measurement.Primary.Locus, Single
TestParameter, Measurement.Primary.Scale, LINEAR
TestParameter, Measurement.Primary.Start, -5
TestParameter, Measurement.Primary.Stop, 5
TestParameter, Measurement.Primary.Step, 0.1
TestParameter, Measurement.Primary.Compliance, 0.1
TestParameter, Measurement.Primary.PowerCompliance, 0
TestParameter, Measurement.Aborting.Condition, CONTINUE AT ANY
TestParameter, Measurement.PostOutput.Value, START
TestParameter, Measurement.PostOutput.Retention, OFF
TestParameter, Measurement.Bias.Source, -5, 0
TestParameter, Measurement.Bias.Compliance, 0.1, 1
TestParameter, Measurement.Monitor.Unit, SMU2:HP, SMU1:HP
TestParameter, Measurement.Monitor.Adc, HR ADC, HR ADC
TestParameter, Measurement.Monitor.Measurement, Compliance Side, Compliance Side
TestParameter, Measurement.Monitor.RangingMode, AUTO, AUTO
TestParameter, Measurement.Monitor.RangeBoundary, , 
TestParameter, Measurement.Monitor.RangeRating, BY FULL RANGE, BY FULL RANGE
TestParameter, Measurement.Monitor.RangeRatingCoeff, 50, 50
TestParameter, Measurement.Timing.Hold, 0
TestParameter, Measurement.Timing.Delay, 0.001
TestParameter, Measurement.Adc.HighSpeed.Mode, AUTO
TestParameter, Measurement.Adc.HighSpeed.Coeff, 1
TestParameter, Measurement.Adc.HighResolution.AutoZero, OFF
TestParameter, Measurement.Adc.HighResolution.Mode, PLC
TestParameter, Measurement.Adc.HighResolution.Coeff, 1
TestParameter, Measurement.WaitTime.Source.Coeff, 1
TestParameter, Measurement.WaitTime.Source.Offset, 0
TestParameter, Measurement.WaitTime.Monitor.Coeff, 1
TestParameter, Measurement.WaitTime.Monitor.Offset, 0
TestParameter, Function.User.Name, Ohmic
TestParameter, Function.User.Unit, ohm
TestParameter, Function.User.Definition, avg(V1/I1)
TestParameter, Output.Graph.Enabled, true
TestParameter, Output.Graph.XAxis.Data, V1
TestParameter, Output.Graph.XAxis.Scale, Linear
TestParameter, Output.Graph.XAxis.Left, -5
TestParameter, Output.Graph.XAxis.Right, 5
TestParameter, Output.Graph.YAxis.Data, I1
TestParameter, Output.Graph.YAxis.Scale, Linear
TestParameter, Output.Graph.YAxis.Bottom, -0.001
TestParameter, Output.Graph.YAxis.Top, 0.001
TestParameter, Output.Graph.YAxis.Group, 
TestParameter, Output.Scalar.Data, Ohmic
TestParameter, AutoAnalysis.Interpolation, false
TestParameter, AutoAnalysis.Line1.Enabled, false
TestParameter, AutoAnalysis.Line1.Type, 1
TestParameter, AutoAnalysis.Line1.Fix, True
TestParameter, AutoAnalysis.Line1.YAxis, 0
TestParameter, AutoAnalysis.Line1.Point1.Type, 0
TestParameter, AutoAnalysis.Line1.Point1.XY.X, 
TestParameter, AutoAnalysis.Line1.Point1.XY.Y, 
TestParameter, AutoAnalysis.Line1.Point1.Data.Var, 
TestParameter, AutoAnalysis.Line1.Point1.Data.Condition, 
TestParameter, AutoAnalysis.Line1.Point1.Data.Start, false
TestParameter, AutoAnalysis.Line1.Point1.Data.StartVar, 
TestParameter, AutoAnalysis.Line1.Point1.Data.StartCondition, 
TestParameter, AutoAnalysis.Line1.Point2.Type, 0
TestParameter, AutoAnalysis.Line1.Point2.XY.X, 
TestParameter, AutoAnalysis.Line1.Point2.XY.Y, 
TestParameter, AutoAnalysis.Line1.Point2.Data.Var, 
TestParameter, AutoAnalysis.Line1.Point2.Data.Condition, 
TestParameter, AutoAnalysis.Line1.Point2.Data.Start, false
TestParameter, AutoAnalysis.Line1.Point2.Data.StartVar, 
TestParameter, AutoAnalysis.Line1.Point2.Data.StartCondition, 
TestParameter, AutoAnalysis.Line1.GradientExpr, 0
TestParameter, AutoAnalysis.Line2.Enabled, false
TestParameter, AutoAnalysis.Line2.Type, 1
TestParameter, AutoAnalysis.Line2.Fix, True
TestParameter, AutoAnalysis.Line2.YAxis, 0
TestParameter, AutoAnalysis.Line2.Point1.Type, 0
TestParameter, AutoAnalysis.Line2.Point1.XY.X, 
TestParameter, AutoAnalysis.Line2.Point1.XY.Y, 
TestParameter, AutoAnalysis.Line2.Point1.Data.Var, 
TestParameter, AutoAnalysis.Line2.Point1.Data.Condition, 
TestParameter, AutoAnalysis.Line2.Point1.Data.Start, false
TestParameter, AutoAnalysis.Line2.Point1.Data.StartVar, 
TestParameter, AutoAnalysis.Line2.Point1.Data.StartCondition, 
TestParameter, AutoAnalysis.Line2.Point2.Type, 0
TestParameter, AutoAnalysis.Line2.Point2.XY.X, 
TestParameter, AutoAnalysis.Line2.Point2.XY.Y, 
TestParameter, AutoAnalysis.Line2.Point2.Data.Var, 
TestParameter, AutoAnalysis.Line2.Point2.Data.Condition, 
TestParameter, AutoAnalysis.Line2.Point2.Data.Start, false
TestParameter, AutoAnalysis.Line2.Point2.Data.StartVar, 
TestParameter, AutoAnalysis.Line2.Point2.Data.StartCondition, 
TestParameter, AutoAnalysis.Line2.GradientExpr, 0
TestParameter, AutoAnalysis.Marker.Enabled, false
TestParameter, AutoAnalysis.Marker.Data.Var, 
TestParameter, AutoAnalysis.Marker.Data.Condition, 
TestParameter, AutoAnalysis.Marker.Data.Start, false
TestParameter, AutoAnalysis.Marker.Data.StartVar, 
TestParameter, AutoAnalysis.Marker.Data.StartCondition, 
MetaData, TestRecord.EntryPoint, true
MetaData, TestRecord.RecordTime, 09/05/2020 11:00:00
MetaData, TestRecord.TestTarget, 
MetaData, TestRecord.IterationIndex, 24
MetaData, TestRecord.Preservation, true
MetaData, TestRecord.Flag, 
MetaData, TestRecord.Remarks, 
MetaData, TestRecord.LinkKey, de61bd8d-0cce-48f7-8b52-92b8cd0d6559
Dimension1, 101, 101, 101
Dimension2, 1, 1, 1
DataName, V1, I1, Ohmic
DataValue, -5, -1.6869999999999999E-09, 1382512886.3317344
DataValue, -4.9, -1.5412999999999998E-09, 
DataValue, -4.8, -1.4859999999999998E-09, 
DataValue, -4.7, -1.4272999999999998E-09, 
DataValue, -4.6000000000000005, -1.3328999999999998E-09, 
DataValue, -4.5, -1.2566999999999998E-09, 
DataValue, -4.4, -1.2597E-09, 
DataValue, -4.3, -1.2036999999999999E-09, 
DataValue, -4.2, -1.2033999999999998E-09, 
DataValue, -4.1, -1.1687E-09, 
DataValue, -4, -1.1820999999999999E-09, 
DataValue, -3.9, -1.1069999999999998E-09, 
DataValue, -3.8000000000000003, -1.1257E-09, 
DataValue, -3.7, -1.0577999999999998E-09, 
DataValue, -3.6, -1.0815999999999999E-09, 
DataValue, -3.5, -1.0118E-09, 
DataValue, -3.4, -1.0262999999999999E-09, 
DataValue, -3.3000000000000003, -9.6819999999999982E-10, 
DataValue, -3.2, -9.5019999999999988E-10, 
DataValue, -3.1, -9.3029999999999988E-10, 
DataValue, -3, -9.451E-10, 
DataValue, -2.9, -8.8009999999999989E-10, 
DataValue, -2.8000000000000003, -8.965E-10, 
DataValue, -2.7, -8.4269999999999989E-10, 
DataValue, -2.6, -8.5959999999999991E-10, 
DataValue, -2.5, -7.927E-10, 
DataValue, -2.4, -8.3289999999999988E-10, 
DataValue, -2.3000000000000003, -7.5859999999999994E-10, 
DataValue, -2.2, -7.462E-10, 
DataValue, -2.1, -6.9509999999999991E-10, 
DataValue, -2, -6.7659999999999992E-10, 
DataValue, -1.9000000000000001, -6.7189999999999992E-10, 
DataValue, -1.8, -6.464E-10, 
DataValue, -1.7, -5.807999999999999E-10, 
DataValue, -1.6, -5.227E-10, 
DataValue, -1.5, -4.1979999999999994E-10, 
DataValue, -1.4000000000000001, -3.7129999999999995E-10, 
DataValue, -1.3, -2.152E-10, 
DataValue, -1.2, -7.6999999999999993E-11, 
DataValue, -1.1, 7.5099999999999991E-11, 
DataValue, -1, 2.0329999999999999E-10, 
DataValue, -0.9, 3.9379999999999997E-10, 
DataValue, -0.8, 5.160999999999999E-10, 
DataValue, -0.70000000000000007, 7.0009999999999989E-10, 
DataValue, -0.6, 8.6929999999999988E-10, 
DataValue, -0.5, 1.1482999999999999E-09, 
DataValue, -0.4, 1.3824E-09, 
DataValue, -0.3, 1.6076E-09, 
DataValue, -0.2, 1.8528999999999999E-09, 
DataValue, -0.1, 2.1947E-09, 
DataValue, 0, 2.6196E-09, 
DataValue, 0.1, 3.1216999999999997E-09, 
DataValue, 0.2, 3.3667999999999996E-09, 
DataValue, 0.3, 3.5551999999999995E-09, 
DataValue, 0.4, 3.6752999999999995E-09, 
DataValue, 0.5, 3.7536999999999996E-09, 
DataValue, 0.6, 3.8746999999999995E-09, 
DataValue, 0.70000000000000007, 3.9109999999999994E-09, 
DataValue, 0.8, 3.9798999999999995E-09, 
DataValue, 0.9, 4.0189E-09, 
DataValue, 1, 4.0319E-09, 
DataValue, 1.1, 4.1194999999999993E-09, 
DataValue, 1.2, 4.2138999999999993E-09, 
DataValue, 1.3, 4.2701999999999996E-09, 
DataValue, 1.4000000000000001, 4.3101E-09, 
DataValue, 1.5, 4.3918E-09, 
DataValue, 1.6, 4.4643E-09, 
DataValue, 1.7, 4.5207999999999995E-09, 
DataValue, 1.8, 4.5931999999999994E-09, 
DataValue, 1.9000000000000001, 4.6337999999999994E-09, 
DataValue, 2, 4.6996999999999994E-09, 
DataValue, 2.1, 4.7692999999999992E-09, 
DataValue, 2.2, 4.8843999999999994E-09, 
DataValue, 2.3000000000000003, 4.8912999999999994E-09, 
DataValue, 2.4, 4.9858999999999995E-09, 
DataValue, 2.5, 5.0498999999999993E-09, 
DataValue, 2.6, 5.0526999999999993E-09, 
DataValue, 2.7, 5.1476999999999995E-09, 
DataValue, 2.8000000000000003, 5.2237999999999993E-09, 
DataValue, 2.9, 5.2596999999999991E-09, 
DataValue, 3, 5.3343E-09, 
DataValue, 3.1, 5.3259999999999992E-09, 
DataValue, 3.2, 5.379E-09, 
DataValue, 3.3000000000000003, 5.4591999999999995E-09, 
DataValue, 3.4, 5.4669999999999994E-09, 
DataValue, 3.5, 5.5486E-09, 
DataValue, 3.6, 5.6136999999999993E-09, 
DataValue, 3.7, 5.6661E-09, 
DataValue, 3.8000000000000003, 5.7849999999999994E-09, 
DataValue, 3.9, 5.7838999999999994E-09, 
DataValue, 4, 5.8106E-09, 
DataValue, 4.1, 5.8921999999999992E-09, 
DataValue, 4.2, 5.9167E-09, 
DataValue, 4.3, 6.0005999999999993E-09, 
DataValue, 4.4, 6.0666E-09, 
DataValue, 4.5, 6.1733E-09, 
DataValue, 4.6000000000000005, 6.1904E-09, 
DataValue, 4.7, 6.238299999999999E-09, 
DataValue, 4.8, 6.3096E-09, 
DataValue, 4.9, 6.4172E-09, 
DataValue, 5, 6.4462999999999991E-09, 
SetupTitle, WW
PrimitiveTest, I/V Sweep
TestParameter, Context.MainFrame, B1500A
TestParameter, Channel.UnitType, SMU, SMU
TestParameter, Channel.Unit, SMU2:HP, SMU1:HP
TestParameter, Channel.IName, I1, I4
TestParameter, Channel.VName, V1, V4
TestParameter, Channel.Mode, V, COMMON
TestParameter, Channel.Func, VAR1, CONST
TestParameter, Channel.Index, 
TestParameter, Channel.Time, 
TestParameter, Measurement.Port.Unit, SMU2:HP, SMU1:HP
TestParameter, Measurement.Port.SeriesResistor, NONE, NONE
TestParameter, Measurement.Port.Filter, ON, ON
TestParameter, Measurement.Port.OutputVoltageComparison, 0, 0
TestParameter, Measurement.Primary.Locus, Single
TestParameter, Measurement.Primary.Scale, LINEAR
TestParameter, Measurement.Primary.Start, -5
TestParameter, Measurement.Primary.Stop, 5
TestParameter, Measurement.Primary.Step, 0.1
TestParameter, Measurement.Primary.Compliance, 0.1
TestParameter, Measurement.Primary.PowerCompliance, 0
TestParameter, Measurement.Aborting.Condition, CONTINUE AT ANY
TestParameter, Measurement.PostOutput.Value, START
TestParameter, Measurement.PostOutput.Retention, OFF
TestParameter, Measurement.Bias.Source, -5, 0
TestParameter, Measurement.Bias.Compliance, 0.1, 1
TestParameter, Measurement.Monitor.Unit, SMU2:HP, SMU1:HP
TestParameter, Measurement.Monitor.Adc, HR ADC, HR ADC
TestParameter, Measurement.Monitor.Measurement, Compliance Side, Compliance Side
TestParameter, Measurement.Monitor.RangingMode, AUTO, AUTO
TestParameter, Measurement.Monitor.RangeBoundary, , 
TestParameter, Measurement.Monitor.RangeRating, BY FULL RANGE, BY FULL RANGE
TestParameter, Measurement.Monitor.RangeRatingCoeff, 50, 50
TestParameter, Measurement.Timing.Hold, 0
TestParameter, Measurement.Timing.Delay, 0.001
TestParameter, Measurement.Adc.HighSpeed.Mode, AUTO
TestParameter, Measurement.Adc.HighSpeed.Coeff, 1
TestParameter, Measurement.Adc.HighResolution.AutoZero, OFF
TestParameter, Measurement.Adc.HighResolution.Mode, PLC
TestParameter, Measurement.Adc.HighResolution.Coeff, 1
TestParameter, Measurement.WaitTime.Source.Coeff, 1
TestParameter, Measurement.WaitTime.Source.Offset, 0
TestParameter, Measurement.WaitTime.Monitor.Coeff, 1
TestParameter, Measurement.WaitTime.Monitor.Offset, 0
TestParameter, Function.User.Name, Ohmic
TestParameter, Function.User.Unit, ohm
TestParameter, Function.User.Definition, avg(V1/I1)
TestParameter, Output.Graph.Enabled, true
TestParameter, Output.Graph.XAxis.Data, V1
TestParameter, Output.Graph.XAxis.Scale, Linear
TestParameter, Output.Graph.XAxis.Left, -5
TestParameter, Output.Graph.XAxis.Right, 5
TestParameter, Output.Graph.YAxis.Data, I1
TestParameter, Output.Graph.YAxis.Scale, Linear
TestParameter, Output.Graph.YAxis.Bottom, -0.001
TestParameter, Output.Graph.YAxis.Top, 0.001
TestParameter, Output.Graph.YAxis.Group, 
TestParameter, Output.Scalar.Data, Ohmic
TestParameter, AutoAnalysis.Interpolation, false
TestParameter, AutoAnalysis.Line1.Enabled, false
TestParameter, AutoAnalysis.Line1.Type, 1
TestParameter, AutoAnalysis.Line1.Fix, True
TestParameter, AutoAnalysis.Line1.YAxis, 0
TestParameter, AutoAnalysis.Line1.Point1.Type, 0
TestParameter, AutoAnalysis.Line1.Point1.XY.X, 
TestParameter, AutoAnalysis.Line1.Point1.XY.Y, 
TestParameter, AutoAnalysis.Line1.Point1.Data.Var, 
TestParameter, AutoAnalysis.Line1.Point1.Data.Condition, 
TestParameter, AutoAnalysis.Line1.Point1.Data.Start, false
TestParameter, AutoAnalysis.Line1.Point1.Data.StartVar, 
TestParameter, AutoAnalysis.Line1.Point1.Data.StartCondition, 
TestParameter, AutoAnalysis.Line1.Point2.Type, 0
TestParameter, AutoAnalysis.Line1.Point2.XY.X, 
TestParameter, AutoAnalysis.Line1.Point2.XY.Y, 
TestParameter, AutoAnalysis.Line1.Point2.Data.Var, 
TestParameter, AutoAnalysis.Line1.Point2.Data.Condition, 
TestParameter, AutoAnalysis.Line1.Point2.Data.Start, false
TestParameter, AutoAnalysis.Line1.Point2.Data.StartVar, 
TestParameter, AutoAnalysis.Line1.Point2.Data.StartCondition, 
TestParameter, AutoAnalysis.Line1.GradientExpr, 0
TestParameter, AutoAnalysis.Line2.Enabled, false
TestParameter, AutoAnalysis.Line2.Type, 1
TestParameter, AutoAnalysis.Line2.Fix, True
TestParameter, AutoAnalysis.Line2.YAxis, 0
TestParameter, AutoAnalysis.Line2.Point1.Type, 0
TestParameter, AutoAnalysis.Line2.Point1.XY.X, 
TestParameter, AutoAnalysis.Line2.Point1.XY.Y, 
TestParameter, AutoAnalysis.Line2.Point1.Data.Var, 
TestParameter, AutoAnalysis.Line2.Point1.Data.Condition, 
TestParameter, AutoAnalysis.Line2.Point1.Data.Start, false
TestParameter, AutoAnalysis.Line2.Point1.Data.StartVar, 
TestParameter, AutoAnalysis.Line2.Point1.Data.StartCondition, 
TestParameter, AutoAnalysis.Line2.Point2.Type, 0
TestParameter, AutoAnalysis.Line2.Point2.XY.X, 
TestParameter, AutoAnalysis.Line2.Point2.XY.Y, 
TestParameter, AutoAnalysis.Line2.Point2.Data.Var, 
TestParameter, AutoAnalysis.Line2.Point2.Data.Condition, 
TestParameter, AutoAnalysis.Line2.Point2.Data.Start, false
TestParameter, AutoAnalysis.Line2.Point2.Data.StartVar, 
TestParameter, AutoAnalysis.Line2.Point2.Data.StartCondition, 
TestParameter, AutoAnalysis.Line2.GradientExpr, 0
TestParameter, AutoAnalysis.Marker.Enabled, false
TestParameter, AutoAnalysis.Marker.Data.Var, 
TestParameter, AutoAnalysis.Marker.Data.Condition, 
TestParameter, AutoAnalysis.Marker.Data.Start, false
TestParameter, AutoAnalysis.Marker.Data.StartVar, 
TestParameter, AutoAnalysis.Marker.Data.StartCondition, 
MetaData, TestRecord.EntryPoint, true
MetaData, TestRecord.RecordTime, 09/05/2020 10:59:18
MetaData, TestRecord.TestTarget, 
MetaData, TestRecord.IterationIndex, 23
MetaData, TestRecord.Preservation, true
MetaData, TestRecord.Flag, 
MetaData, TestRecord.Remarks, 
MetaData, TestRecord.LinkKey, de61bd8d-0cce-48f7-8b52-92b8cd0d6559
Dimension1, 101, 101, 101
Dimension2, 1, 1, 1
DataName, V1, I1, Ohmic
DataValue, -5, -1.4226999999999999E-09, 911092309.13190937
DataValue, -4.9, -1.3206E-09, 
DataValue, -4.8, -1.2389E-09, 
DataValue, -4.7, -1.2499999999999998E-09, 
DataValue, -4.6000000000000005, -1.2301E-09, 
DataValue, -4.5, -1.1343E-09, 
DataValue, -4.4, -1.1465E-09, 
DataValue, -4.3, -1.1085999999999999E-09, 
DataValue, -4.2, -1.1197E-09, 
DataValue, -4.1, -1.1247999999999999E-09, 
DataValue, -4, -1.0306E-09, 
DataValue, -3.9, -1.0746999999999998E-09, 
DataValue, -3.8000000000000003, -1.0474E-09, 
DataValue, -3.7, -1.0293E-09, 
DataValue, -3.6, -9.794E-10, 
DataValue, -3.5, -9.8E-10, 
DataValue, -3.4, -9.2709999999999993E-10, 
DataValue, -3.3000000000000003, -9.5829999999999989E-10, 
DataValue, -3.2, -8.7209999999999991E-10, 
DataValue, -3.1, -8.6639999999999992E-10, 
DataValue, -3, -8.247E-10, 
DataValue, -2.9, -8.5589999999999991E-10, 
DataValue, -2.8000000000000003, -8.065E-10, 
DataValue, -2.7, -8.0129999999999991E-10, 
DataValue, -2.6, -8.0459999999999989E-10, 
DataValue, -2.5, -8.3469999999999992E-10, 
DataValue, -2.4, -7.8399999999999988E-10, 
DataValue, -2.3000000000000003, -7.6309999999999988E-10, 
DataValue, -2.2, -7.142E-10, 
DataValue, -2.1, -6.8089999999999989E-10, 
DataValue, -2, -6.586E-10, 
DataValue, -1.9000000000000001, -6.363E-10, 
DataValue, -1.8, -6.033E-10, 
DataValue, -1.7, -5.9439999999999993E-10, 
DataValue, -1.6, -5.463E-10, 
DataValue, -1.5, -4.1969999999999996E-10, 
DataValue, -1.4000000000000001, -3.0849999999999997E-10, 
DataValue, -1.3, -2.482E-10, 
DataValue, -1.2, -1.0369999999999999E-10, 
DataValue, -1.1, 1.68E-11, 
DataValue, -1, 1.6819999999999997E-10, 
DataValue, -0.9, 2.779E-10, 
DataValue, -0.8, 4.3969999999999994E-10, 
DataValue, -0.70000000000000007, 6.1389999999999992E-10, 
DataValue, -0.6, 8.534999999999999E-10, 
DataValue, -0.5, 1.0448E-09, 
DataValue, -0.4, 1.2472999999999998E-09, 
DataValue, -0.3, 1.5024E-09, 
DataValue, -0.2, 1.7597999999999999E-09, 
DataValue, -0.1, 2.0454E-09, 
DataValue, 0, 2.4905999999999997E-09, 
DataValue, 0.1, 2.9771999999999996E-09, 
DataValue, 0.2, 3.195E-09, 
DataValue, 0.3, 3.3834999999999997E-09, 
DataValue, 0.4, 3.5065E-09, 
DataValue, 0.5, 3.6165999999999997E-09, 
DataValue, 0.6, 3.6499999999999996E-09, 
DataValue, 0.70000000000000007, 3.6649999999999996E-09, 
DataValue, 0.8, 3.7709E-09, 
DataValue, 0.9, 3.7956E-09, 
DataValue, 1, 3.8847E-09, 
DataValue, 1.1, 3.899E-09, 
DataValue, 1.2, 3.9593E-09, 
DataValue, 1.3, 4.02E-09, 
DataValue, 1.4000000000000001, 4.0924999999999993E-09, 
DataValue, 1.5, 4.1814999999999993E-09, 
DataValue, 1.6, 4.2872999999999995E-09, 
DataValue, 1.7, 4.319E-09, 
DataValue, 1.8, 4.3537999999999996E-09, 
DataValue, 1.9000000000000001, 4.4300999999999994E-09, 
DataValue, 2, 4.4348999999999992E-09, 
DataValue, 2.1, 4.5326E-09, 
DataValue, 2.2, 4.6141E-09, 
DataValue, 2.3000000000000003, 4.6966999999999993E-09, 
DataValue, 2.4, 4.7165999999999992E-09, 
DataValue, 2.5, 4.7486999999999995E-09, 
DataValue, 2.6, 4.7487999999999992E-09, 
DataValue, 2.7, 4.7787999999999993E-09, 
DataValue, 2.8000000000000003, 4.8251999999999994E-09, 
DataValue, 2.9, 4.8906999999999993E-09, 
DataValue, 3, 4.9197E-09, 
DataValue, 3.1, 4.9223E-09, 
DataValue, 3.2, 5.0025E-09, 
DataValue, 3.3000000000000003, 5.1083999999999994E-09, 
DataValue, 3.4, 5.1545999999999996E-09, 
DataValue, 3.5, 5.1128999999999996E-09, 
DataValue, 3.6, 5.2021E-09, 
DataValue, 3.7, 5.2211E-09, 
DataValue, 3.8000000000000003, 5.2777999999999993E-09, 
DataValue, 3.9, 5.2721999999999992E-09, 
DataValue, 4, 5.3455E-09, 
DataValue, 4.1, 5.4401E-09, 
DataValue, 4.2, 5.4775999999999994E-09, 
DataValue, 4.3, 5.5382999999999994E-09, 
DataValue, 4.4, 5.5672999999999992E-09, 
DataValue, 4.5, 5.6281999999999992E-09, 
DataValue, 4.6000000000000005, 5.7071999999999995E-09, 
DataValue, 4.7, 5.7441E-09, 
DataValue, 4.8, 5.756999999999999E-09, 
DataValue, 4.9, 5.8001999999999991E-09, 
DataValue, 5, 5.8819999999999993E-09, 
SetupTitle, WW
PrimitiveTest, I/V Sweep
TestParameter, Context.MainFrame, B1500A
TestParameter, Channel.UnitType, SMU, SMU
TestParameter, Channel.Unit, SMU2:HP, SMU1:HP
TestParameter, Channel.IName, I1, I4
TestParameter, Channel.VName, V1, V4
TestParameter, Channel.Mode, V, COMMON
TestParameter, Channel.Func, VAR1, CONST
TestParameter, Channel.Index, 
TestParameter, Channel.Time, 
