
SetupTitle, WW
PrimitiveTest, I/V Sweep
TestParameter, Context.MainFrame, B1500A
TestParameter, Channel.UnitType, SMU, SMU
TestParameter, Channel.Unit, SMU2:HP, SMU1:HP
TestParameter, Channel.IName, I1, I4
TestParameter, Channel.VName, V1, V4
TestParameter, Channel.Mode, V, COMMON
TestParameter, Channel.Func, VAR1, CONST
TestParameter, Channel.Index, 
TestParameter, Channel.Time, 
TestParameter, Measurement.Port.Unit, SMU2:HP, SMU1:HP
TestParameter, Measurement.Port.SeriesResistor, NONE, NONE
TestParameter, Measurement.Port.Filter, ON, ON
TestParameter, Measurement.Port.OutputVoltageComparison, 0, 0
TestParameter, Measurement.Primary.Locus, Single
TestParameter, Measurement.Primary.Scale, LINEAR
TestParameter, Measurement.Primary.Start, -5
TestParameter, Measurement.Primary.Stop, 5
TestParameter, Measurement.Primary.Step, 0.1
TestParameter, Measurement.Primary.Compliance, 0.1
TestParameter, Measurement.Primary.PowerCompliance, 0
TestParameter, Measurement.Aborting.Condition, CONTINUE AT ANY
TestParameter, Measurement.PostOutput.Value, START
TestParameter, Measurement.PostOutput.Retention, OFF
TestParameter, Measurement.Bias.Source, -5, 0
TestParameter, Measurement.Bias.Compliance, 0.1, 1
TestParameter, Measurement.Monitor.Unit, SMU2:HP, SMU1:HP
TestParameter, Measurement.Monitor.Adc, HR ADC, HR ADC
TestParameter, Measurement.Monitor.Measurement, Compliance Side, Compliance Side
TestParameter, Measurement.Monitor.RangingMode, AUTO, AUTO
TestParameter, Measurement.Monitor.RangeBoundary, , 
TestParameter, Measurement.Monitor.RangeRating, BY FULL RANGE, BY FULL RANGE
TestParameter, Measurement.Monitor.RangeRatingCoeff, 50, 50
TestParameter, Measurement.Timing.Hold, 0
TestParameter, Measurement.Timing.Delay, 0.001
TestParameter, Measurement.Adc.HighSpeed.Mode, AUTO
TestParameter, Measurement.Adc.HighSpeed.Coeff, 1
TestParameter, Measurement.Adc.HighResolution.AutoZero, OFF
TestParameter, Measurement.Adc.HighResolution.Mode, PLC
TestParameter, Measurement.Adc.HighResolution.Coeff, 1
TestParameter, Measurement.WaitTime.Source.Coeff, 1
TestParameter, Measurement.WaitTime.Source.Offset, 0
TestParameter, Measurement.WaitTime.Monitor.Coeff, 1
TestParameter, Measurement.WaitTime.Monitor.Offset, 0
TestParameter, Function.User.Name, Ohmic
TestParameter, Function.User.Unit, ohm
TestParameter, Function.User.Definition, avg(V1/I1)
TestParameter, Output.Graph.Enabled, true
TestParameter, Output.Graph.XAxis.Data, V1
TestParameter, Output.Graph.XAxis.Scale, Linear
TestParameter, Output.Graph.XAxis.Left, -5
TestParameter, Output.Graph.XAxis.Right, 5
TestParameter, Output.Graph.YAxis.Data, I1
TestParameter, Output.Graph.YAxis.Scale, Linear
TestParameter, Output.Graph.YAxis.Bottom, -0.001
TestParameter, Output.Graph.YAxis.Top, 0.001
TestParameter, Output.Graph.YAxis.Group, 
TestParameter, Output.Scalar.Data, Ohmic
TestParameter, AutoAnalysis.Interpolation, false
TestParameter, AutoAnalysis.Line1.Enabled, false
TestParameter, AutoAnalysis.Line1.Type, 1
TestParameter, AutoAnalysis.Line1.Fix, True
TestParameter, AutoAnalysis.Line1.YAxis, 0
TestParameter, AutoAnalysis.Line1.Point1.Type, 0
TestParameter, AutoAnalysis.Line1.Point1.XY.X, 
TestParameter, AutoAnalysis.Line1.Point1.XY.Y, 
TestParameter, AutoAnalysis.Line1.Point1.Data.Var, 
TestParameter, AutoAnalysis.Line1.Point1.Data.Condition, 
TestParameter, AutoAnalysis.Line1.Point1.Data.Start, false
TestParameter, AutoAnalysis.Line1.Point1.Data.StartVar, 
TestParameter, AutoAnalysis.Line1.Point1.Data.StartCondition, 
TestParameter, AutoAnalysis.Line1.Point2.Type, 0
TestParameter, AutoAnalysis.Line1.Point2.XY.X, 
TestParameter, AutoAnalysis.Line1.Point2.XY.Y, 
TestParameter, AutoAnalysis.Line1.Point2.Data.Var, 
TestParameter, AutoAnalysis.Line1.Point2.Data.Condition, 
TestParameter, AutoAnalysis.Line1.Point2.Data.Start, false
TestParameter, AutoAnalysis.Line1.Point2.Data.StartVar, 
TestParameter, AutoAnalysis.Line1.Point2.Data.StartCondition, 
TestParameter, AutoAnalysis.Line1.GradientExpr, 0
TestParameter, AutoAnalysis.Line2.Enabled, false
TestParameter, AutoAnalysis.Line2.Type, 1
TestParameter, AutoAnalysis.Line2.Fix, True
TestParameter, AutoAnalysis.Line2.YAxis, 0
TestParameter, AutoAnalysis.Line2.Point1.Type, 0
TestParameter, AutoAnalysis.Line2.Point1.XY.X, 
TestParameter, AutoAnalysis.Line2.Point1.XY.Y, 
TestParameter, AutoAnalysis.Line2.Point1.Data.Var, 
TestParameter, AutoAnalysis.Line2.Point1.Data.Condition, 
TestParameter, AutoAnalysis.Line2.Point1.Data.Start, false
TestParameter, AutoAnalysis.Line2.Point1.Data.StartVar, 
TestParameter, AutoAnalysis.Line2.Point1.Data.StartCondition, 
TestParameter, AutoAnalysis.Line2.Point2.Type, 0
TestParameter, AutoAnalysis.Line2.Point2.XY.X, 
TestParameter, AutoAnalysis.Line2.Point2.XY.Y, 
TestParameter, AutoAnalysis.Line2.Point2.Data.Var, 
TestParameter, AutoAnalysis.Line2.Point2.Data.Condition, 
TestParameter, AutoAnalysis.Line2.Point2.Data.Start, false
TestParameter, AutoAnalysis.Line2.Point2.Data.StartVar, 
TestParameter, AutoAnalysis.Line2.Point2.Data.StartCondition, 
TestParameter, AutoAnalysis.Line2.GradientExpr, 0
TestParameter, AutoAnalysis.Marker.Enabled, false
TestParameter, AutoAnalysis.Marker.Data.Var, 
TestParameter, AutoAnalysis.Marker.Data.Condition, 
TestParameter, AutoAnalysis.Marker.Data.Start, false
TestParameter, AutoAnalysis.Marker.Data.StartVar, 
TestParameter, AutoAnalysis.Marker.Data.StartCondition, 
MetaData, TestRecord.EntryPoint, true
MetaData, TestRecord.RecordTime, 09/05/2020 10:52:41
MetaData, TestRecord.TestTarget, 
MetaData, TestRecord.IterationIndex, 12
MetaData, TestRecord.Preservation, true
MetaData, TestRecord.Flag, 
MetaData, TestRecord.Remarks, 
MetaData, TestRecord.LinkKey, de61bd8d-0cce-48f7-8b52-92b8cd0d6559
Dimension1, 101, 101, 101
Dimension2, 1, 1, 1
DataName, V1, I1, Ohmic
DataValue, -5, -2.1874E-10, -477239112.37130231
DataValue, -4.9, -1.9314E-10, 
DataValue, -4.8, -1.738E-10, 
DataValue, -4.7, -1.662E-10, 
DataValue, -4.6000000000000005, -1.4644E-10, 
DataValue, -4.5, -1.4609E-10, 
DataValue, -4.4, -1.405E-10, 
DataValue, -4.3, -1.4813E-10, 
DataValue, -4.2, -1.3326E-10, 
DataValue, -4.1, -1.2187E-10, 
DataValue, -4, -1.1512E-10, 
DataValue, -3.9, -1.1129E-10, 
DataValue, -3.8000000000000003, -9.759E-11, 
DataValue, -3.7, -1.0871E-10, 
DataValue, -3.6, -7.714E-11, 
DataValue, -3.5, -6.744E-11, 
DataValue, -3.4, -5.947E-11, 
DataValue, -3.3000000000000003, -5.604E-11, 
DataValue, -3.2, -4.143E-11, 
DataValue, -3.1, -4.581E-11, 
DataValue, -3, -3.294E-11, 
DataValue, -2.9, -2.777E-11, 
DataValue, -2.8000000000000003, -1.286E-11, 
DataValue, -2.7, 5.49E-12, 
DataValue, -2.6, 5.28E-12, 
DataValue, -2.5, 2.158E-11, 
DataValue, -2.4, 4.123E-11, 
DataValue, -2.3000000000000003, 4.785E-11, 
DataValue, -2.2, 6.514E-11, 
DataValue, -2.1, 7.501E-11, 
DataValue, -2, 7.938E-11, 
DataValue, -1.9000000000000001, 9.583E-11, 
DataValue, -1.8, 1.0686E-10, 
DataValue, -1.7, 1.081E-10, 
DataValue, -1.6, 1.1219E-10, 
DataValue, -1.5, 1.2776E-10, 
DataValue, -1.4000000000000001, 1.4651E-10, 
DataValue, -1.3, 1.5258E-10, 
DataValue, -1.2, 1.6895E-10, 
DataValue, -1.1, 1.7723E-10, 
DataValue, -1, 1.8588E-10, 
DataValue, -0.9, 1.9521E-10, 
DataValue, -0.8, 2.1414E-10, 
DataValue, -0.70000000000000007, 2.2982E-10, 
DataValue, -0.6, 2.5198E-10, 
DataValue, -0.5, 2.6816E-10, 
DataValue, -0.4, 2.9222E-10, 
DataValue, -0.3, 2.9399E-10, 
DataValue, -0.2, 3.281E-10, 
DataValue, -0.1, 3.4466E-10, 
DataValue, 0, 3.7984E-10, 
DataValue, 0.1, 3.8907E-10, 
DataValue, 0.2, 4.2478E-10, 
DataValue, 0.3, 4.3965E-10, 
DataValue, 0.4, 4.7097E-10, 
DataValue, 0.5, 4.9011E-10, 
DataValue, 0.6, 5.1186E-10, 
DataValue, 0.70000000000000007, 5.3182E-10, 
DataValue, 0.8, 5.4064E-10, 
DataValue, 0.9, 5.4787E-10, 
DataValue, 1, 5.6425E-10, 
DataValue, 1.1, 5.7466E-10, 
DataValue, 1.2, 5.9009E-10, 
DataValue, 1.3, 5.9224E-10, 
DataValue, 1.4000000000000001, 5.9888E-10, 
DataValue, 1.5, 6.0949E-10, 
DataValue, 1.6, 6.2253E-10, 
DataValue, 1.7, 6.2774E-10, 
DataValue, 1.8, 6.3148E-10, 
DataValue, 1.9000000000000001, 6.4454E-10, 
DataValue, 2, 6.5568E-10, 
DataValue, 2.1, 6.6024E-10, 
DataValue, 2.2, 6.6972E-10, 
DataValue, 2.3000000000000003, 6.671E-10, 
DataValue, 2.4, 6.8685E-10, 
DataValue, 2.5, 6.876E-10, 
DataValue, 2.6, 7.0607E-10, 
DataValue, 2.7, 7.1563E-10, 
DataValue, 2.8000000000000003, 7.1334E-10, 
DataValue, 2.9, 7.2857E-10, 
DataValue, 3, 7.4726E-10, 
DataValue, 3.1, 7.3492E-10, 
DataValue, 3.2, 7.5292E-10, 
DataValue, 3.3000000000000003, 7.6094E-10, 
DataValue, 3.4, 7.6968E-10, 
DataValue, 3.5, 7.6909E-10, 
DataValue, 3.6, 7.8787E-10, 
DataValue, 3.7, 7.8658E-10, 
DataValue, 3.8000000000000003, 7.9322E-10, 
DataValue, 3.9, 8.0428E-10, 
DataValue, 4, 8.1746E-10, 
DataValue, 4.1, 8.1233E-10, 
DataValue, 4.2, 8.154E-10, 
DataValue, 4.3, 8.286E-10, 
DataValue, 4.4, 8.2572E-10, 
DataValue, 4.5, 8.3737E-10, 
DataValue, 4.6000000000000005, 8.4635E-10, 
DataValue, 4.7, 8.4831E-10, 
DataValue, 4.8, 8.5831E-10, 
DataValue, 4.9, 8.721E-10, 
DataValue, 5, 8.5844E-10, 
SetupTitle, WW
PrimitiveTest, I/V Sweep
TestParameter, Context.MainFrame, B1500A
TestParameter, Channel.UnitType, SMU, SMU
TestParameter, Channel.Unit, SMU2:HP, SMU1:HP
TestParameter, Channel.IName, I1, I4
TestParameter, Channel.VName, V1, V4
TestParameter, Channel.Mode, V, COMMON
TestParameter, Channel.Func, VAR1, CONST
TestParameter, Channel.Index, 
TestParameter, Channel.Time, 
TestParameter, Measurement.Port.Unit, SMU2:HP, SMU1:HP
TestParameter, Measurement.Port.SeriesResistor, NONE, NONE
TestParameter, Measurement.Port.Filter, ON, ON
TestParameter, Measurement.Port.OutputVoltageComparison, 0, 0
TestParameter, Measurement.Primary.Locus, Single
TestParameter, Measurement.Primary.Scale, LINEAR
TestParameter, Measurement.Primary.Start, -5
TestParameter, Measurement.Primary.Stop, 5
TestParameter, Measurement.Primary.Step, 0.1
TestParameter, Measurement.Primary.Compliance, 0.1
TestParameter, Measurement.Primary.PowerCompliance, 0
TestParameter, Measurement.Aborting.Condition, CONTINUE AT ANY
TestParameter, Measurement.PostOutput.Value, START
TestParameter, Measurement.PostOutput.Retention, OFF
TestParameter, Measurement.Bias.Source, -5, 0
TestParameter, Measurement.Bias.Compliance, 0.1, 1
TestParameter, Measurement.Monitor.Unit, SMU2:HP, SMU1:HP
TestParameter, Measurement.Monitor.Adc, HR ADC, HR ADC
TestParameter, Measurement.Monitor.Measurement, Compliance Side, Compliance Side
TestParameter, Measurement.Monitor.RangingMode, AUTO, AUTO
TestParameter, Measurement.Monitor.RangeBoundary, , 
TestParameter, Measurement.Monitor.RangeRating, BY FULL RANGE, BY FULL RANGE
TestParameter, Measurement.Monitor.RangeRatingCoeff, 50, 50
TestParameter, Measurement.Timing.Hold, 0
TestParameter, Measurement.Timing.Delay, 0.001
TestParameter, Measurement.Adc.HighSpeed.Mode, AUTO
TestParameter, Measurement.Adc.HighSpeed.Coeff, 1
TestParameter, Measurement.Adc.HighResolution.AutoZero, OFF
TestParameter, Measurement.Adc.HighResolution.Mode, PLC
TestParameter, Measurement.Adc.HighResolution.Coeff, 1
TestParameter, Measurement.WaitTime.Source.Coeff, 1
TestParameter, Measurement.WaitTime.Source.Offset, 0
TestParameter, Measurement.WaitTime.Monitor.Coeff, 1
TestParameter, Measurement.WaitTime.Monitor.Offset, 0
TestParameter, Function.User.Name, Ohmic
TestParameter, Function.User.Unit, ohm
TestParameter, Function.User.Definition, avg(V1/I1)
TestParameter, Output.Graph.Enabled, true
TestParameter, Output.Graph.XAxis.Data, V1
TestParameter, Output.Graph.XAxis.Scale, Linear
TestParameter, Output.Graph.XAxis.Left, -5
TestParameter, Output.Graph.XAxis.Right, 5
TestParameter, Output.Graph.YAxis.Data, I1
TestParameter, Output.Graph.YAxis.Scale, Linear
TestParameter, Output.Graph.YAxis.Bottom, -0.001
TestParameter, Output.Graph.YAxis.Top, 0.001
TestParameter, Output.Graph.YAxis.Group, 
TestParameter, Output.Scalar.Data, Ohmic
TestParameter, AutoAnalysis.Interpolation, false
TestParameter, AutoAnalysis.Line1.Enabled, false
TestParameter, AutoAnalysis.Line1.Type, 1
TestParameter, AutoAnalysis.Line1.Fix, True
TestParameter, AutoAnalysis.Line1.YAxis, 0
TestParameter, AutoAnalysis.Line1.Point1.Type, 0
TestParameter, AutoAnalysis.Line1.Point1.XY.X, 
TestParameter, AutoAnalysis.Line1.Point1.XY.Y, 
TestParameter, AutoAnalysis.Line1.Point1.Data.Var, 
TestParameter, AutoAnalysis.Line1.Point1.Data.Condition, 
TestParameter, AutoAnalysis.Line1.Point1.Data.Start, false
TestParameter, AutoAnalysis.Line1.Point1.Data.StartVar, 
TestParameter, AutoAnalysis.Line1.Point1.Data.StartCondition, 
TestParameter, AutoAnalysis.Line1.Point2.Type, 0
TestParameter, AutoAnalysis.Line1.Point2.XY.X, 
TestParameter, AutoAnalysis.Line1.Point2.XY.Y, 
TestParameter, AutoAnalysis.Line1.Point2.Data.Var, 
TestParameter, AutoAnalysis.Line1.Point2.Data.Condition, 
TestParameter, AutoAnalysis.Line1.Point2.Data.Start, false
TestParameter, AutoAnalysis.Line1.Point2.Data.StartVar, 
TestParameter, AutoAnalysis.Line1.Point2.Data.StartCondition, 
TestParameter, AutoAnalysis.Line1.GradientExpr, 0
TestParameter, AutoAnalysis.Line2.Enabled, false
TestParameter, AutoAnalysis.Line2.Type, 1
TestParameter, AutoAnalysis.Line2.Fix, True
TestParameter, AutoAnalysis.Line2.YAxis, 0
TestParameter, AutoAnalysis.Line2.Point1.Type, 0
TestParameter, AutoAnalysis.Line2.Point1.XY.X, 
TestParameter, AutoAnalysis.Line2.Point1.XY.Y, 
TestParameter, AutoAnalysis.Line2.Point1.Data.Var, 
TestParameter, AutoAnalysis.Line2.Point1.Data.Condition, 
TestParameter, AutoAnalysis.Line2.Point1.Data.Start, false
TestParameter, AutoAnalysis.Line2.Point1.Data.StartVar, 
TestParameter, AutoAnalysis.Line2.Point1.Data.StartCondition, 
TestParameter, AutoAnalysis.Line2.Point2.Type, 0
TestParameter, AutoAnalysis.Line2.Point2.XY.X, 
TestParameter, AutoAnalysis.Line2.Point2.XY.Y, 
TestParameter, AutoAnalysis.Line2.Point2.Data.Var, 
TestParameter, AutoAnalysis.Line2.Point2.Data.Condition, 
TestParameter, AutoAnalysis.Line2.Point2.Data.Start, false
TestParameter, AutoAnalysis.Line2.Point2.Data.StartVar, 
TestParameter, AutoAnalysis.Line2.Point2.Data.StartCondition, 
TestParameter, AutoAnalysis.Line2.GradientExpr, 0
TestParameter, AutoAnalysis.Marker.Enabled, false
TestParameter, AutoAnalysis.Marker.Data.Var, 
TestParameter, AutoAnalysis.Marker.Data.Condition, 
TestParameter, AutoAnalysis.Marker.Data.Start, false
TestParameter, AutoAnalysis.Marker.Data.StartVar, 
TestParameter, AutoAnalysis.Marker.Data.StartCondition, 
MetaData, TestRecord.EntryPoint, true
MetaData, TestRecord.RecordTime, 09/05/2020 10:52:04
MetaData, TestRecord.TestTarget, 
MetaData, TestRecord.IterationIndex, 11
MetaData, TestRecord.Preservation, true
MetaData, TestRecord.Flag, 
MetaData, TestRecord.Remarks, 
MetaData, TestRecord.LinkKey, de61bd8d-0cce-48f7-8b52-92b8cd0d6559
Dimension1, 101, 101, 101
Dimension2, 1, 1, 1
DataName, V1, I1, Ohmic
DataValue, -5, -1.6635E-10, -5476494794.7849159
DataValue, -4.9, -1.3951E-10, 
DataValue, -4.8, -1.2767E-10, 
DataValue, -4.7, -1.2311E-10, 
DataValue, -4.6000000000000005, -1.3059E-10, 
DataValue, -4.5, -1.0239E-10, 
DataValue, -4.4, -9.819E-11, 
DataValue, -4.3, -9.294E-11, 
DataValue, -4.2, -8.986E-11, 
DataValue, -4.1, -8.385E-11, 
DataValue, -4, -6.897E-11, 
DataValue, -3.9, -7.061E-11, 
DataValue, -3.8000000000000003, -5.128E-11, 
DataValue, -3.7, -4.755E-11, 
DataValue, -3.6, -4.724E-11, 
DataValue, -3.5, -3.704E-11, 
DataValue, -3.4, -3.571E-11, 
DataValue, -3.3000000000000003, -2.092E-11, 
DataValue, -3.2, -2.272E-11, 
DataValue, -3.1, -1.862E-11, 
DataValue, -3, -1.015E-11, 
DataValue, -2.9, 4.02E-12, 
DataValue, -2.8000000000000003, 2.88E-12, 
DataValue, -2.7, 1.2E-11, 
DataValue, -2.6, 2.659E-11, 
DataValue, -2.5, 3.992E-11, 
DataValue, -2.4, 3.82E-11, 
DataValue, -2.3000000000000003, 4.709E-11, 
DataValue, -2.2, 5.42E-11, 
DataValue, -2.1, 5.825E-11, 
DataValue, -2, 7.933E-11, 
DataValue, -1.9000000000000001, 8.308E-11, 
DataValue, -1.8, 9.216E-11, 
DataValue, -1.7, 1.0435E-10, 
DataValue, -1.6, 1.0605E-10, 
DataValue, -1.5, 1.1815E-10, 
DataValue, -1.4000000000000001, 1.2528E-10, 
DataValue, -1.3, 1.376E-10, 
DataValue, -1.2, 1.4983E-10, 
DataValue, -1.1, 1.6399E-10, 
DataValue, -1, 1.7499E-10, 
DataValue, -0.9, 1.8238E-10, 
DataValue, -0.8, 1.9377E-10, 
DataValue, -0.70000000000000007, 2.1139E-10, 
DataValue, -0.6, 2.2207E-10, 
DataValue, -0.5, 2.3759E-10, 
DataValue, -0.4, 2.5315E-10, 
DataValue, -0.3, 2.6149E-10, 
DataValue, -0.2, 2.8346E-10, 
DataValue, -0.1, 2.9923E-10, 
DataValue, 0, 3.3092E-10, 
DataValue, 0.1, 3.4539E-10, 
DataValue, 0.2, 3.6101E-10, 
DataValue, 0.3, 3.7137E-10, 
DataValue, 0.4, 3.9627E-10, 
DataValue, 0.5, 4.0659E-10, 
DataValue, 0.6, 4.4057E-10, 
DataValue, 0.70000000000000007, 4.4656E-10, 
DataValue, 0.8, 4.5756E-10, 
DataValue, 0.9, 4.7404E-10, 
DataValue, 1, 4.8879E-10, 
DataValue, 1.1, 5.0283E-10, 
DataValue, 1.2, 5.0358E-10, 
DataValue, 1.3, 5.2233E-10, 
DataValue, 1.4000000000000001, 5.284E-10, 
DataValue, 1.5, 5.4049E-10, 
DataValue, 1.6, 5.3759E-10, 
DataValue, 1.7, 5.5698E-10, 
DataValue, 1.8, 5.613E-10, 
DataValue, 1.9000000000000001, 5.7937E-10, 
DataValue, 2, 5.7991E-10, 
DataValue, 2.1, 5.9442E-10, 
DataValue, 2.2, 6.0593E-10, 
DataValue, 2.3000000000000003, 6.106E-10, 
DataValue, 2.4, 6.178E-10, 
DataValue, 2.5, 6.225E-10, 
DataValue, 2.6, 6.3944E-10, 
DataValue, 2.7, 6.54E-10, 
DataValue, 2.8000000000000003, 6.5853E-10, 
DataValue, 2.9, 6.6763E-10, 
DataValue, 3, 6.6718E-10, 
DataValue, 3.1, 6.8385E-10, 
DataValue, 3.2, 6.8181E-10, 
DataValue, 3.3000000000000003, 7.0017E-10, 
DataValue, 3.4, 7.062E-10, 
DataValue, 3.5, 7.1493E-10, 
DataValue, 3.6, 7.1439E-10, 
DataValue, 3.7, 7.1848E-10, 
DataValue, 3.8000000000000003, 7.2554E-10, 
DataValue, 3.9, 7.4334E-10, 
DataValue, 4, 7.455E-10, 
DataValue, 4.1, 7.5901E-10, 
DataValue, 4.2, 7.5359E-10, 
DataValue, 4.3, 7.6603E-10, 
DataValue, 4.4, 7.5601E-10, 
DataValue, 4.5, 7.7998E-10, 
DataValue, 4.6000000000000005, 7.8331E-10, 
DataValue, 4.7, 7.7691E-10, 
DataValue, 4.8, 7.938E-10, 
DataValue, 4.9, 7.9879E-10, 
DataValue, 5, 7.9273E-10, 