
SetupTitle, WW
PrimitiveTest, I/V Sweep
TestParameter, Context.MainFrame, B1500A
TestParameter, Channel.UnitType, SMU, SMU
TestParameter, Channel.Unit, SMU2:HP, SMU1:HP
TestParameter, Channel.IName, I1, I4
TestParameter, Channel.VName, V1, V4
TestParameter, Channel.Mode, V, COMMON
TestParameter, Channel.Func, VAR1, CONST
TestParameter, Channel.Index, 
TestParameter, Channel.Time, 
TestParameter, Measurement.Port.Unit, SMU2:HP, SMU1:HP
TestParameter, Measurement.Port.SeriesResistor, NONE, NONE
TestParameter, Measurement.Port.Filter, ON, ON
TestParameter, Measurement.Port.OutputVoltageComparison, 0, 0
TestParameter, Measurement.Primary.Locus, Single
TestParameter, Measurement.Primary.Scale, LINEAR
TestParameter, Measurement.Primary.Start, -5
TestParameter, Measurement.Primary.Stop, 5
TestParameter, Measurement.Primary.Step, 0.1
TestParameter, Measurement.Primary.Compliance, 0.1
TestParameter, Measurement.Primary.PowerCompliance, 0
TestParameter, Measurement.Aborting.Condition, CONTINUE AT ANY
TestParameter, Measurement.PostOutput.Value, START
TestParameter, Measurement.PostOutput.Retention, OFF
TestParameter, Measurement.Bias.Source, -5, 0
TestParameter, Measurement.Bias.Compliance, 0.1, 1
TestParameter, Measurement.Monitor.Unit, SMU2:HP, SMU1:HP
TestParameter, Measurement.Monitor.Adc, HR ADC, HR ADC
TestParameter, Measurement.Monitor.Measurement, Compliance Side, Compliance Side
TestParameter, Measurement.Monitor.RangingMode, AUTO, AUTO
TestParameter, Measurement.Monitor.RangeBoundary, , 
TestParameter, Measurement.Monitor.RangeRating, BY FULL RANGE, BY FULL RANGE
TestParameter, Measurement.Monitor.RangeRatingCoeff, 50, 50
TestParameter, Measurement.Timing.Hold, 0
TestParameter, Measurement.Timing.Delay, 0.001
TestParameter, Measurement.Adc.HighSpeed.Mode, AUTO
TestParameter, Measurement.Adc.HighSpeed.Coeff, 1
TestParameter, Measurement.Adc.HighResolution.AutoZero, OFF
TestParameter, Measurement.Adc.HighResolution.Mode, PLC
TestParameter, Measurement.Adc.HighResolution.Coeff, 1
TestParameter, Measurement.WaitTime.Source.Coeff, 1
TestParameter, Measurement.WaitTime.Source.Offset, 0
TestParameter, Measurement.WaitTime.Monitor.Coeff, 1
TestParameter, Measurement.WaitTime.Monitor.Offset, 0
TestParameter, Function.User.Name, Ohmic
TestParameter, Function.User.Unit, ohm
TestParameter, Function.User.Definition, avg(V1/I1)
TestParameter, Output.Graph.Enabled, true
TestParameter, Output.Graph.XAxis.Data, V1
TestParameter, Output.Graph.XAxis.Scale, Linear
TestParameter, Output.Graph.XAxis.Left, -5
TestParameter, Output.Graph.XAxis.Right, 5
TestParameter, Output.Graph.YAxis.Data, I1
TestParameter, Output.Graph.YAxis.Scale, Linear
TestParameter, Output.Graph.YAxis.Bottom, -0.001
TestParameter, Output.Graph.YAxis.Top, 0.001
TestParameter, Output.Graph.YAxis.Group, 
TestParameter, Output.Scalar.Data, Ohmic
TestParameter, AutoAnalysis.Interpolation, false
TestParameter, AutoAnalysis.Line1.Enabled, false
TestParameter, AutoAnalysis.Line1.Type, 1
TestParameter, AutoAnalysis.Line1.Fix, True
TestParameter, AutoAnalysis.Line1.YAxis, 0
TestParameter, AutoAnalysis.Line1.Point1.Type, 0
TestParameter, AutoAnalysis.Line1.Point1.XY.X, 
TestParameter, AutoAnalysis.Line1.Point1.XY.Y, 
TestParameter, AutoAnalysis.Line1.Point1.Data.Var, 
TestParameter, AutoAnalysis.Line1.Point1.Data.Condition, 
TestParameter, AutoAnalysis.Line1.Point1.Data.Start, false
TestParameter, AutoAnalysis.Line1.Point1.Data.StartVar, 
TestParameter, AutoAnalysis.Line1.Point1.Data.StartCondition, 
TestParameter, AutoAnalysis.Line1.Point2.Type, 0
TestParameter, AutoAnalysis.Line1.Point2.XY.X, 
TestParameter, AutoAnalysis.Line1.Point2.XY.Y, 
TestParameter, AutoAnalysis.Line1.Point2.Data.Var, 
TestParameter, AutoAnalysis.Line1.Point2.Data.Condition, 
TestParameter, AutoAnalysis.Line1.Point2.Data.Start, false
TestParameter, AutoAnalysis.Line1.Point2.Data.StartVar, 
TestParameter, AutoAnalysis.Line1.Point2.Data.StartCondition, 
TestParameter, AutoAnalysis.Line1.GradientExpr, 0
TestParameter, AutoAnalysis.Line2.Enabled, false
TestParameter, AutoAnalysis.Line2.Type, 1
TestParameter, AutoAnalysis.Line2.Fix, True
TestParameter, AutoAnalysis.Line2.YAxis, 0
TestParameter, AutoAnalysis.Line2.Point1.Type, 0
TestParameter, AutoAnalysis.Line2.Point1.XY.X, 
TestParameter, AutoAnalysis.Line2.Point1.XY.Y, 
TestParameter, AutoAnalysis.Line2.Point1.Data.Var, 
TestParameter, AutoAnalysis.Line2.Point1.Data.Condition, 
TestParameter, AutoAnalysis.Line2.Point1.Data.Start, false
TestParameter, AutoAnalysis.Line2.Point1.Data.StartVar, 
TestParameter, AutoAnalysis.Line2.Point1.Data.StartCondition, 
TestParameter, AutoAnalysis.Line2.Point2.Type, 0
TestParameter, AutoAnalysis.Line2.Point2.XY.X, 
TestParameter, AutoAnalysis.Line2.Point2.XY.Y, 
TestParameter, AutoAnalysis.Line2.Point2.Data.Var, 
TestParameter, AutoAnalysis.Line2.Point2.Data.Condition, 
TestParameter, AutoAnalysis.Line2.Point2.Data.Start, false
TestParameter, AutoAnalysis.Line2.Point2.Data.StartVar, 
TestParameter, AutoAnalysis.Line2.Point2.Data.StartCondition, 
TestParameter, AutoAnalysis.Line2.GradientExpr, 0
TestParameter, AutoAnalysis.Marker.Enabled, false
TestParameter, AutoAnalysis.Marker.Data.Var, 
TestParameter, AutoAnalysis.Marker.Data.Condition, 
TestParameter, AutoAnalysis.Marker.Data.Start, false
TestParameter, AutoAnalysis.Marker.Data.StartVar, 
TestParameter, AutoAnalysis.Marker.Data.StartCondition, 
MetaData, TestRecord.EntryPoint, true
MetaData, TestRecord.RecordTime, 09/05/2020 10:51:23
MetaData, TestRecord.TestTarget, 
MetaData, TestRecord.IterationIndex, 10
MetaData, TestRecord.Preservation, true
MetaData, TestRecord.Flag, 
MetaData, TestRecord.Remarks, 
MetaData, TestRecord.LinkKey, 3afbc42f-75ff-493d-aaa0-625a3d93f553
Dimension1, 101, 101, 101
Dimension2, 1, 1, 1
DataName, V1, I1, Ohmic
DataValue, -5, -1.4321E-10, -34332513466.080135
DataValue, -4.9, -1.2684E-10, 
DataValue, -4.8, -1.1595E-10, 
DataValue, -4.7, -1.0554E-10, 
DataValue, -4.6000000000000005, -1.0099E-10, 
DataValue, -4.5, -1.0152E-10, 
DataValue, -4.4, -8.635E-11, 
DataValue, -4.3, -8.8E-11, 
DataValue, -4.2, -7.482E-11, 
DataValue, -4.1, -8.028E-11, 
DataValue, -4, -6.532E-11, 
DataValue, -3.9, -7.14E-11, 
DataValue, -3.8000000000000003, -5.605E-11, 
DataValue, -3.7, -5.101E-11, 
DataValue, -3.6, -4.007E-11, 
DataValue, -3.5, -4.808E-11, 
DataValue, -3.4, -3.668E-11, 
DataValue, -3.3000000000000003, -2.491E-11, 
DataValue, -3.2, -2.23E-11, 
DataValue, -3.1, -1.615E-11, 
DataValue, -3, -1.067E-11, 
DataValue, -2.9, -1.153E-11, 
DataValue, -2.8000000000000003, 6.6E-13, 
DataValue, -2.7, 4.5E-12, 
DataValue, -2.6, 1.037E-11, 
DataValue, -2.5, 2.565E-11, 
DataValue, -2.4, 2.738E-11, 
DataValue, -2.3000000000000003, 3.457E-11, 
DataValue, -2.2, 4.81E-11, 
DataValue, -2.1, 5.66E-11, 
DataValue, -2, 6.892E-11, 
DataValue, -1.9000000000000001, 6.043E-11, 
DataValue, -1.8, 7.031E-11, 
DataValue, -1.7, 7.078E-11, 
DataValue, -1.6, 8.766E-11, 
DataValue, -1.5, 8.058E-11, 
DataValue, -1.4000000000000001, 9.448E-11, 
DataValue, -1.3, 1.0588E-10, 
DataValue, -1.2, 1.2692E-10, 
DataValue, -1.1, 1.1597E-10, 
DataValue, -1, 1.4457E-10, 
DataValue, -0.9, 1.3824E-10, 
DataValue, -0.8, 1.513E-10, 
DataValue, -0.70000000000000007, 1.6443E-10, 
DataValue, -0.6, 1.8996E-10, 
DataValue, -0.5, 1.7621E-10, 
DataValue, -0.4, 2.0427E-10, 
DataValue, -0.3, 2.1006E-10, 
DataValue, -0.2, 2.2501E-10, 
DataValue, -0.1, 2.409E-10, 
DataValue, 0, 2.5661E-10, 
DataValue, 0.1, 2.7389E-10, 
DataValue, 0.2, 2.9441E-10, 
DataValue, 0.3, 3.2206E-10, 
DataValue, 0.4, 3.2438E-10, 
DataValue, 0.5, 3.4078E-10, 
DataValue, 0.6, 3.5775E-10, 
DataValue, 0.70000000000000007, 3.6685E-10, 
DataValue, 0.8, 3.8452E-10, 
DataValue, 0.9, 3.9379E-10, 
DataValue, 1, 4.0669E-10, 
DataValue, 1.1, 4.0776E-10, 
DataValue, 1.2, 4.2219E-10, 
DataValue, 1.3, 4.3041E-10, 
DataValue, 1.4000000000000001, 4.4224E-10, 
DataValue, 1.5, 4.5054E-10, 
DataValue, 1.6, 4.6602E-10, 
DataValue, 1.7, 4.7866E-10, 
DataValue, 1.8, 4.8409E-10, 
DataValue, 1.9000000000000001, 4.8887E-10, 
DataValue, 2, 5.0381E-10, 
DataValue, 2.1, 5.1765E-10, 
DataValue, 2.2, 5.2589E-10, 
DataValue, 2.3000000000000003, 5.2964E-10, 
DataValue, 2.4, 5.3621E-10, 
DataValue, 2.5, 5.243E-10, 
DataValue, 2.6, 5.5225E-10, 
DataValue, 2.7, 5.491E-10, 
DataValue, 2.8000000000000003, 5.6209E-10, 
DataValue, 2.9, 5.6294E-10, 
DataValue, 3, 5.771E-10, 
DataValue, 3.1, 5.8418E-10, 
DataValue, 3.2, 5.8736E-10, 
DataValue, 3.3000000000000003, 5.9634E-10, 
DataValue, 3.4, 6.1087E-10, 
DataValue, 3.5, 6.0879E-10, 
DataValue, 3.6, 6.1873E-10, 
DataValue, 3.7, 6.2688E-10, 
DataValue, 3.8000000000000003, 6.4711E-10, 
DataValue, 3.9, 6.2642E-10, 
DataValue, 4, 6.5562E-10, 
DataValue, 4.1, 6.7403E-10, 
DataValue, 4.2, 6.7968E-10, 
DataValue, 4.3, 6.736E-10, 
DataValue, 4.4, 6.9404E-10, 
DataValue, 4.5, 6.7454E-10, 
DataValue, 4.6000000000000005, 6.8958E-10, 
DataValue, 4.7, 7.0146E-10, 
DataValue, 4.8, 7.2483E-10, 
DataValue, 4.9, 7.281E-10, 
DataValue, 5, 7.3442E-10, 
SetupTitle, WW
PrimitiveTest, I/V Sweep
TestParameter, Context.MainFrame, B1500A
TestParameter, Channel.UnitType, SMU, SMU
TestParameter, Channel.Unit, SMU2:HP, SMU1:HP
TestParameter, Channel.IName, I1, I4
TestParameter, Channel.VName, V1, V4
TestParameter, Channel.Mode, V, COMMON
TestParameter, Channel.Func, VAR1, CONST
TestParameter, Channel.Index, 
TestParameter, Channel.Time, 
TestParameter, Measurement.Port.Unit, SMU2:HP, SMU1:HP
TestParameter, Measurement.Port.SeriesResistor, NONE, NONE
TestParameter, Measurement.Port.Filter, ON, ON
TestParameter, Measurement.Port.OutputVoltageComparison, 0, 0
TestParameter, Measurement.Primary.Locus, Single
TestParameter, Measurement.Primary.Scale, LINEAR
TestParameter, Measurement.Primary.Start, -5
TestParameter, Measurement.Primary.Stop, 5
TestParameter, Measurement.Primary.Step, 0.1
TestParameter, Measurement.Primary.Compliance, 0.1
TestParameter, Measurement.Primary.PowerCompliance, 0
TestParameter, Measurement.Aborting.Condition, CONTINUE AT ANY
TestParameter, Measurement.PostOutput.Value, START
TestParameter, Measurement.PostOutput.Retention, OFF
TestParameter, Measurement.Bias.Source, -5, 0
TestParameter, Measurement.Bias.Compliance, 0.1, 1
TestParameter, Measurement.Monitor.Unit, SMU2:HP, SMU1:HP
TestParameter, Measurement.Monitor.Adc, HR ADC, HR ADC
TestParameter, Measurement.Monitor.Measurement, Compliance Side, Compliance Side
TestParameter, Measurement.Monitor.RangingMode, AUTO, AUTO
TestParameter, Measurement.Monitor.RangeBoundary, , 
TestParameter, Measurement.Monitor.RangeRating, BY FULL RANGE, BY FULL RANGE
TestParameter, Measurement.Monitor.RangeRatingCoeff, 50, 50
TestParameter, Measurement.Timing.Hold, 0
TestParameter, Measurement.Timing.Delay, 0.001
TestParameter, Measurement.Adc.HighSpeed.Mode, AUTO
TestParameter, Measurement.Adc.HighSpeed.Coeff, 1
TestParameter, Measurement.Adc.HighResolution.AutoZero, OFF
TestParameter, Measurement.Adc.HighResolution.Mode, PLC
TestParameter, Measurement.Adc.HighResolution.Coeff, 1
TestParameter, Measurement.WaitTime.Source.Coeff, 1
TestParameter, Measurement.WaitTime.Source.Offset, 0
TestParameter, Measurement.WaitTime.Monitor.Coeff, 1
TestParameter, Measurement.WaitTime.Monitor.Offset, 0
TestParameter, Function.User.Name, Ohmic
TestParameter, Function.User.Unit, ohm
TestParameter, Function.User.Definition, avg(V1/I1)
TestParameter, Output.Graph.Enabled, true
TestParameter, Output.Graph.XAxis.Data, V1
TestParameter, Output.Graph.XAxis.Scale, Linear
TestParameter, Output.Graph.XAxis.Left, -5
TestParameter, Output.Graph.XAxis.Right, 5
TestParameter, Output.Graph.YAxis.Data, I1
TestParameter, Output.Graph.YAxis.Scale, Linear
TestParameter, Output.Graph.YAxis.Bottom, -0.001
TestParameter, Output.Graph.YAxis.Top, 0.001
TestParameter, Output.Graph.YAxis.Group, 
TestParameter, Output.Scalar.Data, Ohmic
TestParameter, AutoAnalysis.Interpolation, false
TestParameter, AutoAnalysis.Line1.Enabled, false
TestParameter, AutoAnalysis.Line1.Type, 1
TestParameter, AutoAnalysis.Line1.Fix, True
TestParameter, AutoAnalysis.Line1.YAxis, 0
TestParameter, AutoAnalysis.Line1.Point1.Type, 0
TestParameter, AutoAnalysis.Line1.Point1.XY.X, 
TestParameter, AutoAnalysis.Line1.Point1.XY.Y, 
TestParameter, AutoAnalysis.Line1.Point1.Data.Var, 
TestParameter, AutoAnalysis.Line1.Point1.Data.Condition, 
TestParameter, AutoAnalysis.Line1.Point1.Data.Start, false
TestParameter, AutoAnalysis.Line1.Point1.Data.StartVar, 
TestParameter, AutoAnalysis.Line1.Point1.Data.StartCondition, 
TestParameter, AutoAnalysis.Line1.Point2.Type, 0
TestParameter, AutoAnalysis.Line1.Point2.XY.X, 
TestParameter, AutoAnalysis.Line1.Point2.XY.Y, 
TestParameter, AutoAnalysis.Line1.Point2.Data.Var, 
TestParameter, AutoAnalysis.Line1.Point2.Data.Condition, 
TestParameter, AutoAnalysis.Line1.Point2.Data.Start, false
TestParameter, AutoAnalysis.Line1.Point2.Data.StartVar, 
TestParameter, AutoAnalysis.Line1.Point2.Data.StartCondition, 
TestParameter, AutoAnalysis.Line1.GradientExpr, 0
TestParameter, AutoAnalysis.Line2.Enabled, false
TestParameter, AutoAnalysis.Line2.Type, 1
TestParameter, AutoAnalysis.Line2.Fix, True
TestParameter, AutoAnalysis.Line2.YAxis, 0
TestParameter, AutoAnalysis.Line2.Point1.Type, 0
TestParameter, AutoAnalysis.Line2.Point1.XY.X, 
TestParameter, AutoAnalysis.Line2.Point1.XY.Y, 
TestParameter, AutoAnalysis.Line2.Point1.Data.Var, 
TestParameter, AutoAnalysis.Line2.Point1.Data.Condition, 
TestParameter, AutoAnalysis.Line2.Point1.Data.Start, false
TestParameter, AutoAnalysis.Line2.Point1.Data.StartVar, 
TestParameter, AutoAnalysis.Line2.Point1.Data.StartCondition, 
TestParameter, AutoAnalysis.Line2.Point2.Type, 0
TestParameter, AutoAnalysis.Line2.Point2.XY.X, 
TestParameter, AutoAnalysis.Line2.Point2.XY.Y, 
TestParameter, AutoAnalysis.Line2.Point2.Data.Var, 
TestParameter, AutoAnalysis.Line2.Point2.Data.Condition, 
TestParameter, AutoAnalysis.Line2.Point2.Data.Start, false
TestParameter, AutoAnalysis.Line2.Point2.Data.StartVar, 
TestParameter, AutoAnalysis.Line2.Point2.Data.StartCondition, 
TestParameter, AutoAnalysis.Line2.GradientExpr, 0
TestParameter, AutoAnalysis.Marker.Enabled, false
TestParameter, AutoAnalysis.Marker.Data.Var, 
TestParameter, AutoAnalysis.Marker.Data.Condition, 
TestParameter, AutoAnalysis.Marker.Data.Start, false
TestParameter, AutoAnalysis.Marker.Data.StartVar, 
TestParameter, AutoAnalysis.Marker.Data.StartCondition, 
MetaData, TestRecord.EntryPoint, true
MetaData, TestRecord.RecordTime, 09/05/2020 10:50:35
MetaData, TestRecord.TestTarget, 
MetaData, TestRecord.IterationIndex, 9
MetaData, TestRecord.Preservation, true
MetaData, TestRecord.Flag, 
MetaData, TestRecord.Remarks, 
MetaData, TestRecord.LinkKey, 3afbc42f-75ff-493d-aaa0-625a3d93f553
Dimension1, 101, 101, 101
Dimension2, 1, 1, 1
DataName, V1, I1, Ohmic
DataValue, -5, -8.977E-11, 133837796096.11435
DataValue, -4.9, -7.174E-11, 
DataValue, -4.8, -6.941E-11, 
DataValue, -4.7, -6.583E-11, 
DataValue, -4.6000000000000005, -5.333E-11, 
DataValue, -4.5, -5.632E-11, 
DataValue, -4.4, -5.348E-11, 
DataValue, -4.3, -4.637E-11, 
DataValue, -4.2, -5.096E-11, 
DataValue, -4.1, -3.629E-11, 
DataValue, -4, -3.442E-11, 
DataValue, -3.9, -3.527E-11, 
DataValue, -3.8000000000000003, -2.433E-11, 
DataValue, -3.7, -2.355E-11, 
DataValue, -3.6, -1.362E-11, 
DataValue, -3.5, -8.36E-12, 
DataValue, -3.4, -7.96E-12, 
DataValue, -3.3000000000000003, -8.66E-12, 
DataValue, -3.2, -2.3E-13, 
DataValue, -3.1, 5.11E-12, 
DataValue, -3, 2.2E-12, 
DataValue, -2.9, 6.32E-12, 
DataValue, -2.8000000000000003, 1.38E-11, 
DataValue, -2.7, 1.588E-11, 
DataValue, -2.6, 1.728E-11, 
DataValue, -2.5, 2.414E-11, 
DataValue, -2.4, 2.958E-11, 
DataValue, -2.3000000000000003, 4.15E-11, 
DataValue, -2.2, 5.255E-11, 
DataValue, -2.1, 4.616E-11, 
DataValue, -2, 5.332E-11, 
DataValue, -1.9000000000000001, 5.695E-11, 
DataValue, -1.8, 6.269E-11, 
DataValue, -1.7, 6.338E-11, 
DataValue, -1.6, 8.114E-11, 
DataValue, -1.5, 8.093E-11, 
DataValue, -1.4000000000000001, 8.666E-11, 
DataValue, -1.3, 9.337E-11, 
DataValue, -1.2, 1.0215E-10, 
DataValue, -1.1, 1.1646E-10, 
DataValue, -1, 1.2145E-10, 
DataValue, -0.9, 1.2186E-10, 
DataValue, -0.8, 1.3923E-10, 
DataValue, -0.70000000000000007, 1.412E-10, 
DataValue, -0.6, 1.5327E-10, 
DataValue, -0.5, 1.5275E-10, 
DataValue, -0.4, 1.6292E-10, 
DataValue, -0.3, 1.6693E-10, 
DataValue, -0.2, 1.7814E-10, 
DataValue, -0.1, 1.7953E-10, 
DataValue, 0, 1.8727E-10, 
DataValue, 0.1, 1.919E-10, 
DataValue, 0.2, 1.9565E-10, 
DataValue, 0.3, 2.095E-10, 
DataValue, 0.4, 2.1608E-10, 
DataValue, 0.5, 2.2065E-10, 
DataValue, 0.6, 2.3643E-10, 
DataValue, 0.70000000000000007, 2.4718E-10, 
DataValue, 0.8, 2.4737E-10, 
DataValue, 0.9, 2.6557E-10, 
DataValue, 1, 2.6782E-10, 
DataValue, 1.1, 2.7785E-10, 
DataValue, 1.2, 2.8149E-10, 
DataValue, 1.3, 3.0014E-10, 
DataValue, 1.4000000000000001, 2.9838E-10, 
DataValue, 1.5, 3.164E-10, 
DataValue, 1.6, 3.2287E-10, 
DataValue, 1.7, 3.1914E-10, 
DataValue, 1.8, 3.2402E-10, 
DataValue, 1.9000000000000001, 3.437E-10, 
DataValue, 2, 3.5795E-10, 
DataValue, 2.1, 3.5721E-10, 
DataValue, 2.2, 3.6413E-10, 
DataValue, 2.3000000000000003, 3.5984E-10, 
DataValue, 2.4, 3.6374E-10, 
DataValue, 2.5, 3.7836E-10, 
DataValue, 2.6, 3.8258E-10, 
DataValue, 2.7, 3.8353E-10, 
DataValue, 2.8000000000000003, 3.9125E-10, 
DataValue, 2.9, 3.9817E-10, 
DataValue, 3, 4.0455E-10, 
DataValue, 3.1, 4.093E-10, 
DataValue, 3.2, 4.1884E-10, 
DataValue, 3.3000000000000003, 4.2486E-10, 
DataValue, 3.4, 4.4514E-10, 
DataValue, 3.5, 4.3343E-10, 
DataValue, 3.6, 4.5263E-10, 
DataValue, 3.7, 4.5993E-10, 
DataValue, 3.8000000000000003, 4.6273E-10, 
DataValue, 3.9, 4.6793E-10, 
DataValue, 4, 4.6416E-10, 
DataValue, 4.1, 4.7371E-10, 
DataValue, 4.2, 4.9304E-10, 
DataValue, 4.3, 4.9101E-10, 
DataValue, 4.4, 5.1322E-10, 
DataValue, 4.5, 5.0665E-10, 
DataValue, 4.6000000000000005, 5.2001E-10, 
DataValue, 4.7, 5.2759E-10, 
DataValue, 4.8, 5.235E-10, 
DataValue, 4.9, 5.3165E-10, 
DataValue, 5, 5.409E-10, 
SetupTitle, WW
PrimitiveTest, I/V Sweep
TestParameter, Context.MainFrame, B1500A
TestParameter, Channel.UnitType, SMU, SMU
TestParameter, Channel.Unit, SMU2:HP, SMU1:HP
TestParameter, Channel.IName, I1, I4
TestParameter, Channel.VName, V1, V4
TestParameter, Channel.Mode, V, COMMON
TestParameter, Channel.Func, VAR1, CONST
TestParameter, Channel.Index, 
TestParameter, Channel.Time, 
TestParameter, Measurement.Port.Unit, SMU2:HP, SMU1:HP
TestParameter, Measurement.Port.SeriesResistor, NONE, NONE
TestParameter, Measurement.Port.Filter, ON, ON
TestParameter, Measurement.Port.OutputVoltageComparison, 0, 0
TestParameter, Measurement.Primary.Locus, Single
TestParameter, Measurement.Primary.Scale, LINEAR
TestParameter, Measurement.Primary.Start, -5
TestParameter, Measurement.Primary.Stop, 5
TestParameter, Measurement.Primary.Step, 0.1
TestParameter, Measurement.Primary.Compliance, 0.1
TestParameter, Measurement.Primary.PowerCompliance, 0
TestParameter, Measurement.Aborting.Condition, CONTINUE AT ANY
TestParameter, Measurement.PostOutput.Value, START
TestParameter, Measurement.PostOutput.Retention, OFF
TestParameter, Measurement.Bias.Source, -5, 0
TestParameter, Measurement.Bias.Compliance, 0.1, 1
TestParameter, Measurement.Monitor.Unit, SMU2:HP, SMU1:HP
TestParameter, Measurement.Monitor.Adc, HR ADC, HR ADC
TestParameter, Measurement.Monitor.Measurement, Compliance Side, Compliance Side
TestParameter, Measurement.Monitor.RangingMode, AUTO, AUTO
TestParameter, Measurement.Monitor.RangeBoundary, , 
TestParameter, Measurement.Monitor.RangeRating, BY FULL RANGE, BY FULL RANGE
TestParameter, Measurement.Monitor.RangeRatingCoeff, 50, 50
TestParameter, Measurement.Timing.Hold, 0
TestParameter, Measurement.Timing.Delay, 0.001
TestParameter, Measurement.Adc.HighSpeed.Mode, AUTO
TestParameter, Measurement.Adc.HighSpeed.Coeff, 1
TestParameter, Measurement.Adc.HighResolution.AutoZero, OFF
TestParameter, Measurement.Adc.HighResolution.Mode, PLC
TestParameter, Measurement.Adc.HighResolution.Coeff, 1
