
SetupTitle, WW
PrimitiveTest, I/V Sweep
TestParameter, Context.MainFrame, B1500A
TestParameter, Channel.UnitType, SMU, SMU
TestParameter, Channel.Unit, SMU2:HP, SMU1:HP
TestParameter, Channel.IName, I1, I4
TestParameter, Channel.VName, V1, V4
TestParameter, Channel.Mode, V, COMMON
TestParameter, Channel.Func, VAR1, CONST
TestParameter, Channel.Index, 
TestParameter, Channel.Time, 
TestParameter, Measurement.Port.Unit, SMU2:HP, SMU1:HP
TestParameter, Measurement.Port.SeriesResistor, NONE, NONE
TestParameter, Measurement.Port.Filter, ON, ON
TestParameter, Measurement.Port.OutputVoltageComparison, 0, 0
TestParameter, Measurement.Primary.Locus, Single
TestParameter, Measurement.Primary.Scale, LINEAR
TestParameter, Measurement.Primary.Start, -5
TestParameter, Measurement.Primary.Stop, 5
TestParameter, Measurement.Primary.Step, 0.1
TestParameter, Measurement.Primary.Compliance, 0.1
TestParameter, Measurement.Primary.PowerCompliance, 0
TestParameter, Measurement.Aborting.Condition, CONTINUE AT ANY
TestParameter, Measurement.PostOutput.Value, START
TestParameter, Measurement.PostOutput.Retention, OFF
TestParameter, Measurement.Bias.Source, -5, 0
TestParameter, Measurement.Bias.Compliance, 0.1, 1
TestParameter, Measurement.Monitor.Unit, SMU2:HP, SMU1:HP
TestParameter, Measurement.Monitor.Adc, HR ADC, HR ADC
TestParameter, Measurement.Monitor.Measurement, Compliance Side, Compliance Side
TestParameter, Measurement.Monitor.RangingMode, AUTO, AUTO
TestParameter, Measurement.Monitor.RangeBoundary, , 
TestParameter, Measurement.Monitor.RangeRating, BY FULL RANGE, BY FULL RANGE
TestParameter, Measurement.Monitor.RangeRatingCoeff, 50, 50
TestParameter, Measurement.Timing.Hold, 0
TestParameter, Measurement.Timing.Delay, 0.001
TestParameter, Measurement.Adc.HighSpeed.Mode, AUTO
TestParameter, Measurement.Adc.HighSpeed.Coeff, 1
TestParameter, Measurement.Adc.HighResolution.AutoZero, OFF
TestParameter, Measurement.Adc.HighResolution.Mode, PLC
TestParameter, Measurement.Adc.HighResolution.Coeff, 1
TestParameter, Measurement.WaitTime.Source.Coeff, 1
TestParameter, Measurement.WaitTime.Source.Offset, 0
TestParameter, Measurement.WaitTime.Monitor.Coeff, 1
TestParameter, Measurement.WaitTime.Monitor.Offset, 0
TestParameter, Function.User.Name, Ohmic
TestParameter, Function.User.Unit, ohm
TestParameter, Function.User.Definition, avg(V1/I1)
TestParameter, Output.Graph.Enabled, true
TestParameter, Output.Graph.XAxis.Data, V1
TestParameter, Output.Graph.XAxis.Scale, Linear
TestParameter, Output.Graph.XAxis.Left, -5
TestParameter, Output.Graph.XAxis.Right, 5
TestParameter, Output.Graph.YAxis.Data, I1
TestParameter, Output.Graph.YAxis.Scale, Linear
TestParameter, Output.Graph.YAxis.Bottom, -0.001
TestParameter, Output.Graph.YAxis.Top, 0.001
TestParameter, Output.Graph.YAxis.Group, 
TestParameter, Output.Scalar.Data, Ohmic
TestParameter, AutoAnalysis.Interpolation, false
TestParameter, AutoAnalysis.Line1.Enabled, false
TestParameter, AutoAnalysis.Line1.Type, 1
TestParameter, AutoAnalysis.Line1.Fix, True
TestParameter, AutoAnalysis.Line1.YAxis, 0
TestParameter, AutoAnalysis.Line1.Point1.Type, 0
TestParameter, AutoAnalysis.Line1.Point1.XY.X, 
TestParameter, AutoAnalysis.Line1.Point1.XY.Y, 
TestParameter, AutoAnalysis.Line1.Point1.Data.Var, 
TestParameter, AutoAnalysis.Line1.Point1.Data.Condition, 
TestParameter, AutoAnalysis.Line1.Point1.Data.Start, false
TestParameter, AutoAnalysis.Line1.Point1.Data.StartVar, 
TestParameter, AutoAnalysis.Line1.Point1.Data.StartCondition, 
TestParameter, AutoAnalysis.Line1.Point2.Type, 0
TestParameter, AutoAnalysis.Line1.Point2.XY.X, 
TestParameter, AutoAnalysis.Line1.Point2.XY.Y, 
TestParameter, AutoAnalysis.Line1.Point2.Data.Var, 
TestParameter, AutoAnalysis.Line1.Point2.Data.Condition, 
TestParameter, AutoAnalysis.Line1.Point2.Data.Start, false
TestParameter, AutoAnalysis.Line1.Point2.Data.StartVar, 
TestParameter, AutoAnalysis.Line1.Point2.Data.StartCondition, 
TestParameter, AutoAnalysis.Line1.GradientExpr, 0
TestParameter, AutoAnalysis.Line2.Enabled, false
TestParameter, AutoAnalysis.Line2.Type, 1
TestParameter, AutoAnalysis.Line2.Fix, True
TestParameter, AutoAnalysis.Line2.YAxis, 0
TestParameter, AutoAnalysis.Line2.Point1.Type, 0
TestParameter, AutoAnalysis.Line2.Point1.XY.X, 
TestParameter, AutoAnalysis.Line2.Point1.XY.Y, 
TestParameter, AutoAnalysis.Line2.Point1.Data.Var, 
TestParameter, AutoAnalysis.Line2.Point1.Data.Condition, 
TestParameter, AutoAnalysis.Line2.Point1.Data.Start, false
TestParameter, AutoAnalysis.Line2.Point1.Data.StartVar, 
TestParameter, AutoAnalysis.Line2.Point1.Data.StartCondition, 
TestParameter, AutoAnalysis.Line2.Point2.Type, 0
TestParameter, AutoAnalysis.Line2.Point2.XY.X, 
TestParameter, AutoAnalysis.Line2.Point2.XY.Y, 
TestParameter, AutoAnalysis.Line2.Point2.Data.Var, 
TestParameter, AutoAnalysis.Line2.Point2.Data.Condition, 
TestParameter, AutoAnalysis.Line2.Point2.Data.Start, false
TestParameter, AutoAnalysis.Line2.Point2.Data.StartVar, 
TestParameter, AutoAnalysis.Line2.Point2.Data.StartCondition, 
TestParameter, AutoAnalysis.Line2.GradientExpr, 0
TestParameter, AutoAnalysis.Marker.Enabled, false
TestParameter, AutoAnalysis.Marker.Data.Var, 
TestParameter, AutoAnalysis.Marker.Data.Condition, 
TestParameter, AutoAnalysis.Marker.Data.Start, false
TestParameter, AutoAnalysis.Marker.Data.StartVar, 
TestParameter, AutoAnalysis.Marker.Data.StartCondition, 
MetaData, TestRecord.EntryPoint, true
MetaData, TestRecord.RecordTime, 09/05/2020 10:48:36
MetaData, TestRecord.TestTarget, 
MetaData, TestRecord.IterationIndex, 7
MetaData, TestRecord.Preservation, true
MetaData, TestRecord.Flag, 
MetaData, TestRecord.Remarks, 
MetaData, TestRecord.LinkKey, 3afbc42f-75ff-493d-aaa0-625a3d93f553
Dimension1, 101, 101, 101
Dimension2, 1, 1, 1
DataName, V1, I1, Ohmic
DataValue, -5, -2.995E-11, -49124701614.825462
DataValue, -4.9, -1.334E-11, 
DataValue, -4.8, -1.176E-11, 
DataValue, -4.7, -1.89E-12, 
DataValue, -4.6000000000000005, -3.09E-12, 
DataValue, -4.5, 2.74E-12, 
DataValue, -4.4, 1.08E-12, 
DataValue, -4.3, 7.61E-12, 
DataValue, -4.2, 6.65E-12, 
DataValue, -4.1, 1.138E-11, 
DataValue, -4, 9.16E-12, 
DataValue, -3.9, 1.317E-11, 
DataValue, -3.8000000000000003, 1.191E-11, 
DataValue, -3.7, 1.706E-11, 
DataValue, -3.6, 1.555E-11, 
DataValue, -3.5, 1.872E-11, 
DataValue, -3.4, 1.745E-11, 
DataValue, -3.3000000000000003, 2.025E-11, 
DataValue, -3.2, 1.97E-11, 
DataValue, -3.1, 2.33E-11, 
DataValue, -3, 2.078E-11, 
DataValue, -2.9, 2.373E-11, 
DataValue, -2.8000000000000003, 2.523E-11, 
DataValue, -2.7, 2.603E-11, 
DataValue, -2.6, 2.467E-11, 
DataValue, -2.5, 2.827E-11, 
DataValue, -2.4, 2.689E-11, 
DataValue, -2.3000000000000003, 3.099E-11, 
DataValue, -2.2, 2.853E-11, 
DataValue, -2.1, 3.26E-11, 
DataValue, -2, 3.267E-11, 
DataValue, -1.9000000000000001, 3.657E-11, 
DataValue, -1.8, 3.674E-11, 
DataValue, -1.7, 4.009E-11, 
DataValue, -1.6, 3.782E-11, 
DataValue, -1.5, 4.023E-11, 
DataValue, -1.4000000000000001, 3.646E-11, 
DataValue, -1.3, 4.307E-11, 
DataValue, -1.2, 4.25E-11, 
DataValue, -1.1, 4.603E-11, 
DataValue, -1, 4.34E-11, 
DataValue, -0.9, 4.722E-11, 
DataValue, -0.8, 4.453E-11, 
DataValue, -0.70000000000000007, 4.846E-11, 
DataValue, -0.6, 4.703E-11, 
DataValue, -0.5, 5.175E-11, 
DataValue, -0.4, 5.096E-11, 
DataValue, -0.3, 5.517E-11, 
DataValue, -0.2, 5.406E-11, 
DataValue, -0.1, 5.564E-11, 
DataValue, 0, 5.26E-11, 
DataValue, 0.1, 5.728E-11, 
DataValue, 0.2, 5.909E-11, 
DataValue, 0.3, 6.078E-11, 
DataValue, 0.4, 6.223E-11, 
DataValue, 0.5, 6.501E-11, 
DataValue, 0.6, 6.496E-11, 
DataValue, 0.70000000000000007, 6.605E-11, 
DataValue, 0.8, 6.816E-11, 
DataValue, 0.9, 7.216E-11, 
DataValue, 1, 6.954E-11, 
DataValue, 1.1, 7.315E-11, 
DataValue, 1.2, 7.356E-11, 
DataValue, 1.3, 7.544E-11, 
DataValue, 1.4000000000000001, 7.38E-11, 
DataValue, 1.5, 7.629E-11, 
DataValue, 1.6, 7.557E-11, 
DataValue, 1.7, 7.737E-11, 
DataValue, 1.8, 7.49E-11, 
DataValue, 1.9000000000000001, 7.791E-11, 
DataValue, 2, 8.598E-11, 
DataValue, 2.1, 8.792E-11, 
DataValue, 2.2, 8.439E-11, 
DataValue, 2.3000000000000003, 8.764E-11, 
DataValue, 2.4, 8.603E-11, 
DataValue, 2.5, 8.724E-11, 
DataValue, 2.6, 9.273E-11, 
DataValue, 2.7, 9.585E-11, 
DataValue, 2.8000000000000003, 9.426E-11, 
DataValue, 2.9, 9.973E-11, 
DataValue, 3, 1.0154E-10, 
DataValue, 3.1, 1.052E-10, 
DataValue, 3.2, 1.0309E-10, 
DataValue, 3.3000000000000003, 1.0653E-10, 
DataValue, 3.4, 1.072E-10, 
DataValue, 3.5, 1.1181E-10, 
DataValue, 3.6, 1.124E-10, 
DataValue, 3.7, 1.1345E-10, 
DataValue, 3.8000000000000003, 1.146E-10, 
DataValue, 3.9, 1.1347E-10, 
DataValue, 4, 1.1277E-10, 
DataValue, 4.1, 1.1919E-10, 
DataValue, 4.2, 1.2359E-10, 
DataValue, 4.3, 1.262E-10, 
DataValue, 4.4, 1.2537E-10, 
DataValue, 4.5, 1.2861E-10, 
DataValue, 4.6000000000000005, 1.2923E-10, 
DataValue, 4.7, 1.3675E-10, 
DataValue, 4.8, 1.3226E-10, 
DataValue, 4.9, 1.3745E-10, 
DataValue, 5, 1.3686E-10, 
SetupTitle, WW
PrimitiveTest, I/V Sweep
TestParameter, Context.MainFrame, B1500A
TestParameter, Channel.UnitType, SMU, SMU
TestParameter, Channel.Unit, SMU2:HP, SMU1:HP
TestParameter, Channel.IName, I1, I4
TestParameter, Channel.VName, V1, V4
TestParameter, Channel.Mode, V, COMMON
TestParameter, Channel.Func, VAR1, CONST
TestParameter, Channel.Index, 
TestParameter, Channel.Time, 
TestParameter, Measurement.Port.Unit, SMU2:HP, SMU1:HP
TestParameter, Measurement.Port.SeriesResistor, NONE, NONE
TestParameter, Measurement.Port.Filter, ON, ON
TestParameter, Measurement.Port.OutputVoltageComparison, 0, 0
TestParameter, Measurement.Primary.Locus, Single
TestParameter, Measurement.Primary.Scale, LINEAR
TestParameter, Measurement.Primary.Start, -5
TestParameter, Measurement.Primary.Stop, 5
TestParameter, Measurement.Primary.Step, 0.1
TestParameter, Measurement.Primary.Compliance, 0.1
TestParameter, Measurement.Primary.PowerCompliance, 0
TestParameter, Measurement.Aborting.Condition, CONTINUE AT ANY
TestParameter, Measurement.PostOutput.Value, START
TestParameter, Measurement.PostOutput.Retention, OFF
TestParameter, Measurement.Bias.Source, -5, 0
TestParameter, Measurement.Bias.Compliance, 0.1, 1
TestParameter, Measurement.Monitor.Unit, SMU2:HP, SMU1:HP
TestParameter, Measurement.Monitor.Adc, HR ADC, HR ADC
TestParameter, Measurement.Monitor.Measurement, Compliance Side, Compliance Side
TestParameter, Measurement.Monitor.RangingMode, AUTO, AUTO
TestParameter, Measurement.Monitor.RangeBoundary, , 
TestParameter, Measurement.Monitor.RangeRating, BY FULL RANGE, BY FULL RANGE
TestParameter, Measurement.Monitor.RangeRatingCoeff, 50, 50
TestParameter, Measurement.Timing.Hold, 0
TestParameter, Measurement.Timing.Delay, 0.001
TestParameter, Measurement.Adc.HighSpeed.Mode, AUTO
TestParameter, Measurement.Adc.HighSpeed.Coeff, 1
TestParameter, Measurement.Adc.HighResolution.AutoZero, OFF
TestParameter, Measurement.Adc.HighResolution.Mode, PLC
TestParameter, Measurement.Adc.HighResolution.Coeff, 1
TestParameter, Measurement.WaitTime.Source.Coeff, 1
TestParameter, Measurement.WaitTime.Source.Offset, 0
TestParameter, Measurement.WaitTime.Monitor.Coeff, 1
TestParameter, Measurement.WaitTime.Monitor.Offset, 0
TestParameter, Function.User.Name, Ohmic
TestParameter, Function.User.Unit, ohm
TestParameter, Function.User.Definition, avg(V1/I1)
TestParameter, Output.Graph.Enabled, true
TestParameter, Output.Graph.XAxis.Data, V1
TestParameter, Output.Graph.XAxis.Scale, Linear
TestParameter, Output.Graph.XAxis.Left, -5
TestParameter, Output.Graph.XAxis.Right, 5
TestParameter, Output.Graph.YAxis.Data, I1
TestParameter, Output.Graph.YAxis.Scale, Linear
TestParameter, Output.Graph.YAxis.Bottom, -0.001
TestParameter, Output.Graph.YAxis.Top, 0.001
TestParameter, Output.Graph.YAxis.Group, 
TestParameter, Output.Scalar.Data, Ohmic
TestParameter, AutoAnalysis.Interpolation, false
TestParameter, AutoAnalysis.Line1.Enabled, false
TestParameter, AutoAnalysis.Line1.Type, 1
TestParameter, AutoAnalysis.Line1.Fix, True
TestParameter, AutoAnalysis.Line1.YAxis, 0
TestParameter, AutoAnalysis.Line1.Point1.Type, 0
TestParameter, AutoAnalysis.Line1.Point1.XY.X, 
TestParameter, AutoAnalysis.Line1.Point1.XY.Y, 
TestParameter, AutoAnalysis.Line1.Point1.Data.Var, 
TestParameter, AutoAnalysis.Line1.Point1.Data.Condition, 
TestParameter, AutoAnalysis.Line1.Point1.Data.Start, false
TestParameter, AutoAnalysis.Line1.Point1.Data.StartVar, 
TestParameter, AutoAnalysis.Line1.Point1.Data.StartCondition, 
TestParameter, AutoAnalysis.Line1.Point2.Type, 0
TestParameter, AutoAnalysis.Line1.Point2.XY.X, 
TestParameter, AutoAnalysis.Line1.Point2.XY.Y, 
TestParameter, AutoAnalysis.Line1.Point2.Data.Var, 
TestParameter, AutoAnalysis.Line1.Point2.Data.Condition, 
TestParameter, AutoAnalysis.Line1.Point2.Data.Start, false
TestParameter, AutoAnalysis.Line1.Point2.Data.StartVar, 
TestParameter, AutoAnalysis.Line1.Point2.Data.StartCondition, 
TestParameter, AutoAnalysis.Line1.GradientExpr, 0
TestParameter, AutoAnalysis.Line2.Enabled, false
TestParameter, AutoAnalysis.Line2.Type, 1
TestParameter, AutoAnalysis.Line2.Fix, True
TestParameter, AutoAnalysis.Line2.YAxis, 0
TestParameter, AutoAnalysis.Line2.Point1.Type, 0
TestParameter, AutoAnalysis.Line2.Point1.XY.X, 
TestParameter, AutoAnalysis.Line2.Point1.XY.Y, 
TestParameter, AutoAnalysis.Line2.Point1.Data.Var, 
TestParameter, AutoAnalysis.Line2.Point1.Data.Condition, 
TestParameter, AutoAnalysis.Line2.Point1.Data.Start, false
TestParameter, AutoAnalysis.Line2.Point1.Data.StartVar, 
TestParameter, AutoAnalysis.Line2.Point1.Data.StartCondition, 
TestParameter, AutoAnalysis.Line2.Point2.Type, 0
TestParameter, AutoAnalysis.Line2.Point2.XY.X, 
TestParameter, AutoAnalysis.Line2.Point2.XY.Y, 
TestParameter, AutoAnalysis.Line2.Point2.Data.Var, 
TestParameter, AutoAnalysis.Line2.Point2.Data.Condition, 
TestParameter, AutoAnalysis.Line2.Point2.Data.Start, false
TestParameter, AutoAnalysis.Line2.Point2.Data.StartVar, 
TestParameter, AutoAnalysis.Line2.Point2.Data.StartCondition, 
TestParameter, AutoAnalysis.Line2.GradientExpr, 0
TestParameter, AutoAnalysis.Marker.Enabled, false
TestParameter, AutoAnalysis.Marker.Data.Var, 
TestParameter, AutoAnalysis.Marker.Data.Condition, 
TestParameter, AutoAnalysis.Marker.Data.Start, false
TestParameter, AutoAnalysis.Marker.Data.StartVar, 
TestParameter, AutoAnalysis.Marker.Data.StartCondition, 
MetaData, TestRecord.EntryPoint, true
MetaData, TestRecord.RecordTime, 09/05/2020 10:48:14
MetaData, TestRecord.TestTarget, 
MetaData, TestRecord.IterationIndex, 6
MetaData, TestRecord.Preservation, true
MetaData, TestRecord.Flag, 
MetaData, TestRecord.Remarks, 
MetaData, TestRecord.LinkKey, 3afbc42f-75ff-493d-aaa0-625a3d93f553
Dimension1, 101, 101, 101
Dimension2, 1, 1, 1
DataName, V1, I1, Ohmic
DataValue, -5, -2.786E-11, 3662536545.0257406
DataValue, -4.9, -1.363E-11, 
DataValue, -4.8, -9.78E-12, 
DataValue, -4.7, -2.18E-12, 
DataValue, -4.6000000000000005, -1.37E-12, 
DataValue, -4.5, 4.05E-12, 
DataValue, -4.4, 4.16E-12, 
DataValue, -4.3, 6.82E-12, 
DataValue, -4.2, 7.42E-12, 
DataValue, -4.1, 1.066E-11, 
DataValue, -4, 1.017E-11, 
DataValue, -3.9, 1.436E-11, 
DataValue, -3.8000000000000003, 1.38E-11, 
DataValue, -3.7, 1.747E-11, 
DataValue, -3.6, 1.615E-11, 
DataValue, -3.5, 1.937E-11, 
DataValue, -3.4, 1.794E-11, 
DataValue, -3.3000000000000003, 2.245E-11, 
DataValue, -3.2, 2.008E-11, 
DataValue, -3.1, 2.372E-11, 
DataValue, -3, 2.299E-11, 
DataValue, -2.9, 2.557E-11, 
DataValue, -2.8000000000000003, 2.552E-11, 
DataValue, -2.7, 2.791E-11, 
DataValue, -2.6, 2.672E-11, 
DataValue, -2.5, 2.962E-11, 
DataValue, -2.4, 2.917E-11, 
DataValue, -2.3000000000000003, 3.334E-11, 
DataValue, -2.2, 2.997E-11, 
DataValue, -2.1, 3.348E-11, 
DataValue, -2, 3.455E-11, 
DataValue, -1.9000000000000001, 3.604E-11, 
DataValue, -1.8, 3.575E-11, 
DataValue, -1.7, 3.736E-11, 
DataValue, -1.6, 3.663E-11, 
DataValue, -1.5, 4.102E-11, 
DataValue, -1.4000000000000001, 3.949E-11, 
DataValue, -1.3, 4.367E-11, 
DataValue, -1.2, 4.143E-11, 
DataValue, -1.1, 4.669E-11, 
DataValue, -1, 4.396E-11, 
DataValue, -0.9, 4.662E-11, 
DataValue, -0.8, 4.552E-11, 
DataValue, -0.70000000000000007, 5.036E-11, 
DataValue, -0.6, 4.94E-11, 
DataValue, -0.5, 5.127E-11, 
DataValue, -0.4, 5.212E-11, 
DataValue, -0.3, 5.739E-11, 
DataValue, -0.2, 5.543E-11, 
DataValue, -0.1, 5.793E-11, 
DataValue, 0, 5.954E-11, 
DataValue, 0.1, 6.07E-11, 
DataValue, 0.2, 5.936E-11, 
DataValue, 0.3, 6.378E-11, 
DataValue, 0.4, 6.116E-11, 
DataValue, 0.5, 6.749E-11, 
DataValue, 0.6, 6.638E-11, 
DataValue, 0.70000000000000007, 7.166E-11, 
DataValue, 0.8, 6.865E-11, 
DataValue, 0.9, 7.376E-11, 
DataValue, 1, 7.235E-11, 
DataValue, 1.1, 7.8E-11, 
DataValue, 1.2, 7.659E-11, 
DataValue, 1.3, 7.851E-11, 
DataValue, 1.4000000000000001, 7.781E-11, 
DataValue, 1.5, 8.218E-11, 
DataValue, 1.6, 8.099E-11, 
DataValue, 1.7, 8.634E-11, 
DataValue, 1.8, 8.478E-11, 
DataValue, 1.9000000000000001, 8.727E-11, 
DataValue, 2, 8.812E-11, 
DataValue, 2.1, 8.889E-11, 
DataValue, 2.2, 8.796E-11, 
DataValue, 2.3000000000000003, 9.155E-11, 
DataValue, 2.4, 8.609E-11, 
DataValue, 2.5, 9.225E-11, 
DataValue, 2.6, 9.26E-11, 
DataValue, 2.7, 9.623E-11, 
DataValue, 2.8000000000000003, 9.643E-11, 
DataValue, 2.9, 1.0067E-10, 
DataValue, 3, 9.909E-11, 
DataValue, 3.1, 1.0765E-10, 
DataValue, 3.2, 1.0669E-10, 
DataValue, 3.3000000000000003, 1.1185E-10, 
DataValue, 3.4, 1.0675E-10, 
DataValue, 3.5, 1.1438E-10, 
DataValue, 3.6, 1.1414E-10, 
DataValue, 3.7, 1.1915E-10, 
DataValue, 3.8000000000000003, 1.1579E-10, 
DataValue, 3.9, 1.1967E-10, 
DataValue, 4, 1.2089E-10, 
DataValue, 4.1, 1.262E-10, 
DataValue, 4.2, 1.2102E-10, 
DataValue, 4.3, 1.2762E-10, 
DataValue, 4.4, 1.2834E-10, 
DataValue, 4.5, 1.3157E-10, 
DataValue, 4.6000000000000005, 1.3194E-10, 
DataValue, 4.7, 1.3867E-10, 
DataValue, 4.8, 1.3732E-10, 
DataValue, 4.9, 1.4131E-10, 
DataValue, 5, 1.3958E-10, 
SetupTitle, WW
PrimitiveTest, I/V Sweep
TestParameter, Context.MainFrame, B1500A
TestParameter, Channel.UnitType, SMU, SMU
TestParameter, Channel.Unit, SMU2:HP, SMU1:HP
TestParameter, Channel.IName, I1, I4
TestParameter, Channel.VName, V1, V4
TestParameter, Channel.Mode, V, COMMON
TestParameter, Channel.Func, VAR1, CONST
TestParameter, Channel.Index, 
TestParameter, Channel.Time, 
TestParameter, Measurement.Port.Unit, SMU2:HP, SMU1:HP
TestParameter, Measurement.Port.SeriesResistor, NONE, NONE
TestParameter, Measurement.Port.Filter, ON, ON
TestParameter, Measurement.Port.OutputVoltageComparison, 0, 0
TestParameter, Measurement.Primary.Locus, Single
TestParameter, Measurement.Primary.Scale, LINEAR
TestParameter, Measurement.Primary.Start, -5
TestParameter, Measurement.Primary.Stop, 5
TestParameter, Measurement.Primary.Step, 0.1
TestParameter, Measurement.Primary.Compliance, 0.1
TestParameter, Measurement.Primary.PowerCompliance, 0
TestParameter, Measurement.Aborting.Condition, CONTINUE AT ANY
TestParameter, Measurement.PostOutput.Value, START
TestParameter, Measurement.PostOutput.Retention, OFF
TestParameter, Measurement.Bias.Source, -5, 0
TestParameter, Measurement.Bias.Compliance, 0.1, 1
TestParameter, Measurement.Monitor.Unit, SMU2:HP, SMU1:HP
TestParameter, Measurement.Monitor.Adc, HR ADC, HR ADC
TestParameter, Measurement.Monitor.Measurement, Compliance Side, Compliance Side
TestParameter, Measurement.Monitor.RangingMode, AUTO, AUTO
TestParameter, Measurement.Monitor.RangeBoundary, , 
TestParameter, Measurement.Monitor.RangeRating, BY FULL RANGE, BY FULL RANGE
TestParameter, Measurement.Monitor.RangeRatingCoeff, 50, 50
TestParameter, Measurement.Timing.Hold, 0
TestParameter, Measurement.Timing.Delay, 0.001
TestParameter, Measurement.Adc.HighSpeed.Mode, AUTO
TestParameter, Measurement.Adc.HighSpeed.Coeff, 1
TestParameter, Measurement.Adc.HighResolution.AutoZero, OFF
TestParameter, Measurement.Adc.HighResolution.Mode, PLC
TestParameter, Measurement.Adc.HighResolution.Coeff, 1
TestParameter, Measurement.WaitTime.Source.Coeff, 1
TestParameter, Measurement.WaitTime.Source.Offset, 0
