
SetupTitle, WW
PrimitiveTest, I/V Sweep
TestParameter, Context.MainFrame, B1500A
TestParameter, Channel.UnitType, SMU, SMU
TestParameter, Channel.Unit, SMU2:HP, SMU1:HP
TestParameter, Channel.IName, I1, I4
TestParameter, Channel.VName, V1, V4
TestParameter, Channel.Mode, V, COMMON
TestParameter, Channel.Func, VAR1, CONST
TestParameter, Channel.Index, 
TestParameter, Channel.Time, 
TestParameter, Measurement.Port.Unit, SMU2:HP, SMU1:HP
TestParameter, Measurement.Port.SeriesResistor, NONE, NONE
TestParameter, Measurement.Port.Filter, ON, ON
TestParameter, Measurement.Port.OutputVoltageComparison, 0, 0
TestParameter, Measurement.Primary.Locus, Single
TestParameter, Measurement.Primary.Scale, LINEAR
TestParameter, Measurement.Primary.Start, -5
TestParameter, Measurement.Primary.Stop, 5
TestParameter, Measurement.Primary.Step, 0.1
TestParameter, Measurement.Primary.Compliance, 0.1
TestParameter, Measurement.Primary.PowerCompliance, 0
TestParameter, Measurement.Aborting.Condition, CONTINUE AT ANY
TestParameter, Measurement.PostOutput.Value, START
TestParameter, Measurement.PostOutput.Retention, OFF
TestParameter, Measurement.Bias.Source, -5, 0
TestParameter, Measurement.Bias.Compliance, 0.1, 1
TestParameter, Measurement.Monitor.Unit, SMU2:HP, SMU1:HP
TestParameter, Measurement.Monitor.Adc, HR ADC, HR ADC
TestParameter, Measurement.Monitor.Measurement, Compliance Side, Compliance Side
TestParameter, Measurement.Monitor.RangingMode, AUTO, AUTO
TestParameter, Measurement.Monitor.RangeBoundary, , 
TestParameter, Measurement.Monitor.RangeRating, BY FULL RANGE, BY FULL RANGE
TestParameter, Measurement.Monitor.RangeRatingCoeff, 50, 50
TestParameter, Measurement.Timing.Hold, 0
TestParameter, Measurement.Timing.Delay, 0.001
TestParameter, Measurement.Adc.HighSpeed.Mode, AUTO
TestParameter, Measurement.Adc.HighSpeed.Coeff, 1
TestParameter, Measurement.Adc.HighResolution.AutoZero, OFF
TestParameter, Measurement.Adc.HighResolution.Mode, PLC
TestParameter, Measurement.Adc.HighResolution.Coeff, 1
TestParameter, Measurement.WaitTime.Source.Coeff, 1
TestParameter, Measurement.WaitTime.Source.Offset, 0
TestParameter, Measurement.WaitTime.Monitor.Coeff, 1
TestParameter, Measurement.WaitTime.Monitor.Offset, 0
TestParameter, Function.User.Name, Ohmic
TestParameter, Function.User.Unit, ohm
TestParameter, Function.User.Definition, avg(V1/I1)
TestParameter, Output.Graph.Enabled, true
TestParameter, Output.Graph.XAxis.Data, V1
TestParameter, Output.Graph.XAxis.Scale, Linear
TestParameter, Output.Graph.XAxis.Left, -5
TestParameter, Output.Graph.XAxis.Right, 5
TestParameter, Output.Graph.YAxis.Data, I1
TestParameter, Output.Graph.YAxis.Scale, Linear
TestParameter, Output.Graph.YAxis.Bottom, -0.001
TestParameter, Output.Graph.YAxis.Top, 0.001
TestParameter, Output.Graph.YAxis.Group, 
TestParameter, Output.Scalar.Data, Ohmic
TestParameter, AutoAnalysis.Interpolation, false
TestParameter, AutoAnalysis.Line1.Enabled, false
TestParameter, AutoAnalysis.Line1.Type, 1
TestParameter, AutoAnalysis.Line1.Fix, True
TestParameter, AutoAnalysis.Line1.YAxis, 0
TestParameter, AutoAnalysis.Line1.Point1.Type, 0
TestParameter, AutoAnalysis.Line1.Point1.XY.X, 
TestParameter, AutoAnalysis.Line1.Point1.XY.Y, 
TestParameter, AutoAnalysis.Line1.Point1.Data.Var, 
TestParameter, AutoAnalysis.Line1.Point1.Data.Condition, 
TestParameter, AutoAnalysis.Line1.Point1.Data.Start, false
TestParameter, AutoAnalysis.Line1.Point1.Data.StartVar, 
TestParameter, AutoAnalysis.Line1.Point1.Data.StartCondition, 
TestParameter, AutoAnalysis.Line1.Point2.Type, 0
TestParameter, AutoAnalysis.Line1.Point2.XY.X, 
TestParameter, AutoAnalysis.Line1.Point2.XY.Y, 
TestParameter, AutoAnalysis.Line1.Point2.Data.Var, 
TestParameter, AutoAnalysis.Line1.Point2.Data.Condition, 
TestParameter, AutoAnalysis.Line1.Point2.Data.Start, false
TestParameter, AutoAnalysis.Line1.Point2.Data.StartVar, 
TestParameter, AutoAnalysis.Line1.Point2.Data.StartCondition, 
TestParameter, AutoAnalysis.Line1.GradientExpr, 0
TestParameter, AutoAnalysis.Line2.Enabled, false
TestParameter, AutoAnalysis.Line2.Type, 1
TestParameter, AutoAnalysis.Line2.Fix, True
TestParameter, AutoAnalysis.Line2.YAxis, 0
TestParameter, AutoAnalysis.Line2.Point1.Type, 0
TestParameter, AutoAnalysis.Line2.Point1.XY.X, 
TestParameter, AutoAnalysis.Line2.Point1.XY.Y, 
TestParameter, AutoAnalysis.Line2.Point1.Data.Var, 
TestParameter, AutoAnalysis.Line2.Point1.Data.Condition, 
TestParameter, AutoAnalysis.Line2.Point1.Data.Start, false
TestParameter, AutoAnalysis.Line2.Point1.Data.StartVar, 
TestParameter, AutoAnalysis.Line2.Point1.Data.StartCondition, 
TestParameter, AutoAnalysis.Line2.Point2.Type, 0
TestParameter, AutoAnalysis.Line2.Point2.XY.X, 
TestParameter, AutoAnalysis.Line2.Point2.XY.Y, 
TestParameter, AutoAnalysis.Line2.Point2.Data.Var, 
TestParameter, AutoAnalysis.Line2.Point2.Data.Condition, 
TestParameter, AutoAnalysis.Line2.Point2.Data.Start, false
TestParameter, AutoAnalysis.Line2.Point2.Data.StartVar, 
TestParameter, AutoAnalysis.Line2.Point2.Data.StartCondition, 
TestParameter, AutoAnalysis.Line2.GradientExpr, 0
TestParameter, AutoAnalysis.Marker.Enabled, false
TestParameter, AutoAnalysis.Marker.Data.Var, 
TestParameter, AutoAnalysis.Marker.Data.Condition, 
TestParameter, AutoAnalysis.Marker.Data.Start, false
TestParameter, AutoAnalysis.Marker.Data.StartVar, 
TestParameter, AutoAnalysis.Marker.Data.StartCondition, 
MetaData, TestRecord.EntryPoint, true
MetaData, TestRecord.RecordTime, 07/05/2020 17:54:58
MetaData, TestRecord.TestTarget, 
MetaData, TestRecord.IterationIndex, 53
MetaData, TestRecord.Preservation, true
MetaData, TestRecord.Flag, 
MetaData, TestRecord.Remarks, 
MetaData, TestRecord.LinkKey, 8abefbfc-d43d-4cb6-a4d5-f64a33c581f4
Dimension1, 101, 101, 101
Dimension2, 1, 1, 1
DataName, V1, I1, Ohmic
DataValue, -5, -2.5102E-10, 4341664575.2073746
DataValue, -4.9, -2.1952E-10, 
DataValue, -4.8, -2.091E-10, 
DataValue, -4.7, -1.9791E-10, 
DataValue, -4.6000000000000005, -1.8646E-10, 
DataValue, -4.5, -1.6046E-10, 
DataValue, -4.4, -1.4723E-10, 
DataValue, -4.3, -1.4202E-10, 
DataValue, -4.2, -1.2702E-10, 
DataValue, -4.1, -1.1897E-10, 
DataValue, -4, -1.1535E-10, 
DataValue, -3.9, -1.11E-10, 
DataValue, -3.8000000000000003, -9.832E-11, 
DataValue, -3.7, -9.607E-11, 
DataValue, -3.6, -8.092E-11, 
DataValue, -3.5, -7.698E-11, 
DataValue, -3.4, -8.122E-11, 
DataValue, -3.3000000000000003, -6.782E-11, 
DataValue, -3.2, -6.387E-11, 
DataValue, -3.1, -6.054E-11, 
DataValue, -3, -5.694E-11, 
DataValue, -2.9, -4.938E-11, 
DataValue, -2.8000000000000003, -4.848E-11, 
DataValue, -2.7, -4.192E-11, 
DataValue, -2.6, -3.325E-11, 
DataValue, -2.5, -3.616E-11, 
DataValue, -2.4, -2.469E-11, 
DataValue, -2.3000000000000003, -2.455E-11, 
DataValue, -2.2, -2.306E-11, 
DataValue, -2.1, -2.462E-11, 
DataValue, -2, -1.603E-11, 
DataValue, -1.9000000000000001, -1.8959999999999998E-11, 
DataValue, -1.8, -1.295E-11, 
DataValue, -1.7, -1.186E-11, 
DataValue, -1.6, -6.84E-12, 
DataValue, -1.5, -4.14E-12, 
DataValue, -1.4000000000000001, 1.92E-12, 
DataValue, -1.3, 1.81E-12, 
DataValue, -1.2, 3E-12, 
DataValue, -1.1, 6.32E-12, 
DataValue, -1, 9.96E-12, 
DataValue, -0.9, 8.64E-12, 
DataValue, -0.8, 1.619E-11, 
DataValue, -0.70000000000000007, 1.526E-11, 
DataValue, -0.6, 1.534E-11, 
DataValue, -0.5, 1.929E-11, 
DataValue, -0.4, 1.954E-11, 
DataValue, -0.3, 2.311E-11, 
DataValue, -0.2, 2.327E-11, 
DataValue, -0.1, 2.691E-11, 
DataValue, 0, 2.765E-11, 
DataValue, 0.1, 3.05E-11, 
DataValue, 0.2, 3.19E-11, 
DataValue, 0.3, 3.807E-11, 
DataValue, 0.4, 4.209E-11, 
DataValue, 0.5, 4.978E-11, 
DataValue, 0.6, 5.648E-11, 
DataValue, 0.70000000000000007, 6.701E-11, 
DataValue, 0.8, 7.558E-11, 
DataValue, 0.9, 8.94E-11, 
DataValue, 1, 1.0271E-10, 
DataValue, 1.1, 1.1666E-10, 
DataValue, 1.2, 1.2494E-10, 
DataValue, 1.3, 1.4431E-10, 
DataValue, 1.4000000000000001, 1.6428E-10, 
DataValue, 1.5, 1.7818E-10, 
DataValue, 1.6, 1.9633E-10, 
DataValue, 1.7, 2.1833E-10, 
DataValue, 1.8, 2.3819E-10, 
DataValue, 1.9000000000000001, 2.5529E-10, 
DataValue, 2, 2.8225E-10, 
DataValue, 2.1, 3.0315E-10, 
DataValue, 2.2, 3.3503E-10, 
DataValue, 2.3000000000000003, 3.5908E-10, 
DataValue, 2.4, 3.9097E-10, 
DataValue, 2.5, 4.1425E-10, 
DataValue, 2.6, 4.4437E-10, 
DataValue, 2.7, 4.8387E-10, 
DataValue, 2.8000000000000003, 5.1167E-10, 
DataValue, 2.9, 5.4676E-10, 
DataValue, 3, 5.7471E-10, 
DataValue, 3.1, 6.1399999999999995E-10, 
DataValue, 3.2, 6.5172E-10, 
DataValue, 3.3000000000000003, 6.7818E-10, 
DataValue, 3.4, 7.1593E-10, 
DataValue, 3.5, 7.4736E-10, 
DataValue, 3.6, 7.8783E-10, 
DataValue, 3.7, 8.3252E-10, 
DataValue, 3.8000000000000003, 8.6849E-10, 
DataValue, 3.9, 9.1829E-10, 
DataValue, 4, 9.4445E-10, 
DataValue, 4.1, 9.922E-10, 
DataValue, 4.2, 1.01376E-09, 
DataValue, 4.3, 1.05521E-09, 
DataValue, 4.4, 1.09113E-09, 
DataValue, 4.5, 1.13973E-09, 
DataValue, 4.6000000000000005, 1.17226E-09, 
DataValue, 4.7, 1.21653E-09, 
DataValue, 4.8, 1.26269E-09, 
DataValue, 4.9, 1.29658E-09, 
DataValue, 5, 1.35769E-09, 