
SetupTitle, WW
PrimitiveTest, I/V Sweep
TestParameter, Context.MainFrame, B1500A
TestParameter, Channel.UnitType, SMU, SMU
TestParameter, Channel.Unit, SMU2:HP, SMU1:HP
TestParameter, Channel.IName, I1, I4
TestParameter, Channel.VName, V1, V4
TestParameter, Channel.Mode, V, COMMON
TestParameter, Channel.Func, VAR1, CONST
TestParameter, Channel.Index, 
TestParameter, Channel.Time, 
TestParameter, Measurement.Port.Unit, SMU2:HP, SMU1:HP
TestParameter, Measurement.Port.SeriesResistor, NONE, NONE
TestParameter, Measurement.Port.Filter, ON, ON
TestParameter, Measurement.Port.OutputVoltageComparison, 0, 0
TestParameter, Measurement.Primary.Locus, Single
TestParameter, Measurement.Primary.Scale, LINEAR
TestParameter, Measurement.Primary.Start, -5
TestParameter, Measurement.Primary.Stop, 5
TestParameter, Measurement.Primary.Step, 0.1
TestParameter, Measurement.Primary.Compliance, 0.1
TestParameter, Measurement.Primary.PowerCompliance, 0
TestParameter, Measurement.Aborting.Condition, CONTINUE AT ANY
TestParameter, Measurement.PostOutput.Value, START
TestParameter, Measurement.PostOutput.Retention, OFF
TestParameter, Measurement.Bias.Source, -5, 0
TestParameter, Measurement.Bias.Compliance, 0.1, 1
TestParameter, Measurement.Monitor.Unit, SMU2:HP, SMU1:HP
TestParameter, Measurement.Monitor.Adc, HR ADC, HR ADC
TestParameter, Measurement.Monitor.Measurement, Compliance Side, Compliance Side
TestParameter, Measurement.Monitor.RangingMode, AUTO, AUTO
TestParameter, Measurement.Monitor.RangeBoundary, , 
TestParameter, Measurement.Monitor.RangeRating, BY FULL RANGE, BY FULL RANGE
TestParameter, Measurement.Monitor.RangeRatingCoeff, 50, 50
TestParameter, Measurement.Timing.Hold, 0
TestParameter, Measurement.Timing.Delay, 0.001
TestParameter, Measurement.Adc.HighSpeed.Mode, AUTO
TestParameter, Measurement.Adc.HighSpeed.Coeff, 1
TestParameter, Measurement.Adc.HighResolution.AutoZero, OFF
TestParameter, Measurement.Adc.HighResolution.Mode, PLC
TestParameter, Measurement.Adc.HighResolution.Coeff, 1
TestParameter, Measurement.WaitTime.Source.Coeff, 1
TestParameter, Measurement.WaitTime.Source.Offset, 0
TestParameter, Measurement.WaitTime.Monitor.Coeff, 1
TestParameter, Measurement.WaitTime.Monitor.Offset, 0
TestParameter, Function.User.Name, Ohmic
TestParameter, Function.User.Unit, ohm
TestParameter, Function.User.Definition, avg(V1/I1)
TestParameter, Output.Graph.Enabled, true
TestParameter, Output.Graph.XAxis.Data, V1
TestParameter, Output.Graph.XAxis.Scale, Linear
TestParameter, Output.Graph.XAxis.Left, -5
TestParameter, Output.Graph.XAxis.Right, 5
TestParameter, Output.Graph.YAxis.Data, I1
TestParameter, Output.Graph.YAxis.Scale, Linear
TestParameter, Output.Graph.YAxis.Bottom, -0.001
TestParameter, Output.Graph.YAxis.Top, 0.001
TestParameter, Output.Graph.YAxis.Group, 
TestParameter, Output.Scalar.Data, Ohmic
TestParameter, AutoAnalysis.Interpolation, false
TestParameter, AutoAnalysis.Line1.Enabled, false
TestParameter, AutoAnalysis.Line1.Type, 1
TestParameter, AutoAnalysis.Line1.Fix, True
TestParameter, AutoAnalysis.Line1.YAxis, 0
TestParameter, AutoAnalysis.Line1.Point1.Type, 0
TestParameter, AutoAnalysis.Line1.Point1.XY.X, 
TestParameter, AutoAnalysis.Line1.Point1.XY.Y, 
TestParameter, AutoAnalysis.Line1.Point1.Data.Var, 
TestParameter, AutoAnalysis.Line1.Point1.Data.Condition, 
TestParameter, AutoAnalysis.Line1.Point1.Data.Start, false
TestParameter, AutoAnalysis.Line1.Point1.Data.StartVar, 
TestParameter, AutoAnalysis.Line1.Point1.Data.StartCondition, 
TestParameter, AutoAnalysis.Line1.Point2.Type, 0
TestParameter, AutoAnalysis.Line1.Point2.XY.X, 
TestParameter, AutoAnalysis.Line1.Point2.XY.Y, 
TestParameter, AutoAnalysis.Line1.Point2.Data.Var, 
TestParameter, AutoAnalysis.Line1.Point2.Data.Condition, 
TestParameter, AutoAnalysis.Line1.Point2.Data.Start, false
TestParameter, AutoAnalysis.Line1.Point2.Data.StartVar, 
TestParameter, AutoAnalysis.Line1.Point2.Data.StartCondition, 
TestParameter, AutoAnalysis.Line1.GradientExpr, 0
TestParameter, AutoAnalysis.Line2.Enabled, false
TestParameter, AutoAnalysis.Line2.Type, 1
TestParameter, AutoAnalysis.Line2.Fix, True
TestParameter, AutoAnalysis.Line2.YAxis, 0
TestParameter, AutoAnalysis.Line2.Point1.Type, 0
TestParameter, AutoAnalysis.Line2.Point1.XY.X, 
TestParameter, AutoAnalysis.Line2.Point1.XY.Y, 
TestParameter, AutoAnalysis.Line2.Point1.Data.Var, 
TestParameter, AutoAnalysis.Line2.Point1.Data.Condition, 
TestParameter, AutoAnalysis.Line2.Point1.Data.Start, false
TestParameter, AutoAnalysis.Line2.Point1.Data.StartVar, 
TestParameter, AutoAnalysis.Line2.Point1.Data.StartCondition, 
TestParameter, AutoAnalysis.Line2.Point2.Type, 0
TestParameter, AutoAnalysis.Line2.Point2.XY.X, 
TestParameter, AutoAnalysis.Line2.Point2.XY.Y, 
TestParameter, AutoAnalysis.Line2.Point2.Data.Var, 
TestParameter, AutoAnalysis.Line2.Point2.Data.Condition, 
TestParameter, AutoAnalysis.Line2.Point2.Data.Start, false
TestParameter, AutoAnalysis.Line2.Point2.Data.StartVar, 
TestParameter, AutoAnalysis.Line2.Point2.Data.StartCondition, 
TestParameter, AutoAnalysis.Line2.GradientExpr, 0
TestParameter, AutoAnalysis.Marker.Enabled, false
TestParameter, AutoAnalysis.Marker.Data.Var, 
TestParameter, AutoAnalysis.Marker.Data.Condition, 
TestParameter, AutoAnalysis.Marker.Data.Start, false
TestParameter, AutoAnalysis.Marker.Data.StartVar, 
TestParameter, AutoAnalysis.Marker.Data.StartCondition, 
MetaData, TestRecord.EntryPoint, true
MetaData, TestRecord.RecordTime, 07/05/2020 17:54:21
MetaData, TestRecord.TestTarget, 
MetaData, TestRecord.IterationIndex, 52
MetaData, TestRecord.Preservation, true
MetaData, TestRecord.Flag, 
MetaData, TestRecord.Remarks, 
MetaData, TestRecord.LinkKey, 471c2660-f3cc-4535-bccf-bda2912eba0c
Dimension1, 101, 101, 101
Dimension2, 1, 1, 1
DataName, V1, I1, Ohmic
DataValue, -5, -2.6962E-10, 19368285109.40453
DataValue, -4.9, -2.4851E-10, 
DataValue, -4.8, -2.2946E-10, 
DataValue, -4.7, -2.0765E-10, 
DataValue, -4.6000000000000005, -1.8966E-10, 
DataValue, -4.5, -1.8321E-10, 
DataValue, -4.4, -1.7087E-10, 
DataValue, -4.3, -1.6425E-10, 
DataValue, -4.2, -1.4783E-10, 
DataValue, -4.1, -1.2823E-10, 
DataValue, -4, -1.2497E-10, 
DataValue, -3.9, -1.2607E-10, 
DataValue, -3.8000000000000003, -1.1208E-10, 
DataValue, -3.7, -9.175E-11, 
DataValue, -3.6, -9.948E-11, 
DataValue, -3.5, -8.971E-11, 
DataValue, -3.4, -8.183E-11, 
DataValue, -3.3000000000000003, -6.871E-11, 
DataValue, -3.2, -7.381E-11, 
DataValue, -3.1, -6.648E-11, 
DataValue, -3, -7.167E-11, 
DataValue, -2.9, -4.914E-11, 
DataValue, -2.8000000000000003, -4.995E-11, 
DataValue, -2.7, -4.641E-11, 
DataValue, -2.6, -4.524E-11, 
DataValue, -2.5, -3.593E-11, 
DataValue, -2.4, -3.442E-11, 
DataValue, -2.3000000000000003, -3.053E-11, 
DataValue, -2.2, -3.252E-11, 
DataValue, -2.1, -2.133E-11, 
DataValue, -2, -2.347E-11, 
DataValue, -1.9000000000000001, -1.448E-11, 
DataValue, -1.8, -2.005E-11, 
DataValue, -1.7, -6.56E-12, 
DataValue, -1.6, -4.73E-12, 
DataValue, -1.5, -3.27E-12, 
DataValue, -1.4000000000000001, -4.55E-12, 
DataValue, -1.3, 2.66E-12, 
DataValue, -1.2, 3.6E-12, 
DataValue, -1.1, 9.08E-12, 
DataValue, -1, 7.12E-12, 
DataValue, -0.9, 1.499E-11, 
DataValue, -0.8, 1.657E-11, 
DataValue, -0.70000000000000007, 1.809E-11, 
DataValue, -0.6, 2.119E-11, 
DataValue, -0.5, 2.355E-11, 
DataValue, -0.4, 2.338E-11, 
DataValue, -0.3, 2.983E-11, 
DataValue, -0.2, 2.288E-11, 
DataValue, -0.1, 3.305E-11, 
DataValue, 0, 2.568E-11, 
DataValue, 0.1, 3.502E-11, 
DataValue, 0.2, 3.724E-11, 
DataValue, 0.3, 4.046E-11, 
DataValue, 0.4, 4.73E-11, 
DataValue, 0.5, 5.192E-11, 
DataValue, 0.6, 5.815E-11, 
DataValue, 0.70000000000000007, 6.682E-11, 
DataValue, 0.8, 7.578E-11, 
DataValue, 0.9, 9.279E-11, 
DataValue, 1, 1.0034E-10, 
DataValue, 1.1, 1.1329E-10, 
DataValue, 1.2, 1.2891E-10, 
DataValue, 1.3, 1.413E-10, 
DataValue, 1.4000000000000001, 1.5643E-10, 
DataValue, 1.5, 1.7715E-10, 
DataValue, 1.6, 1.9152E-10, 
DataValue, 1.7, 2.1074E-10, 
DataValue, 1.8, 2.3451E-10, 
DataValue, 1.9000000000000001, 2.569E-10, 
DataValue, 2, 2.7769E-10, 
DataValue, 2.1, 3.0071E-10, 
DataValue, 2.2, 3.2418E-10, 
DataValue, 2.3000000000000003, 3.4887E-10, 
DataValue, 2.4, 3.7662E-10, 
DataValue, 2.5, 4.0924E-10, 
DataValue, 2.6, 4.2751E-10, 
DataValue, 2.7, 4.6829E-10, 
DataValue, 2.8000000000000003, 5.0341E-10, 
DataValue, 2.9, 5.3921E-10, 
DataValue, 3, 5.7608E-10, 
DataValue, 3.1, 5.9514E-10, 
DataValue, 3.2, 6.364E-10, 
DataValue, 3.3000000000000003, 6.7913E-10, 
DataValue, 3.4, 7.0683E-10, 
DataValue, 3.5, 7.3067E-10, 
DataValue, 3.6, 7.6138E-10, 
DataValue, 3.7, 8.1168E-10, 
DataValue, 3.8000000000000003, 8.8775E-10, 
DataValue, 3.9, 8.7062E-10, 
DataValue, 4, 9.2384E-10, 
DataValue, 4.1, 9.5776E-10, 
DataValue, 4.2, 9.8697E-10, 
DataValue, 4.3, 1.04647E-09, 
DataValue, 4.4, 1.07194E-09, 
DataValue, 4.5, 1.11218E-09, 
DataValue, 4.6000000000000005, 1.16143E-09, 
DataValue, 4.7, 1.19866E-09, 
DataValue, 4.8, 1.2497E-09, 
DataValue, 4.9, 1.28946E-09, 
DataValue, 5, 1.31598E-09, 