
SetupTitle, WW
PrimitiveTest, I/V Sweep
TestParameter, Context.MainFrame, B1500A
TestParameter, Channel.UnitType, SMU, SMU
TestParameter, Channel.Unit, SMU2:HP, SMU1:HP
TestParameter, Channel.IName, I1, I4
TestParameter, Channel.VName, V1, V4
TestParameter, Channel.Mode, V, COMMON
TestParameter, Channel.Func, VAR1, CONST
TestParameter, Channel.Index, 
TestParameter, Channel.Time, 
TestParameter, Measurement.Port.Unit, SMU2:HP, SMU1:HP
TestParameter, Measurement.Port.SeriesResistor, NONE, NONE
TestParameter, Measurement.Port.Filter, ON, ON
TestParameter, Measurement.Port.OutputVoltageComparison, 0, 0
TestParameter, Measurement.Primary.Locus, Single
TestParameter, Measurement.Primary.Scale, LINEAR
TestParameter, Measurement.Primary.Start, -5
TestParameter, Measurement.Primary.Stop, 5
TestParameter, Measurement.Primary.Step, 0.1
TestParameter, Measurement.Primary.Compliance, 0.1
TestParameter, Measurement.Primary.PowerCompliance, 0
TestParameter, Measurement.Aborting.Condition, CONTINUE AT ANY
TestParameter, Measurement.PostOutput.Value, START
TestParameter, Measurement.PostOutput.Retention, OFF
TestParameter, Measurement.Bias.Source, -5, 0
TestParameter, Measurement.Bias.Compliance, 0.1, 1
TestParameter, Measurement.Monitor.Unit, SMU2:HP, SMU1:HP
TestParameter, Measurement.Monitor.Adc, HR ADC, HR ADC
TestParameter, Measurement.Monitor.Measurement, Compliance Side, Compliance Side
TestParameter, Measurement.Monitor.RangingMode, AUTO, AUTO
TestParameter, Measurement.Monitor.RangeBoundary, , 
TestParameter, Measurement.Monitor.RangeRating, BY FULL RANGE, BY FULL RANGE
TestParameter, Measurement.Monitor.RangeRatingCoeff, 50, 50
TestParameter, Measurement.Timing.Hold, 0
TestParameter, Measurement.Timing.Delay, 0.001
TestParameter, Measurement.Adc.HighSpeed.Mode, AUTO
TestParameter, Measurement.Adc.HighSpeed.Coeff, 1
TestParameter, Measurement.Adc.HighResolution.AutoZero, OFF
TestParameter, Measurement.Adc.HighResolution.Mode, PLC
TestParameter, Measurement.Adc.HighResolution.Coeff, 1
TestParameter, Measurement.WaitTime.Source.Coeff, 1
TestParameter, Measurement.WaitTime.Source.Offset, 0
TestParameter, Measurement.WaitTime.Monitor.Coeff, 1
TestParameter, Measurement.WaitTime.Monitor.Offset, 0
TestParameter, Function.User.Name, Ohmic
TestParameter, Function.User.Unit, ohm
TestParameter, Function.User.Definition, avg(V1/I1)
TestParameter, Output.Graph.Enabled, true
TestParameter, Output.Graph.XAxis.Data, V1
TestParameter, Output.Graph.XAxis.Scale, Linear
TestParameter, Output.Graph.XAxis.Left, -5
TestParameter, Output.Graph.XAxis.Right, 5
TestParameter, Output.Graph.YAxis.Data, I1
TestParameter, Output.Graph.YAxis.Scale, Linear
TestParameter, Output.Graph.YAxis.Bottom, -0.001
TestParameter, Output.Graph.YAxis.Top, 0.001
TestParameter, Output.Graph.YAxis.Group, 
TestParameter, Output.Scalar.Data, Ohmic
TestParameter, AutoAnalysis.Interpolation, false
TestParameter, AutoAnalysis.Line1.Enabled, false
TestParameter, AutoAnalysis.Line1.Type, 1
TestParameter, AutoAnalysis.Line1.Fix, True
TestParameter, AutoAnalysis.Line1.YAxis, 0
TestParameter, AutoAnalysis.Line1.Point1.Type, 0
TestParameter, AutoAnalysis.Line1.Point1.XY.X, 
TestParameter, AutoAnalysis.Line1.Point1.XY.Y, 
TestParameter, AutoAnalysis.Line1.Point1.Data.Var, 
TestParameter, AutoAnalysis.Line1.Point1.Data.Condition, 
TestParameter, AutoAnalysis.Line1.Point1.Data.Start, false
TestParameter, AutoAnalysis.Line1.Point1.Data.StartVar, 
TestParameter, AutoAnalysis.Line1.Point1.Data.StartCondition, 
TestParameter, AutoAnalysis.Line1.Point2.Type, 0
TestParameter, AutoAnalysis.Line1.Point2.XY.X, 
TestParameter, AutoAnalysis.Line1.Point2.XY.Y, 
TestParameter, AutoAnalysis.Line1.Point2.Data.Var, 
TestParameter, AutoAnalysis.Line1.Point2.Data.Condition, 
TestParameter, AutoAnalysis.Line1.Point2.Data.Start, false
TestParameter, AutoAnalysis.Line1.Point2.Data.StartVar, 
TestParameter, AutoAnalysis.Line1.Point2.Data.StartCondition, 
TestParameter, AutoAnalysis.Line1.GradientExpr, 0
TestParameter, AutoAnalysis.Line2.Enabled, false
TestParameter, AutoAnalysis.Line2.Type, 1
TestParameter, AutoAnalysis.Line2.Fix, True
TestParameter, AutoAnalysis.Line2.YAxis, 0
TestParameter, AutoAnalysis.Line2.Point1.Type, 0
TestParameter, AutoAnalysis.Line2.Point1.XY.X, 
TestParameter, AutoAnalysis.Line2.Point1.XY.Y, 
TestParameter, AutoAnalysis.Line2.Point1.Data.Var, 
TestParameter, AutoAnalysis.Line2.Point1.Data.Condition, 
TestParameter, AutoAnalysis.Line2.Point1.Data.Start, false
TestParameter, AutoAnalysis.Line2.Point1.Data.StartVar, 
TestParameter, AutoAnalysis.Line2.Point1.Data.StartCondition, 
TestParameter, AutoAnalysis.Line2.Point2.Type, 0
TestParameter, AutoAnalysis.Line2.Point2.XY.X, 
TestParameter, AutoAnalysis.Line2.Point2.XY.Y, 
TestParameter, AutoAnalysis.Line2.Point2.Data.Var, 
TestParameter, AutoAnalysis.Line2.Point2.Data.Condition, 
TestParameter, AutoAnalysis.Line2.Point2.Data.Start, false
TestParameter, AutoAnalysis.Line2.Point2.Data.StartVar, 
TestParameter, AutoAnalysis.Line2.Point2.Data.StartCondition, 
TestParameter, AutoAnalysis.Line2.GradientExpr, 0
TestParameter, AutoAnalysis.Marker.Enabled, false
TestParameter, AutoAnalysis.Marker.Data.Var, 
TestParameter, AutoAnalysis.Marker.Data.Condition, 
TestParameter, AutoAnalysis.Marker.Data.Start, false
TestParameter, AutoAnalysis.Marker.Data.StartVar, 
TestParameter, AutoAnalysis.Marker.Data.StartCondition, 
MetaData, TestRecord.EntryPoint, true
MetaData, TestRecord.RecordTime, 07/05/2020 17:52:38
MetaData, TestRecord.TestTarget, 
MetaData, TestRecord.IterationIndex, 49
MetaData, TestRecord.Preservation, true
MetaData, TestRecord.Flag, 
MetaData, TestRecord.Remarks, 
MetaData, TestRecord.LinkKey, 7420a7aa-d3f6-4263-830d-7473673aed55
Dimension1, 101, 101, 101
Dimension2, 1, 1, 1
DataName, V1, I1, Ohmic
DataValue, -5, -3.9674E-10, 35738987782.73967
DataValue, -4.9, -3.404E-10, 
DataValue, -4.8, -3.1322E-10, 
DataValue, -4.7, -2.9671E-10, 
DataValue, -4.6000000000000005, -2.7373E-10, 
DataValue, -4.5, -2.3751E-10, 
DataValue, -4.4, -2.2185E-10, 
DataValue, -4.3, -2.1903E-10, 
DataValue, -4.2, -2.0689E-10, 
DataValue, -4.1, -1.8293E-10, 
DataValue, -4, -1.7184E-10, 
DataValue, -3.9, -1.7104E-10, 
DataValue, -3.8000000000000003, -1.606E-10, 
DataValue, -3.7, -1.4275E-10, 
DataValue, -3.6, -1.279E-10, 
DataValue, -3.5, -1.3308E-10, 
DataValue, -3.4, -1.2186E-10, 
DataValue, -3.3000000000000003, -1.0126E-10, 
DataValue, -3.2, -8.645E-11, 
DataValue, -3.1, -9.316E-11, 
DataValue, -3, -8.218E-11, 
DataValue, -2.9, -6.894E-11, 
DataValue, -2.8000000000000003, -6.118E-11, 
DataValue, -2.7, -6.692E-11, 
DataValue, -2.6, -5.48E-11, 
DataValue, -2.5, -4.586E-11, 
DataValue, -2.4, -3.498E-11, 
DataValue, -2.3000000000000003, -3.092E-11, 
DataValue, -2.2, -3.906E-11, 
DataValue, -2.1, -2.342E-11, 
DataValue, -2, -2.173E-11, 
DataValue, -1.9000000000000001, -1.553E-11, 
DataValue, -1.8, -9.78E-12, 
DataValue, -1.7, -8.25E-12, 
DataValue, -1.6, -6.95E-12, 
DataValue, -1.5, 5.83E-12, 
DataValue, -1.4000000000000001, -1.06E-12, 
DataValue, -1.3, 6.61E-12, 
DataValue, -1.2, 8.49E-12, 
DataValue, -1.1, 4.24E-12, 
DataValue, -1, 8.7699999999999992E-12, 
DataValue, -0.9, -7E-13, 
DataValue, -0.8, 1.314E-11, 
DataValue, -0.70000000000000007, 1.2E-11, 
DataValue, -0.6, 1.721E-11, 
DataValue, -0.5, 1.944E-11, 
DataValue, -0.4, 2.274E-11, 
DataValue, -0.3, 2.8E-11, 
DataValue, -0.2, 2.967E-11, 
DataValue, -0.1, 2.169E-11, 
DataValue, 0, 2.78E-11, 
DataValue, 0.1, 3.745E-11, 
DataValue, 0.2, 3.698E-11, 
DataValue, 0.3, 4.153E-11, 
DataValue, 0.4, 4.546E-11, 
DataValue, 0.5, 5.269E-11, 
DataValue, 0.6, 5.75E-11, 
DataValue, 0.70000000000000007, 7.37E-11, 
DataValue, 0.8, 7.662E-11, 
DataValue, 0.9, 7.842E-11, 
DataValue, 1, 9.193E-11, 
DataValue, 1.1, 1.0606E-10, 
DataValue, 1.2, 1.1759E-10, 
DataValue, 1.3, 1.2428E-10, 
DataValue, 1.4000000000000001, 1.4332E-10, 
DataValue, 1.5, 1.57E-10, 
DataValue, 1.6, 1.6959E-10, 
DataValue, 1.7, 1.8609E-10, 
DataValue, 1.8, 2.0706E-10, 
DataValue, 1.9000000000000001, 2.2621E-10, 
DataValue, 2, 2.4694E-10, 
DataValue, 2.1, 2.6885E-10, 
DataValue, 2.2, 2.8875E-10, 
DataValue, 2.3000000000000003, 3.0628E-10, 
DataValue, 2.4, 3.4469E-10, 
DataValue, 2.5, 3.7624E-10, 
DataValue, 2.6, 3.904E-10, 
DataValue, 2.7, 4.2719E-10, 
DataValue, 2.8000000000000003, 4.4787E-10, 
DataValue, 2.9, 4.6426E-10, 
DataValue, 3, 5.0801E-10, 
DataValue, 3.1, 5.4487E-10, 
DataValue, 3.2, 5.5856E-10, 
DataValue, 3.3000000000000003, 6.0615E-10, 
DataValue, 3.4, 6.2869E-10, 
DataValue, 3.5, 6.5936E-10, 
DataValue, 3.6, 6.9553E-10, 
DataValue, 3.7, 7.3402E-10, 
DataValue, 3.8000000000000003, 7.7053E-10, 
DataValue, 3.9, 7.9495E-10, 
DataValue, 4, 8.3776E-10, 
DataValue, 4.1, 8.8482E-10, 
DataValue, 4.2, 9.1074E-10, 
DataValue, 4.3, 9.6774E-10, 
DataValue, 4.4, 1.0022E-09, 
DataValue, 4.5, 1.04269E-09, 
DataValue, 4.6000000000000005, 1.0721E-09, 
DataValue, 4.7, 1.10465E-09, 
DataValue, 4.8, 1.15671E-09, 
DataValue, 4.9, 1.19145E-09, 
DataValue, 5, 1.22333E-09, 