
SetupTitle, WW
PrimitiveTest, I/V Sweep
TestParameter, Context.MainFrame, B1500A
TestParameter, Channel.UnitType, SMU, SMU
TestParameter, Channel.Unit, SMU2:HP, SMU1:HP
TestParameter, Channel.IName, I1, I4
TestParameter, Channel.VName, V1, V4
TestParameter, Channel.Mode, V, COMMON
TestParameter, Channel.Func, VAR1, CONST
TestParameter, Channel.Index, 
TestParameter, Channel.Time, 
TestParameter, Measurement.Port.Unit, SMU2:HP, SMU1:HP
TestParameter, Measurement.Port.SeriesResistor, NONE, NONE
TestParameter, Measurement.Port.Filter, ON, ON
TestParameter, Measurement.Port.OutputVoltageComparison, 0, 0
TestParameter, Measurement.Primary.Locus, Single
TestParameter, Measurement.Primary.Scale, LINEAR
TestParameter, Measurement.Primary.Start, -5
TestParameter, Measurement.Primary.Stop, 5
TestParameter, Measurement.Primary.Step, 0.1
TestParameter, Measurement.Primary.Compliance, 0.1
TestParameter, Measurement.Primary.PowerCompliance, 0
TestParameter, Measurement.Aborting.Condition, CONTINUE AT ANY
TestParameter, Measurement.PostOutput.Value, START
TestParameter, Measurement.PostOutput.Retention, OFF
TestParameter, Measurement.Bias.Source, -5, 0
TestParameter, Measurement.Bias.Compliance, 0.1, 1
TestParameter, Measurement.Monitor.Unit, SMU2:HP, SMU1:HP
TestParameter, Measurement.Monitor.Adc, HR ADC, HR ADC
TestParameter, Measurement.Monitor.Measurement, Compliance Side, Compliance Side
TestParameter, Measurement.Monitor.RangingMode, AUTO, AUTO
TestParameter, Measurement.Monitor.RangeBoundary, , 
TestParameter, Measurement.Monitor.RangeRating, BY FULL RANGE, BY FULL RANGE
TestParameter, Measurement.Monitor.RangeRatingCoeff, 50, 50
TestParameter, Measurement.Timing.Hold, 0
TestParameter, Measurement.Timing.Delay, 0.001
TestParameter, Measurement.Adc.HighSpeed.Mode, AUTO
TestParameter, Measurement.Adc.HighSpeed.Coeff, 1
TestParameter, Measurement.Adc.HighResolution.AutoZero, OFF
TestParameter, Measurement.Adc.HighResolution.Mode, PLC
TestParameter, Measurement.Adc.HighResolution.Coeff, 1
TestParameter, Measurement.WaitTime.Source.Coeff, 1
TestParameter, Measurement.WaitTime.Source.Offset, 0
TestParameter, Measurement.WaitTime.Monitor.Coeff, 1
TestParameter, Measurement.WaitTime.Monitor.Offset, 0
TestParameter, Function.User.Name, Ohmic
TestParameter, Function.User.Unit, ohm
TestParameter, Function.User.Definition, avg(V1/I1)
TestParameter, Output.Graph.Enabled, true
TestParameter, Output.Graph.XAxis.Data, V1
TestParameter, Output.Graph.XAxis.Scale, Linear
TestParameter, Output.Graph.XAxis.Left, -5
TestParameter, Output.Graph.XAxis.Right, 5
TestParameter, Output.Graph.YAxis.Data, I1
TestParameter, Output.Graph.YAxis.Scale, Linear
TestParameter, Output.Graph.YAxis.Bottom, -0.001
TestParameter, Output.Graph.YAxis.Top, 0.001
TestParameter, Output.Graph.YAxis.Group, 
TestParameter, Output.Scalar.Data, Ohmic
TestParameter, AutoAnalysis.Interpolation, false
TestParameter, AutoAnalysis.Line1.Enabled, false
TestParameter, AutoAnalysis.Line1.Type, 1
TestParameter, AutoAnalysis.Line1.Fix, True
TestParameter, AutoAnalysis.Line1.YAxis, 0
TestParameter, AutoAnalysis.Line1.Point1.Type, 0
TestParameter, AutoAnalysis.Line1.Point1.XY.X, 
TestParameter, AutoAnalysis.Line1.Point1.XY.Y, 
TestParameter, AutoAnalysis.Line1.Point1.Data.Var, 
TestParameter, AutoAnalysis.Line1.Point1.Data.Condition, 
TestParameter, AutoAnalysis.Line1.Point1.Data.Start, false
TestParameter, AutoAnalysis.Line1.Point1.Data.StartVar, 
TestParameter, AutoAnalysis.Line1.Point1.Data.StartCondition, 
TestParameter, AutoAnalysis.Line1.Point2.Type, 0
TestParameter, AutoAnalysis.Line1.Point2.XY.X, 
TestParameter, AutoAnalysis.Line1.Point2.XY.Y, 
TestParameter, AutoAnalysis.Line1.Point2.Data.Var, 
TestParameter, AutoAnalysis.Line1.Point2.Data.Condition, 
TestParameter, AutoAnalysis.Line1.Point2.Data.Start, false
TestParameter, AutoAnalysis.Line1.Point2.Data.StartVar, 
TestParameter, AutoAnalysis.Line1.Point2.Data.StartCondition, 
TestParameter, AutoAnalysis.Line1.GradientExpr, 0
TestParameter, AutoAnalysis.Line2.Enabled, false
TestParameter, AutoAnalysis.Line2.Type, 1
TestParameter, AutoAnalysis.Line2.Fix, True
TestParameter, AutoAnalysis.Line2.YAxis, 0
TestParameter, AutoAnalysis.Line2.Point1.Type, 0
TestParameter, AutoAnalysis.Line2.Point1.XY.X, 
TestParameter, AutoAnalysis.Line2.Point1.XY.Y, 
TestParameter, AutoAnalysis.Line2.Point1.Data.Var, 
TestParameter, AutoAnalysis.Line2.Point1.Data.Condition, 
TestParameter, AutoAnalysis.Line2.Point1.Data.Start, false
TestParameter, AutoAnalysis.Line2.Point1.Data.StartVar, 
TestParameter, AutoAnalysis.Line2.Point1.Data.StartCondition, 
TestParameter, AutoAnalysis.Line2.Point2.Type, 0
TestParameter, AutoAnalysis.Line2.Point2.XY.X, 
TestParameter, AutoAnalysis.Line2.Point2.XY.Y, 
TestParameter, AutoAnalysis.Line2.Point2.Data.Var, 
TestParameter, AutoAnalysis.Line2.Point2.Data.Condition, 
TestParameter, AutoAnalysis.Line2.Point2.Data.Start, false
TestParameter, AutoAnalysis.Line2.Point2.Data.StartVar, 
TestParameter, AutoAnalysis.Line2.Point2.Data.StartCondition, 
TestParameter, AutoAnalysis.Line2.GradientExpr, 0
TestParameter, AutoAnalysis.Marker.Enabled, false
TestParameter, AutoAnalysis.Marker.Data.Var, 
TestParameter, AutoAnalysis.Marker.Data.Condition, 
TestParameter, AutoAnalysis.Marker.Data.Start, false
TestParameter, AutoAnalysis.Marker.Data.StartVar, 
TestParameter, AutoAnalysis.Marker.Data.StartCondition, 
MetaData, TestRecord.EntryPoint, true
MetaData, TestRecord.RecordTime, 07/05/2020 17:51:31
MetaData, TestRecord.TestTarget, 
MetaData, TestRecord.IterationIndex, 47
MetaData, TestRecord.Preservation, true
MetaData, TestRecord.Flag, 
MetaData, TestRecord.Remarks, 
MetaData, TestRecord.LinkKey, 608bfafe-c275-4c5e-bcb1-30828aee0d0a
Dimension1, 101, 101, 101
Dimension2, 1, 1, 1
DataName, V1, I1, Ohmic
DataValue, -5, -3.8857E-10, 97824495407.33168
DataValue, -4.9, -3.4592E-10, 
DataValue, -4.8, -3.1802E-10, 
DataValue, -4.7, -2.9958E-10, 
DataValue, -4.6000000000000005, -2.6176E-10, 
DataValue, -4.5, -2.451E-10, 
DataValue, -4.4, -2.247E-10, 
DataValue, -4.3, -2.0813E-10, 
DataValue, -4.2, -1.9598999999999999E-10, 
DataValue, -4.1, -1.7976E-10, 
DataValue, -4, -1.7136E-10, 
DataValue, -3.9, -1.6299E-10, 
DataValue, -3.8000000000000003, -1.519E-10, 
DataValue, -3.7, -1.3619E-10, 
DataValue, -3.6, -1.1862E-10, 
DataValue, -3.5, -1.191E-10, 
DataValue, -3.4, -1.0914E-10, 
DataValue, -3.3000000000000003, -9.551E-11, 
DataValue, -3.2, -8.652E-11, 
DataValue, -3.1, -8.341E-11, 
DataValue, -3, -7.088E-11, 
DataValue, -2.9, -7.416E-11, 
DataValue, -2.8000000000000003, -6.33E-11, 
DataValue, -2.7, -5.322E-11, 
DataValue, -2.6, -4.892E-11, 
DataValue, -2.5, -4.8E-11, 
DataValue, -2.4, -3.982E-11, 
DataValue, -2.3000000000000003, -3.854E-11, 
DataValue, -2.2, -3.26E-11, 
DataValue, -2.1, -2.675E-11, 
DataValue, -2, -1.994E-11, 
DataValue, -1.9000000000000001, -2.034E-11, 
DataValue, -1.8, -1.905E-11, 
DataValue, -1.7, -5.98E-12, 
DataValue, -1.6, -5.99E-12, 
DataValue, -1.5, -3.9E-13, 
DataValue, -1.4000000000000001, 5.49E-12, 
DataValue, -1.3, -2.6E-13, 
DataValue, -1.2, 2.78E-12, 
DataValue, -1.1, 6.9199999999999996E-12, 
DataValue, -1, 9.82E-12, 
DataValue, -0.9, 1.122E-11, 
DataValue, -0.8, 2.271E-11, 
DataValue, -0.70000000000000007, 1.751E-11, 
DataValue, -0.6, 2.941E-11, 
DataValue, -0.5, 2.538E-11, 
DataValue, -0.4, 2.806E-11, 
DataValue, -0.3, 2.616E-11, 
DataValue, -0.2, 3.855E-11, 
DataValue, -0.1, 3.01E-11, 
DataValue, 0, 2.469E-11, 
DataValue, 0.1, 2.84E-11, 
DataValue, 0.2, 3.917E-11, 
DataValue, 0.3, 3.625E-11, 
DataValue, 0.4, 4.491E-11, 
DataValue, 0.5, 4.743E-11, 
DataValue, 0.6, 6.449E-11, 
DataValue, 0.70000000000000007, 6.386E-11, 
DataValue, 0.8, 7.544E-11, 
DataValue, 0.9, 7.917E-11, 
DataValue, 1, 9.083E-11, 
DataValue, 1.1, 1.0675E-10, 
DataValue, 1.2, 1.1253999999999999E-10, 
DataValue, 1.3, 1.3028E-10, 
DataValue, 1.4000000000000001, 1.411E-10, 
DataValue, 1.5, 1.6135E-10, 
DataValue, 1.6, 1.7527E-10, 
DataValue, 1.7, 1.9281E-10, 
DataValue, 1.8, 2.0865E-10, 
DataValue, 1.9000000000000001, 2.3018E-10, 
DataValue, 2, 2.4839E-10, 
DataValue, 2.1, 2.5888E-10, 
DataValue, 2.2, 2.9659E-10, 
DataValue, 2.3000000000000003, 3.1825E-10, 
DataValue, 2.4, 3.48E-10, 
DataValue, 2.5, 3.6048E-10, 
DataValue, 2.6, 3.9561E-10, 
DataValue, 2.7, 4.2825E-10, 
DataValue, 2.8000000000000003, 4.4649E-10, 
DataValue, 2.9, 4.7696E-10, 
DataValue, 3, 5.0579E-10, 
DataValue, 3.1, 5.5375E-10, 
DataValue, 3.2, 5.7963E-10, 
DataValue, 3.3000000000000003, 5.9459E-10, 
DataValue, 3.4, 6.1922E-10, 
DataValue, 3.5, 6.5674E-10, 
DataValue, 3.6, 6.8766E-10, 
DataValue, 3.7, 7.1727E-10, 
DataValue, 3.8000000000000003, 7.5191E-10, 
DataValue, 3.9, 8.1034E-10, 
DataValue, 4, 8.5208E-10, 
DataValue, 4.1, 8.8055E-10, 
DataValue, 4.2, 9.0097E-10, 
DataValue, 4.3, 9.3454E-10, 
DataValue, 4.4, 9.9061E-10, 
DataValue, 4.5, 9.989199999999999E-10, 
DataValue, 4.6000000000000005, 1.0516E-09, 
DataValue, 4.7, 1.0882E-09, 
DataValue, 4.8, 1.15024E-09, 
DataValue, 4.9, 1.1783E-09, 
DataValue, 5, 1.19877E-09, 