
SetupTitle, WW
PrimitiveTest, I/V Sweep
TestParameter, Context.MainFrame, B1500A
TestParameter, Channel.UnitType, SMU, SMU
TestParameter, Channel.Unit, SMU2:HP, SMU1:HP
TestParameter, Channel.IName, I1, I4
TestParameter, Channel.VName, V1, V4
TestParameter, Channel.Mode, V, COMMON
TestParameter, Channel.Func, VAR1, CONST
TestParameter, Channel.Index, 
TestParameter, Channel.Time, 
TestParameter, Measurement.Port.Unit, SMU2:HP, SMU1:HP
TestParameter, Measurement.Port.SeriesResistor, NONE, NONE
TestParameter, Measurement.Port.Filter, ON, ON
TestParameter, Measurement.Port.OutputVoltageComparison, 0, 0
TestParameter, Measurement.Primary.Locus, Single
TestParameter, Measurement.Primary.Scale, LINEAR
TestParameter, Measurement.Primary.Start, -5
TestParameter, Measurement.Primary.Stop, 5
TestParameter, Measurement.Primary.Step, 0.1
TestParameter, Measurement.Primary.Compliance, 0.1
TestParameter, Measurement.Primary.PowerCompliance, 0
TestParameter, Measurement.Aborting.Condition, CONTINUE AT ANY
TestParameter, Measurement.PostOutput.Value, START
TestParameter, Measurement.PostOutput.Retention, OFF
TestParameter, Measurement.Bias.Source, -5, 0
TestParameter, Measurement.Bias.Compliance, 0.1, 1
TestParameter, Measurement.Monitor.Unit, SMU2:HP, SMU1:HP
TestParameter, Measurement.Monitor.Adc, HR ADC, HR ADC
TestParameter, Measurement.Monitor.Measurement, Compliance Side, Compliance Side
TestParameter, Measurement.Monitor.RangingMode, AUTO, AUTO
TestParameter, Measurement.Monitor.RangeBoundary, , 
TestParameter, Measurement.Monitor.RangeRating, BY FULL RANGE, BY FULL RANGE
TestParameter, Measurement.Monitor.RangeRatingCoeff, 50, 50
TestParameter, Measurement.Timing.Hold, 0
TestParameter, Measurement.Timing.Delay, 0.001
TestParameter, Measurement.Adc.HighSpeed.Mode, AUTO
TestParameter, Measurement.Adc.HighSpeed.Coeff, 1
TestParameter, Measurement.Adc.HighResolution.AutoZero, OFF
TestParameter, Measurement.Adc.HighResolution.Mode, PLC
TestParameter, Measurement.Adc.HighResolution.Coeff, 1
TestParameter, Measurement.WaitTime.Source.Coeff, 1
TestParameter, Measurement.WaitTime.Source.Offset, 0
TestParameter, Measurement.WaitTime.Monitor.Coeff, 1
TestParameter, Measurement.WaitTime.Monitor.Offset, 0
TestParameter, Function.User.Name, Ohmic
TestParameter, Function.User.Unit, ohm
TestParameter, Function.User.Definition, avg(V1/I1)
TestParameter, Output.Graph.Enabled, true
TestParameter, Output.Graph.XAxis.Data, V1
TestParameter, Output.Graph.XAxis.Scale, Linear
TestParameter, Output.Graph.XAxis.Left, -5
TestParameter, Output.Graph.XAxis.Right, 5
TestParameter, Output.Graph.YAxis.Data, I1
TestParameter, Output.Graph.YAxis.Scale, Linear
TestParameter, Output.Graph.YAxis.Bottom, -0.001
TestParameter, Output.Graph.YAxis.Top, 0.001
TestParameter, Output.Graph.YAxis.Group, 
TestParameter, Output.Scalar.Data, Ohmic
TestParameter, AutoAnalysis.Interpolation, false
TestParameter, AutoAnalysis.Line1.Enabled, false
TestParameter, AutoAnalysis.Line1.Type, 1
TestParameter, AutoAnalysis.Line1.Fix, True
TestParameter, AutoAnalysis.Line1.YAxis, 0
TestParameter, AutoAnalysis.Line1.Point1.Type, 0
TestParameter, AutoAnalysis.Line1.Point1.XY.X, 
TestParameter, AutoAnalysis.Line1.Point1.XY.Y, 
TestParameter, AutoAnalysis.Line1.Point1.Data.Var, 
TestParameter, AutoAnalysis.Line1.Point1.Data.Condition, 
TestParameter, AutoAnalysis.Line1.Point1.Data.Start, false
TestParameter, AutoAnalysis.Line1.Point1.Data.StartVar, 
TestParameter, AutoAnalysis.Line1.Point1.Data.StartCondition, 
TestParameter, AutoAnalysis.Line1.Point2.Type, 0
TestParameter, AutoAnalysis.Line1.Point2.XY.X, 
TestParameter, AutoAnalysis.Line1.Point2.XY.Y, 
TestParameter, AutoAnalysis.Line1.Point2.Data.Var, 
TestParameter, AutoAnalysis.Line1.Point2.Data.Condition, 
TestParameter, AutoAnalysis.Line1.Point2.Data.Start, false
TestParameter, AutoAnalysis.Line1.Point2.Data.StartVar, 
TestParameter, AutoAnalysis.Line1.Point2.Data.StartCondition, 
TestParameter, AutoAnalysis.Line1.GradientExpr, 0
TestParameter, AutoAnalysis.Line2.Enabled, false
TestParameter, AutoAnalysis.Line2.Type, 1
TestParameter, AutoAnalysis.Line2.Fix, True
TestParameter, AutoAnalysis.Line2.YAxis, 0
TestParameter, AutoAnalysis.Line2.Point1.Type, 0
TestParameter, AutoAnalysis.Line2.Point1.XY.X, 
TestParameter, AutoAnalysis.Line2.Point1.XY.Y, 
TestParameter, AutoAnalysis.Line2.Point1.Data.Var, 
TestParameter, AutoAnalysis.Line2.Point1.Data.Condition, 
TestParameter, AutoAnalysis.Line2.Point1.Data.Start, false
TestParameter, AutoAnalysis.Line2.Point1.Data.StartVar, 
TestParameter, AutoAnalysis.Line2.Point1.Data.StartCondition, 
TestParameter, AutoAnalysis.Line2.Point2.Type, 0
TestParameter, AutoAnalysis.Line2.Point2.XY.X, 
TestParameter, AutoAnalysis.Line2.Point2.XY.Y, 
TestParameter, AutoAnalysis.Line2.Point2.Data.Var, 
TestParameter, AutoAnalysis.Line2.Point2.Data.Condition, 
TestParameter, AutoAnalysis.Line2.Point2.Data.Start, false
TestParameter, AutoAnalysis.Line2.Point2.Data.StartVar, 
TestParameter, AutoAnalysis.Line2.Point2.Data.StartCondition, 
TestParameter, AutoAnalysis.Line2.GradientExpr, 0
TestParameter, AutoAnalysis.Marker.Enabled, false
TestParameter, AutoAnalysis.Marker.Data.Var, 
TestParameter, AutoAnalysis.Marker.Data.Condition, 
TestParameter, AutoAnalysis.Marker.Data.Start, false
TestParameter, AutoAnalysis.Marker.Data.StartVar, 
TestParameter, AutoAnalysis.Marker.Data.StartCondition, 
MetaData, TestRecord.EntryPoint, true
MetaData, TestRecord.RecordTime, 07/05/2020 17:49:57
MetaData, TestRecord.TestTarget, 
MetaData, TestRecord.IterationIndex, 44
MetaData, TestRecord.Preservation, true
MetaData, TestRecord.Flag, 
MetaData, TestRecord.Remarks, 
MetaData, TestRecord.LinkKey, 827cb261-ec34-42ca-bd3d-4248cd38d087
Dimension1, 101, 101, 101
Dimension2, 1, 1, 1
DataName, V1, I1, Ohmic
DataValue, -5, -4.4122E-10, 64104725868.750214
DataValue, -4.9, -4.0267E-10, 
DataValue, -4.8, -3.8054E-10, 
DataValue, -4.7, -3.5938E-10, 
DataValue, -4.6000000000000005, -3.3008E-10, 
DataValue, -4.5, -2.9419E-10, 
DataValue, -4.4, -2.9499E-10, 
DataValue, -4.3, -2.8508E-10, 
DataValue, -4.2, -2.6583E-10, 
DataValue, -4.1, -2.3296E-10, 
DataValue, -4, -2.2702E-10, 
DataValue, -3.9, -2.2846E-10, 
DataValue, -3.8000000000000003, -2.1719E-10, 
DataValue, -3.7, -1.9551E-10, 
DataValue, -3.6, -1.767E-10, 
DataValue, -3.5, -1.7406E-10, 
DataValue, -3.4, -1.681E-10, 
DataValue, -3.3000000000000003, -1.5156E-10, 
DataValue, -3.2, -1.3018E-10, 
DataValue, -3.1, -1.2255E-10, 
DataValue, -3, -1.2153E-10, 
DataValue, -2.9, -1.0449E-10, 
DataValue, -2.8000000000000003, -9.06E-11, 
DataValue, -2.7, -8.476E-11, 
DataValue, -2.6, -9.33E-11, 
DataValue, -2.5, -8.192E-11, 
DataValue, -2.4, -6.51E-11, 
DataValue, -2.3000000000000003, -6.081E-11, 
DataValue, -2.2, -7.421E-11, 
DataValue, -2.1, -5.09E-11, 
DataValue, -2, -4.333E-11, 
DataValue, -1.9000000000000001, -4.172E-11, 
DataValue, -1.8, -3.601E-11, 
DataValue, -1.7, -3.498E-11, 
DataValue, -1.6, -2.465E-11, 
DataValue, -1.5, -1.352E-11, 
DataValue, -1.4000000000000001, -1.517E-11, 
DataValue, -1.3, -1.629E-11, 
DataValue, -1.2, -3.78E-12, 
DataValue, -1.1, -4.23E-12, 
DataValue, -1, -2E-13, 
DataValue, -0.9, 3.88E-12, 
DataValue, -0.8, 4.21E-12, 
DataValue, -0.70000000000000007, 8.16E-12, 
DataValue, -0.6, 1.62E-11, 
DataValue, -0.5, 1.216E-11, 
DataValue, -0.4, 1.9669999999999998E-11, 
DataValue, -0.3, 2.081E-11, 
DataValue, -0.2, 2.023E-11, 
DataValue, -0.1, 2.54E-11, 
DataValue, 0, 3.157E-11, 
DataValue, 0.1, 2.962E-11, 
DataValue, 0.2, 3.26E-11, 
DataValue, 0.3, 3.337E-11, 
DataValue, 0.4, 3.977E-11, 
DataValue, 0.5, 4.77E-11, 
DataValue, 0.6, 5.756E-11, 
DataValue, 0.70000000000000007, 6.819E-11, 
DataValue, 0.8, 7.211E-11, 
DataValue, 0.9, 8.338E-11, 
DataValue, 1, 9.62E-11, 
DataValue, 1.1, 1.1021E-10, 
DataValue, 1.2, 1.2257E-10, 
DataValue, 1.3, 1.3599E-10, 
DataValue, 1.4000000000000001, 1.533E-10, 
DataValue, 1.5, 1.6718E-10, 
DataValue, 1.6, 1.8706E-10, 
DataValue, 1.7, 2.0834E-10, 
DataValue, 1.8, 2.2975E-10, 
DataValue, 1.9000000000000001, 2.5395E-10, 
DataValue, 2, 2.658E-10, 
DataValue, 2.1, 2.9341E-10, 
DataValue, 2.2, 3.1998E-10, 
DataValue, 2.3000000000000003, 3.4558E-10, 
DataValue, 2.4, 3.7227E-10, 
DataValue, 2.5, 4.0142E-10, 
DataValue, 2.6, 4.3356E-10, 
DataValue, 2.7, 4.612E-10, 
DataValue, 2.8000000000000003, 4.8514E-10, 
DataValue, 2.9, 5.2599E-10, 
DataValue, 3, 5.5384E-10, 
DataValue, 3.1, 5.9251E-10, 
DataValue, 3.2, 6.3373E-10, 
DataValue, 3.3000000000000003, 6.6709E-10, 
DataValue, 3.4, 7.1472E-10, 
DataValue, 3.5, 7.5768E-10, 
DataValue, 3.6, 7.6849E-10, 
DataValue, 3.7, 8.0405E-10, 
DataValue, 3.8000000000000003, 8.3478E-10, 
DataValue, 3.9, 8.9309E-10, 
DataValue, 4, 9.2171E-10, 
DataValue, 4.1, 9.3805E-10, 
DataValue, 4.2, 9.9117E-10, 
DataValue, 4.3, 1.01574E-09, 
DataValue, 4.4, 1.05405E-09, 
DataValue, 4.5, 1.10637E-09, 
DataValue, 4.6000000000000005, 1.12906E-09, 
DataValue, 4.7, 1.20132E-09, 
DataValue, 4.8, 1.24087E-09, 
DataValue, 4.9, 1.24007E-09, 
DataValue, 5, 1.27902E-09, 