
SetupTitle, WW
PrimitiveTest, I/V Sweep
TestParameter, Context.MainFrame, B1500A
TestParameter, Channel.UnitType, SMU, SMU
TestParameter, Channel.Unit, SMU2:HP, SMU1:HP
TestParameter, Channel.IName, I1, I4
TestParameter, Channel.VName, V1, V4
TestParameter, Channel.Mode, V, COMMON
TestParameter, Channel.Func, VAR1, CONST
TestParameter, Channel.Index, 
TestParameter, Channel.Time, 
TestParameter, Measurement.Port.Unit, SMU2:HP, SMU1:HP
TestParameter, Measurement.Port.SeriesResistor, NONE, NONE
TestParameter, Measurement.Port.Filter, ON, ON
TestParameter, Measurement.Port.OutputVoltageComparison, 0, 0
TestParameter, Measurement.Primary.Locus, Single
TestParameter, Measurement.Primary.Scale, LINEAR
TestParameter, Measurement.Primary.Start, -5
TestParameter, Measurement.Primary.Stop, 5
TestParameter, Measurement.Primary.Step, 0.1
TestParameter, Measurement.Primary.Compliance, 0.1
TestParameter, Measurement.Primary.PowerCompliance, 0
TestParameter, Measurement.Aborting.Condition, CONTINUE AT ANY
TestParameter, Measurement.PostOutput.Value, START
TestParameter, Measurement.PostOutput.Retention, OFF
TestParameter, Measurement.Bias.Source, -5, 0
TestParameter, Measurement.Bias.Compliance, 0.1, 1
TestParameter, Measurement.Monitor.Unit, SMU2:HP, SMU1:HP
TestParameter, Measurement.Monitor.Adc, HR ADC, HR ADC
TestParameter, Measurement.Monitor.Measurement, Compliance Side, Compliance Side
TestParameter, Measurement.Monitor.RangingMode, AUTO, AUTO
TestParameter, Measurement.Monitor.RangeBoundary, , 
TestParameter, Measurement.Monitor.RangeRating, BY FULL RANGE, BY FULL RANGE
TestParameter, Measurement.Monitor.RangeRatingCoeff, 50, 50
TestParameter, Measurement.Timing.Hold, 0
TestParameter, Measurement.Timing.Delay, 0.001
TestParameter, Measurement.Adc.HighSpeed.Mode, AUTO
TestParameter, Measurement.Adc.HighSpeed.Coeff, 1
TestParameter, Measurement.Adc.HighResolution.AutoZero, OFF
TestParameter, Measurement.Adc.HighResolution.Mode, PLC
TestParameter, Measurement.Adc.HighResolution.Coeff, 1
TestParameter, Measurement.WaitTime.Source.Coeff, 1
TestParameter, Measurement.WaitTime.Source.Offset, 0
TestParameter, Measurement.WaitTime.Monitor.Coeff, 1
TestParameter, Measurement.WaitTime.Monitor.Offset, 0
TestParameter, Function.User.Name, Ohmic
TestParameter, Function.User.Unit, ohm
TestParameter, Function.User.Definition, avg(V1/I1)
TestParameter, Output.Graph.Enabled, true
TestParameter, Output.Graph.XAxis.Data, V1
TestParameter, Output.Graph.XAxis.Scale, Linear
TestParameter, Output.Graph.XAxis.Left, -5
TestParameter, Output.Graph.XAxis.Right, 5
TestParameter, Output.Graph.YAxis.Data, I1
TestParameter, Output.Graph.YAxis.Scale, Linear
TestParameter, Output.Graph.YAxis.Bottom, -0.001
TestParameter, Output.Graph.YAxis.Top, 0.001
TestParameter, Output.Graph.YAxis.Group, 
TestParameter, Output.Scalar.Data, Ohmic
TestParameter, AutoAnalysis.Interpolation, false
TestParameter, AutoAnalysis.Line1.Enabled, false
TestParameter, AutoAnalysis.Line1.Type, 1
TestParameter, AutoAnalysis.Line1.Fix, True
TestParameter, AutoAnalysis.Line1.YAxis, 0
TestParameter, AutoAnalysis.Line1.Point1.Type, 0
TestParameter, AutoAnalysis.Line1.Point1.XY.X, 
TestParameter, AutoAnalysis.Line1.Point1.XY.Y, 
TestParameter, AutoAnalysis.Line1.Point1.Data.Var, 
TestParameter, AutoAnalysis.Line1.Point1.Data.Condition, 
TestParameter, AutoAnalysis.Line1.Point1.Data.Start, false
TestParameter, AutoAnalysis.Line1.Point1.Data.StartVar, 
TestParameter, AutoAnalysis.Line1.Point1.Data.StartCondition, 
TestParameter, AutoAnalysis.Line1.Point2.Type, 0
TestParameter, AutoAnalysis.Line1.Point2.XY.X, 
TestParameter, AutoAnalysis.Line1.Point2.XY.Y, 
TestParameter, AutoAnalysis.Line1.Point2.Data.Var, 
TestParameter, AutoAnalysis.Line1.Point2.Data.Condition, 
TestParameter, AutoAnalysis.Line1.Point2.Data.Start, false
TestParameter, AutoAnalysis.Line1.Point2.Data.StartVar, 
TestParameter, AutoAnalysis.Line1.Point2.Data.StartCondition, 
TestParameter, AutoAnalysis.Line1.GradientExpr, 0
TestParameter, AutoAnalysis.Line2.Enabled, false
TestParameter, AutoAnalysis.Line2.Type, 1
TestParameter, AutoAnalysis.Line2.Fix, True
TestParameter, AutoAnalysis.Line2.YAxis, 0
TestParameter, AutoAnalysis.Line2.Point1.Type, 0
TestParameter, AutoAnalysis.Line2.Point1.XY.X, 
TestParameter, AutoAnalysis.Line2.Point1.XY.Y, 
TestParameter, AutoAnalysis.Line2.Point1.Data.Var, 
TestParameter, AutoAnalysis.Line2.Point1.Data.Condition, 
TestParameter, AutoAnalysis.Line2.Point1.Data.Start, false
TestParameter, AutoAnalysis.Line2.Point1.Data.StartVar, 
TestParameter, AutoAnalysis.Line2.Point1.Data.StartCondition, 
TestParameter, AutoAnalysis.Line2.Point2.Type, 0
TestParameter, AutoAnalysis.Line2.Point2.XY.X, 
TestParameter, AutoAnalysis.Line2.Point2.XY.Y, 
TestParameter, AutoAnalysis.Line2.Point2.Data.Var, 
TestParameter, AutoAnalysis.Line2.Point2.Data.Condition, 
TestParameter, AutoAnalysis.Line2.Point2.Data.Start, false
TestParameter, AutoAnalysis.Line2.Point2.Data.StartVar, 
TestParameter, AutoAnalysis.Line2.Point2.Data.StartCondition, 
TestParameter, AutoAnalysis.Line2.GradientExpr, 0
TestParameter, AutoAnalysis.Marker.Enabled, false
TestParameter, AutoAnalysis.Marker.Data.Var, 
TestParameter, AutoAnalysis.Marker.Data.Condition, 
TestParameter, AutoAnalysis.Marker.Data.Start, false
TestParameter, AutoAnalysis.Marker.Data.StartVar, 
TestParameter, AutoAnalysis.Marker.Data.StartCondition, 
MetaData, TestRecord.EntryPoint, true
MetaData, TestRecord.RecordTime, 07/05/2020 17:48:55
MetaData, TestRecord.TestTarget, 
MetaData, TestRecord.IterationIndex, 42
MetaData, TestRecord.Preservation, true
MetaData, TestRecord.Flag, 
MetaData, TestRecord.Remarks, 
MetaData, TestRecord.LinkKey, 23210f1f-19c4-4c06-9e47-56962b4ed0bb
Dimension1, 101, 101, 101
Dimension2, 1, 1, 1
DataName, V1, I1, Ohmic
DataValue, -5, -4.5997E-10, 12067360300.180065
DataValue, -4.9, -4.1382E-10, 
DataValue, -4.8, -3.8823E-10, 
DataValue, -4.7, -3.5441E-10, 
DataValue, -4.6000000000000005, -3.4618E-10, 
DataValue, -4.5, -3.1793E-10, 
DataValue, -4.4, -2.9664E-10, 
DataValue, -4.3, -2.7897E-10, 
DataValue, -4.2, -2.4835E-10, 
DataValue, -4.1, -2.4439E-10, 
DataValue, -4, -2.4063E-10, 
DataValue, -3.9, -2.1416E-10, 
DataValue, -3.8000000000000003, -1.9393E-10, 
DataValue, -3.7, -1.8745E-10, 
DataValue, -3.6, -1.7033E-10, 
DataValue, -3.5, -1.6721E-10, 
DataValue, -3.4, -1.6061E-10, 
DataValue, -3.3000000000000003, -1.3821E-10, 
DataValue, -3.2, -1.3426E-10, 
DataValue, -3.1, -1.2907E-10, 
DataValue, -3, -1.1274E-10, 
DataValue, -2.9, -9.593E-11, 
DataValue, -2.8000000000000003, -9.812E-11, 
DataValue, -2.7, -9.211E-11, 
DataValue, -2.6, -8.354E-11, 
DataValue, -2.5, -6.373E-11, 
DataValue, -2.4, -5.994E-11, 
DataValue, -2.3000000000000003, -6.169E-11, 
DataValue, -2.2, -5.612E-11, 
DataValue, -2.1, -3.794E-11, 
DataValue, -2, -3.782E-11, 
DataValue, -1.9000000000000001, -3.306E-11, 
DataValue, -1.8, -3.174E-11, 
DataValue, -1.7, -1.918E-11, 
DataValue, -1.6, -2.086E-11, 
DataValue, -1.5, -1.638E-11, 
DataValue, -1.4000000000000001, -1.061E-11, 
DataValue, -1.3, -2.09E-12, 
DataValue, -1.2, -1.86E-12, 
DataValue, -1.1, 3.25E-12, 
DataValue, -1, 1.21E-12, 
DataValue, -0.9, 4.63E-12, 
DataValue, -0.8, 9.81E-12, 
DataValue, -0.70000000000000007, 9.57E-12, 
DataValue, -0.6, 1.545E-11, 
DataValue, -0.5, 2.288E-11, 
DataValue, -0.4, 1.901E-11, 
DataValue, -0.3, 3.116E-11, 
DataValue, -0.2, 2.509E-11, 
DataValue, -0.1, 2.994E-11, 
DataValue, 0, 2.489E-11, 
DataValue, 0.1, 3.086E-11, 
DataValue, 0.2, 3.19E-11, 
DataValue, 0.3, 4.027E-11, 
DataValue, 0.4, 4.169E-11, 
DataValue, 0.5, 4.803E-11, 
DataValue, 0.6, 5.954E-11, 
DataValue, 0.70000000000000007, 6.174E-11, 
DataValue, 0.8, 7.808E-11, 
DataValue, 0.9, 9.08E-11, 
DataValue, 1, 1.0203E-10, 
DataValue, 1.1, 1.1266E-10, 
DataValue, 1.2, 1.2482E-10, 
DataValue, 1.3, 1.4664E-10, 
DataValue, 1.4000000000000001, 1.6794E-10, 
DataValue, 1.5, 1.8596E-10, 
DataValue, 1.6, 1.9964E-10, 
DataValue, 1.7, 2.2291E-10, 
DataValue, 1.8, 2.4567E-10, 
DataValue, 1.9000000000000001, 2.7079E-10, 
DataValue, 2, 2.9251E-10, 
DataValue, 2.1, 3.3903E-10, 
DataValue, 2.2, 3.481E-10, 
DataValue, 2.3000000000000003, 3.7478E-10, 
DataValue, 2.4, 4.0884E-10, 
DataValue, 2.5, 4.3933E-10, 
DataValue, 2.6, 4.7552E-10, 
DataValue, 2.7, 5.1321E-10, 
DataValue, 2.8000000000000003, 5.423E-10, 
DataValue, 2.9, 5.9432E-10, 
DataValue, 3, 6.1213E-10, 
DataValue, 3.1, 6.6799E-10, 
DataValue, 3.2, 6.9624E-10, 
DataValue, 3.3000000000000003, 7.3266E-10, 
DataValue, 3.4, 7.5884E-10, 
DataValue, 3.5, 8.3284E-10, 
DataValue, 3.6, 8.2125E-10, 
DataValue, 3.7, 8.7156E-10, 
DataValue, 3.8000000000000003, 9.3413E-10, 
DataValue, 3.9, 9.6558E-10, 
DataValue, 4, 1.00218E-09, 
DataValue, 4.1, 1.03889E-09, 
DataValue, 4.2, 1.08261E-09, 
DataValue, 4.3, 1.13389E-09, 
DataValue, 4.4, 1.16624E-09, 
DataValue, 4.5, 1.18248E-09, 
DataValue, 4.6000000000000005, 1.20582E-09, 
DataValue, 4.7, 1.26737E-09, 
DataValue, 4.8, 1.30901E-09, 
DataValue, 4.9, 1.34436E-09, 
DataValue, 5, 1.34121E-09, 