
SetupTitle, WW
PrimitiveTest, I/V Sweep
TestParameter, Context.MainFrame, B1500A
TestParameter, Channel.UnitType, SMU, SMU
TestParameter, Channel.Unit, SMU2:HP, SMU1:HP
TestParameter, Channel.IName, I1, I4
TestParameter, Channel.VName, V1, V4
TestParameter, Channel.Mode, V, COMMON
TestParameter, Channel.Func, VAR1, CONST
TestParameter, Channel.Index, 
TestParameter, Channel.Time, 
TestParameter, Measurement.Port.Unit, SMU2:HP, SMU1:HP
TestParameter, Measurement.Port.SeriesResistor, NONE, NONE
TestParameter, Measurement.Port.Filter, ON, ON
TestParameter, Measurement.Port.OutputVoltageComparison, 0, 0
TestParameter, Measurement.Primary.Locus, Single
TestParameter, Measurement.Primary.Scale, LINEAR
TestParameter, Measurement.Primary.Start, -5
TestParameter, Measurement.Primary.Stop, 5
TestParameter, Measurement.Primary.Step, 0.1
TestParameter, Measurement.Primary.Compliance, 0.1
TestParameter, Measurement.Primary.PowerCompliance, 0
TestParameter, Measurement.Aborting.Condition, CONTINUE AT ANY
TestParameter, Measurement.PostOutput.Value, START
TestParameter, Measurement.PostOutput.Retention, OFF
TestParameter, Measurement.Bias.Source, -5, 0
TestParameter, Measurement.Bias.Compliance, 0.1, 1
TestParameter, Measurement.Monitor.Unit, SMU2:HP, SMU1:HP
TestParameter, Measurement.Monitor.Adc, HR ADC, HR ADC
TestParameter, Measurement.Monitor.Measurement, Compliance Side, Compliance Side
TestParameter, Measurement.Monitor.RangingMode, AUTO, AUTO
TestParameter, Measurement.Monitor.RangeBoundary, , 
TestParameter, Measurement.Monitor.RangeRating, BY FULL RANGE, BY FULL RANGE
TestParameter, Measurement.Monitor.RangeRatingCoeff, 50, 50
TestParameter, Measurement.Timing.Hold, 0
TestParameter, Measurement.Timing.Delay, 0.001
TestParameter, Measurement.Adc.HighSpeed.Mode, AUTO
TestParameter, Measurement.Adc.HighSpeed.Coeff, 1
TestParameter, Measurement.Adc.HighResolution.AutoZero, OFF
TestParameter, Measurement.Adc.HighResolution.Mode, PLC
TestParameter, Measurement.Adc.HighResolution.Coeff, 1
TestParameter, Measurement.WaitTime.Source.Coeff, 1
TestParameter, Measurement.WaitTime.Source.Offset, 0
TestParameter, Measurement.WaitTime.Monitor.Coeff, 1
TestParameter, Measurement.WaitTime.Monitor.Offset, 0
TestParameter, Function.User.Name, Ohmic
TestParameter, Function.User.Unit, ohm
TestParameter, Function.User.Definition, avg(V1/I1)
TestParameter, Output.Graph.Enabled, true
TestParameter, Output.Graph.XAxis.Data, V1
TestParameter, Output.Graph.XAxis.Scale, Linear
TestParameter, Output.Graph.XAxis.Left, -5
TestParameter, Output.Graph.XAxis.Right, 5
TestParameter, Output.Graph.YAxis.Data, I1
TestParameter, Output.Graph.YAxis.Scale, Linear
TestParameter, Output.Graph.YAxis.Bottom, -0.001
TestParameter, Output.Graph.YAxis.Top, 0.001
TestParameter, Output.Graph.YAxis.Group, 
TestParameter, Output.Scalar.Data, Ohmic
TestParameter, AutoAnalysis.Interpolation, false
TestParameter, AutoAnalysis.Line1.Enabled, false
TestParameter, AutoAnalysis.Line1.Type, 1
TestParameter, AutoAnalysis.Line1.Fix, True
TestParameter, AutoAnalysis.Line1.YAxis, 0
TestParameter, AutoAnalysis.Line1.Point1.Type, 0
TestParameter, AutoAnalysis.Line1.Point1.XY.X, 
TestParameter, AutoAnalysis.Line1.Point1.XY.Y, 
TestParameter, AutoAnalysis.Line1.Point1.Data.Var, 
TestParameter, AutoAnalysis.Line1.Point1.Data.Condition, 
TestParameter, AutoAnalysis.Line1.Point1.Data.Start, false
TestParameter, AutoAnalysis.Line1.Point1.Data.StartVar, 
TestParameter, AutoAnalysis.Line1.Point1.Data.StartCondition, 
TestParameter, AutoAnalysis.Line1.Point2.Type, 0
TestParameter, AutoAnalysis.Line1.Point2.XY.X, 
TestParameter, AutoAnalysis.Line1.Point2.XY.Y, 
TestParameter, AutoAnalysis.Line1.Point2.Data.Var, 
TestParameter, AutoAnalysis.Line1.Point2.Data.Condition, 
TestParameter, AutoAnalysis.Line1.Point2.Data.Start, false
TestParameter, AutoAnalysis.Line1.Point2.Data.StartVar, 
TestParameter, AutoAnalysis.Line1.Point2.Data.StartCondition, 
TestParameter, AutoAnalysis.Line1.GradientExpr, 0
TestParameter, AutoAnalysis.Line2.Enabled, false
TestParameter, AutoAnalysis.Line2.Type, 1
TestParameter, AutoAnalysis.Line2.Fix, True
TestParameter, AutoAnalysis.Line2.YAxis, 0
TestParameter, AutoAnalysis.Line2.Point1.Type, 0
TestParameter, AutoAnalysis.Line2.Point1.XY.X, 
TestParameter, AutoAnalysis.Line2.Point1.XY.Y, 
TestParameter, AutoAnalysis.Line2.Point1.Data.Var, 
TestParameter, AutoAnalysis.Line2.Point1.Data.Condition, 
TestParameter, AutoAnalysis.Line2.Point1.Data.Start, false
TestParameter, AutoAnalysis.Line2.Point1.Data.StartVar, 
TestParameter, AutoAnalysis.Line2.Point1.Data.StartCondition, 
TestParameter, AutoAnalysis.Line2.Point2.Type, 0
TestParameter, AutoAnalysis.Line2.Point2.XY.X, 
TestParameter, AutoAnalysis.Line2.Point2.XY.Y, 
TestParameter, AutoAnalysis.Line2.Point2.Data.Var, 
TestParameter, AutoAnalysis.Line2.Point2.Data.Condition, 
TestParameter, AutoAnalysis.Line2.Point2.Data.Start, false
TestParameter, AutoAnalysis.Line2.Point2.Data.StartVar, 
TestParameter, AutoAnalysis.Line2.Point2.Data.StartCondition, 
TestParameter, AutoAnalysis.Line2.GradientExpr, 0
TestParameter, AutoAnalysis.Marker.Enabled, false
TestParameter, AutoAnalysis.Marker.Data.Var, 
TestParameter, AutoAnalysis.Marker.Data.Condition, 
TestParameter, AutoAnalysis.Marker.Data.Start, false
TestParameter, AutoAnalysis.Marker.Data.StartVar, 
TestParameter, AutoAnalysis.Marker.Data.StartCondition, 
MetaData, TestRecord.EntryPoint, true
MetaData, TestRecord.RecordTime, 07/05/2020 17:48:24
MetaData, TestRecord.TestTarget, 
MetaData, TestRecord.IterationIndex, 41
MetaData, TestRecord.Preservation, true
MetaData, TestRecord.Flag, 
MetaData, TestRecord.Remarks, 
MetaData, TestRecord.LinkKey, 7c6f58f0-df0c-43ca-9e1b-96c0c7373205
Dimension1, 101, 101, 101
Dimension2, 1, 1, 1
DataName, V1, I1, Ohmic
DataValue, -5, -4.3594E-10, 21210023027.156384
DataValue, -4.9, -3.9967E-10, 
DataValue, -4.8, -3.4444E-10, 
DataValue, -4.7, -3.3307E-10, 
DataValue, -4.6000000000000005, -3.0192E-10, 
DataValue, -4.5, -2.99E-10, 
DataValue, -4.4, -2.7898E-10, 
DataValue, -4.3, -2.2529E-10, 
DataValue, -4.2, -2.1775E-10, 
DataValue, -4.1, -2.2172E-10, 
DataValue, -4, -1.9086E-10, 
DataValue, -3.9, -1.7808E-10, 
DataValue, -3.8000000000000003, -1.8383E-10, 
DataValue, -3.7, -1.6612E-10, 
DataValue, -3.6, -1.5775E-10, 
DataValue, -3.5, -1.5589E-10, 
DataValue, -3.4, -1.3924E-10, 
DataValue, -3.3000000000000003, -1.2674E-10, 
DataValue, -3.2, -1.1138E-10, 
DataValue, -3.1, -1.0893E-10, 
DataValue, -3, -9.297E-11, 
DataValue, -2.9, -9.161E-11, 
DataValue, -2.8000000000000003, -8.727E-11, 
DataValue, -2.7, -7.522E-11, 
DataValue, -2.6, -7.271E-11, 
DataValue, -2.5, -6.456E-11, 
DataValue, -2.4, -5.825E-11, 
DataValue, -2.3000000000000003, -4.965E-11, 
DataValue, -2.2, -4.536E-11, 
DataValue, -2.1, -3.811E-11, 
DataValue, -2, -1.443E-11, 
DataValue, -1.9000000000000001, -3.314E-11, 
DataValue, -1.8, -2.689E-11, 
DataValue, -1.7, -1.224E-11, 
DataValue, -1.6, -2.092E-11, 
DataValue, -1.5, -1.401E-11, 
DataValue, -1.4000000000000001, -1.416E-11, 
DataValue, -1.3, 2.34E-12, 
DataValue, -1.2, -4.1E-13, 
DataValue, -1.1, 7.7E-13, 
DataValue, -1, 7.95E-12, 
DataValue, -0.9, 1.296E-11, 
DataValue, -0.8, 3.5E-12, 
DataValue, -0.70000000000000007, 1.686E-11, 
DataValue, -0.6, 1.845E-11, 
DataValue, -0.5, 2.343E-11, 
DataValue, -0.4, 2.324E-11, 
DataValue, -0.3, 2.262E-11, 
DataValue, -0.2, 2.669E-11, 
DataValue, -0.1, 3.073E-11, 
DataValue, 0, 3.44E-11, 
DataValue, 0.1, 3.246E-11, 
DataValue, 0.2, 3.279E-11, 
DataValue, 0.3, 4.226E-11, 
DataValue, 0.4, 4.978E-11, 
DataValue, 0.5, 5.358E-11, 
DataValue, 0.6, 6.226E-11, 
DataValue, 0.70000000000000007, 7.483E-11, 
DataValue, 0.8, 9.205E-11, 
DataValue, 0.9, 9.848E-11, 
DataValue, 1, 1.077E-10, 
DataValue, 1.1, 1.3065E-10, 
DataValue, 1.2, 1.4481E-10, 
DataValue, 1.3, 1.6414E-10, 
DataValue, 1.4000000000000001, 1.8161E-10, 
DataValue, 1.5, 2.0276E-10, 
DataValue, 1.6, 2.0994E-10, 
DataValue, 1.7, 2.3988E-10, 
DataValue, 1.8, 2.7365E-10, 
DataValue, 1.9000000000000001, 2.9671E-10, 
DataValue, 2, 3.131E-10, 
DataValue, 2.1, 3.5813E-10, 
DataValue, 2.2, 3.648E-10, 
DataValue, 2.3000000000000003, 4.0798E-10, 
DataValue, 2.4, 4.2746E-10, 
DataValue, 2.5, 4.6828E-10, 
DataValue, 2.6, 4.8404E-10, 
DataValue, 2.7, 5.1811E-10, 
DataValue, 2.8000000000000003, 5.5907E-10, 
DataValue, 2.9, 5.8139E-10, 
DataValue, 3, 6.3067E-10, 
DataValue, 3.1, 6.6384E-10, 
DataValue, 3.2, 7.0745E-10, 
DataValue, 3.3000000000000003, 7.3858E-10, 
DataValue, 3.4, 7.7579E-10, 
DataValue, 3.5, 8.2702E-10, 
DataValue, 3.6, 8.8668E-10, 
DataValue, 3.7, 9.2145E-10, 
DataValue, 3.8000000000000003, 9.5168E-10, 
DataValue, 3.9, 1.00137E-09, 
DataValue, 4, 1.05405E-09, 
DataValue, 4.1, 1.11404E-09, 
DataValue, 4.2, 1.15301E-09, 
DataValue, 4.3, 1.19789E-09, 
DataValue, 4.4, 1.23595E-09, 
DataValue, 4.5, 1.28132E-09, 
DataValue, 4.6000000000000005, 1.31233E-09, 
DataValue, 4.7, 1.33726E-09, 
DataValue, 4.8, 1.3712E-09, 
DataValue, 4.9, 1.43726E-09, 
DataValue, 5, 1.44306E-09, 