
SetupTitle, WW
PrimitiveTest, I/V Sweep
TestParameter, Context.MainFrame, B1500A
TestParameter, Channel.UnitType, SMU, SMU
TestParameter, Channel.Unit, SMU2:HP, SMU1:HP
TestParameter, Channel.IName, I1, I4
TestParameter, Channel.VName, V1, V4
TestParameter, Channel.Mode, V, COMMON
TestParameter, Channel.Func, VAR1, CONST
TestParameter, Channel.Index, 
TestParameter, Channel.Time, 
TestParameter, Measurement.Port.Unit, SMU2:HP, SMU1:HP
TestParameter, Measurement.Port.SeriesResistor, NONE, NONE
TestParameter, Measurement.Port.Filter, ON, ON
TestParameter, Measurement.Port.OutputVoltageComparison, 0, 0
TestParameter, Measurement.Primary.Locus, Single
TestParameter, Measurement.Primary.Scale, LINEAR
TestParameter, Measurement.Primary.Start, -5
TestParameter, Measurement.Primary.Stop, 5
TestParameter, Measurement.Primary.Step, 0.1
TestParameter, Measurement.Primary.Compliance, 0.1
TestParameter, Measurement.Primary.PowerCompliance, 0
TestParameter, Measurement.Aborting.Condition, CONTINUE AT ANY
TestParameter, Measurement.PostOutput.Value, START
TestParameter, Measurement.PostOutput.Retention, OFF
TestParameter, Measurement.Bias.Source, -5, 0
TestParameter, Measurement.Bias.Compliance, 0.1, 1
TestParameter, Measurement.Monitor.Unit, SMU2:HP, SMU1:HP
TestParameter, Measurement.Monitor.Adc, HR ADC, HR ADC
TestParameter, Measurement.Monitor.Measurement, Compliance Side, Compliance Side
TestParameter, Measurement.Monitor.RangingMode, AUTO, AUTO
TestParameter, Measurement.Monitor.RangeBoundary, , 
TestParameter, Measurement.Monitor.RangeRating, BY FULL RANGE, BY FULL RANGE
TestParameter, Measurement.Monitor.RangeRatingCoeff, 50, 50
TestParameter, Measurement.Timing.Hold, 0
TestParameter, Measurement.Timing.Delay, 0.001
TestParameter, Measurement.Adc.HighSpeed.Mode, AUTO
TestParameter, Measurement.Adc.HighSpeed.Coeff, 1
TestParameter, Measurement.Adc.HighResolution.AutoZero, OFF
TestParameter, Measurement.Adc.HighResolution.Mode, PLC
TestParameter, Measurement.Adc.HighResolution.Coeff, 1
TestParameter, Measurement.WaitTime.Source.Coeff, 1
TestParameter, Measurement.WaitTime.Source.Offset, 0
TestParameter, Measurement.WaitTime.Monitor.Coeff, 1
TestParameter, Measurement.WaitTime.Monitor.Offset, 0
TestParameter, Function.User.Name, Ohmic
TestParameter, Function.User.Unit, ohm
TestParameter, Function.User.Definition, avg(V1/I1)
TestParameter, Output.Graph.Enabled, true
TestParameter, Output.Graph.XAxis.Data, V1
TestParameter, Output.Graph.XAxis.Scale, Linear
TestParameter, Output.Graph.XAxis.Left, -5
TestParameter, Output.Graph.XAxis.Right, 5
TestParameter, Output.Graph.YAxis.Data, I1
TestParameter, Output.Graph.YAxis.Scale, Linear
TestParameter, Output.Graph.YAxis.Bottom, -0.001
TestParameter, Output.Graph.YAxis.Top, 0.001
TestParameter, Output.Graph.YAxis.Group, 
TestParameter, Output.Scalar.Data, Ohmic
TestParameter, AutoAnalysis.Interpolation, false
TestParameter, AutoAnalysis.Line1.Enabled, false
TestParameter, AutoAnalysis.Line1.Type, 1
TestParameter, AutoAnalysis.Line1.Fix, True
TestParameter, AutoAnalysis.Line1.YAxis, 0
TestParameter, AutoAnalysis.Line1.Point1.Type, 0
TestParameter, AutoAnalysis.Line1.Point1.XY.X, 
TestParameter, AutoAnalysis.Line1.Point1.XY.Y, 
TestParameter, AutoAnalysis.Line1.Point1.Data.Var, 
TestParameter, AutoAnalysis.Line1.Point1.Data.Condition, 
TestParameter, AutoAnalysis.Line1.Point1.Data.Start, false
TestParameter, AutoAnalysis.Line1.Point1.Data.StartVar, 
TestParameter, AutoAnalysis.Line1.Point1.Data.StartCondition, 
TestParameter, AutoAnalysis.Line1.Point2.Type, 0
TestParameter, AutoAnalysis.Line1.Point2.XY.X, 
TestParameter, AutoAnalysis.Line1.Point2.XY.Y, 
TestParameter, AutoAnalysis.Line1.Point2.Data.Var, 
TestParameter, AutoAnalysis.Line1.Point2.Data.Condition, 
TestParameter, AutoAnalysis.Line1.Point2.Data.Start, false
TestParameter, AutoAnalysis.Line1.Point2.Data.StartVar, 
TestParameter, AutoAnalysis.Line1.Point2.Data.StartCondition, 
TestParameter, AutoAnalysis.Line1.GradientExpr, 0
TestParameter, AutoAnalysis.Line2.Enabled, false
TestParameter, AutoAnalysis.Line2.Type, 1
TestParameter, AutoAnalysis.Line2.Fix, True
TestParameter, AutoAnalysis.Line2.YAxis, 0
TestParameter, AutoAnalysis.Line2.Point1.Type, 0
TestParameter, AutoAnalysis.Line2.Point1.XY.X, 
TestParameter, AutoAnalysis.Line2.Point1.XY.Y, 
TestParameter, AutoAnalysis.Line2.Point1.Data.Var, 
TestParameter, AutoAnalysis.Line2.Point1.Data.Condition, 
TestParameter, AutoAnalysis.Line2.Point1.Data.Start, false
TestParameter, AutoAnalysis.Line2.Point1.Data.StartVar, 
TestParameter, AutoAnalysis.Line2.Point1.Data.StartCondition, 
TestParameter, AutoAnalysis.Line2.Point2.Type, 0
TestParameter, AutoAnalysis.Line2.Point2.XY.X, 
TestParameter, AutoAnalysis.Line2.Point2.XY.Y, 
TestParameter, AutoAnalysis.Line2.Point2.Data.Var, 
TestParameter, AutoAnalysis.Line2.Point2.Data.Condition, 
TestParameter, AutoAnalysis.Line2.Point2.Data.Start, false
TestParameter, AutoAnalysis.Line2.Point2.Data.StartVar, 
TestParameter, AutoAnalysis.Line2.Point2.Data.StartCondition, 
TestParameter, AutoAnalysis.Line2.GradientExpr, 0
TestParameter, AutoAnalysis.Marker.Enabled, false
TestParameter, AutoAnalysis.Marker.Data.Var, 
TestParameter, AutoAnalysis.Marker.Data.Condition, 
TestParameter, AutoAnalysis.Marker.Data.Start, false
TestParameter, AutoAnalysis.Marker.Data.StartVar, 
TestParameter, AutoAnalysis.Marker.Data.StartCondition, 
MetaData, TestRecord.EntryPoint, true
MetaData, TestRecord.RecordTime, 07/05/2020 17:47:51
MetaData, TestRecord.TestTarget, 
MetaData, TestRecord.IterationIndex, 40
MetaData, TestRecord.Preservation, true
MetaData, TestRecord.Flag, 
MetaData, TestRecord.Remarks, 
MetaData, TestRecord.LinkKey, aab72af2-836b-4ac5-88bb-c04e155a272c
Dimension1, 101, 101, 101
Dimension2, 1, 1, 1
DataName, V1, I1, Ohmic
DataValue, -5, -5.2215E-10, 77148937170.604553
DataValue, -4.9, -4.802E-10, 
DataValue, -4.8, -4.2396E-10, 
DataValue, -4.7, -3.9651E-10, 
DataValue, -4.6000000000000005, -3.6884E-10, 
DataValue, -4.5, -3.3861E-10, 
DataValue, -4.4, -3.3409E-10, 
DataValue, -4.3, -2.7794E-10, 
DataValue, -4.2, -2.7113E-10, 
DataValue, -4.1, -2.666E-10, 
DataValue, -4, -2.5216E-10, 
DataValue, -3.9, -2.2186E-10, 
DataValue, -3.8000000000000003, -2.1958E-10, 
DataValue, -3.7, -2.2215E-10, 
DataValue, -3.6, -2.0071E-10, 
DataValue, -3.5, -1.7312E-10, 
DataValue, -3.4, -1.6803E-10, 
DataValue, -3.3000000000000003, -1.6477E-10, 
DataValue, -3.2, -1.6048E-10, 
DataValue, -3.1, -1.3945E-10, 
DataValue, -3, -1.3062E-10, 
DataValue, -2.9, -1.3644E-10, 
DataValue, -2.8000000000000003, -1.0639E-10, 
DataValue, -2.7, -1.0215E-10, 
DataValue, -2.6, -9.776E-11, 
DataValue, -2.5, -8.181E-11, 
DataValue, -2.4, -8.347E-11, 
DataValue, -2.3000000000000003, -7.68E-11, 
DataValue, -2.2, -6.297E-11, 
DataValue, -2.1, -6.743E-11, 
DataValue, -2, -5.787E-11, 
DataValue, -1.9000000000000001, -4.004E-11, 
DataValue, -1.8, -3.087E-11, 
DataValue, -1.7, -2.797E-11, 
DataValue, -1.6, -2.334E-11, 
DataValue, -1.5, -1.902E-11, 
DataValue, -1.4000000000000001, -2.074E-11, 
DataValue, -1.3, -2.037E-11, 
DataValue, -1.2, -1.545E-11, 
DataValue, -1.1, -6.07E-12, 
DataValue, -1, 5.09E-12, 
DataValue, -0.9, -1.3E-13, 
DataValue, -0.8, 5.38E-12, 
DataValue, -0.70000000000000007, 6.2099999999999996E-12, 
DataValue, -0.6, 1.27E-11, 
DataValue, -0.5, 2.73E-12, 
DataValue, -0.4, 1.924E-11, 
DataValue, -0.3, 1.196E-11, 
DataValue, -0.2, 2.669E-11, 
DataValue, -0.1, 2.837E-11, 
DataValue, 0, 2.542E-11, 
DataValue, 0.1, 4.028E-11, 
DataValue, 0.2, 3.414E-11, 
DataValue, 0.3, 4.6E-11, 
DataValue, 0.4, 5.014E-11, 
DataValue, 0.5, 5.91E-11, 
DataValue, 0.6, 6.668E-11, 
DataValue, 0.70000000000000007, 7.396E-11, 
DataValue, 0.8, 8.491E-11, 
DataValue, 0.9, 1.0732E-10, 
DataValue, 1, 1.0728E-10, 
DataValue, 1.1, 1.2775E-10, 
DataValue, 1.2, 1.374E-10, 
DataValue, 1.3, 1.6347E-10, 
DataValue, 1.4000000000000001, 1.7617E-10, 
DataValue, 1.5, 2.0021E-10, 
DataValue, 1.6, 2.2382E-10, 
DataValue, 1.7, 2.4788E-10, 
DataValue, 1.8, 2.6909E-10, 
DataValue, 1.9000000000000001, 2.978E-10, 
DataValue, 2, 3.2469E-10, 
DataValue, 2.1, 3.5174E-10, 
DataValue, 2.2, 3.842E-10, 
DataValue, 2.3000000000000003, 4.016E-10, 
DataValue, 2.4, 4.4068E-10, 
DataValue, 2.5, 4.8351E-10, 
DataValue, 2.6, 4.9992E-10, 
DataValue, 2.7, 5.5735E-10, 
DataValue, 2.8000000000000003, 5.964E-10, 
DataValue, 2.9, 6.1299E-10, 
DataValue, 3, 6.5128E-10, 
DataValue, 3.1, 7.0174E-10, 
DataValue, 3.2, 7.3669E-10, 
DataValue, 3.3000000000000003, 7.7299E-10, 
DataValue, 3.4, 8.1534E-10, 
DataValue, 3.5, 8.7038E-10, 
DataValue, 3.6, 9.0982E-10, 
DataValue, 3.7, 9.4413E-10, 
DataValue, 3.8000000000000003, 9.6764E-10, 
DataValue, 3.9, 1.00287E-09, 
DataValue, 4, 1.03109E-09, 
DataValue, 4.1, 1.08202E-09, 
DataValue, 4.2, 1.10184E-09, 
DataValue, 4.3, 1.20174E-09, 
DataValue, 4.4, 1.17113E-09, 
DataValue, 4.5, 1.24854E-09, 
DataValue, 4.6000000000000005, 1.25334E-09, 
DataValue, 4.7, 1.28976E-09, 
DataValue, 4.8, 1.36542E-09, 
DataValue, 4.9, 1.39975E-09, 
DataValue, 5, 1.37413E-09, 