
SetupTitle, WW
PrimitiveTest, I/V Sweep
TestParameter, Context.MainFrame, B1500A
TestParameter, Channel.UnitType, SMU, SMU
TestParameter, Channel.Unit, SMU2:HP, SMU1:HP
TestParameter, Channel.IName, I1, I4
TestParameter, Channel.VName, V1, V4
TestParameter, Channel.Mode, V, COMMON
TestParameter, Channel.Func, VAR1, CONST
TestParameter, Channel.Index, 
TestParameter, Channel.Time, 
TestParameter, Measurement.Port.Unit, SMU2:HP, SMU1:HP
TestParameter, Measurement.Port.SeriesResistor, NONE, NONE
TestParameter, Measurement.Port.Filter, ON, ON
TestParameter, Measurement.Port.OutputVoltageComparison, 0, 0
TestParameter, Measurement.Primary.Locus, Single
TestParameter, Measurement.Primary.Scale, LINEAR
TestParameter, Measurement.Primary.Start, -5
TestParameter, Measurement.Primary.Stop, 5
TestParameter, Measurement.Primary.Step, 0.1
TestParameter, Measurement.Primary.Compliance, 0.1
TestParameter, Measurement.Primary.PowerCompliance, 0
TestParameter, Measurement.Aborting.Condition, CONTINUE AT ANY
TestParameter, Measurement.PostOutput.Value, START
TestParameter, Measurement.PostOutput.Retention, OFF
TestParameter, Measurement.Bias.Source, -5, 0
TestParameter, Measurement.Bias.Compliance, 0.1, 1
TestParameter, Measurement.Monitor.Unit, SMU2:HP, SMU1:HP
TestParameter, Measurement.Monitor.Adc, HR ADC, HR ADC
TestParameter, Measurement.Monitor.Measurement, Compliance Side, Compliance Side
TestParameter, Measurement.Monitor.RangingMode, AUTO, AUTO
TestParameter, Measurement.Monitor.RangeBoundary, , 
TestParameter, Measurement.Monitor.RangeRating, BY FULL RANGE, BY FULL RANGE
TestParameter, Measurement.Monitor.RangeRatingCoeff, 50, 50
TestParameter, Measurement.Timing.Hold, 0
TestParameter, Measurement.Timing.Delay, 0.001
TestParameter, Measurement.Adc.HighSpeed.Mode, AUTO
TestParameter, Measurement.Adc.HighSpeed.Coeff, 1
TestParameter, Measurement.Adc.HighResolution.AutoZero, OFF
TestParameter, Measurement.Adc.HighResolution.Mode, PLC
TestParameter, Measurement.Adc.HighResolution.Coeff, 1
TestParameter, Measurement.WaitTime.Source.Coeff, 1
TestParameter, Measurement.WaitTime.Source.Offset, 0
TestParameter, Measurement.WaitTime.Monitor.Coeff, 1
TestParameter, Measurement.WaitTime.Monitor.Offset, 0
TestParameter, Function.User.Name, Ohmic
TestParameter, Function.User.Unit, ohm
TestParameter, Function.User.Definition, avg(V1/I1)
TestParameter, Output.Graph.Enabled, true
TestParameter, Output.Graph.XAxis.Data, V1
TestParameter, Output.Graph.XAxis.Scale, Linear
TestParameter, Output.Graph.XAxis.Left, -5
TestParameter, Output.Graph.XAxis.Right, 5
TestParameter, Output.Graph.YAxis.Data, I1
TestParameter, Output.Graph.YAxis.Scale, Linear
TestParameter, Output.Graph.YAxis.Bottom, -0.001
TestParameter, Output.Graph.YAxis.Top, 0.001
TestParameter, Output.Graph.YAxis.Group, 
TestParameter, Output.Scalar.Data, Ohmic
TestParameter, AutoAnalysis.Interpolation, false
TestParameter, AutoAnalysis.Line1.Enabled, false
TestParameter, AutoAnalysis.Line1.Type, 1
TestParameter, AutoAnalysis.Line1.Fix, True
TestParameter, AutoAnalysis.Line1.YAxis, 0
TestParameter, AutoAnalysis.Line1.Point1.Type, 0
TestParameter, AutoAnalysis.Line1.Point1.XY.X, 
TestParameter, AutoAnalysis.Line1.Point1.XY.Y, 
TestParameter, AutoAnalysis.Line1.Point1.Data.Var, 
TestParameter, AutoAnalysis.Line1.Point1.Data.Condition, 
TestParameter, AutoAnalysis.Line1.Point1.Data.Start, false
TestParameter, AutoAnalysis.Line1.Point1.Data.StartVar, 
TestParameter, AutoAnalysis.Line1.Point1.Data.StartCondition, 
TestParameter, AutoAnalysis.Line1.Point2.Type, 0
TestParameter, AutoAnalysis.Line1.Point2.XY.X, 
TestParameter, AutoAnalysis.Line1.Point2.XY.Y, 
TestParameter, AutoAnalysis.Line1.Point2.Data.Var, 
TestParameter, AutoAnalysis.Line1.Point2.Data.Condition, 
TestParameter, AutoAnalysis.Line1.Point2.Data.Start, false
TestParameter, AutoAnalysis.Line1.Point2.Data.StartVar, 
TestParameter, AutoAnalysis.Line1.Point2.Data.StartCondition, 
TestParameter, AutoAnalysis.Line1.GradientExpr, 0
TestParameter, AutoAnalysis.Line2.Enabled, false
TestParameter, AutoAnalysis.Line2.Type, 1
TestParameter, AutoAnalysis.Line2.Fix, True
TestParameter, AutoAnalysis.Line2.YAxis, 0
TestParameter, AutoAnalysis.Line2.Point1.Type, 0
TestParameter, AutoAnalysis.Line2.Point1.XY.X, 
TestParameter, AutoAnalysis.Line2.Point1.XY.Y, 
TestParameter, AutoAnalysis.Line2.Point1.Data.Var, 
TestParameter, AutoAnalysis.Line2.Point1.Data.Condition, 
TestParameter, AutoAnalysis.Line2.Point1.Data.Start, false
TestParameter, AutoAnalysis.Line2.Point1.Data.StartVar, 
TestParameter, AutoAnalysis.Line2.Point1.Data.StartCondition, 
TestParameter, AutoAnalysis.Line2.Point2.Type, 0
TestParameter, AutoAnalysis.Line2.Point2.XY.X, 
TestParameter, AutoAnalysis.Line2.Point2.XY.Y, 
TestParameter, AutoAnalysis.Line2.Point2.Data.Var, 
TestParameter, AutoAnalysis.Line2.Point2.Data.Condition, 
TestParameter, AutoAnalysis.Line2.Point2.Data.Start, false
TestParameter, AutoAnalysis.Line2.Point2.Data.StartVar, 
TestParameter, AutoAnalysis.Line2.Point2.Data.StartCondition, 
TestParameter, AutoAnalysis.Line2.GradientExpr, 0
TestParameter, AutoAnalysis.Marker.Enabled, false
TestParameter, AutoAnalysis.Marker.Data.Var, 
TestParameter, AutoAnalysis.Marker.Data.Condition, 
TestParameter, AutoAnalysis.Marker.Data.Start, false
TestParameter, AutoAnalysis.Marker.Data.StartVar, 
TestParameter, AutoAnalysis.Marker.Data.StartCondition, 
MetaData, TestRecord.EntryPoint, true
MetaData, TestRecord.RecordTime, 07/05/2020 17:45:20
MetaData, TestRecord.TestTarget, 
MetaData, TestRecord.IterationIndex, 37
MetaData, TestRecord.Preservation, true
MetaData, TestRecord.Flag, 
MetaData, TestRecord.Remarks, 
MetaData, TestRecord.LinkKey, 208335ee-65f3-474b-9c2e-41a1e5a7f3e7
Dimension1, 101, 101, 101
Dimension2, 1, 1, 1
DataName, V1, I1, Ohmic
DataValue, -5, -5.5029E-10, 60053248452.331314
DataValue, -4.9, -5.2131E-10, 
DataValue, -4.8, -4.8522E-10, 
DataValue, -4.7, -4.2455E-10, 
DataValue, -4.6000000000000005, -3.8879E-10, 
DataValue, -4.5, -3.9583E-10, 
DataValue, -4.4, -3.7884E-10, 
DataValue, -4.3, -3.1475E-10, 
DataValue, -4.2, -2.9598E-10, 
DataValue, -4.1, -2.6158E-10, 
DataValue, -4, -2.7364E-10, 
DataValue, -3.9, -2.3563E-10, 
DataValue, -3.8000000000000003, -2.0725E-10, 
DataValue, -3.7, -1.9691E-10, 
DataValue, -3.6, -1.8569E-10, 
DataValue, -3.5, -1.6081E-10, 
DataValue, -3.4, -1.6747E-10, 
DataValue, -3.3000000000000003, -1.4565E-10, 
DataValue, -3.2, -1.3281E-10, 
DataValue, -3.1, -1.2599E-10, 
DataValue, -3, -1.1862E-10, 
DataValue, -2.9, -7.456E-11, 
DataValue, -2.8000000000000003, -7.932E-11, 
DataValue, -2.7, -9.358E-11, 
DataValue, -2.6, -7.887E-11, 
DataValue, -2.5, -6.709E-11, 
DataValue, -2.4, -6.639E-11, 
DataValue, -2.3000000000000003, -5.643E-11, 
DataValue, -2.2, -3.54E-11, 
DataValue, -2.1, -3.637E-11, 
DataValue, -2, -2.04E-11, 
DataValue, -1.9000000000000001, -2.715E-11, 
DataValue, -1.8, -3.09E-11, 
DataValue, -1.7, -1.745E-11, 
DataValue, -1.6, -1.857E-11, 
DataValue, -1.5, -3.35E-12, 
DataValue, -1.4000000000000001, -4.53E-12, 
DataValue, -1.3, -6.65E-12, 
DataValue, -1.2, -2.8E-13, 
DataValue, -1.1, -1.325E-11, 
DataValue, -1, 3.26E-12, 
DataValue, -0.9, -9.12E-12, 
DataValue, -0.8, 5.87E-12, 
DataValue, -0.70000000000000007, 4.98E-12, 
DataValue, -0.6, 1.037E-11, 
DataValue, -0.5, 2.051E-11, 
DataValue, -0.4, 1.683E-11, 
DataValue, -0.3, 1.785E-11, 
DataValue, -0.2, 1.935E-11, 
DataValue, -0.1, 3.57E-12, 
DataValue, 0, 2.646E-11, 
DataValue, 0.1, 2.344E-11, 
DataValue, 0.2, 3.467E-11, 
DataValue, 0.3, 3.927E-11, 
DataValue, 0.4, 4.81E-11, 
DataValue, 0.5, 6.361E-11, 
DataValue, 0.6, 7.082E-11, 
DataValue, 0.70000000000000007, 8.121E-11, 
DataValue, 0.8, 9.448E-11, 
DataValue, 0.9, 1.1537999999999999E-10, 
DataValue, 1, 1.2545E-10, 
DataValue, 1.1, 1.5222E-10, 
DataValue, 1.2, 1.6816E-10, 
DataValue, 1.3, 1.8675E-10, 
DataValue, 1.4000000000000001, 2.0769E-10, 
DataValue, 1.5, 2.2873E-10, 
DataValue, 1.6, 2.5012E-10, 
DataValue, 1.7, 2.7507E-10, 
DataValue, 1.8, 2.9818E-10, 
DataValue, 1.9000000000000001, 3.287E-10, 
DataValue, 2, 3.5399E-10, 
DataValue, 2.1, 3.794E-10, 
DataValue, 2.2, 4.1032E-10, 
DataValue, 2.3000000000000003, 4.5436E-10, 
DataValue, 2.4, 4.7076E-10, 
DataValue, 2.5, 4.9845E-10, 
DataValue, 2.6, 5.2847E-10, 
DataValue, 2.7, 5.6997E-10, 
DataValue, 2.8000000000000003, 5.9877E-10, 
DataValue, 2.9, 6.3733E-10, 
DataValue, 3, 6.6916E-10, 
DataValue, 3.1, 7.1635E-10, 
DataValue, 3.2, 7.4061E-10, 
DataValue, 3.3000000000000003, 7.93E-10, 
DataValue, 3.4, 8.3671E-10, 
DataValue, 3.5, 8.661E-10, 
DataValue, 3.6, 9.0615E-10, 
DataValue, 3.7, 9.4094E-10, 
DataValue, 3.8000000000000003, 9.8218E-10, 
DataValue, 3.9, 9.9496E-10, 
DataValue, 4, 1.043E-09, 
DataValue, 4.1, 1.08661E-09, 
DataValue, 4.2, 1.13144E-09, 
DataValue, 4.3, 1.14658E-09, 
DataValue, 4.4, 1.20742E-09, 
DataValue, 4.5, 1.24054E-09, 
DataValue, 4.6000000000000005, 1.25611E-09, 
DataValue, 4.7, 1.28152E-09, 
DataValue, 4.8, 1.33027E-09, 
DataValue, 4.9, 1.387E-09, 
DataValue, 5, 1.39057E-09, 