
SetupTitle, WW
PrimitiveTest, I/V Sweep
TestParameter, Context.MainFrame, B1500A
TestParameter, Channel.UnitType, SMU, SMU
TestParameter, Channel.Unit, SMU2:HP, SMU1:HP
TestParameter, Channel.IName, I1, I4
TestParameter, Channel.VName, V1, V4
TestParameter, Channel.Mode, V, COMMON
TestParameter, Channel.Func, VAR1, CONST
TestParameter, Channel.Index, 
TestParameter, Channel.Time, 
TestParameter, Measurement.Port.Unit, SMU2:HP, SMU1:HP
TestParameter, Measurement.Port.SeriesResistor, NONE, NONE
TestParameter, Measurement.Port.Filter, ON, ON
TestParameter, Measurement.Port.OutputVoltageComparison, 0, 0
TestParameter, Measurement.Primary.Locus, Single
TestParameter, Measurement.Primary.Scale, LINEAR
TestParameter, Measurement.Primary.Start, -5
TestParameter, Measurement.Primary.Stop, 5
TestParameter, Measurement.Primary.Step, 0.1
TestParameter, Measurement.Primary.Compliance, 0.1
TestParameter, Measurement.Primary.PowerCompliance, 0
TestParameter, Measurement.Aborting.Condition, CONTINUE AT ANY
TestParameter, Measurement.PostOutput.Value, START
TestParameter, Measurement.PostOutput.Retention, OFF
TestParameter, Measurement.Bias.Source, -5, 0
TestParameter, Measurement.Bias.Compliance, 0.1, 1
TestParameter, Measurement.Monitor.Unit, SMU2:HP, SMU1:HP
TestParameter, Measurement.Monitor.Adc, HR ADC, HR ADC
TestParameter, Measurement.Monitor.Measurement, Compliance Side, Compliance Side
TestParameter, Measurement.Monitor.RangingMode, AUTO, AUTO
TestParameter, Measurement.Monitor.RangeBoundary, , 
TestParameter, Measurement.Monitor.RangeRating, BY FULL RANGE, BY FULL RANGE
TestParameter, Measurement.Monitor.RangeRatingCoeff, 50, 50
TestParameter, Measurement.Timing.Hold, 0
TestParameter, Measurement.Timing.Delay, 0.001
TestParameter, Measurement.Adc.HighSpeed.Mode, AUTO
TestParameter, Measurement.Adc.HighSpeed.Coeff, 1
TestParameter, Measurement.Adc.HighResolution.AutoZero, OFF
TestParameter, Measurement.Adc.HighResolution.Mode, PLC
TestParameter, Measurement.Adc.HighResolution.Coeff, 1
TestParameter, Measurement.WaitTime.Source.Coeff, 1
TestParameter, Measurement.WaitTime.Source.Offset, 0
TestParameter, Measurement.WaitTime.Monitor.Coeff, 1
TestParameter, Measurement.WaitTime.Monitor.Offset, 0
TestParameter, Function.User.Name, Ohmic
TestParameter, Function.User.Unit, ohm
TestParameter, Function.User.Definition, avg(V1/I1)
TestParameter, Output.Graph.Enabled, true
TestParameter, Output.Graph.XAxis.Data, V1
TestParameter, Output.Graph.XAxis.Scale, Linear
TestParameter, Output.Graph.XAxis.Left, -5
TestParameter, Output.Graph.XAxis.Right, 5
TestParameter, Output.Graph.YAxis.Data, I1
TestParameter, Output.Graph.YAxis.Scale, Linear
TestParameter, Output.Graph.YAxis.Bottom, -0.001
TestParameter, Output.Graph.YAxis.Top, 0.001
TestParameter, Output.Graph.YAxis.Group, 
TestParameter, Output.Scalar.Data, Ohmic
TestParameter, AutoAnalysis.Interpolation, false
TestParameter, AutoAnalysis.Line1.Enabled, false
TestParameter, AutoAnalysis.Line1.Type, 1
TestParameter, AutoAnalysis.Line1.Fix, True
TestParameter, AutoAnalysis.Line1.YAxis, 0
TestParameter, AutoAnalysis.Line1.Point1.Type, 0
TestParameter, AutoAnalysis.Line1.Point1.XY.X, 
TestParameter, AutoAnalysis.Line1.Point1.XY.Y, 
TestParameter, AutoAnalysis.Line1.Point1.Data.Var, 
TestParameter, AutoAnalysis.Line1.Point1.Data.Condition, 
TestParameter, AutoAnalysis.Line1.Point1.Data.Start, false
TestParameter, AutoAnalysis.Line1.Point1.Data.StartVar, 
TestParameter, AutoAnalysis.Line1.Point1.Data.StartCondition, 
TestParameter, AutoAnalysis.Line1.Point2.Type, 0
TestParameter, AutoAnalysis.Line1.Point2.XY.X, 
TestParameter, AutoAnalysis.Line1.Point2.XY.Y, 
TestParameter, AutoAnalysis.Line1.Point2.Data.Var, 
TestParameter, AutoAnalysis.Line1.Point2.Data.Condition, 
TestParameter, AutoAnalysis.Line1.Point2.Data.Start, false
TestParameter, AutoAnalysis.Line1.Point2.Data.StartVar, 
TestParameter, AutoAnalysis.Line1.Point2.Data.StartCondition, 
TestParameter, AutoAnalysis.Line1.GradientExpr, 0
TestParameter, AutoAnalysis.Line2.Enabled, false
TestParameter, AutoAnalysis.Line2.Type, 1
TestParameter, AutoAnalysis.Line2.Fix, True
TestParameter, AutoAnalysis.Line2.YAxis, 0
TestParameter, AutoAnalysis.Line2.Point1.Type, 0
TestParameter, AutoAnalysis.Line2.Point1.XY.X, 
TestParameter, AutoAnalysis.Line2.Point1.XY.Y, 
TestParameter, AutoAnalysis.Line2.Point1.Data.Var, 
TestParameter, AutoAnalysis.Line2.Point1.Data.Condition, 
TestParameter, AutoAnalysis.Line2.Point1.Data.Start, false
TestParameter, AutoAnalysis.Line2.Point1.Data.StartVar, 
TestParameter, AutoAnalysis.Line2.Point1.Data.StartCondition, 
TestParameter, AutoAnalysis.Line2.Point2.Type, 0
TestParameter, AutoAnalysis.Line2.Point2.XY.X, 
TestParameter, AutoAnalysis.Line2.Point2.XY.Y, 
TestParameter, AutoAnalysis.Line2.Point2.Data.Var, 
TestParameter, AutoAnalysis.Line2.Point2.Data.Condition, 
TestParameter, AutoAnalysis.Line2.Point2.Data.Start, false
TestParameter, AutoAnalysis.Line2.Point2.Data.StartVar, 
TestParameter, AutoAnalysis.Line2.Point2.Data.StartCondition, 
TestParameter, AutoAnalysis.Line2.GradientExpr, 0
TestParameter, AutoAnalysis.Marker.Enabled, false
TestParameter, AutoAnalysis.Marker.Data.Var, 
TestParameter, AutoAnalysis.Marker.Data.Condition, 
TestParameter, AutoAnalysis.Marker.Data.Start, false
TestParameter, AutoAnalysis.Marker.Data.StartVar, 
TestParameter, AutoAnalysis.Marker.Data.StartCondition, 
MetaData, TestRecord.EntryPoint, true
MetaData, TestRecord.RecordTime, 07/05/2020 17:44:10
MetaData, TestRecord.TestTarget, 
MetaData, TestRecord.IterationIndex, 35
MetaData, TestRecord.Preservation, true
MetaData, TestRecord.Flag, 
MetaData, TestRecord.Remarks, 
MetaData, TestRecord.LinkKey, 8f2a280c-7c06-4d1c-b15d-e6e3813c8546
Dimension1, 101, 101, 101
Dimension2, 1, 1, 1
DataName, V1, I1, Ohmic
DataValue, -5, -5.2718E-10, 13726799224.255535
DataValue, -4.9, -4.6003E-10, 
DataValue, -4.8, -4.1783E-10, 
DataValue, -4.7, -3.6693E-10, 
DataValue, -4.6000000000000005, -3.559E-10, 
DataValue, -4.5, -3.2203E-10, 
DataValue, -4.4, -2.9285E-10, 
DataValue, -4.3, -2.6445E-10, 
DataValue, -4.2, -2.6283E-10, 
DataValue, -4.1, -2.4634E-10, 
DataValue, -4, -2.1623E-10, 
DataValue, -3.9, -2.109E-10, 
DataValue, -3.8000000000000003, -1.9019E-10, 
DataValue, -3.7, -1.9803E-10, 
DataValue, -3.6, -1.7504E-10, 
DataValue, -3.5, -1.4766E-10, 
DataValue, -3.4, -1.5034E-10, 
DataValue, -3.3000000000000003, -1.551E-10, 
DataValue, -3.2, -1.3301E-10, 
DataValue, -3.1, -1.1343E-10, 
DataValue, -3, -1.1722E-10, 
DataValue, -2.9, -1.03E-10, 
DataValue, -2.8000000000000003, -9.565E-11, 
DataValue, -2.7, -8.251E-11, 
DataValue, -2.6, -8.192E-11, 
DataValue, -2.5, -8.043E-11, 
DataValue, -2.4, -7.312E-11, 
DataValue, -2.3000000000000003, -5.803E-11, 
DataValue, -2.2, -5.629E-11, 
DataValue, -2.1, -4.731E-11, 
DataValue, -2, -5.6E-11, 
DataValue, -1.9000000000000001, -3.653E-11, 
DataValue, -1.8, -3.189E-11, 
DataValue, -1.7, -3.048E-11, 
DataValue, -1.6, -2.029E-11, 
DataValue, -1.5, -4.48E-12, 
DataValue, -1.4000000000000001, -7.2E-12, 
DataValue, -1.3, -1.075E-11, 
DataValue, -1.2, -1.046E-11, 
DataValue, -1.1, 6.27E-12, 
DataValue, -1, -5.12E-12, 
DataValue, -0.9, 2.9E-12, 
DataValue, -0.8, 5.24E-12, 
DataValue, -0.70000000000000007, 1.216E-11, 
DataValue, -0.6, 1.139E-11, 
DataValue, -0.5, 2.019E-11, 
DataValue, -0.4, 2.411E-11, 
DataValue, -0.3, 2.266E-11, 
DataValue, -0.2, 2.766E-11, 
DataValue, -0.1, 3.193E-11, 
DataValue, 0, 3.097E-11, 
DataValue, 0.1, 3.356E-11, 
DataValue, 0.2, 3.091E-11, 
DataValue, 0.3, 4.403E-11, 
DataValue, 0.4, 4.53E-11, 
DataValue, 0.5, 5.788E-11, 
DataValue, 0.6, 6.937E-11, 
DataValue, 0.70000000000000007, 7.993E-11, 
DataValue, 0.8, 9.261E-11, 
DataValue, 0.9, 1.0377E-10, 
DataValue, 1, 1.1966E-10, 
DataValue, 1.1, 1.4508999999999999E-10, 
DataValue, 1.2, 1.5749E-10, 
DataValue, 1.3, 1.7858E-10, 
DataValue, 1.4000000000000001, 1.9837E-10, 
DataValue, 1.5, 2.2226E-10, 
DataValue, 1.6, 2.4493E-10, 
DataValue, 1.7, 2.6241E-10, 
DataValue, 1.8, 2.8883E-10, 
DataValue, 1.9000000000000001, 3.2034E-10, 
DataValue, 2, 3.3714E-10, 
DataValue, 2.1, 3.7814E-10, 
DataValue, 2.2, 4.0599E-10, 
DataValue, 2.3000000000000003, 4.4256E-10, 
DataValue, 2.4, 4.628E-10, 
DataValue, 2.5, 4.8375E-10, 
DataValue, 2.6, 5.269E-10, 
DataValue, 2.7, 5.7036E-10, 
DataValue, 2.8000000000000003, 5.6596E-10, 
DataValue, 2.9, 6.2242E-10, 
DataValue, 3, 6.6589E-10, 
DataValue, 3.1, 6.7751E-10, 
DataValue, 3.2, 7.163E-10, 
DataValue, 3.3000000000000003, 7.4078E-10, 
DataValue, 3.4, 7.9179E-10, 
DataValue, 3.5, 8.3432E-10, 
DataValue, 3.6, 8.6216E-10, 
DataValue, 3.7, 8.8747E-10, 
DataValue, 3.8000000000000003, 9.1596E-10, 
DataValue, 3.9, 9.603E-10, 
DataValue, 4, 9.9049E-10, 
DataValue, 4.1, 1.01437E-09, 
DataValue, 4.2, 1.04688E-09, 
DataValue, 4.3, 1.1015E-09, 
DataValue, 4.4, 1.11771E-09, 
DataValue, 4.5, 1.1591E-09, 
DataValue, 4.6000000000000005, 1.16249E-09, 
DataValue, 4.7, 1.19981E-09, 
DataValue, 4.8, 1.26501E-09, 
DataValue, 4.9, 1.29941E-09, 
DataValue, 5, 1.31944E-09, 