
SetupTitle, WW
PrimitiveTest, I/V Sweep
TestParameter, Context.MainFrame, B1500A
TestParameter, Channel.UnitType, SMU, SMU
TestParameter, Channel.Unit, SMU2:HP, SMU1:HP
TestParameter, Channel.IName, I1, I4
TestParameter, Channel.VName, V1, V4
TestParameter, Channel.Mode, V, COMMON
TestParameter, Channel.Func, VAR1, CONST
TestParameter, Channel.Index, 
TestParameter, Channel.Time, 
TestParameter, Measurement.Port.Unit, SMU2:HP, SMU1:HP
TestParameter, Measurement.Port.SeriesResistor, NONE, NONE
TestParameter, Measurement.Port.Filter, ON, ON
TestParameter, Measurement.Port.OutputVoltageComparison, 0, 0
TestParameter, Measurement.Primary.Locus, Single
TestParameter, Measurement.Primary.Scale, LINEAR
TestParameter, Measurement.Primary.Start, -5
TestParameter, Measurement.Primary.Stop, 5
TestParameter, Measurement.Primary.Step, 0.1
TestParameter, Measurement.Primary.Compliance, 0.1
TestParameter, Measurement.Primary.PowerCompliance, 0
TestParameter, Measurement.Aborting.Condition, CONTINUE AT ANY
TestParameter, Measurement.PostOutput.Value, START
TestParameter, Measurement.PostOutput.Retention, OFF
TestParameter, Measurement.Bias.Source, -5, 0
TestParameter, Measurement.Bias.Compliance, 0.1, 1
TestParameter, Measurement.Monitor.Unit, SMU2:HP, SMU1:HP
TestParameter, Measurement.Monitor.Adc, HR ADC, HR ADC
TestParameter, Measurement.Monitor.Measurement, Compliance Side, Compliance Side
TestParameter, Measurement.Monitor.RangingMode, AUTO, AUTO
TestParameter, Measurement.Monitor.RangeBoundary, , 
TestParameter, Measurement.Monitor.RangeRating, BY FULL RANGE, BY FULL RANGE
TestParameter, Measurement.Monitor.RangeRatingCoeff, 50, 50
TestParameter, Measurement.Timing.Hold, 0
TestParameter, Measurement.Timing.Delay, 0.001
TestParameter, Measurement.Adc.HighSpeed.Mode, AUTO
TestParameter, Measurement.Adc.HighSpeed.Coeff, 1
TestParameter, Measurement.Adc.HighResolution.AutoZero, OFF
TestParameter, Measurement.Adc.HighResolution.Mode, PLC
TestParameter, Measurement.Adc.HighResolution.Coeff, 1
TestParameter, Measurement.WaitTime.Source.Coeff, 1
TestParameter, Measurement.WaitTime.Source.Offset, 0
TestParameter, Measurement.WaitTime.Monitor.Coeff, 1
TestParameter, Measurement.WaitTime.Monitor.Offset, 0
TestParameter, Function.User.Name, Ohmic
TestParameter, Function.User.Unit, ohm
TestParameter, Function.User.Definition, avg(V1/I1)
TestParameter, Output.Graph.Enabled, true
TestParameter, Output.Graph.XAxis.Data, V1
TestParameter, Output.Graph.XAxis.Scale, Linear
TestParameter, Output.Graph.XAxis.Left, -5
TestParameter, Output.Graph.XAxis.Right, 5
TestParameter, Output.Graph.YAxis.Data, I1
TestParameter, Output.Graph.YAxis.Scale, Linear
TestParameter, Output.Graph.YAxis.Bottom, -0.001
TestParameter, Output.Graph.YAxis.Top, 0.001
TestParameter, Output.Graph.YAxis.Group, 
TestParameter, Output.Scalar.Data, Ohmic
TestParameter, AutoAnalysis.Interpolation, false
TestParameter, AutoAnalysis.Line1.Enabled, false
TestParameter, AutoAnalysis.Line1.Type, 1
TestParameter, AutoAnalysis.Line1.Fix, True
TestParameter, AutoAnalysis.Line1.YAxis, 0
TestParameter, AutoAnalysis.Line1.Point1.Type, 0
TestParameter, AutoAnalysis.Line1.Point1.XY.X, 
TestParameter, AutoAnalysis.Line1.Point1.XY.Y, 
TestParameter, AutoAnalysis.Line1.Point1.Data.Var, 
TestParameter, AutoAnalysis.Line1.Point1.Data.Condition, 
TestParameter, AutoAnalysis.Line1.Point1.Data.Start, false
TestParameter, AutoAnalysis.Line1.Point1.Data.StartVar, 
TestParameter, AutoAnalysis.Line1.Point1.Data.StartCondition, 
TestParameter, AutoAnalysis.Line1.Point2.Type, 0
TestParameter, AutoAnalysis.Line1.Point2.XY.X, 
TestParameter, AutoAnalysis.Line1.Point2.XY.Y, 
TestParameter, AutoAnalysis.Line1.Point2.Data.Var, 
TestParameter, AutoAnalysis.Line1.Point2.Data.Condition, 
TestParameter, AutoAnalysis.Line1.Point2.Data.Start, false
TestParameter, AutoAnalysis.Line1.Point2.Data.StartVar, 
TestParameter, AutoAnalysis.Line1.Point2.Data.StartCondition, 
TestParameter, AutoAnalysis.Line1.GradientExpr, 0
TestParameter, AutoAnalysis.Line2.Enabled, false
TestParameter, AutoAnalysis.Line2.Type, 1
TestParameter, AutoAnalysis.Line2.Fix, True
TestParameter, AutoAnalysis.Line2.YAxis, 0
TestParameter, AutoAnalysis.Line2.Point1.Type, 0
TestParameter, AutoAnalysis.Line2.Point1.XY.X, 
TestParameter, AutoAnalysis.Line2.Point1.XY.Y, 
TestParameter, AutoAnalysis.Line2.Point1.Data.Var, 
TestParameter, AutoAnalysis.Line2.Point1.Data.Condition, 
TestParameter, AutoAnalysis.Line2.Point1.Data.Start, false
TestParameter, AutoAnalysis.Line2.Point1.Data.StartVar, 
TestParameter, AutoAnalysis.Line2.Point1.Data.StartCondition, 
TestParameter, AutoAnalysis.Line2.Point2.Type, 0
TestParameter, AutoAnalysis.Line2.Point2.XY.X, 
TestParameter, AutoAnalysis.Line2.Point2.XY.Y, 
TestParameter, AutoAnalysis.Line2.Point2.Data.Var, 
TestParameter, AutoAnalysis.Line2.Point2.Data.Condition, 
TestParameter, AutoAnalysis.Line2.Point2.Data.Start, false
TestParameter, AutoAnalysis.Line2.Point2.Data.StartVar, 
TestParameter, AutoAnalysis.Line2.Point2.Data.StartCondition, 
TestParameter, AutoAnalysis.Line2.GradientExpr, 0
TestParameter, AutoAnalysis.Marker.Enabled, false
TestParameter, AutoAnalysis.Marker.Data.Var, 
TestParameter, AutoAnalysis.Marker.Data.Condition, 
TestParameter, AutoAnalysis.Marker.Data.Start, false
TestParameter, AutoAnalysis.Marker.Data.StartVar, 
TestParameter, AutoAnalysis.Marker.Data.StartCondition, 
MetaData, TestRecord.EntryPoint, true
MetaData, TestRecord.RecordTime, 07/05/2020 18:12:12
MetaData, TestRecord.TestTarget, 
MetaData, TestRecord.IterationIndex, 79
MetaData, TestRecord.Preservation, true
MetaData, TestRecord.Flag, 
MetaData, TestRecord.Remarks, 
MetaData, TestRecord.LinkKey, 8b9c81a8-9ccb-4489-8352-0a6b33cef2f1
Dimension1, 101, 101, 101
Dimension2, 1, 1, 1
DataName, V1, I1, Ohmic
DataValue, -5, -2.1263E-10, 52174841852.512886
DataValue, -4.9, -1.796E-10, 
DataValue, -4.8, -1.5485E-10, 
DataValue, -4.7, -1.3874E-10, 
DataValue, -4.6000000000000005, -1.2257E-10, 
DataValue, -4.5, -1.1183E-10, 
DataValue, -4.4, -9.719E-11, 
DataValue, -4.3, -9.184E-11, 
DataValue, -4.2, -8.233E-11, 
DataValue, -4.1, -7.576E-11, 
DataValue, -4, -6.533E-11, 
DataValue, -3.9, -6.3E-11, 
DataValue, -3.8000000000000003, -5.639E-11, 
DataValue, -3.7, -5.178E-11, 
DataValue, -3.6, -4.45E-11, 
DataValue, -3.5, -4.268E-11, 
DataValue, -3.4, -3.631E-11, 
DataValue, -3.3000000000000003, -3.554E-11, 
DataValue, -3.2, -2.949E-11, 
DataValue, -3.1, -2.841E-11, 
DataValue, -3, -2.238E-11, 
DataValue, -2.9, -2.169E-11, 
DataValue, -2.8000000000000003, -1.651E-11, 
DataValue, -2.7, -1.618E-11, 
DataValue, -2.6, -1.141E-11, 
DataValue, -2.5, -1.068E-11, 
DataValue, -2.4, -6.12E-12, 
DataValue, -2.3000000000000003, -5.36E-12, 
DataValue, -2.2, -1.54E-12, 
DataValue, -2.1, -1.43E-12, 
DataValue, -2, 4.19E-12, 
DataValue, -1.9000000000000001, 2.99E-12, 
DataValue, -1.8, 7.65E-12, 
DataValue, -1.7, 6.87E-12, 
DataValue, -1.6, 1.052E-11, 
DataValue, -1.5, 1.029E-11, 
DataValue, -1.4000000000000001, 1.578E-11, 
DataValue, -1.3, 1.421E-11, 
DataValue, -1.2, 1.678E-11, 
DataValue, -1.1, 1.698E-11, 
DataValue, -1, 2.235E-11, 
DataValue, -0.9, 2.021E-11, 
DataValue, -0.8, 2.521E-11, 
DataValue, -0.70000000000000007, 2.45E-11, 
DataValue, -0.6, 2.851E-11, 
DataValue, -0.5, 2.695E-11, 
DataValue, -0.4, 3.031E-11, 
DataValue, -0.3, 2.935E-11, 
DataValue, -0.2, 3.484E-11, 
DataValue, -0.1, 3.261E-11, 
DataValue, 0, 3.694E-11, 
DataValue, 0.1, 3.498E-11, 
DataValue, 0.2, 3.964E-11, 
DataValue, 0.3, 3.827E-11, 
DataValue, 0.4, 4.3E-11, 
DataValue, 0.5, 4.117E-11, 
DataValue, 0.6, 4.587E-11, 
DataValue, 0.70000000000000007, 4.37E-11, 
DataValue, 0.8, 4.747E-11, 
DataValue, 0.9, 4.651E-11, 
DataValue, 1, 5.076E-11, 
DataValue, 1.1, 4.811E-11, 
DataValue, 1.2, 5.318E-11, 
DataValue, 1.3, 5.085E-11, 
DataValue, 1.4000000000000001, 5.511E-11, 
DataValue, 1.5, 5.365E-11, 
DataValue, 1.6, 5.789E-11, 
DataValue, 1.7, 5.683E-11, 
DataValue, 1.8, 6.032E-11, 
DataValue, 1.9000000000000001, 5.904E-11, 
DataValue, 2, 6.241E-11, 
DataValue, 2.1, 6.116E-11, 
DataValue, 2.2, 6.426E-11, 
DataValue, 2.3000000000000003, 6.402E-11, 
DataValue, 2.4, 6.746E-11, 
DataValue, 2.5, 6.638E-11, 
DataValue, 2.6, 7.02E-11, 
DataValue, 2.7, 6.867E-11, 
DataValue, 2.8000000000000003, 7.154E-11, 
DataValue, 2.9, 7.134E-11, 
DataValue, 3, 7.535E-11, 
DataValue, 3.1, 7.346E-11, 
DataValue, 3.2, 7.681E-11, 
DataValue, 3.3000000000000003, 7.633E-11, 
DataValue, 3.4, 7.923E-11, 
DataValue, 3.5, 7.978E-11, 
DataValue, 3.6, 8.286E-11, 
DataValue, 3.7, 8.178E-11, 
DataValue, 3.8000000000000003, 8.423E-11, 
DataValue, 3.9, 8.43E-11, 
DataValue, 4, 8.674E-11, 
DataValue, 4.1, 8.664E-11, 
DataValue, 4.2, 8.983E-11, 
DataValue, 4.3, 8.869E-11, 
DataValue, 4.4, 9.283E-11, 
DataValue, 4.5, 9.16E-11, 
DataValue, 4.6000000000000005, 9.501E-11, 
DataValue, 4.7, 9.525E-11, 
DataValue, 4.8, 9.879E-11, 
DataValue, 4.9, 9.771E-11, 
DataValue, 5, 1.0154E-10, 