
SetupTitle, WW
PrimitiveTest, I/V Sweep
TestParameter, Context.MainFrame, B1500A
TestParameter, Channel.UnitType, SMU, SMU
TestParameter, Channel.Unit, SMU2:HP, SMU1:HP
TestParameter, Channel.IName, I1, I4
TestParameter, Channel.VName, V1, V4
TestParameter, Channel.Mode, V, COMMON
TestParameter, Channel.Func, VAR1, CONST
TestParameter, Channel.Index, 
TestParameter, Channel.Time, 
TestParameter, Measurement.Port.Unit, SMU2:HP, SMU1:HP
TestParameter, Measurement.Port.SeriesResistor, NONE, NONE
TestParameter, Measurement.Port.Filter, ON, ON
TestParameter, Measurement.Port.OutputVoltageComparison, 0, 0
TestParameter, Measurement.Primary.Locus, Single
TestParameter, Measurement.Primary.Scale, LINEAR
TestParameter, Measurement.Primary.Start, -5
TestParameter, Measurement.Primary.Stop, 5
TestParameter, Measurement.Primary.Step, 0.1
TestParameter, Measurement.Primary.Compliance, 0.1
TestParameter, Measurement.Primary.PowerCompliance, 0
TestParameter, Measurement.Aborting.Condition, CONTINUE AT ANY
TestParameter, Measurement.PostOutput.Value, START
TestParameter, Measurement.PostOutput.Retention, OFF
TestParameter, Measurement.Bias.Source, -5, 0
TestParameter, Measurement.Bias.Compliance, 0.1, 1
TestParameter, Measurement.Monitor.Unit, SMU2:HP, SMU1:HP
TestParameter, Measurement.Monitor.Adc, HR ADC, HR ADC
TestParameter, Measurement.Monitor.Measurement, Compliance Side, Compliance Side
TestParameter, Measurement.Monitor.RangingMode, AUTO, AUTO
TestParameter, Measurement.Monitor.RangeBoundary, , 
TestParameter, Measurement.Monitor.RangeRating, BY FULL RANGE, BY FULL RANGE
TestParameter, Measurement.Monitor.RangeRatingCoeff, 50, 50
TestParameter, Measurement.Timing.Hold, 0
TestParameter, Measurement.Timing.Delay, 0.001
TestParameter, Measurement.Adc.HighSpeed.Mode, AUTO
TestParameter, Measurement.Adc.HighSpeed.Coeff, 1
TestParameter, Measurement.Adc.HighResolution.AutoZero, OFF
TestParameter, Measurement.Adc.HighResolution.Mode, PLC
TestParameter, Measurement.Adc.HighResolution.Coeff, 1
TestParameter, Measurement.WaitTime.Source.Coeff, 1
TestParameter, Measurement.WaitTime.Source.Offset, 0
TestParameter, Measurement.WaitTime.Monitor.Coeff, 1
TestParameter, Measurement.WaitTime.Monitor.Offset, 0
TestParameter, Function.User.Name, Ohmic
TestParameter, Function.User.Unit, ohm
TestParameter, Function.User.Definition, avg(V1/I1)
TestParameter, Output.Graph.Enabled, true
TestParameter, Output.Graph.XAxis.Data, V1
TestParameter, Output.Graph.XAxis.Scale, Linear
TestParameter, Output.Graph.XAxis.Left, -5
TestParameter, Output.Graph.XAxis.Right, 5
TestParameter, Output.Graph.YAxis.Data, I1
TestParameter, Output.Graph.YAxis.Scale, Linear
TestParameter, Output.Graph.YAxis.Bottom, -0.001
TestParameter, Output.Graph.YAxis.Top, 0.001
TestParameter, Output.Graph.YAxis.Group, 
TestParameter, Output.Scalar.Data, Ohmic
TestParameter, AutoAnalysis.Interpolation, false
TestParameter, AutoAnalysis.Line1.Enabled, false
TestParameter, AutoAnalysis.Line1.Type, 1
TestParameter, AutoAnalysis.Line1.Fix, True
TestParameter, AutoAnalysis.Line1.YAxis, 0
TestParameter, AutoAnalysis.Line1.Point1.Type, 0
TestParameter, AutoAnalysis.Line1.Point1.XY.X, 
TestParameter, AutoAnalysis.Line1.Point1.XY.Y, 
TestParameter, AutoAnalysis.Line1.Point1.Data.Var, 
TestParameter, AutoAnalysis.Line1.Point1.Data.Condition, 
TestParameter, AutoAnalysis.Line1.Point1.Data.Start, false
TestParameter, AutoAnalysis.Line1.Point1.Data.StartVar, 
TestParameter, AutoAnalysis.Line1.Point1.Data.StartCondition, 
TestParameter, AutoAnalysis.Line1.Point2.Type, 0
TestParameter, AutoAnalysis.Line1.Point2.XY.X, 
TestParameter, AutoAnalysis.Line1.Point2.XY.Y, 
TestParameter, AutoAnalysis.Line1.Point2.Data.Var, 
TestParameter, AutoAnalysis.Line1.Point2.Data.Condition, 
TestParameter, AutoAnalysis.Line1.Point2.Data.Start, false
TestParameter, AutoAnalysis.Line1.Point2.Data.StartVar, 
TestParameter, AutoAnalysis.Line1.Point2.Data.StartCondition, 
TestParameter, AutoAnalysis.Line1.GradientExpr, 0
TestParameter, AutoAnalysis.Line2.Enabled, false
TestParameter, AutoAnalysis.Line2.Type, 1
TestParameter, AutoAnalysis.Line2.Fix, True
TestParameter, AutoAnalysis.Line2.YAxis, 0
TestParameter, AutoAnalysis.Line2.Point1.Type, 0
TestParameter, AutoAnalysis.Line2.Point1.XY.X, 
TestParameter, AutoAnalysis.Line2.Point1.XY.Y, 
TestParameter, AutoAnalysis.Line2.Point1.Data.Var, 
TestParameter, AutoAnalysis.Line2.Point1.Data.Condition, 
TestParameter, AutoAnalysis.Line2.Point1.Data.Start, false
TestParameter, AutoAnalysis.Line2.Point1.Data.StartVar, 
TestParameter, AutoAnalysis.Line2.Point1.Data.StartCondition, 
TestParameter, AutoAnalysis.Line2.Point2.Type, 0
TestParameter, AutoAnalysis.Line2.Point2.XY.X, 
TestParameter, AutoAnalysis.Line2.Point2.XY.Y, 
TestParameter, AutoAnalysis.Line2.Point2.Data.Var, 
TestParameter, AutoAnalysis.Line2.Point2.Data.Condition, 
TestParameter, AutoAnalysis.Line2.Point2.Data.Start, false
TestParameter, AutoAnalysis.Line2.Point2.Data.StartVar, 
TestParameter, AutoAnalysis.Line2.Point2.Data.StartCondition, 
TestParameter, AutoAnalysis.Line2.GradientExpr, 0
TestParameter, AutoAnalysis.Marker.Enabled, false
TestParameter, AutoAnalysis.Marker.Data.Var, 
TestParameter, AutoAnalysis.Marker.Data.Condition, 
TestParameter, AutoAnalysis.Marker.Data.Start, false
TestParameter, AutoAnalysis.Marker.Data.StartVar, 
TestParameter, AutoAnalysis.Marker.Data.StartCondition, 
MetaData, TestRecord.EntryPoint, true
MetaData, TestRecord.RecordTime, 07/05/2020 17:42:35
MetaData, TestRecord.TestTarget, 
MetaData, TestRecord.IterationIndex, 32
MetaData, TestRecord.Preservation, true
MetaData, TestRecord.Flag, 
MetaData, TestRecord.Remarks, 
MetaData, TestRecord.LinkKey, fee6fa08-53f1-4a12-bef0-64188de99058
Dimension1, 101, 101, 101
Dimension2, 1, 1, 1
DataName, V1, I1, Ohmic
DataValue, -5, -4.8856E-10, 12813196227.301502
DataValue, -4.9, -4.4178E-10, 
DataValue, -4.8, -3.6187E-10, 
DataValue, -4.7, -3.1502E-10, 
DataValue, -4.6000000000000005, -3.0053E-10, 
DataValue, -4.5, -2.862E-10, 
DataValue, -4.4, -2.3463E-10, 
DataValue, -4.3, -2.483E-10, 
DataValue, -4.2, -2.2008E-10, 
DataValue, -4.1, -2.3135E-10, 
DataValue, -4, -1.8466E-10, 
DataValue, -3.9, -1.6917E-10, 
DataValue, -3.8000000000000003, -1.5754E-10, 
DataValue, -3.7, -1.6032E-10, 
DataValue, -3.6, -1.435E-10, 
DataValue, -3.5, -1.2495E-10, 
DataValue, -3.4, -1.4868E-10, 
DataValue, -3.3000000000000003, -1.1473E-10, 
DataValue, -3.2, -1.103E-10, 
DataValue, -3.1, -9.368E-11, 
DataValue, -3, -8.784E-11, 
DataValue, -2.9, -8.878E-11, 
DataValue, -2.8000000000000003, -9.191E-11, 
DataValue, -2.7, -6.868E-11, 
DataValue, -2.6, -6.698E-11, 
DataValue, -2.5, -6.754E-11, 
DataValue, -2.4, -7.429E-11, 
DataValue, -2.3000000000000003, -3.619E-11, 
DataValue, -2.2, -3.708E-11, 
DataValue, -2.1, -3.141E-11, 
DataValue, -2, -2.93E-11, 
DataValue, -1.9000000000000001, -2.266E-11, 
DataValue, -1.8, -1.117E-11, 
DataValue, -1.7, -1.553E-11, 
DataValue, -1.6, -9.83E-12, 
DataValue, -1.5, -5.18E-12, 
DataValue, -1.4000000000000001, 9.44E-12, 
DataValue, -1.3, 7.05E-12, 
DataValue, -1.2, -4.96E-12, 
DataValue, -1.1, 1.32E-11, 
DataValue, -1, 3.85E-12, 
DataValue, -0.9, 1.118E-11, 
DataValue, -0.8, 1.522E-11, 
DataValue, -0.70000000000000007, 1.576E-11, 
DataValue, -0.6, 2.053E-11, 
DataValue, -0.5, 3.062E-11, 
DataValue, -0.4, 2.216E-11, 
DataValue, -0.3, 2.51E-11, 
DataValue, -0.2, 2.771E-11, 
DataValue, -0.1, 3.683E-11, 
DataValue, 0, 4.027E-11, 
DataValue, 0.1, 3.775E-11, 
DataValue, 0.2, 4.191E-11, 
DataValue, 0.3, 4.69E-11, 
DataValue, 0.4, 4.914E-11, 
DataValue, 0.5, 6.521E-11, 
DataValue, 0.6, 6.746E-11, 
DataValue, 0.70000000000000007, 7.98E-11, 
DataValue, 0.8, 1.0436E-10, 
DataValue, 0.9, 1.1187E-10, 
DataValue, 1, 1.3148E-10, 
DataValue, 1.1, 1.4646E-10, 
DataValue, 1.2, 1.6742E-10, 
DataValue, 1.3, 1.7918E-10, 
DataValue, 1.4000000000000001, 1.9353E-10, 
DataValue, 1.5, 2.2645E-10, 
DataValue, 1.6, 2.4375E-10, 
DataValue, 1.7, 2.6898E-10, 
DataValue, 1.8, 2.9759E-10, 
DataValue, 1.9000000000000001, 3.1797E-10, 
DataValue, 2, 3.4443E-10, 
DataValue, 2.1, 3.7549E-10, 
DataValue, 2.2, 4.096E-10, 
DataValue, 2.3000000000000003, 4.4115E-10, 
DataValue, 2.4, 4.5684E-10, 
DataValue, 2.5, 4.8077E-10, 
DataValue, 2.6, 5.1569E-10, 
DataValue, 2.7, 5.5795E-10, 
DataValue, 2.8000000000000003, 5.8206E-10, 
DataValue, 2.9, 6.0981E-10, 
DataValue, 3, 6.666E-10, 
DataValue, 3.1, 6.8368E-10, 
DataValue, 3.2, 6.9225E-10, 
DataValue, 3.3000000000000003, 7.544E-10, 
DataValue, 3.4, 7.7739E-10, 
DataValue, 3.5, 8.1564E-10, 
DataValue, 3.6, 8.4673E-10, 
DataValue, 3.7, 9.1106E-10, 
DataValue, 3.8000000000000003, 9.3812E-10, 
DataValue, 3.9, 9.6115E-10, 
DataValue, 4, 9.9467E-10, 
DataValue, 4.1, 1.02658E-09, 
DataValue, 4.2, 1.03791E-09, 
DataValue, 4.3, 1.08182E-09, 
DataValue, 4.4, 1.1167E-09, 
DataValue, 4.5, 1.15981E-09, 
DataValue, 4.6000000000000005, 1.18441E-09, 
DataValue, 4.7, 1.23839E-09, 
DataValue, 4.8, 1.26336E-09, 
DataValue, 4.9, 1.29103E-09, 
DataValue, 5, 1.31527E-09, 