
SetupTitle, WW
PrimitiveTest, I/V Sweep
TestParameter, Context.MainFrame, B1500A
TestParameter, Channel.UnitType, SMU, SMU
TestParameter, Channel.Unit, SMU2:HP, SMU1:HP
TestParameter, Channel.IName, I1, I4
TestParameter, Channel.VName, V1, V4
TestParameter, Channel.Mode, V, COMMON
TestParameter, Channel.Func, VAR1, CONST
TestParameter, Channel.Index, 
TestParameter, Channel.Time, 
TestParameter, Measurement.Port.Unit, SMU2:HP, SMU1:HP
TestParameter, Measurement.Port.SeriesResistor, NONE, NONE
TestParameter, Measurement.Port.Filter, ON, ON
TestParameter, Measurement.Port.OutputVoltageComparison, 0, 0
TestParameter, Measurement.Primary.Locus, Single
TestParameter, Measurement.Primary.Scale, LINEAR
TestParameter, Measurement.Primary.Start, -5
TestParameter, Measurement.Primary.Stop, 5
TestParameter, Measurement.Primary.Step, 0.1
TestParameter, Measurement.Primary.Compliance, 0.1
TestParameter, Measurement.Primary.PowerCompliance, 0
TestParameter, Measurement.Aborting.Condition, CONTINUE AT ANY
TestParameter, Measurement.PostOutput.Value, START
TestParameter, Measurement.PostOutput.Retention, OFF
TestParameter, Measurement.Bias.Source, -5, 0
TestParameter, Measurement.Bias.Compliance, 0.1, 1
TestParameter, Measurement.Monitor.Unit, SMU2:HP, SMU1:HP
TestParameter, Measurement.Monitor.Adc, HR ADC, HR ADC
TestParameter, Measurement.Monitor.Measurement, Compliance Side, Compliance Side
TestParameter, Measurement.Monitor.RangingMode, AUTO, AUTO
TestParameter, Measurement.Monitor.RangeBoundary, , 
TestParameter, Measurement.Monitor.RangeRating, BY FULL RANGE, BY FULL RANGE
TestParameter, Measurement.Monitor.RangeRatingCoeff, 50, 50
TestParameter, Measurement.Timing.Hold, 0
TestParameter, Measurement.Timing.Delay, 0.001
TestParameter, Measurement.Adc.HighSpeed.Mode, AUTO
TestParameter, Measurement.Adc.HighSpeed.Coeff, 1
TestParameter, Measurement.Adc.HighResolution.AutoZero, OFF
TestParameter, Measurement.Adc.HighResolution.Mode, PLC
TestParameter, Measurement.Adc.HighResolution.Coeff, 1
TestParameter, Measurement.WaitTime.Source.Coeff, 1
TestParameter, Measurement.WaitTime.Source.Offset, 0
TestParameter, Measurement.WaitTime.Monitor.Coeff, 1
TestParameter, Measurement.WaitTime.Monitor.Offset, 0
TestParameter, Function.User.Name, Ohmic
TestParameter, Function.User.Unit, ohm
TestParameter, Function.User.Definition, avg(V1/I1)
TestParameter, Output.Graph.Enabled, true
TestParameter, Output.Graph.XAxis.Data, V1
TestParameter, Output.Graph.XAxis.Scale, Linear
TestParameter, Output.Graph.XAxis.Left, -5
TestParameter, Output.Graph.XAxis.Right, 5
TestParameter, Output.Graph.YAxis.Data, I1
TestParameter, Output.Graph.YAxis.Scale, Linear
TestParameter, Output.Graph.YAxis.Bottom, -0.001
TestParameter, Output.Graph.YAxis.Top, 0.001
TestParameter, Output.Graph.YAxis.Group, 
TestParameter, Output.Scalar.Data, Ohmic
TestParameter, AutoAnalysis.Interpolation, false
TestParameter, AutoAnalysis.Line1.Enabled, false
TestParameter, AutoAnalysis.Line1.Type, 1
TestParameter, AutoAnalysis.Line1.Fix, True
TestParameter, AutoAnalysis.Line1.YAxis, 0
TestParameter, AutoAnalysis.Line1.Point1.Type, 0
TestParameter, AutoAnalysis.Line1.Point1.XY.X, 
TestParameter, AutoAnalysis.Line1.Point1.XY.Y, 
TestParameter, AutoAnalysis.Line1.Point1.Data.Var, 
TestParameter, AutoAnalysis.Line1.Point1.Data.Condition, 
TestParameter, AutoAnalysis.Line1.Point1.Data.Start, false
TestParameter, AutoAnalysis.Line1.Point1.Data.StartVar, 
TestParameter, AutoAnalysis.Line1.Point1.Data.StartCondition, 
TestParameter, AutoAnalysis.Line1.Point2.Type, 0
TestParameter, AutoAnalysis.Line1.Point2.XY.X, 
TestParameter, AutoAnalysis.Line1.Point2.XY.Y, 
TestParameter, AutoAnalysis.Line1.Point2.Data.Var, 
TestParameter, AutoAnalysis.Line1.Point2.Data.Condition, 
TestParameter, AutoAnalysis.Line1.Point2.Data.Start, false
TestParameter, AutoAnalysis.Line1.Point2.Data.StartVar, 
TestParameter, AutoAnalysis.Line1.Point2.Data.StartCondition, 
TestParameter, AutoAnalysis.Line1.GradientExpr, 0
TestParameter, AutoAnalysis.Line2.Enabled, false
TestParameter, AutoAnalysis.Line2.Type, 1
TestParameter, AutoAnalysis.Line2.Fix, True
TestParameter, AutoAnalysis.Line2.YAxis, 0
TestParameter, AutoAnalysis.Line2.Point1.Type, 0
TestParameter, AutoAnalysis.Line2.Point1.XY.X, 
TestParameter, AutoAnalysis.Line2.Point1.XY.Y, 
TestParameter, AutoAnalysis.Line2.Point1.Data.Var, 
TestParameter, AutoAnalysis.Line2.Point1.Data.Condition, 
TestParameter, AutoAnalysis.Line2.Point1.Data.Start, false
TestParameter, AutoAnalysis.Line2.Point1.Data.StartVar, 
TestParameter, AutoAnalysis.Line2.Point1.Data.StartCondition, 
TestParameter, AutoAnalysis.Line2.Point2.Type, 0
TestParameter, AutoAnalysis.Line2.Point2.XY.X, 
TestParameter, AutoAnalysis.Line2.Point2.XY.Y, 
TestParameter, AutoAnalysis.Line2.Point2.Data.Var, 
TestParameter, AutoAnalysis.Line2.Point2.Data.Condition, 
TestParameter, AutoAnalysis.Line2.Point2.Data.Start, false
TestParameter, AutoAnalysis.Line2.Point2.Data.StartVar, 
TestParameter, AutoAnalysis.Line2.Point2.Data.StartCondition, 
TestParameter, AutoAnalysis.Line2.GradientExpr, 0
TestParameter, AutoAnalysis.Marker.Enabled, false
TestParameter, AutoAnalysis.Marker.Data.Var, 
TestParameter, AutoAnalysis.Marker.Data.Condition, 
TestParameter, AutoAnalysis.Marker.Data.Start, false
TestParameter, AutoAnalysis.Marker.Data.StartVar, 
TestParameter, AutoAnalysis.Marker.Data.StartCondition, 
MetaData, TestRecord.EntryPoint, true
MetaData, TestRecord.RecordTime, 07/05/2020 17:40:39
MetaData, TestRecord.TestTarget, 
MetaData, TestRecord.IterationIndex, 29
MetaData, TestRecord.Preservation, true
MetaData, TestRecord.Flag, 
MetaData, TestRecord.Remarks, 
MetaData, TestRecord.LinkKey, a6624467-0689-46b0-81fb-b876d6c8f51f
Dimension1, 101, 101, 101
Dimension2, 1, 1, 1
DataName, V1, I1, Ohmic
DataValue, -5, -3.7062E-10, 32034988518.631763
DataValue, -4.9, -3.0621E-10, 
DataValue, -4.8, -2.8337E-10, 
DataValue, -4.7, -2.5558E-10, 
DataValue, -4.6000000000000005, -2.2377E-10, 
DataValue, -4.5, -2.0753E-10, 
DataValue, -4.4, -1.7941E-10, 
DataValue, -4.3, -1.8584E-10, 
DataValue, -4.2, -1.6546E-10, 
DataValue, -4.1, -1.7216E-10, 
DataValue, -4, -1.2769E-10, 
DataValue, -3.9, -1.3543E-10, 
DataValue, -3.8000000000000003, -1.1871E-10, 
DataValue, -3.7, -1.2702E-10, 
DataValue, -3.6, -1.0439E-10, 
DataValue, -3.5, -1.0704E-10, 
DataValue, -3.4, -9.074E-11, 
DataValue, -3.3000000000000003, -8.576E-11, 
DataValue, -3.2, -8.791E-11, 
DataValue, -3.1, -8.252E-11, 
DataValue, -3, -7.087E-11, 
DataValue, -2.9, -7.311E-11, 
DataValue, -2.8000000000000003, -5.56E-11, 
DataValue, -2.7, -4.988E-11, 
DataValue, -2.6, -3.883E-11, 
DataValue, -2.5, -4.439E-11, 
DataValue, -2.4, -3.425E-11, 
DataValue, -2.3000000000000003, -3.44E-11, 
DataValue, -2.2, -2.617E-11, 
DataValue, -2.1, -2.294E-11, 
DataValue, -2, -1.028E-11, 
DataValue, -1.9000000000000001, -1.547E-11, 
DataValue, -1.8, -7.39E-12, 
DataValue, -1.7, -9.35E-12, 
DataValue, -1.6, -1.655E-11, 
DataValue, -1.5, -7.6E-13, 
DataValue, -1.4000000000000001, 1.87E-12, 
DataValue, -1.3, -1.78E-12, 
DataValue, -1.2, 6.58E-12, 
DataValue, -1.1, 2.08E-12, 
DataValue, -1, 1.532E-11, 
DataValue, -0.9, 1.132E-11, 
DataValue, -0.8, 1.767E-11, 
DataValue, -0.70000000000000007, 2.328E-11, 
DataValue, -0.6, 2.967E-11, 
DataValue, -0.5, 2.226E-11, 
DataValue, -0.4, 2.689E-11, 
DataValue, -0.3, 1.997E-11, 
DataValue, -0.2, 3.138E-11, 
DataValue, -0.1, 3.899E-11, 
DataValue, 0, 3.403E-11, 
DataValue, 0.1, 3.458E-11, 
DataValue, 0.2, 4.166E-11, 
DataValue, 0.3, 3.874E-11, 
DataValue, 0.4, 4.812E-11, 
DataValue, 0.5, 5.86E-11, 
DataValue, 0.6, 6.3E-11, 
DataValue, 0.70000000000000007, 7.971E-11, 
DataValue, 0.8, 9.426E-11, 
DataValue, 0.9, 1.0412999999999999E-10, 
DataValue, 1, 1.2569E-10, 
DataValue, 1.1, 1.3977E-10, 
DataValue, 1.2, 1.5908E-10, 
DataValue, 1.3, 1.7928E-10, 
DataValue, 1.4000000000000001, 2.0127E-10, 
DataValue, 1.5, 2.2256E-10, 
DataValue, 1.6, 2.439E-10, 
DataValue, 1.7, 2.6303E-10, 
DataValue, 1.8, 2.8798E-10, 
DataValue, 1.9000000000000001, 3.1171E-10, 
DataValue, 2, 3.3914E-10, 
DataValue, 2.1, 3.5609E-10, 
DataValue, 2.2, 3.8839E-10, 
DataValue, 2.3000000000000003, 4.1915E-10, 
DataValue, 2.4, 4.5759E-10, 
DataValue, 2.5, 4.7551E-10, 
DataValue, 2.6, 4.9912E-10, 
DataValue, 2.7, 5.3547E-10, 
DataValue, 2.8000000000000003, 5.6078E-10, 
DataValue, 2.9, 5.8213E-10, 
DataValue, 3, 6.0952E-10, 
DataValue, 3.1, 6.3407E-10, 
DataValue, 3.2, 6.6773E-10, 
DataValue, 3.3000000000000003, 6.9236E-10, 
DataValue, 3.4, 7.2187E-10, 
DataValue, 3.5, 7.5082E-10, 
DataValue, 3.6, 7.8914E-10, 
DataValue, 3.7, 8.1247E-10, 
DataValue, 3.8000000000000003, 8.3127E-10, 
DataValue, 3.9, 8.6987E-10, 
DataValue, 4, 8.6759E-10, 
DataValue, 4.1, 8.8581E-10, 
DataValue, 4.2, 9.1996E-10, 
DataValue, 4.3, 9.3695E-10, 
DataValue, 4.4, 9.4422E-10, 
DataValue, 4.5, 9.5989E-10, 
DataValue, 4.6000000000000005, 9.9088E-10, 
DataValue, 4.7, 1.00325E-09, 
DataValue, 4.8, 1.03182E-09, 
DataValue, 4.9, 1.04172E-09, 
DataValue, 5, 1.08959E-09, 