
SetupTitle, WW
PrimitiveTest, I/V Sweep
TestParameter, Context.MainFrame, B1500A
TestParameter, Channel.UnitType, SMU, SMU
TestParameter, Channel.Unit, SMU2:HP, SMU1:HP
TestParameter, Channel.IName, I1, I4
TestParameter, Channel.VName, V1, V4
TestParameter, Channel.Mode, V, COMMON
TestParameter, Channel.Func, VAR1, CONST
TestParameter, Channel.Index, 
TestParameter, Channel.Time, 
TestParameter, Measurement.Port.Unit, SMU2:HP, SMU1:HP
TestParameter, Measurement.Port.SeriesResistor, NONE, NONE
TestParameter, Measurement.Port.Filter, ON, ON
TestParameter, Measurement.Port.OutputVoltageComparison, 0, 0
TestParameter, Measurement.Primary.Locus, Single
TestParameter, Measurement.Primary.Scale, LINEAR
TestParameter, Measurement.Primary.Start, -5
TestParameter, Measurement.Primary.Stop, 5
TestParameter, Measurement.Primary.Step, 0.1
TestParameter, Measurement.Primary.Compliance, 0.1
TestParameter, Measurement.Primary.PowerCompliance, 0
TestParameter, Measurement.Aborting.Condition, CONTINUE AT ANY
TestParameter, Measurement.PostOutput.Value, START
TestParameter, Measurement.PostOutput.Retention, OFF
TestParameter, Measurement.Bias.Source, -5, 0
TestParameter, Measurement.Bias.Compliance, 0.1, 1
TestParameter, Measurement.Monitor.Unit, SMU2:HP, SMU1:HP
TestParameter, Measurement.Monitor.Adc, HR ADC, HR ADC
TestParameter, Measurement.Monitor.Measurement, Compliance Side, Compliance Side
TestParameter, Measurement.Monitor.RangingMode, AUTO, AUTO
TestParameter, Measurement.Monitor.RangeBoundary, , 
TestParameter, Measurement.Monitor.RangeRating, BY FULL RANGE, BY FULL RANGE
TestParameter, Measurement.Monitor.RangeRatingCoeff, 50, 50
TestParameter, Measurement.Timing.Hold, 0
TestParameter, Measurement.Timing.Delay, 0.001
TestParameter, Measurement.Adc.HighSpeed.Mode, AUTO
TestParameter, Measurement.Adc.HighSpeed.Coeff, 1
TestParameter, Measurement.Adc.HighResolution.AutoZero, OFF
TestParameter, Measurement.Adc.HighResolution.Mode, PLC
TestParameter, Measurement.Adc.HighResolution.Coeff, 1
TestParameter, Measurement.WaitTime.Source.Coeff, 1
TestParameter, Measurement.WaitTime.Source.Offset, 0
TestParameter, Measurement.WaitTime.Monitor.Coeff, 1
TestParameter, Measurement.WaitTime.Monitor.Offset, 0
TestParameter, Function.User.Name, Ohmic
TestParameter, Function.User.Unit, ohm
TestParameter, Function.User.Definition, avg(V1/I1)
TestParameter, Output.Graph.Enabled, true
TestParameter, Output.Graph.XAxis.Data, V1
TestParameter, Output.Graph.XAxis.Scale, Linear
TestParameter, Output.Graph.XAxis.Left, -5
TestParameter, Output.Graph.XAxis.Right, 5
TestParameter, Output.Graph.YAxis.Data, I1
TestParameter, Output.Graph.YAxis.Scale, Linear
TestParameter, Output.Graph.YAxis.Bottom, -0.001
TestParameter, Output.Graph.YAxis.Top, 0.001
TestParameter, Output.Graph.YAxis.Group, 
TestParameter, Output.Scalar.Data, Ohmic
TestParameter, AutoAnalysis.Interpolation, false
TestParameter, AutoAnalysis.Line1.Enabled, false
TestParameter, AutoAnalysis.Line1.Type, 1
TestParameter, AutoAnalysis.Line1.Fix, True
TestParameter, AutoAnalysis.Line1.YAxis, 0
TestParameter, AutoAnalysis.Line1.Point1.Type, 0
TestParameter, AutoAnalysis.Line1.Point1.XY.X, 
TestParameter, AutoAnalysis.Line1.Point1.XY.Y, 
TestParameter, AutoAnalysis.Line1.Point1.Data.Var, 
TestParameter, AutoAnalysis.Line1.Point1.Data.Condition, 
TestParameter, AutoAnalysis.Line1.Point1.Data.Start, false
TestParameter, AutoAnalysis.Line1.Point1.Data.StartVar, 
TestParameter, AutoAnalysis.Line1.Point1.Data.StartCondition, 
TestParameter, AutoAnalysis.Line1.Point2.Type, 0
TestParameter, AutoAnalysis.Line1.Point2.XY.X, 
TestParameter, AutoAnalysis.Line1.Point2.XY.Y, 
TestParameter, AutoAnalysis.Line1.Point2.Data.Var, 
TestParameter, AutoAnalysis.Line1.Point2.Data.Condition, 
TestParameter, AutoAnalysis.Line1.Point2.Data.Start, false
TestParameter, AutoAnalysis.Line1.Point2.Data.StartVar, 
TestParameter, AutoAnalysis.Line1.Point2.Data.StartCondition, 
TestParameter, AutoAnalysis.Line1.GradientExpr, 0
TestParameter, AutoAnalysis.Line2.Enabled, false
TestParameter, AutoAnalysis.Line2.Type, 1
TestParameter, AutoAnalysis.Line2.Fix, True
TestParameter, AutoAnalysis.Line2.YAxis, 0
TestParameter, AutoAnalysis.Line2.Point1.Type, 0
TestParameter, AutoAnalysis.Line2.Point1.XY.X, 
TestParameter, AutoAnalysis.Line2.Point1.XY.Y, 
TestParameter, AutoAnalysis.Line2.Point1.Data.Var, 
TestParameter, AutoAnalysis.Line2.Point1.Data.Condition, 
TestParameter, AutoAnalysis.Line2.Point1.Data.Start, false
TestParameter, AutoAnalysis.Line2.Point1.Data.StartVar, 
TestParameter, AutoAnalysis.Line2.Point1.Data.StartCondition, 
TestParameter, AutoAnalysis.Line2.Point2.Type, 0
TestParameter, AutoAnalysis.Line2.Point2.XY.X, 
TestParameter, AutoAnalysis.Line2.Point2.XY.Y, 
TestParameter, AutoAnalysis.Line2.Point2.Data.Var, 
TestParameter, AutoAnalysis.Line2.Point2.Data.Condition, 
TestParameter, AutoAnalysis.Line2.Point2.Data.Start, false
TestParameter, AutoAnalysis.Line2.Point2.Data.StartVar, 
TestParameter, AutoAnalysis.Line2.Point2.Data.StartCondition, 
TestParameter, AutoAnalysis.Line2.GradientExpr, 0
TestParameter, AutoAnalysis.Marker.Enabled, false
TestParameter, AutoAnalysis.Marker.Data.Var, 
TestParameter, AutoAnalysis.Marker.Data.Condition, 
TestParameter, AutoAnalysis.Marker.Data.Start, false
TestParameter, AutoAnalysis.Marker.Data.StartVar, 
TestParameter, AutoAnalysis.Marker.Data.StartCondition, 
MetaData, TestRecord.EntryPoint, true
MetaData, TestRecord.RecordTime, 07/05/2020 17:40:08
MetaData, TestRecord.TestTarget, 
MetaData, TestRecord.IterationIndex, 28
MetaData, TestRecord.Preservation, true
MetaData, TestRecord.Flag, 
MetaData, TestRecord.Remarks, 
MetaData, TestRecord.LinkKey, 98797c9e-b03c-472b-9b1e-37b77234af3a
Dimension1, 101, 101, 101
Dimension2, 1, 1, 1
DataName, V1, I1, Ohmic
DataValue, -5, -3.272E-10, 4579947447.6558371
DataValue, -4.9, -2.964E-10, 
DataValue, -4.8, -2.598E-10, 
DataValue, -4.7, -2.4098E-10, 
DataValue, -4.6000000000000005, -2.1168E-10, 
DataValue, -4.5, -1.9901E-10, 
DataValue, -4.4, -1.7788E-10, 
DataValue, -4.3, -1.9361E-10, 
DataValue, -4.2, -1.4127E-10, 
DataValue, -4.1, -1.4249E-10, 
DataValue, -4, -1.5062E-10, 
DataValue, -3.9, -1.1775E-10, 
DataValue, -3.8000000000000003, -1.1141E-10, 
DataValue, -3.7, -1.0969999999999999E-10, 
DataValue, -3.6, -9.276E-11, 
DataValue, -3.5, -9.144E-11, 
DataValue, -3.4, -8.009E-11, 
DataValue, -3.3000000000000003, -7.58E-11, 
DataValue, -3.2, -6.816E-11, 
DataValue, -3.1, -8.011E-11, 
DataValue, -3, -6.178E-11, 
DataValue, -2.9, -5.883E-11, 
DataValue, -2.8000000000000003, -5.245E-11, 
DataValue, -2.7, -5.701E-11, 
DataValue, -2.6, -3.982E-11, 
DataValue, -2.5, -3.806E-11, 
DataValue, -2.4, -3.394E-11, 
DataValue, -2.3000000000000003, -3.601E-11, 
DataValue, -2.2, -2.508E-11, 
DataValue, -2.1, -2.202E-11, 
DataValue, -2, -1.786E-11, 
DataValue, -1.9000000000000001, -1.584E-11, 
DataValue, -1.8, -1.354E-11, 
DataValue, -1.7, -7.78E-12, 
DataValue, -1.6, -1.063E-11, 
DataValue, -1.5, -5.1E-12, 
DataValue, -1.4000000000000001, 4.28E-12, 
DataValue, -1.3, 2.09E-12, 
DataValue, -1.2, 7.8E-12, 
DataValue, -1.1, 1.86E-12, 
DataValue, -1, 8.48E-12, 
DataValue, -0.9, 5.55E-12, 
DataValue, -0.8, 2.174E-11, 
DataValue, -0.70000000000000007, 1.815E-11, 
DataValue, -0.6, 2.446E-11, 
DataValue, -0.5, 2.117E-11, 
DataValue, -0.4, 2.534E-11, 
DataValue, -0.3, 2.836E-11, 
DataValue, -0.2, 3.191E-11, 
DataValue, -0.1, 2.794E-11, 
DataValue, 0, 3.616E-11, 
DataValue, 0.1, 3.79E-11, 
DataValue, 0.2, 3.768E-11, 
DataValue, 0.3, 3.633E-11, 
DataValue, 0.4, 4.603E-11, 
DataValue, 0.5, 5.17E-11, 
DataValue, 0.6, 6.358E-11, 
DataValue, 0.70000000000000007, 6.687E-11, 
DataValue, 0.8, 8.529E-11, 
DataValue, 0.9, 9.757E-11, 
DataValue, 1, 1.1438E-10, 
DataValue, 1.1, 1.3116E-10, 
DataValue, 1.2, 1.4326E-10, 
DataValue, 1.3, 1.6111E-10, 
DataValue, 1.4000000000000001, 1.7641E-10, 
DataValue, 1.5, 1.8356E-10, 
DataValue, 1.6, 2.1755E-10, 
DataValue, 1.7, 2.349E-10, 
DataValue, 1.8, 2.5021E-10, 
DataValue, 1.9000000000000001, 2.7285E-10, 
DataValue, 2, 2.9958E-10, 
DataValue, 2.1, 3.1944E-10, 
DataValue, 2.2, 3.4122E-10, 
DataValue, 2.3000000000000003, 3.5506E-10, 
DataValue, 2.4, 3.9541E-10, 
DataValue, 2.5, 4.2541E-10, 
DataValue, 2.6, 4.3052E-10, 
DataValue, 2.7, 4.5975E-10, 
DataValue, 2.8000000000000003, 4.9732E-10, 
DataValue, 2.9, 5.2322E-10, 
DataValue, 3, 5.352E-10, 
DataValue, 3.1, 5.5394E-10, 
DataValue, 3.2, 5.8665E-10, 
DataValue, 3.3000000000000003, 6.1321E-10, 
DataValue, 3.4, 6.2835E-10, 
DataValue, 3.5, 6.5405E-10, 
DataValue, 3.6, 6.7192E-10, 
DataValue, 3.7, 6.921E-10, 
DataValue, 3.8000000000000003, 7.1358E-10, 
DataValue, 3.9, 7.3396E-10, 
DataValue, 4, 7.5149E-10, 
DataValue, 4.1, 7.6689E-10, 
DataValue, 4.2, 7.8513E-10, 
DataValue, 4.3, 7.9385E-10, 
DataValue, 4.4, 8.1652E-10, 
DataValue, 4.5, 8.3394E-10, 
DataValue, 4.6000000000000005, 8.6737E-10, 
DataValue, 4.7, 8.8138E-10, 
DataValue, 4.8, 9.0936E-10, 
DataValue, 4.9, 9.1838E-10, 
DataValue, 5, 9.373E-10, 