
SetupTitle, WW
PrimitiveTest, I/V Sweep
TestParameter, Context.MainFrame, B1500A
TestParameter, Channel.UnitType, SMU, SMU
TestParameter, Channel.Unit, SMU2:HP, SMU1:HP
TestParameter, Channel.IName, I1, I4
TestParameter, Channel.VName, V1, V4
TestParameter, Channel.Mode, V, COMMON
TestParameter, Channel.Func, VAR1, CONST
TestParameter, Channel.Index, 
TestParameter, Channel.Time, 
TestParameter, Measurement.Port.Unit, SMU2:HP, SMU1:HP
TestParameter, Measurement.Port.SeriesResistor, NONE, NONE
TestParameter, Measurement.Port.Filter, ON, ON
TestParameter, Measurement.Port.OutputVoltageComparison, 0, 0
TestParameter, Measurement.Primary.Locus, Single
TestParameter, Measurement.Primary.Scale, LINEAR
TestParameter, Measurement.Primary.Start, -5
TestParameter, Measurement.Primary.Stop, 5
TestParameter, Measurement.Primary.Step, 0.1
TestParameter, Measurement.Primary.Compliance, 0.1
TestParameter, Measurement.Primary.PowerCompliance, 0
TestParameter, Measurement.Aborting.Condition, CONTINUE AT ANY
TestParameter, Measurement.PostOutput.Value, START
TestParameter, Measurement.PostOutput.Retention, OFF
TestParameter, Measurement.Bias.Source, -5, 0
TestParameter, Measurement.Bias.Compliance, 0.1, 1
TestParameter, Measurement.Monitor.Unit, SMU2:HP, SMU1:HP
TestParameter, Measurement.Monitor.Adc, HR ADC, HR ADC
TestParameter, Measurement.Monitor.Measurement, Compliance Side, Compliance Side
TestParameter, Measurement.Monitor.RangingMode, AUTO, AUTO
TestParameter, Measurement.Monitor.RangeBoundary, , 
TestParameter, Measurement.Monitor.RangeRating, BY FULL RANGE, BY FULL RANGE
TestParameter, Measurement.Monitor.RangeRatingCoeff, 50, 50
TestParameter, Measurement.Timing.Hold, 0
TestParameter, Measurement.Timing.Delay, 0.001
TestParameter, Measurement.Adc.HighSpeed.Mode, AUTO
TestParameter, Measurement.Adc.HighSpeed.Coeff, 1
TestParameter, Measurement.Adc.HighResolution.AutoZero, OFF
TestParameter, Measurement.Adc.HighResolution.Mode, PLC
TestParameter, Measurement.Adc.HighResolution.Coeff, 1
TestParameter, Measurement.WaitTime.Source.Coeff, 1
TestParameter, Measurement.WaitTime.Source.Offset, 0
TestParameter, Measurement.WaitTime.Monitor.Coeff, 1
TestParameter, Measurement.WaitTime.Monitor.Offset, 0
TestParameter, Function.User.Name, Ohmic
TestParameter, Function.User.Unit, ohm
TestParameter, Function.User.Definition, avg(V1/I1)
TestParameter, Output.Graph.Enabled, true
TestParameter, Output.Graph.XAxis.Data, V1
TestParameter, Output.Graph.XAxis.Scale, Linear
TestParameter, Output.Graph.XAxis.Left, -5
TestParameter, Output.Graph.XAxis.Right, 5
TestParameter, Output.Graph.YAxis.Data, I1
TestParameter, Output.Graph.YAxis.Scale, Linear
TestParameter, Output.Graph.YAxis.Bottom, -0.001
TestParameter, Output.Graph.YAxis.Top, 0.001
TestParameter, Output.Graph.YAxis.Group, 
TestParameter, Output.Scalar.Data, Ohmic
TestParameter, AutoAnalysis.Interpolation, false
TestParameter, AutoAnalysis.Line1.Enabled, false
TestParameter, AutoAnalysis.Line1.Type, 1
TestParameter, AutoAnalysis.Line1.Fix, True
TestParameter, AutoAnalysis.Line1.YAxis, 0
TestParameter, AutoAnalysis.Line1.Point1.Type, 0
TestParameter, AutoAnalysis.Line1.Point1.XY.X, 
TestParameter, AutoAnalysis.Line1.Point1.XY.Y, 
TestParameter, AutoAnalysis.Line1.Point1.Data.Var, 
TestParameter, AutoAnalysis.Line1.Point1.Data.Condition, 
TestParameter, AutoAnalysis.Line1.Point1.Data.Start, false
TestParameter, AutoAnalysis.Line1.Point1.Data.StartVar, 
TestParameter, AutoAnalysis.Line1.Point1.Data.StartCondition, 
TestParameter, AutoAnalysis.Line1.Point2.Type, 0
TestParameter, AutoAnalysis.Line1.Point2.XY.X, 
TestParameter, AutoAnalysis.Line1.Point2.XY.Y, 
TestParameter, AutoAnalysis.Line1.Point2.Data.Var, 
TestParameter, AutoAnalysis.Line1.Point2.Data.Condition, 
TestParameter, AutoAnalysis.Line1.Point2.Data.Start, false
TestParameter, AutoAnalysis.Line1.Point2.Data.StartVar, 
TestParameter, AutoAnalysis.Line1.Point2.Data.StartCondition, 
TestParameter, AutoAnalysis.Line1.GradientExpr, 0
TestParameter, AutoAnalysis.Line2.Enabled, false
TestParameter, AutoAnalysis.Line2.Type, 1
TestParameter, AutoAnalysis.Line2.Fix, True
TestParameter, AutoAnalysis.Line2.YAxis, 0
TestParameter, AutoAnalysis.Line2.Point1.Type, 0
TestParameter, AutoAnalysis.Line2.Point1.XY.X, 
TestParameter, AutoAnalysis.Line2.Point1.XY.Y, 
TestParameter, AutoAnalysis.Line2.Point1.Data.Var, 
TestParameter, AutoAnalysis.Line2.Point1.Data.Condition, 
TestParameter, AutoAnalysis.Line2.Point1.Data.Start, false
TestParameter, AutoAnalysis.Line2.Point1.Data.StartVar, 
TestParameter, AutoAnalysis.Line2.Point1.Data.StartCondition, 
TestParameter, AutoAnalysis.Line2.Point2.Type, 0
TestParameter, AutoAnalysis.Line2.Point2.XY.X, 
TestParameter, AutoAnalysis.Line2.Point2.XY.Y, 
TestParameter, AutoAnalysis.Line2.Point2.Data.Var, 
TestParameter, AutoAnalysis.Line2.Point2.Data.Condition, 
TestParameter, AutoAnalysis.Line2.Point2.Data.Start, false
TestParameter, AutoAnalysis.Line2.Point2.Data.StartVar, 
TestParameter, AutoAnalysis.Line2.Point2.Data.StartCondition, 
TestParameter, AutoAnalysis.Line2.GradientExpr, 0
TestParameter, AutoAnalysis.Marker.Enabled, false
TestParameter, AutoAnalysis.Marker.Data.Var, 
TestParameter, AutoAnalysis.Marker.Data.Condition, 
TestParameter, AutoAnalysis.Marker.Data.Start, false
TestParameter, AutoAnalysis.Marker.Data.StartVar, 
TestParameter, AutoAnalysis.Marker.Data.StartCondition, 
MetaData, TestRecord.EntryPoint, true
MetaData, TestRecord.RecordTime, 07/05/2020 17:39:39
MetaData, TestRecord.TestTarget, 
MetaData, TestRecord.IterationIndex, 27
MetaData, TestRecord.Preservation, true
MetaData, TestRecord.Flag, 
MetaData, TestRecord.Remarks, 
MetaData, TestRecord.LinkKey, d470829e-3b35-4b59-beda-dff7e3cd2ea3
Dimension1, 101, 101, 101
Dimension2, 1, 1, 1
DataName, V1, I1, Ohmic
DataValue, -5, -3.5001E-10, 29860630073.150051
DataValue, -4.9, -3.2218E-10, 
DataValue, -4.8, -2.6788E-10, 
DataValue, -4.7, -2.3211E-10, 
DataValue, -4.6000000000000005, -2.1338E-10, 
DataValue, -4.5, -2.1393999999999999E-10, 
DataValue, -4.4, -1.916E-10, 
DataValue, -4.3, -1.7916E-10, 
DataValue, -4.2, -1.556E-10, 
DataValue, -4.1, -1.437E-10, 
DataValue, -4, -1.3775E-10, 
DataValue, -3.9, -1.4179E-10, 
DataValue, -3.8000000000000003, -1.2465E-10, 
DataValue, -3.7, -1.1373E-10, 
DataValue, -3.6, -1.1506E-10, 
DataValue, -3.5, -1.0268E-10, 
DataValue, -3.4, -8.6179999999999993E-11, 
DataValue, -3.3000000000000003, -9.23E-11, 
DataValue, -3.2, -6.842E-11, 
DataValue, -3.1, -7.56E-11, 
DataValue, -3, -6.715E-11, 
DataValue, -2.9, -6.87E-11, 
DataValue, -2.8000000000000003, -5.117E-11, 
DataValue, -2.7, -6.189E-11, 
DataValue, -2.6, -5.171E-11, 
DataValue, -2.5, -4.384E-11, 
DataValue, -2.4, -4.11E-11, 
DataValue, -2.3000000000000003, -4.47E-11, 
DataValue, -2.2, -2.843E-11, 
DataValue, -2.1, -3.444E-11, 
DataValue, -2, -1.961E-11, 
DataValue, -1.9000000000000001, -2.409E-11, 
DataValue, -1.8, -1.112E-11, 
DataValue, -1.7, -1.452E-11, 
DataValue, -1.6, -9.4E-12, 
DataValue, -1.5, -5.99E-12, 
DataValue, -1.4000000000000001, -4.84E-12, 
DataValue, -1.3, -2.24E-12, 
DataValue, -1.2, -1.4E-12, 
DataValue, -1.1, 2.84E-12, 
DataValue, -1, 6.05E-12, 
DataValue, -0.9, 4.36E-12, 
DataValue, -0.8, 8.2E-12, 
DataValue, -0.70000000000000007, 1.176E-11, 
DataValue, -0.6, 1.774E-11, 
DataValue, -0.5, 1.653E-11, 
DataValue, -0.4, 1.945E-11, 
DataValue, -0.3, 2.234E-11, 
DataValue, -0.2, 3.087E-11, 
DataValue, -0.1, 3.051E-11, 
DataValue, 0, 2.975E-11, 
DataValue, 0.1, 3.24E-11, 
DataValue, 0.2, 3.75E-11, 
DataValue, 0.3, 3.761E-11, 
DataValue, 0.4, 4.511E-11, 
DataValue, 0.5, 4.887E-11, 
DataValue, 0.6, 5.972E-11, 
DataValue, 0.70000000000000007, 6.59E-11, 
DataValue, 0.8, 7.781E-11, 
DataValue, 0.9, 9.268E-11, 
DataValue, 1, 1.1118E-10, 
DataValue, 1.1, 1.2628E-10, 
DataValue, 1.2, 1.4027E-10, 
DataValue, 1.3, 1.5718E-10, 
DataValue, 1.4000000000000001, 1.8678E-10, 
DataValue, 1.5, 1.9409E-10, 
DataValue, 1.6, 2.1719E-10, 
DataValue, 1.7, 2.3879E-10, 
DataValue, 1.8, 2.6093E-10, 
DataValue, 1.9000000000000001, 2.7701E-10, 
DataValue, 2, 2.9235E-10, 
DataValue, 2.1, 3.2047E-10, 
DataValue, 2.2, 3.5348E-10, 
DataValue, 2.3000000000000003, 3.6868E-10, 
DataValue, 2.4, 3.8897E-10, 
DataValue, 2.5, 4.1828E-10, 
DataValue, 2.6, 4.4735E-10, 
DataValue, 2.7, 4.5203E-10, 
DataValue, 2.8000000000000003, 4.7599E-10, 
DataValue, 2.9, 5.0606E-10, 
DataValue, 3, 5.202E-10, 
DataValue, 3.1, 5.5627E-10, 
DataValue, 3.2, 5.8077E-10, 
DataValue, 3.3000000000000003, 6.1334E-10, 
DataValue, 3.4, 6.3607E-10, 
DataValue, 3.5, 6.5094E-10, 
DataValue, 3.6, 6.4939E-10, 
DataValue, 3.7, 6.8541E-10, 
DataValue, 3.8000000000000003, 6.9354E-10, 
DataValue, 3.9, 7.1213E-10, 
DataValue, 4, 7.1684E-10, 
DataValue, 4.1, 7.4717E-10, 
DataValue, 4.2, 7.7092E-10, 
DataValue, 4.3, 7.8654E-10, 
DataValue, 4.4, 8.0898E-10, 
DataValue, 4.5, 8.3784E-10, 
DataValue, 4.6000000000000005, 8.1628E-10, 
DataValue, 4.7, 8.394E-10, 
DataValue, 4.8, 8.4972E-10, 
DataValue, 4.9, 8.8093E-10, 
DataValue, 5, 8.9008E-10, 