
SetupTitle, WW
PrimitiveTest, I/V Sweep
TestParameter, Context.MainFrame, B1500A
TestParameter, Channel.UnitType, SMU, SMU
TestParameter, Channel.Unit, SMU2:HP, SMU1:HP
TestParameter, Channel.IName, I1, I4
TestParameter, Channel.VName, V1, V4
TestParameter, Channel.Mode, V, COMMON
TestParameter, Channel.Func, VAR1, CONST
TestParameter, Channel.Index, 
TestParameter, Channel.Time, 
TestParameter, Measurement.Port.Unit, SMU2:HP, SMU1:HP
TestParameter, Measurement.Port.SeriesResistor, NONE, NONE
TestParameter, Measurement.Port.Filter, ON, ON
TestParameter, Measurement.Port.OutputVoltageComparison, 0, 0
TestParameter, Measurement.Primary.Locus, Single
TestParameter, Measurement.Primary.Scale, LINEAR
TestParameter, Measurement.Primary.Start, -5
TestParameter, Measurement.Primary.Stop, 5
TestParameter, Measurement.Primary.Step, 0.1
TestParameter, Measurement.Primary.Compliance, 0.1
TestParameter, Measurement.Primary.PowerCompliance, 0
TestParameter, Measurement.Aborting.Condition, CONTINUE AT ANY
TestParameter, Measurement.PostOutput.Value, START
TestParameter, Measurement.PostOutput.Retention, OFF
TestParameter, Measurement.Bias.Source, -5, 0
TestParameter, Measurement.Bias.Compliance, 0.1, 1
TestParameter, Measurement.Monitor.Unit, SMU2:HP, SMU1:HP
TestParameter, Measurement.Monitor.Adc, HR ADC, HR ADC
TestParameter, Measurement.Monitor.Measurement, Compliance Side, Compliance Side
TestParameter, Measurement.Monitor.RangingMode, AUTO, AUTO
TestParameter, Measurement.Monitor.RangeBoundary, , 
TestParameter, Measurement.Monitor.RangeRating, BY FULL RANGE, BY FULL RANGE
TestParameter, Measurement.Monitor.RangeRatingCoeff, 50, 50
TestParameter, Measurement.Timing.Hold, 0
TestParameter, Measurement.Timing.Delay, 0.001
TestParameter, Measurement.Adc.HighSpeed.Mode, AUTO
TestParameter, Measurement.Adc.HighSpeed.Coeff, 1
TestParameter, Measurement.Adc.HighResolution.AutoZero, OFF
TestParameter, Measurement.Adc.HighResolution.Mode, PLC
TestParameter, Measurement.Adc.HighResolution.Coeff, 1
TestParameter, Measurement.WaitTime.Source.Coeff, 1
TestParameter, Measurement.WaitTime.Source.Offset, 0
TestParameter, Measurement.WaitTime.Monitor.Coeff, 1
TestParameter, Measurement.WaitTime.Monitor.Offset, 0
TestParameter, Function.User.Name, Ohmic
TestParameter, Function.User.Unit, ohm
TestParameter, Function.User.Definition, avg(V1/I1)
TestParameter, Output.Graph.Enabled, true
TestParameter, Output.Graph.XAxis.Data, V1
TestParameter, Output.Graph.XAxis.Scale, Linear
TestParameter, Output.Graph.XAxis.Left, -5
TestParameter, Output.Graph.XAxis.Right, 5
TestParameter, Output.Graph.YAxis.Data, I1
TestParameter, Output.Graph.YAxis.Scale, Linear
TestParameter, Output.Graph.YAxis.Bottom, -0.001
TestParameter, Output.Graph.YAxis.Top, 0.001
TestParameter, Output.Graph.YAxis.Group, 
TestParameter, Output.Scalar.Data, Ohmic
TestParameter, AutoAnalysis.Interpolation, false
TestParameter, AutoAnalysis.Line1.Enabled, false
TestParameter, AutoAnalysis.Line1.Type, 1
TestParameter, AutoAnalysis.Line1.Fix, True
TestParameter, AutoAnalysis.Line1.YAxis, 0
TestParameter, AutoAnalysis.Line1.Point1.Type, 0
TestParameter, AutoAnalysis.Line1.Point1.XY.X, 
TestParameter, AutoAnalysis.Line1.Point1.XY.Y, 
TestParameter, AutoAnalysis.Line1.Point1.Data.Var, 
TestParameter, AutoAnalysis.Line1.Point1.Data.Condition, 
TestParameter, AutoAnalysis.Line1.Point1.Data.Start, false
TestParameter, AutoAnalysis.Line1.Point1.Data.StartVar, 
TestParameter, AutoAnalysis.Line1.Point1.Data.StartCondition, 
TestParameter, AutoAnalysis.Line1.Point2.Type, 0
TestParameter, AutoAnalysis.Line1.Point2.XY.X, 
TestParameter, AutoAnalysis.Line1.Point2.XY.Y, 
TestParameter, AutoAnalysis.Line1.Point2.Data.Var, 
TestParameter, AutoAnalysis.Line1.Point2.Data.Condition, 
TestParameter, AutoAnalysis.Line1.Point2.Data.Start, false
TestParameter, AutoAnalysis.Line1.Point2.Data.StartVar, 
TestParameter, AutoAnalysis.Line1.Point2.Data.StartCondition, 
TestParameter, AutoAnalysis.Line1.GradientExpr, 0
TestParameter, AutoAnalysis.Line2.Enabled, false
TestParameter, AutoAnalysis.Line2.Type, 1
TestParameter, AutoAnalysis.Line2.Fix, True
TestParameter, AutoAnalysis.Line2.YAxis, 0
TestParameter, AutoAnalysis.Line2.Point1.Type, 0
TestParameter, AutoAnalysis.Line2.Point1.XY.X, 
TestParameter, AutoAnalysis.Line2.Point1.XY.Y, 
TestParameter, AutoAnalysis.Line2.Point1.Data.Var, 
TestParameter, AutoAnalysis.Line2.Point1.Data.Condition, 
TestParameter, AutoAnalysis.Line2.Point1.Data.Start, false
TestParameter, AutoAnalysis.Line2.Point1.Data.StartVar, 
TestParameter, AutoAnalysis.Line2.Point1.Data.StartCondition, 
TestParameter, AutoAnalysis.Line2.Point2.Type, 0
TestParameter, AutoAnalysis.Line2.Point2.XY.X, 
TestParameter, AutoAnalysis.Line2.Point2.XY.Y, 
TestParameter, AutoAnalysis.Line2.Point2.Data.Var, 
TestParameter, AutoAnalysis.Line2.Point2.Data.Condition, 
TestParameter, AutoAnalysis.Line2.Point2.Data.Start, false
TestParameter, AutoAnalysis.Line2.Point2.Data.StartVar, 
TestParameter, AutoAnalysis.Line2.Point2.Data.StartCondition, 
TestParameter, AutoAnalysis.Line2.GradientExpr, 0
TestParameter, AutoAnalysis.Marker.Enabled, false
TestParameter, AutoAnalysis.Marker.Data.Var, 
TestParameter, AutoAnalysis.Marker.Data.Condition, 
TestParameter, AutoAnalysis.Marker.Data.Start, false
TestParameter, AutoAnalysis.Marker.Data.StartVar, 
TestParameter, AutoAnalysis.Marker.Data.StartCondition, 
MetaData, TestRecord.EntryPoint, true
MetaData, TestRecord.RecordTime, 07/05/2020 17:39:05
MetaData, TestRecord.TestTarget, 
MetaData, TestRecord.IterationIndex, 26
MetaData, TestRecord.Preservation, true
MetaData, TestRecord.Flag, 
MetaData, TestRecord.Remarks, 
MetaData, TestRecord.LinkKey, 4b14755b-5b2f-4107-96ed-386ae42fbf0a
Dimension1, 101, 101, 101
Dimension2, 1, 1, 1
DataName, V1, I1, Ohmic
DataValue, -5, -3.0127E-10, -1008528010.7573688
DataValue, -4.9, -2.5326E-10, 
DataValue, -4.8, -2.2358E-10, 
DataValue, -4.7, -2.0722E-10, 
DataValue, -4.6000000000000005, -1.9962E-10, 
DataValue, -4.5, -1.8246E-10, 
DataValue, -4.4, -1.6176E-10, 
DataValue, -4.3, -1.4623E-10, 
DataValue, -4.2, -1.3964E-10, 
DataValue, -4.1, -1.3466E-10, 
DataValue, -4, -1.2146E-10, 
DataValue, -3.9, -1.1121E-10, 
DataValue, -3.8000000000000003, -1.0125E-10, 
DataValue, -3.7, -9.571E-11, 
DataValue, -3.6, -9.019E-11, 
DataValue, -3.5, -8.249E-11, 
DataValue, -3.4, -7.298E-11, 
DataValue, -3.3000000000000003, -6.75E-11, 
DataValue, -3.2, -6.857E-11, 
DataValue, -3.1, -5.299E-11, 
DataValue, -3, -5.036E-11, 
DataValue, -2.9, -5.036E-11, 
DataValue, -2.8000000000000003, -4.557E-11, 
DataValue, -2.7, -4.177E-11, 
DataValue, -2.6, -4.552E-11, 
DataValue, -2.5, -3.185E-11, 
DataValue, -2.4, -2.423E-11, 
DataValue, -2.3000000000000003, -2.608E-11, 
DataValue, -2.2, -1.694E-11, 
DataValue, -2.1, -1.884E-11, 
DataValue, -2, -1.322E-11, 
DataValue, -1.9000000000000001, -1.013E-11, 
DataValue, -1.8, -7.89E-12, 
DataValue, -1.7, -9.78E-12, 
DataValue, -1.6, 2.42E-12, 
DataValue, -1.5, 2.44E-12, 
DataValue, -1.4000000000000001, 2.07E-12, 
DataValue, -1.3, 6.08E-12, 
DataValue, -1.2, 7.86E-12, 
DataValue, -1.1, 1.424E-11, 
DataValue, -1, 1.715E-11, 
DataValue, -0.9, 2.263E-11, 
DataValue, -0.8, 1.677E-11, 
DataValue, -0.70000000000000007, 2.376E-11, 
DataValue, -0.6, 2.324E-11, 
DataValue, -0.5, 2.245E-11, 
DataValue, -0.4, 2.57E-11, 
DataValue, -0.3, 2.783E-11, 
DataValue, -0.2, 2.801E-11, 
DataValue, -0.1, 2.603E-11, 
DataValue, 0, 2.917E-11, 
DataValue, 0.1, 2.968E-11, 
DataValue, 0.2, 3.428E-11, 
DataValue, 0.3, 3.771E-11, 
DataValue, 0.4, 4.238E-11, 
DataValue, 0.5, 4.706E-11, 
DataValue, 0.6, 5.945E-11, 
DataValue, 0.70000000000000007, 6.852E-11, 
DataValue, 0.8, 8.339E-11, 
DataValue, 0.9, 9.633E-11, 
DataValue, 1, 1.1058E-10, 
DataValue, 1.1, 1.2648E-10, 
DataValue, 1.2, 1.4113E-10, 
DataValue, 1.3, 1.631E-10, 
DataValue, 1.4000000000000001, 1.8241E-10, 
DataValue, 1.5, 1.9516E-10, 
DataValue, 1.6, 2.2014E-10, 
DataValue, 1.7, 2.3587E-10, 
DataValue, 1.8, 2.6433E-10, 
DataValue, 1.9000000000000001, 2.7657E-10, 
DataValue, 2, 2.9522E-10, 
DataValue, 2.1, 3.2506E-10, 
DataValue, 2.2, 3.4868E-10, 
DataValue, 2.3000000000000003, 3.6037E-10, 
DataValue, 2.4, 3.8776E-10, 
DataValue, 2.5, 4.1778E-10, 
DataValue, 2.6, 4.4465E-10, 
DataValue, 2.7, 4.5613E-10, 
DataValue, 2.8000000000000003, 4.8923E-10, 
DataValue, 2.9, 5.0454E-10, 
DataValue, 3, 5.2856E-10, 
DataValue, 3.1, 5.4668E-10, 
DataValue, 3.2, 5.695E-10, 
DataValue, 3.3000000000000003, 5.7706E-10, 
DataValue, 3.4, 6.0974E-10, 
DataValue, 3.5, 6.1579E-10, 
DataValue, 3.6, 6.4774E-10, 
DataValue, 3.7, 6.662E-10, 
DataValue, 3.8000000000000003, 6.7298E-10, 
DataValue, 3.9, 6.9478E-10, 
DataValue, 4, 7.2493E-10, 
DataValue, 4.1, 7.2643E-10, 
DataValue, 4.2, 7.3485E-10, 
DataValue, 4.3, 7.5323E-10, 
DataValue, 4.4, 7.5835E-10, 
DataValue, 4.5, 8.0398E-10, 
DataValue, 4.6000000000000005, 8.3685E-10, 
DataValue, 4.7, 8.1759999999999995E-10, 
DataValue, 4.8, 8.3955E-10, 
DataValue, 4.9, 8.3661E-10, 
DataValue, 5, 8.6674E-10, 