
SetupTitle, WW
PrimitiveTest, I/V Sweep
TestParameter, Context.MainFrame, B1500A
TestParameter, Channel.UnitType, SMU, SMU
TestParameter, Channel.Unit, SMU2:HP, SMU1:HP
TestParameter, Channel.IName, I1, I4
TestParameter, Channel.VName, V1, V4
TestParameter, Channel.Mode, V, COMMON
TestParameter, Channel.Func, VAR1, CONST
TestParameter, Channel.Index, 
TestParameter, Channel.Time, 
TestParameter, Measurement.Port.Unit, SMU2:HP, SMU1:HP
TestParameter, Measurement.Port.SeriesResistor, NONE, NONE
TestParameter, Measurement.Port.Filter, ON, ON
TestParameter, Measurement.Port.OutputVoltageComparison, 0, 0
TestParameter, Measurement.Primary.Locus, Single
TestParameter, Measurement.Primary.Scale, LINEAR
TestParameter, Measurement.Primary.Start, -5
TestParameter, Measurement.Primary.Stop, 5
TestParameter, Measurement.Primary.Step, 0.1
TestParameter, Measurement.Primary.Compliance, 0.1
TestParameter, Measurement.Primary.PowerCompliance, 0
TestParameter, Measurement.Aborting.Condition, CONTINUE AT ANY
TestParameter, Measurement.PostOutput.Value, START
TestParameter, Measurement.PostOutput.Retention, OFF
TestParameter, Measurement.Bias.Source, -5, 0
TestParameter, Measurement.Bias.Compliance, 0.1, 1
TestParameter, Measurement.Monitor.Unit, SMU2:HP, SMU1:HP
TestParameter, Measurement.Monitor.Adc, HR ADC, HR ADC
TestParameter, Measurement.Monitor.Measurement, Compliance Side, Compliance Side
TestParameter, Measurement.Monitor.RangingMode, AUTO, AUTO
TestParameter, Measurement.Monitor.RangeBoundary, , 
TestParameter, Measurement.Monitor.RangeRating, BY FULL RANGE, BY FULL RANGE
TestParameter, Measurement.Monitor.RangeRatingCoeff, 50, 50
TestParameter, Measurement.Timing.Hold, 0
TestParameter, Measurement.Timing.Delay, 0.001
TestParameter, Measurement.Adc.HighSpeed.Mode, AUTO
TestParameter, Measurement.Adc.HighSpeed.Coeff, 1
TestParameter, Measurement.Adc.HighResolution.AutoZero, OFF
TestParameter, Measurement.Adc.HighResolution.Mode, PLC
TestParameter, Measurement.Adc.HighResolution.Coeff, 1
TestParameter, Measurement.WaitTime.Source.Coeff, 1
TestParameter, Measurement.WaitTime.Source.Offset, 0
TestParameter, Measurement.WaitTime.Monitor.Coeff, 1
TestParameter, Measurement.WaitTime.Monitor.Offset, 0
TestParameter, Function.User.Name, Ohmic
TestParameter, Function.User.Unit, ohm
TestParameter, Function.User.Definition, avg(V1/I1)
TestParameter, Output.Graph.Enabled, true
TestParameter, Output.Graph.XAxis.Data, V1
TestParameter, Output.Graph.XAxis.Scale, Linear
TestParameter, Output.Graph.XAxis.Left, -5
TestParameter, Output.Graph.XAxis.Right, 5
TestParameter, Output.Graph.YAxis.Data, I1
TestParameter, Output.Graph.YAxis.Scale, Linear
TestParameter, Output.Graph.YAxis.Bottom, -0.001
TestParameter, Output.Graph.YAxis.Top, 0.001
TestParameter, Output.Graph.YAxis.Group, 
TestParameter, Output.Scalar.Data, Ohmic
TestParameter, AutoAnalysis.Interpolation, false
TestParameter, AutoAnalysis.Line1.Enabled, false
TestParameter, AutoAnalysis.Line1.Type, 1
TestParameter, AutoAnalysis.Line1.Fix, True
TestParameter, AutoAnalysis.Line1.YAxis, 0
TestParameter, AutoAnalysis.Line1.Point1.Type, 0
TestParameter, AutoAnalysis.Line1.Point1.XY.X, 
TestParameter, AutoAnalysis.Line1.Point1.XY.Y, 
TestParameter, AutoAnalysis.Line1.Point1.Data.Var, 
TestParameter, AutoAnalysis.Line1.Point1.Data.Condition, 
TestParameter, AutoAnalysis.Line1.Point1.Data.Start, false
TestParameter, AutoAnalysis.Line1.Point1.Data.StartVar, 
TestParameter, AutoAnalysis.Line1.Point1.Data.StartCondition, 
TestParameter, AutoAnalysis.Line1.Point2.Type, 0
TestParameter, AutoAnalysis.Line1.Point2.XY.X, 
TestParameter, AutoAnalysis.Line1.Point2.XY.Y, 
TestParameter, AutoAnalysis.Line1.Point2.Data.Var, 
TestParameter, AutoAnalysis.Line1.Point2.Data.Condition, 
TestParameter, AutoAnalysis.Line1.Point2.Data.Start, false
TestParameter, AutoAnalysis.Line1.Point2.Data.StartVar, 
TestParameter, AutoAnalysis.Line1.Point2.Data.StartCondition, 
TestParameter, AutoAnalysis.Line1.GradientExpr, 0
TestParameter, AutoAnalysis.Line2.Enabled, false
TestParameter, AutoAnalysis.Line2.Type, 1
TestParameter, AutoAnalysis.Line2.Fix, True
TestParameter, AutoAnalysis.Line2.YAxis, 0
TestParameter, AutoAnalysis.Line2.Point1.Type, 0
TestParameter, AutoAnalysis.Line2.Point1.XY.X, 
TestParameter, AutoAnalysis.Line2.Point1.XY.Y, 
TestParameter, AutoAnalysis.Line2.Point1.Data.Var, 
TestParameter, AutoAnalysis.Line2.Point1.Data.Condition, 
TestParameter, AutoAnalysis.Line2.Point1.Data.Start, false
TestParameter, AutoAnalysis.Line2.Point1.Data.StartVar, 
TestParameter, AutoAnalysis.Line2.Point1.Data.StartCondition, 
TestParameter, AutoAnalysis.Line2.Point2.Type, 0
TestParameter, AutoAnalysis.Line2.Point2.XY.X, 
TestParameter, AutoAnalysis.Line2.Point2.XY.Y, 
TestParameter, AutoAnalysis.Line2.Point2.Data.Var, 
TestParameter, AutoAnalysis.Line2.Point2.Data.Condition, 
TestParameter, AutoAnalysis.Line2.Point2.Data.Start, false
TestParameter, AutoAnalysis.Line2.Point2.Data.StartVar, 
TestParameter, AutoAnalysis.Line2.Point2.Data.StartCondition, 
TestParameter, AutoAnalysis.Line2.GradientExpr, 0
TestParameter, AutoAnalysis.Marker.Enabled, false
TestParameter, AutoAnalysis.Marker.Data.Var, 
TestParameter, AutoAnalysis.Marker.Data.Condition, 
TestParameter, AutoAnalysis.Marker.Data.Start, false
TestParameter, AutoAnalysis.Marker.Data.StartVar, 
TestParameter, AutoAnalysis.Marker.Data.StartCondition, 
MetaData, TestRecord.EntryPoint, true
MetaData, TestRecord.RecordTime, 07/05/2020 17:38:01
MetaData, TestRecord.TestTarget, 
MetaData, TestRecord.IterationIndex, 24
MetaData, TestRecord.Preservation, true
MetaData, TestRecord.Flag, 
MetaData, TestRecord.Remarks, 
MetaData, TestRecord.LinkKey, b4a6fd03-c3a9-4625-8f21-4672c941b342
Dimension1, 101, 101, 101
Dimension2, 1, 1, 1
DataName, V1, I1, Ohmic
DataValue, -5, -2.53E-10, 35220185499.306274
DataValue, -4.9, -2.333E-10, 
DataValue, -4.8, -2.1719E-10, 
DataValue, -4.7, -1.9411E-10, 
DataValue, -4.6000000000000005, -1.7029E-10, 
DataValue, -4.5, -1.6014E-10, 
DataValue, -4.4, -1.4989E-10, 
DataValue, -4.3, -1.3237E-10, 
DataValue, -4.2, -1.2377E-10, 
DataValue, -4.1, -1.1957E-10, 
DataValue, -4, -1.0745E-10, 
DataValue, -3.9, -1.0563E-10, 
DataValue, -3.8000000000000003, -8.315E-11, 
DataValue, -3.7, -7.838E-11, 
DataValue, -3.6, -7.04E-11, 
DataValue, -3.5, -7.334E-11, 
DataValue, -3.4, -6.555E-11, 
DataValue, -3.3000000000000003, -6.92E-11, 
DataValue, -3.2, -5.941E-11, 
DataValue, -3.1, -5.883E-11, 
DataValue, -3, -5.081E-11, 
DataValue, -2.9, -4.876E-11, 
DataValue, -2.8000000000000003, -4.393E-11, 
DataValue, -2.7, -4.157E-11, 
DataValue, -2.6, -3.305E-11, 
DataValue, -2.5, -2.7E-11, 
DataValue, -2.4, -1.605E-11, 
DataValue, -2.3000000000000003, -2.709E-11, 
DataValue, -2.2, -2.154E-11, 
DataValue, -2.1, -1.226E-11, 
DataValue, -2, -9.02E-12, 
DataValue, -1.9000000000000001, -1.668E-11, 
DataValue, -1.8, -1.955E-11, 
DataValue, -1.7, -5.47E-12, 
DataValue, -1.6, -1.15E-12, 
DataValue, -1.5, -1.94E-12, 
DataValue, -1.4000000000000001, 4.17E-12, 
DataValue, -1.3, 3.84E-12, 
DataValue, -1.2, 5.94E-12, 
DataValue, -1.1, 5.68E-12, 
DataValue, -1, 1.227E-11, 
DataValue, -0.9, 1.388E-11, 
DataValue, -0.8, 1.987E-11, 
DataValue, -0.70000000000000007, 1.718E-11, 
DataValue, -0.6, 2.126E-11, 
DataValue, -0.5, 1.935E-11, 
DataValue, -0.4, 2.559E-11, 
DataValue, -0.3, 2.369E-11, 
DataValue, -0.2, 2.864E-11, 
DataValue, -0.1, 2.601E-11, 
DataValue, 0, 3.204E-11, 
DataValue, 0.1, 3.017E-11, 
DataValue, 0.2, 3.288E-11, 
DataValue, 0.3, 3.69E-11, 
DataValue, 0.4, 4.155E-11, 
DataValue, 0.5, 4.176E-11, 
DataValue, 0.6, 5.474E-11, 
DataValue, 0.70000000000000007, 5.922E-11, 
DataValue, 0.8, 7.118E-11, 
DataValue, 0.9, 8.658E-11, 
DataValue, 1, 1.0063E-10, 
DataValue, 1.1, 1.0717E-10, 
DataValue, 1.2, 1.2823E-10, 
DataValue, 1.3, 1.4065E-10, 
DataValue, 1.4000000000000001, 1.5012E-10, 
DataValue, 1.5, 1.724E-10, 
DataValue, 1.6, 1.9178E-10, 
DataValue, 1.7, 2.118E-10, 
DataValue, 1.8, 2.2462E-10, 
DataValue, 1.9000000000000001, 2.3824E-10, 
DataValue, 2, 2.6785E-10, 
DataValue, 2.1, 2.9065E-10, 
DataValue, 2.2, 3.0814E-10, 
DataValue, 2.3000000000000003, 3.2066E-10, 
DataValue, 2.4, 3.5094E-10, 
DataValue, 2.5, 3.6998E-10, 
DataValue, 2.6, 3.8855E-10, 
DataValue, 2.7, 4.1155E-10, 
DataValue, 2.8000000000000003, 4.3224E-10, 
DataValue, 2.9, 4.5693E-10, 
DataValue, 3, 4.5959E-10, 
DataValue, 3.1, 4.9115E-10, 
DataValue, 3.2, 5.1132E-10, 
DataValue, 3.3000000000000003, 5.2683E-10, 
DataValue, 3.4, 5.4354999999999995E-10, 
DataValue, 3.5, 5.5726E-10, 
DataValue, 3.6, 5.8046E-10, 
DataValue, 3.7, 5.9859E-10, 
DataValue, 3.8000000000000003, 6.0853999999999995E-10, 
DataValue, 3.9, 6.2951E-10, 
DataValue, 4, 6.4753E-10, 
DataValue, 4.1, 6.4347E-10, 
DataValue, 4.2, 6.5894E-10, 
DataValue, 4.3, 6.7675E-10, 
DataValue, 4.4, 6.8667E-10, 
DataValue, 4.5, 6.9313E-10, 
DataValue, 4.6000000000000005, 7.1714999999999995E-10, 
DataValue, 4.7, 7.3862E-10, 
DataValue, 4.8, 7.5938E-10, 
DataValue, 4.9, 7.7534E-10, 
DataValue, 5, 7.8159E-10, 