
SetupTitle, WW
PrimitiveTest, I/V Sweep
TestParameter, Context.MainFrame, B1500A
TestParameter, Channel.UnitType, SMU, SMU
TestParameter, Channel.Unit, SMU2:HP, SMU1:HP
TestParameter, Channel.IName, I1, I4
TestParameter, Channel.VName, V1, V4
TestParameter, Channel.Mode, V, COMMON
TestParameter, Channel.Func, VAR1, CONST
TestParameter, Channel.Index, 
TestParameter, Channel.Time, 
TestParameter, Measurement.Port.Unit, SMU2:HP, SMU1:HP
TestParameter, Measurement.Port.SeriesResistor, NONE, NONE
TestParameter, Measurement.Port.Filter, ON, ON
TestParameter, Measurement.Port.OutputVoltageComparison, 0, 0
TestParameter, Measurement.Primary.Locus, Single
TestParameter, Measurement.Primary.Scale, LINEAR
TestParameter, Measurement.Primary.Start, -5
TestParameter, Measurement.Primary.Stop, 5
TestParameter, Measurement.Primary.Step, 0.1
TestParameter, Measurement.Primary.Compliance, 0.1
TestParameter, Measurement.Primary.PowerCompliance, 0
TestParameter, Measurement.Aborting.Condition, CONTINUE AT ANY
TestParameter, Measurement.PostOutput.Value, START
TestParameter, Measurement.PostOutput.Retention, OFF
TestParameter, Measurement.Bias.Source, -5, 0
TestParameter, Measurement.Bias.Compliance, 0.1, 1
TestParameter, Measurement.Monitor.Unit, SMU2:HP, SMU1:HP
TestParameter, Measurement.Monitor.Adc, HR ADC, HR ADC
TestParameter, Measurement.Monitor.Measurement, Compliance Side, Compliance Side
TestParameter, Measurement.Monitor.RangingMode, AUTO, AUTO
TestParameter, Measurement.Monitor.RangeBoundary, , 
TestParameter, Measurement.Monitor.RangeRating, BY FULL RANGE, BY FULL RANGE
TestParameter, Measurement.Monitor.RangeRatingCoeff, 50, 50
TestParameter, Measurement.Timing.Hold, 0
TestParameter, Measurement.Timing.Delay, 0.001
TestParameter, Measurement.Adc.HighSpeed.Mode, AUTO
TestParameter, Measurement.Adc.HighSpeed.Coeff, 1
TestParameter, Measurement.Adc.HighResolution.AutoZero, OFF
TestParameter, Measurement.Adc.HighResolution.Mode, PLC
TestParameter, Measurement.Adc.HighResolution.Coeff, 1
TestParameter, Measurement.WaitTime.Source.Coeff, 1
TestParameter, Measurement.WaitTime.Source.Offset, 0
TestParameter, Measurement.WaitTime.Monitor.Coeff, 1
TestParameter, Measurement.WaitTime.Monitor.Offset, 0
TestParameter, Function.User.Name, Ohmic
TestParameter, Function.User.Unit, ohm
TestParameter, Function.User.Definition, avg(V1/I1)
TestParameter, Output.Graph.Enabled, true
TestParameter, Output.Graph.XAxis.Data, V1
TestParameter, Output.Graph.XAxis.Scale, Linear
TestParameter, Output.Graph.XAxis.Left, -5
TestParameter, Output.Graph.XAxis.Right, 5
TestParameter, Output.Graph.YAxis.Data, I1
TestParameter, Output.Graph.YAxis.Scale, Linear
TestParameter, Output.Graph.YAxis.Bottom, -0.001
TestParameter, Output.Graph.YAxis.Top, 0.001
TestParameter, Output.Graph.YAxis.Group, 
TestParameter, Output.Scalar.Data, Ohmic
TestParameter, AutoAnalysis.Interpolation, false
TestParameter, AutoAnalysis.Line1.Enabled, false
TestParameter, AutoAnalysis.Line1.Type, 1
TestParameter, AutoAnalysis.Line1.Fix, True
TestParameter, AutoAnalysis.Line1.YAxis, 0
TestParameter, AutoAnalysis.Line1.Point1.Type, 0
TestParameter, AutoAnalysis.Line1.Point1.XY.X, 
TestParameter, AutoAnalysis.Line1.Point1.XY.Y, 
TestParameter, AutoAnalysis.Line1.Point1.Data.Var, 
TestParameter, AutoAnalysis.Line1.Point1.Data.Condition, 
TestParameter, AutoAnalysis.Line1.Point1.Data.Start, false
TestParameter, AutoAnalysis.Line1.Point1.Data.StartVar, 
TestParameter, AutoAnalysis.Line1.Point1.Data.StartCondition, 
TestParameter, AutoAnalysis.Line1.Point2.Type, 0
TestParameter, AutoAnalysis.Line1.Point2.XY.X, 
TestParameter, AutoAnalysis.Line1.Point2.XY.Y, 
TestParameter, AutoAnalysis.Line1.Point2.Data.Var, 
TestParameter, AutoAnalysis.Line1.Point2.Data.Condition, 
TestParameter, AutoAnalysis.Line1.Point2.Data.Start, false
TestParameter, AutoAnalysis.Line1.Point2.Data.StartVar, 
TestParameter, AutoAnalysis.Line1.Point2.Data.StartCondition, 
TestParameter, AutoAnalysis.Line1.GradientExpr, 0
TestParameter, AutoAnalysis.Line2.Enabled, false
TestParameter, AutoAnalysis.Line2.Type, 1
TestParameter, AutoAnalysis.Line2.Fix, True
TestParameter, AutoAnalysis.Line2.YAxis, 0
TestParameter, AutoAnalysis.Line2.Point1.Type, 0
TestParameter, AutoAnalysis.Line2.Point1.XY.X, 
TestParameter, AutoAnalysis.Line2.Point1.XY.Y, 
TestParameter, AutoAnalysis.Line2.Point1.Data.Var, 
TestParameter, AutoAnalysis.Line2.Point1.Data.Condition, 
TestParameter, AutoAnalysis.Line2.Point1.Data.Start, false
TestParameter, AutoAnalysis.Line2.Point1.Data.StartVar, 
TestParameter, AutoAnalysis.Line2.Point1.Data.StartCondition, 
TestParameter, AutoAnalysis.Line2.Point2.Type, 0
TestParameter, AutoAnalysis.Line2.Point2.XY.X, 
TestParameter, AutoAnalysis.Line2.Point2.XY.Y, 
TestParameter, AutoAnalysis.Line2.Point2.Data.Var, 
TestParameter, AutoAnalysis.Line2.Point2.Data.Condition, 
TestParameter, AutoAnalysis.Line2.Point2.Data.Start, false
TestParameter, AutoAnalysis.Line2.Point2.Data.StartVar, 
TestParameter, AutoAnalysis.Line2.Point2.Data.StartCondition, 
TestParameter, AutoAnalysis.Line2.GradientExpr, 0
TestParameter, AutoAnalysis.Marker.Enabled, false
TestParameter, AutoAnalysis.Marker.Data.Var, 
TestParameter, AutoAnalysis.Marker.Data.Condition, 
TestParameter, AutoAnalysis.Marker.Data.Start, false
TestParameter, AutoAnalysis.Marker.Data.StartVar, 
TestParameter, AutoAnalysis.Marker.Data.StartCondition, 
MetaData, TestRecord.EntryPoint, true
MetaData, TestRecord.RecordTime, 07/05/2020 17:37:31
MetaData, TestRecord.TestTarget, 
MetaData, TestRecord.IterationIndex, 23
MetaData, TestRecord.Preservation, true
MetaData, TestRecord.Flag, 
MetaData, TestRecord.Remarks, 
MetaData, TestRecord.LinkKey, 20cedf0a-a82f-4683-a911-27c9e452dd8f
Dimension1, 101, 101, 101
Dimension2, 1, 1, 1
DataName, V1, I1, Ohmic
DataValue, -5, -2.4186E-10, -5774611027.48626
DataValue, -4.9, -2.0854E-10, 
DataValue, -4.8, -1.8621E-10, 
DataValue, -4.7, -1.6937E-10, 
DataValue, -4.6000000000000005, -1.63E-10, 
DataValue, -4.5, -1.534E-10, 
DataValue, -4.4, -1.3422E-10, 
DataValue, -4.3, -1.2553E-10, 
DataValue, -4.2, -1.1381E-10, 
DataValue, -4.1, -1.1099E-10, 
DataValue, -4, -9.872E-11, 
DataValue, -3.9, -9.007E-11, 
DataValue, -3.8000000000000003, -8.47E-11, 
DataValue, -3.7, -7.939E-11, 
DataValue, -3.6, -7.255E-11, 
DataValue, -3.5, -8.55E-11, 
DataValue, -3.4, -6.004E-11, 
DataValue, -3.3000000000000003, -5.821E-11, 
DataValue, -3.2, -5.614E-11, 
DataValue, -3.1, -5.451E-11, 
DataValue, -3, -4.578E-11, 
DataValue, -2.9, -4.075E-11, 
DataValue, -2.8000000000000003, -3.936E-11, 
DataValue, -2.7, -3.889E-11, 
DataValue, -2.6, -2.897E-11, 
DataValue, -2.5, -2.703E-11, 
DataValue, -2.4, -2.435E-11, 
DataValue, -2.3000000000000003, -3.609E-11, 
DataValue, -2.2, -2.088E-11, 
DataValue, -2.1, -2.252E-11, 
DataValue, -2, -1.637E-11, 
DataValue, -1.9000000000000001, -1.535E-11, 
DataValue, -1.8, -9E-12, 
DataValue, -1.7, -7.93E-12, 
DataValue, -1.6, 5.9E-12, 
DataValue, -1.5, 1.51E-12, 
DataValue, -1.4000000000000001, 1.35E-12, 
DataValue, -1.3, 4.15E-12, 
DataValue, -1.2, 1.123E-11, 
DataValue, -1.1, 7.07E-12, 
DataValue, -1, 1.348E-11, 
DataValue, -0.9, 9.93E-12, 
DataValue, -0.8, 1.374E-11, 
DataValue, -0.70000000000000007, 1.448E-11, 
DataValue, -0.6, 2.014E-11, 
DataValue, -0.5, 2.139E-11, 
DataValue, -0.4, 2.471E-11, 
DataValue, -0.3, 2.276E-11, 
DataValue, -0.2, 2.694E-11, 
DataValue, -0.1, 2.515E-11, 
DataValue, 0, 2.987E-11, 
DataValue, 0.1, 3.256E-11, 
DataValue, 0.2, 3.204E-11, 
DataValue, 0.3, 3.341E-11, 
DataValue, 0.4, 3.644E-11, 
DataValue, 0.5, 4.476E-11, 
DataValue, 0.6, 5.501E-11, 
DataValue, 0.70000000000000007, 6.17E-11, 
DataValue, 0.8, 7.295E-11, 
DataValue, 0.9, 8.28E-11, 
DataValue, 1, 9.533E-11, 
DataValue, 1.1, 1.0636E-10, 
DataValue, 1.2, 1.2011E-10, 
DataValue, 1.3, 1.3159E-10, 
DataValue, 1.4000000000000001, 1.5058E-10, 
DataValue, 1.5, 1.6218E-10, 
DataValue, 1.6, 1.863E-10, 
DataValue, 1.7, 1.9868E-10, 
DataValue, 1.8, 2.1043E-10, 
DataValue, 1.9000000000000001, 2.3103E-10, 
DataValue, 2, 2.4692E-10, 
DataValue, 2.1, 2.7203E-10, 
DataValue, 2.2, 2.9775E-10, 
DataValue, 2.3000000000000003, 3.096E-10, 
DataValue, 2.4, 3.2939E-10, 
DataValue, 2.5, 3.5713E-10, 
DataValue, 2.6, 3.7579E-10, 
DataValue, 2.7, 3.8328E-10, 
DataValue, 2.8000000000000003, 4.1003E-10, 
DataValue, 2.9, 4.3577E-10, 
DataValue, 3, 4.5802E-10, 
DataValue, 3.1, 4.6511E-10, 
DataValue, 3.2, 4.8718999999999995E-10, 
DataValue, 3.3000000000000003, 5.0067E-10, 
DataValue, 3.4, 5.2026E-10, 
DataValue, 3.5, 5.3691E-10, 
DataValue, 3.6, 5.4989E-10, 
DataValue, 3.7, 5.6568E-10, 
DataValue, 3.8000000000000003, 5.8283E-10, 
DataValue, 3.9, 5.9312E-10, 
DataValue, 4, 6.2194E-10, 
DataValue, 4.1, 6.2666E-10, 
DataValue, 4.2, 6.2701E-10, 
DataValue, 4.3, 6.453E-10, 
DataValue, 4.4, 6.684E-10, 
DataValue, 4.5, 6.6867E-10, 
DataValue, 4.6000000000000005, 6.864E-10, 
DataValue, 4.7, 6.8373E-10, 
DataValue, 4.8, 6.9896E-10, 
DataValue, 4.9, 7.1143E-10, 
DataValue, 5, 7.3337E-10, 