
SetupTitle, WW
PrimitiveTest, I/V Sweep
TestParameter, Context.MainFrame, B1500A
TestParameter, Channel.UnitType, SMU, SMU
TestParameter, Channel.Unit, SMU2:HP, SMU1:HP
TestParameter, Channel.IName, I1, I4
TestParameter, Channel.VName, V1, V4
TestParameter, Channel.Mode, V, COMMON
TestParameter, Channel.Func, VAR1, CONST
TestParameter, Channel.Index, 
TestParameter, Channel.Time, 
TestParameter, Measurement.Port.Unit, SMU2:HP, SMU1:HP
TestParameter, Measurement.Port.SeriesResistor, NONE, NONE
TestParameter, Measurement.Port.Filter, ON, ON
TestParameter, Measurement.Port.OutputVoltageComparison, 0, 0
TestParameter, Measurement.Primary.Locus, Single
TestParameter, Measurement.Primary.Scale, LINEAR
TestParameter, Measurement.Primary.Start, -5
TestParameter, Measurement.Primary.Stop, 5
TestParameter, Measurement.Primary.Step, 0.1
TestParameter, Measurement.Primary.Compliance, 0.1
TestParameter, Measurement.Primary.PowerCompliance, 0
TestParameter, Measurement.Aborting.Condition, CONTINUE AT ANY
TestParameter, Measurement.PostOutput.Value, START
TestParameter, Measurement.PostOutput.Retention, OFF
TestParameter, Measurement.Bias.Source, -5, 0
TestParameter, Measurement.Bias.Compliance, 0.1, 1
TestParameter, Measurement.Monitor.Unit, SMU2:HP, SMU1:HP
TestParameter, Measurement.Monitor.Adc, HR ADC, HR ADC
TestParameter, Measurement.Monitor.Measurement, Compliance Side, Compliance Side
TestParameter, Measurement.Monitor.RangingMode, AUTO, AUTO
TestParameter, Measurement.Monitor.RangeBoundary, , 
TestParameter, Measurement.Monitor.RangeRating, BY FULL RANGE, BY FULL RANGE
TestParameter, Measurement.Monitor.RangeRatingCoeff, 50, 50
TestParameter, Measurement.Timing.Hold, 0
TestParameter, Measurement.Timing.Delay, 0.001
TestParameter, Measurement.Adc.HighSpeed.Mode, AUTO
TestParameter, Measurement.Adc.HighSpeed.Coeff, 1
TestParameter, Measurement.Adc.HighResolution.AutoZero, OFF
TestParameter, Measurement.Adc.HighResolution.Mode, PLC
TestParameter, Measurement.Adc.HighResolution.Coeff, 1
TestParameter, Measurement.WaitTime.Source.Coeff, 1
TestParameter, Measurement.WaitTime.Source.Offset, 0
TestParameter, Measurement.WaitTime.Monitor.Coeff, 1
TestParameter, Measurement.WaitTime.Monitor.Offset, 0
TestParameter, Function.User.Name, Ohmic
TestParameter, Function.User.Unit, ohm
TestParameter, Function.User.Definition, avg(V1/I1)
TestParameter, Output.Graph.Enabled, true
TestParameter, Output.Graph.XAxis.Data, V1
TestParameter, Output.Graph.XAxis.Scale, Linear
TestParameter, Output.Graph.XAxis.Left, -5
TestParameter, Output.Graph.XAxis.Right, 5
TestParameter, Output.Graph.YAxis.Data, I1
TestParameter, Output.Graph.YAxis.Scale, Linear
TestParameter, Output.Graph.YAxis.Bottom, -0.001
TestParameter, Output.Graph.YAxis.Top, 0.001
TestParameter, Output.Graph.YAxis.Group, 
TestParameter, Output.Scalar.Data, Ohmic
TestParameter, AutoAnalysis.Interpolation, false
TestParameter, AutoAnalysis.Line1.Enabled, false
TestParameter, AutoAnalysis.Line1.Type, 1
TestParameter, AutoAnalysis.Line1.Fix, True
TestParameter, AutoAnalysis.Line1.YAxis, 0
TestParameter, AutoAnalysis.Line1.Point1.Type, 0
TestParameter, AutoAnalysis.Line1.Point1.XY.X, 
TestParameter, AutoAnalysis.Line1.Point1.XY.Y, 
TestParameter, AutoAnalysis.Line1.Point1.Data.Var, 
TestParameter, AutoAnalysis.Line1.Point1.Data.Condition, 
TestParameter, AutoAnalysis.Line1.Point1.Data.Start, false
TestParameter, AutoAnalysis.Line1.Point1.Data.StartVar, 
TestParameter, AutoAnalysis.Line1.Point1.Data.StartCondition, 
TestParameter, AutoAnalysis.Line1.Point2.Type, 0
TestParameter, AutoAnalysis.Line1.Point2.XY.X, 
TestParameter, AutoAnalysis.Line1.Point2.XY.Y, 
TestParameter, AutoAnalysis.Line1.Point2.Data.Var, 
TestParameter, AutoAnalysis.Line1.Point2.Data.Condition, 
TestParameter, AutoAnalysis.Line1.Point2.Data.Start, false
TestParameter, AutoAnalysis.Line1.Point2.Data.StartVar, 
TestParameter, AutoAnalysis.Line1.Point2.Data.StartCondition, 
TestParameter, AutoAnalysis.Line1.GradientExpr, 0
TestParameter, AutoAnalysis.Line2.Enabled, false
TestParameter, AutoAnalysis.Line2.Type, 1
TestParameter, AutoAnalysis.Line2.Fix, True
TestParameter, AutoAnalysis.Line2.YAxis, 0
TestParameter, AutoAnalysis.Line2.Point1.Type, 0
TestParameter, AutoAnalysis.Line2.Point1.XY.X, 
TestParameter, AutoAnalysis.Line2.Point1.XY.Y, 
TestParameter, AutoAnalysis.Line2.Point1.Data.Var, 
TestParameter, AutoAnalysis.Line2.Point1.Data.Condition, 
TestParameter, AutoAnalysis.Line2.Point1.Data.Start, false
TestParameter, AutoAnalysis.Line2.Point1.Data.StartVar, 
TestParameter, AutoAnalysis.Line2.Point1.Data.StartCondition, 
TestParameter, AutoAnalysis.Line2.Point2.Type, 0
TestParameter, AutoAnalysis.Line2.Point2.XY.X, 
TestParameter, AutoAnalysis.Line2.Point2.XY.Y, 
TestParameter, AutoAnalysis.Line2.Point2.Data.Var, 
TestParameter, AutoAnalysis.Line2.Point2.Data.Condition, 
TestParameter, AutoAnalysis.Line2.Point2.Data.Start, false
TestParameter, AutoAnalysis.Line2.Point2.Data.StartVar, 
TestParameter, AutoAnalysis.Line2.Point2.Data.StartCondition, 
TestParameter, AutoAnalysis.Line2.GradientExpr, 0
TestParameter, AutoAnalysis.Marker.Enabled, false
TestParameter, AutoAnalysis.Marker.Data.Var, 
TestParameter, AutoAnalysis.Marker.Data.Condition, 
TestParameter, AutoAnalysis.Marker.Data.Start, false
TestParameter, AutoAnalysis.Marker.Data.StartVar, 
TestParameter, AutoAnalysis.Marker.Data.StartCondition, 
MetaData, TestRecord.EntryPoint, true
MetaData, TestRecord.RecordTime, 07/05/2020 17:37:00
MetaData, TestRecord.TestTarget, 
MetaData, TestRecord.IterationIndex, 22
MetaData, TestRecord.Preservation, true
MetaData, TestRecord.Flag, 
MetaData, TestRecord.Remarks, 
MetaData, TestRecord.LinkKey, 558c3657-febe-49f7-8adf-6916cadeb874
Dimension1, 101, 101, 101
Dimension2, 1, 1, 1
DataName, V1, I1, Ohmic
DataValue, -5, -2.3577E-10, 107759927018.09216
DataValue, -4.9, -2.1126E-10, 
DataValue, -4.8, -1.9805E-10, 
DataValue, -4.7, -1.8005E-10, 
DataValue, -4.6000000000000005, -1.757E-10, 
DataValue, -4.5, -1.4766E-10, 
DataValue, -4.4, -1.4809E-10, 
DataValue, -4.3, -1.2827E-10, 
DataValue, -4.2, -1.1552E-10, 
DataValue, -4.1, -1.0559E-10, 
DataValue, -4, -1.0203E-10, 
DataValue, -3.9, -9.444E-11, 
DataValue, -3.8000000000000003, -8.936E-11, 
DataValue, -3.7, -7.651E-11, 
DataValue, -3.6, -7.234E-11, 
DataValue, -3.5, -6.947E-11, 
DataValue, -3.4, -6.31E-11, 
DataValue, -3.3000000000000003, -5.225E-11, 
DataValue, -3.2, -6.182E-11, 
DataValue, -3.1, -4.785E-11, 
DataValue, -3, -4.833E-11, 
DataValue, -2.9, -3.712E-11, 
DataValue, -2.8000000000000003, -4.093E-11, 
DataValue, -2.7, -3.741E-11, 
DataValue, -2.6, -3.333E-11, 
DataValue, -2.5, -2.543E-11, 
DataValue, -2.4, -2.109E-11, 
DataValue, -2.3000000000000003, -2.273E-11, 
DataValue, -2.2, -2.255E-11, 
DataValue, -2.1, -1.158E-11, 
DataValue, -2, -1.51E-11, 
DataValue, -1.9000000000000001, -1.541E-11, 
DataValue, -1.8, -6.26E-12, 
DataValue, -1.7, -5.08E-12, 
DataValue, -1.6, -7.01E-12, 
DataValue, -1.5, -2.4E-13, 
DataValue, -1.4000000000000001, -6E-13, 
DataValue, -1.3, 7.44E-12, 
DataValue, -1.2, 4.03E-12, 
DataValue, -1.1, 1.115E-11, 
DataValue, -1, 9.08E-12, 
DataValue, -0.9, 1.228E-11, 
DataValue, -0.8, 1.501E-11, 
DataValue, -0.70000000000000007, 1.839E-11, 
DataValue, -0.6, 1.816E-11, 
DataValue, -0.5, 2.614E-11, 
DataValue, -0.4, 2.334E-11, 
DataValue, -0.3, 2.217E-11, 
DataValue, -0.2, 2.624E-11, 
DataValue, -0.1, 2.862E-11, 
DataValue, 0, 2.996E-11, 
DataValue, 0.1, 3.079E-11, 
DataValue, 0.2, 3.217E-11, 
DataValue, 0.3, 3.714E-11, 
DataValue, 0.4, 3.995E-11, 
DataValue, 0.5, 4.861E-11, 
DataValue, 0.6, 5.115E-11, 
DataValue, 0.70000000000000007, 6.04E-11, 
DataValue, 0.8, 7.05E-11, 
DataValue, 0.9, 8.378E-11, 
DataValue, 1, 9.463E-11, 
DataValue, 1.1, 1.099E-10, 
DataValue, 1.2, 1.2156E-10, 
DataValue, 1.3, 1.3807E-10, 
DataValue, 1.4000000000000001, 1.495E-10, 
DataValue, 1.5, 1.7098E-10, 
DataValue, 1.6, 1.8534E-10, 
DataValue, 1.7, 2.021E-10, 
DataValue, 1.8, 2.1085E-10, 
DataValue, 1.9000000000000001, 2.3668E-10, 
DataValue, 2, 2.5455E-10, 
DataValue, 2.1, 2.7301E-10, 
DataValue, 2.2, 2.8354E-10, 
DataValue, 2.3000000000000003, 3.1471E-10, 
DataValue, 2.4, 3.3271E-10, 
DataValue, 2.5, 3.5163E-10, 
DataValue, 2.6, 3.6831E-10, 
DataValue, 2.7, 3.9125E-10, 
DataValue, 2.8000000000000003, 4.1457E-10, 
DataValue, 2.9, 4.331E-10, 
DataValue, 3, 4.435E-10, 
DataValue, 3.1, 4.6575E-10, 
DataValue, 3.2, 4.8356E-10, 
DataValue, 3.3000000000000003, 4.9573E-10, 
DataValue, 3.4, 5.1959E-10, 
DataValue, 3.5, 5.2564E-10, 
DataValue, 3.6, 5.4985E-10, 
DataValue, 3.7, 5.6157E-10, 
DataValue, 3.8000000000000003, 5.7313E-10, 
DataValue, 3.9, 5.8939E-10, 
DataValue, 4, 6.0332E-10, 
DataValue, 4.1, 6.1318E-10, 
DataValue, 4.2, 6.2274E-10, 
DataValue, 4.3, 6.3963E-10, 
DataValue, 4.4, 6.4529E-10, 
DataValue, 4.5, 6.6289E-10, 
DataValue, 4.6000000000000005, 6.7335E-10, 
DataValue, 4.7, 6.9632E-10, 
DataValue, 4.8, 6.9763E-10, 
DataValue, 4.9, 7.0196E-10, 
DataValue, 5, 7.2713E-10, 