
SetupTitle, WW
PrimitiveTest, I/V Sweep
TestParameter, Context.MainFrame, B1500A
TestParameter, Channel.UnitType, SMU, SMU
TestParameter, Channel.Unit, SMU2:HP, SMU1:HP
TestParameter, Channel.IName, I1, I4
TestParameter, Channel.VName, V1, V4
TestParameter, Channel.Mode, V, COMMON
TestParameter, Channel.Func, VAR1, CONST
TestParameter, Channel.Index, 
TestParameter, Channel.Time, 
TestParameter, Measurement.Port.Unit, SMU2:HP, SMU1:HP
TestParameter, Measurement.Port.SeriesResistor, NONE, NONE
TestParameter, Measurement.Port.Filter, ON, ON
TestParameter, Measurement.Port.OutputVoltageComparison, 0, 0
TestParameter, Measurement.Primary.Locus, Single
TestParameter, Measurement.Primary.Scale, LINEAR
TestParameter, Measurement.Primary.Start, -5
TestParameter, Measurement.Primary.Stop, 5
TestParameter, Measurement.Primary.Step, 0.1
TestParameter, Measurement.Primary.Compliance, 0.1
TestParameter, Measurement.Primary.PowerCompliance, 0
TestParameter, Measurement.Aborting.Condition, CONTINUE AT ANY
TestParameter, Measurement.PostOutput.Value, START
TestParameter, Measurement.PostOutput.Retention, OFF
TestParameter, Measurement.Bias.Source, -5, 0
TestParameter, Measurement.Bias.Compliance, 0.1, 1
TestParameter, Measurement.Monitor.Unit, SMU2:HP, SMU1:HP
TestParameter, Measurement.Monitor.Adc, HR ADC, HR ADC
TestParameter, Measurement.Monitor.Measurement, Compliance Side, Compliance Side
TestParameter, Measurement.Monitor.RangingMode, AUTO, AUTO
TestParameter, Measurement.Monitor.RangeBoundary, , 
TestParameter, Measurement.Monitor.RangeRating, BY FULL RANGE, BY FULL RANGE
TestParameter, Measurement.Monitor.RangeRatingCoeff, 50, 50
TestParameter, Measurement.Timing.Hold, 0
TestParameter, Measurement.Timing.Delay, 0.001
TestParameter, Measurement.Adc.HighSpeed.Mode, AUTO
TestParameter, Measurement.Adc.HighSpeed.Coeff, 1
TestParameter, Measurement.Adc.HighResolution.AutoZero, OFF
TestParameter, Measurement.Adc.HighResolution.Mode, PLC
TestParameter, Measurement.Adc.HighResolution.Coeff, 1
TestParameter, Measurement.WaitTime.Source.Coeff, 1
TestParameter, Measurement.WaitTime.Source.Offset, 0
TestParameter, Measurement.WaitTime.Monitor.Coeff, 1
TestParameter, Measurement.WaitTime.Monitor.Offset, 0
TestParameter, Function.User.Name, Ohmic
TestParameter, Function.User.Unit, ohm
TestParameter, Function.User.Definition, avg(V1/I1)
TestParameter, Output.Graph.Enabled, true
TestParameter, Output.Graph.XAxis.Data, V1
TestParameter, Output.Graph.XAxis.Scale, Linear
TestParameter, Output.Graph.XAxis.Left, -5
TestParameter, Output.Graph.XAxis.Right, 5
TestParameter, Output.Graph.YAxis.Data, I1
TestParameter, Output.Graph.YAxis.Scale, Linear
TestParameter, Output.Graph.YAxis.Bottom, -0.001
TestParameter, Output.Graph.YAxis.Top, 0.001
TestParameter, Output.Graph.YAxis.Group, 
TestParameter, Output.Scalar.Data, Ohmic
TestParameter, AutoAnalysis.Interpolation, false
TestParameter, AutoAnalysis.Line1.Enabled, false
TestParameter, AutoAnalysis.Line1.Type, 1
TestParameter, AutoAnalysis.Line1.Fix, True
TestParameter, AutoAnalysis.Line1.YAxis, 0
TestParameter, AutoAnalysis.Line1.Point1.Type, 0
TestParameter, AutoAnalysis.Line1.Point1.XY.X, 
TestParameter, AutoAnalysis.Line1.Point1.XY.Y, 
TestParameter, AutoAnalysis.Line1.Point1.Data.Var, 
TestParameter, AutoAnalysis.Line1.Point1.Data.Condition, 
TestParameter, AutoAnalysis.Line1.Point1.Data.Start, false
TestParameter, AutoAnalysis.Line1.Point1.Data.StartVar, 
TestParameter, AutoAnalysis.Line1.Point1.Data.StartCondition, 
TestParameter, AutoAnalysis.Line1.Point2.Type, 0
TestParameter, AutoAnalysis.Line1.Point2.XY.X, 
TestParameter, AutoAnalysis.Line1.Point2.XY.Y, 
TestParameter, AutoAnalysis.Line1.Point2.Data.Var, 
TestParameter, AutoAnalysis.Line1.Point2.Data.Condition, 
TestParameter, AutoAnalysis.Line1.Point2.Data.Start, false
TestParameter, AutoAnalysis.Line1.Point2.Data.StartVar, 
TestParameter, AutoAnalysis.Line1.Point2.Data.StartCondition, 
TestParameter, AutoAnalysis.Line1.GradientExpr, 0
TestParameter, AutoAnalysis.Line2.Enabled, false
TestParameter, AutoAnalysis.Line2.Type, 1
TestParameter, AutoAnalysis.Line2.Fix, True
TestParameter, AutoAnalysis.Line2.YAxis, 0
TestParameter, AutoAnalysis.Line2.Point1.Type, 0
TestParameter, AutoAnalysis.Line2.Point1.XY.X, 
TestParameter, AutoAnalysis.Line2.Point1.XY.Y, 
TestParameter, AutoAnalysis.Line2.Point1.Data.Var, 
TestParameter, AutoAnalysis.Line2.Point1.Data.Condition, 
TestParameter, AutoAnalysis.Line2.Point1.Data.Start, false
TestParameter, AutoAnalysis.Line2.Point1.Data.StartVar, 
TestParameter, AutoAnalysis.Line2.Point1.Data.StartCondition, 
TestParameter, AutoAnalysis.Line2.Point2.Type, 0
TestParameter, AutoAnalysis.Line2.Point2.XY.X, 
TestParameter, AutoAnalysis.Line2.Point2.XY.Y, 
TestParameter, AutoAnalysis.Line2.Point2.Data.Var, 
TestParameter, AutoAnalysis.Line2.Point2.Data.Condition, 
TestParameter, AutoAnalysis.Line2.Point2.Data.Start, false
TestParameter, AutoAnalysis.Line2.Point2.Data.StartVar, 
TestParameter, AutoAnalysis.Line2.Point2.Data.StartCondition, 
TestParameter, AutoAnalysis.Line2.GradientExpr, 0
TestParameter, AutoAnalysis.Marker.Enabled, false
TestParameter, AutoAnalysis.Marker.Data.Var, 
TestParameter, AutoAnalysis.Marker.Data.Condition, 
TestParameter, AutoAnalysis.Marker.Data.Start, false
TestParameter, AutoAnalysis.Marker.Data.StartVar, 
TestParameter, AutoAnalysis.Marker.Data.StartCondition, 
MetaData, TestRecord.EntryPoint, true
MetaData, TestRecord.RecordTime, 07/05/2020 17:34:34
MetaData, TestRecord.TestTarget, 
MetaData, TestRecord.IterationIndex, 20
MetaData, TestRecord.Preservation, true
MetaData, TestRecord.Flag, 
MetaData, TestRecord.Remarks, 
MetaData, TestRecord.LinkKey, 10a71e5c-7493-4f21-a5d3-fd26198e72ae
Dimension1, 101, 101, 101
Dimension2, 1, 1, 1
DataName, V1, I1, Ohmic
DataValue, -5, -2.0522E-10, 9496359937.88441
DataValue, -4.9, -1.7677E-10, 
DataValue, -4.8, -1.6218E-10, 
DataValue, -4.7, -1.5008E-10, 
DataValue, -4.6000000000000005, -1.3989E-10, 
DataValue, -4.5, -1.2602E-10, 
DataValue, -4.4, -1.1638E-10, 
DataValue, -4.3, -1.0979E-10, 
DataValue, -4.2, -1.0396E-10, 
DataValue, -4.1, -9.133E-11, 
DataValue, -4, -9.059E-11, 
DataValue, -3.9, -8.333E-11, 
DataValue, -3.8000000000000003, -7.764E-11, 
DataValue, -3.7, -6.944E-11, 
DataValue, -3.6, -6.959E-11, 
DataValue, -3.5, -7.066E-11, 
DataValue, -3.4, -5.224E-11, 
DataValue, -3.3000000000000003, -5.101E-11, 
DataValue, -3.2, -4.369E-11, 
DataValue, -3.1, -4.141E-11, 
DataValue, -3, -3.711E-11, 
DataValue, -2.9, -3.572E-11, 
DataValue, -2.8000000000000003, -3.246E-11, 
DataValue, -2.7, -2.847E-11, 
DataValue, -2.6, -2.236E-11, 
DataValue, -2.5, -2.303E-11, 
DataValue, -2.4, -1.699E-11, 
DataValue, -2.3000000000000003, -1.462E-11, 
DataValue, -2.2, -1.07E-11, 
DataValue, -2.1, -8.92E-12, 
DataValue, -2, -3.48E-12, 
DataValue, -1.9000000000000001, -4.04E-12, 
DataValue, -1.8, -4.93E-12, 
DataValue, -1.7, 1.03E-12, 
DataValue, -1.6, 5.02E-12, 
DataValue, -1.5, 5.46E-12, 
DataValue, -1.4000000000000001, 9.28E-12, 
DataValue, -1.3, 8.54E-12, 
DataValue, -1.2, 8.32E-12, 
DataValue, -1.1, 1.035E-11, 
DataValue, -1, 1.559E-11, 
DataValue, -0.9, 1.469E-11, 
DataValue, -0.8, 2.118E-11, 
DataValue, -0.70000000000000007, 1.849E-11, 
DataValue, -0.6, 2.195E-11, 
DataValue, -0.5, 2.102E-11, 
DataValue, -0.4, 2.341E-11, 
DataValue, -0.3, 2.249E-11, 
DataValue, -0.2, 2.639E-11, 
DataValue, -0.1, 2.701E-11, 
DataValue, 0, 3.388E-11, 
DataValue, 0.1, 3.067E-11, 
DataValue, 0.2, 3.349E-11, 
DataValue, 0.3, 3.261E-11, 
DataValue, 0.4, 3.9339999999999997E-11, 
DataValue, 0.5, 4.095E-11, 
DataValue, 0.6, 4.977E-11, 
DataValue, 0.70000000000000007, 5.499E-11, 
DataValue, 0.8, 6.76E-11, 
DataValue, 0.9, 7.578E-11, 
DataValue, 1, 8.905E-11, 
DataValue, 1.1, 9.863E-11, 
DataValue, 1.2, 1.2198E-10, 
DataValue, 1.3, 1.306E-10, 
DataValue, 1.4000000000000001, 1.4294E-10, 
DataValue, 1.5, 1.5409E-10, 
DataValue, 1.6, 1.7263E-10, 
DataValue, 1.7, 1.9517E-10, 
DataValue, 1.8, 2.061E-10, 
DataValue, 1.9000000000000001, 2.198E-10, 
DataValue, 2, 2.352E-10, 
DataValue, 2.1, 2.5366E-10, 
DataValue, 2.2, 2.7577E-10, 
DataValue, 2.3000000000000003, 2.9117E-10, 
DataValue, 2.4, 3.1169E-10, 
DataValue, 2.5, 3.1742E-10, 
DataValue, 2.6, 3.3737E-10, 
DataValue, 2.7, 3.5753E-10, 
DataValue, 2.8000000000000003, 3.839E-10, 
DataValue, 2.9, 4.0071E-10, 
DataValue, 3, 4.0308E-10, 
DataValue, 3.1, 4.2303E-10, 
DataValue, 3.2, 4.4871E-10, 
DataValue, 3.3000000000000003, 4.6444E-10, 
DataValue, 3.4, 4.7251E-10, 
DataValue, 3.5, 4.9885E-10, 
DataValue, 3.6, 5.0591E-10, 
DataValue, 3.7, 5.2304E-10, 
DataValue, 3.8000000000000003, 5.3029E-10, 
DataValue, 3.9, 5.4074E-10, 
DataValue, 4, 5.5403E-10, 
DataValue, 4.1, 5.5763E-10, 
DataValue, 4.2, 5.7575E-10, 
DataValue, 4.3, 5.9042E-10, 
DataValue, 4.4, 6.006E-10, 
DataValue, 4.5, 6.184E-10, 
DataValue, 4.6000000000000005, 6.3502E-10, 
DataValue, 4.7, 6.2856E-10, 
DataValue, 4.8, 6.5535E-10, 
DataValue, 4.9, 6.735E-10, 
DataValue, 5, 6.7493E-10, 