
SetupTitle, WW
PrimitiveTest, I/V Sweep
TestParameter, Context.MainFrame, B1500A
TestParameter, Channel.UnitType, SMU, SMU
TestParameter, Channel.Unit, SMU2:HP, SMU1:HP
TestParameter, Channel.IName, I1, I4
TestParameter, Channel.VName, V1, V4
TestParameter, Channel.Mode, V, COMMON
TestParameter, Channel.Func, VAR1, CONST
TestParameter, Channel.Index, 
TestParameter, Channel.Time, 
TestParameter, Measurement.Port.Unit, SMU2:HP, SMU1:HP
TestParameter, Measurement.Port.SeriesResistor, NONE, NONE
TestParameter, Measurement.Port.Filter, ON, ON
TestParameter, Measurement.Port.OutputVoltageComparison, 0, 0
TestParameter, Measurement.Primary.Locus, Single
TestParameter, Measurement.Primary.Scale, LINEAR
TestParameter, Measurement.Primary.Start, -5
TestParameter, Measurement.Primary.Stop, 5
TestParameter, Measurement.Primary.Step, 0.1
TestParameter, Measurement.Primary.Compliance, 0.1
TestParameter, Measurement.Primary.PowerCompliance, 0
TestParameter, Measurement.Aborting.Condition, CONTINUE AT ANY
TestParameter, Measurement.PostOutput.Value, START
TestParameter, Measurement.PostOutput.Retention, OFF
TestParameter, Measurement.Bias.Source, -5, 0
TestParameter, Measurement.Bias.Compliance, 0.1, 1
TestParameter, Measurement.Monitor.Unit, SMU2:HP, SMU1:HP
TestParameter, Measurement.Monitor.Adc, HR ADC, HR ADC
TestParameter, Measurement.Monitor.Measurement, Compliance Side, Compliance Side
TestParameter, Measurement.Monitor.RangingMode, AUTO, AUTO
TestParameter, Measurement.Monitor.RangeBoundary, , 
TestParameter, Measurement.Monitor.RangeRating, BY FULL RANGE, BY FULL RANGE
TestParameter, Measurement.Monitor.RangeRatingCoeff, 50, 50
TestParameter, Measurement.Timing.Hold, 0
TestParameter, Measurement.Timing.Delay, 0.001
TestParameter, Measurement.Adc.HighSpeed.Mode, AUTO
TestParameter, Measurement.Adc.HighSpeed.Coeff, 1
TestParameter, Measurement.Adc.HighResolution.AutoZero, OFF
TestParameter, Measurement.Adc.HighResolution.Mode, PLC
TestParameter, Measurement.Adc.HighResolution.Coeff, 1
TestParameter, Measurement.WaitTime.Source.Coeff, 1
TestParameter, Measurement.WaitTime.Source.Offset, 0
TestParameter, Measurement.WaitTime.Monitor.Coeff, 1
TestParameter, Measurement.WaitTime.Monitor.Offset, 0
TestParameter, Function.User.Name, Ohmic
TestParameter, Function.User.Unit, ohm
TestParameter, Function.User.Definition, avg(V1/I1)
TestParameter, Output.Graph.Enabled, true
TestParameter, Output.Graph.XAxis.Data, V1
TestParameter, Output.Graph.XAxis.Scale, Linear
TestParameter, Output.Graph.XAxis.Left, -5
TestParameter, Output.Graph.XAxis.Right, 5
TestParameter, Output.Graph.YAxis.Data, I1
TestParameter, Output.Graph.YAxis.Scale, Linear
TestParameter, Output.Graph.YAxis.Bottom, -0.001
TestParameter, Output.Graph.YAxis.Top, 0.001
TestParameter, Output.Graph.YAxis.Group, 
TestParameter, Output.Scalar.Data, Ohmic
TestParameter, AutoAnalysis.Interpolation, false
TestParameter, AutoAnalysis.Line1.Enabled, false
TestParameter, AutoAnalysis.Line1.Type, 1
TestParameter, AutoAnalysis.Line1.Fix, True
TestParameter, AutoAnalysis.Line1.YAxis, 0
TestParameter, AutoAnalysis.Line1.Point1.Type, 0
TestParameter, AutoAnalysis.Line1.Point1.XY.X, 
TestParameter, AutoAnalysis.Line1.Point1.XY.Y, 
TestParameter, AutoAnalysis.Line1.Point1.Data.Var, 
TestParameter, AutoAnalysis.Line1.Point1.Data.Condition, 
TestParameter, AutoAnalysis.Line1.Point1.Data.Start, false
TestParameter, AutoAnalysis.Line1.Point1.Data.StartVar, 
TestParameter, AutoAnalysis.Line1.Point1.Data.StartCondition, 
TestParameter, AutoAnalysis.Line1.Point2.Type, 0
TestParameter, AutoAnalysis.Line1.Point2.XY.X, 
TestParameter, AutoAnalysis.Line1.Point2.XY.Y, 
TestParameter, AutoAnalysis.Line1.Point2.Data.Var, 
TestParameter, AutoAnalysis.Line1.Point2.Data.Condition, 
TestParameter, AutoAnalysis.Line1.Point2.Data.Start, false
TestParameter, AutoAnalysis.Line1.Point2.Data.StartVar, 
TestParameter, AutoAnalysis.Line1.Point2.Data.StartCondition, 
TestParameter, AutoAnalysis.Line1.GradientExpr, 0
TestParameter, AutoAnalysis.Line2.Enabled, false
TestParameter, AutoAnalysis.Line2.Type, 1
TestParameter, AutoAnalysis.Line2.Fix, True
TestParameter, AutoAnalysis.Line2.YAxis, 0
TestParameter, AutoAnalysis.Line2.Point1.Type, 0
TestParameter, AutoAnalysis.Line2.Point1.XY.X, 
TestParameter, AutoAnalysis.Line2.Point1.XY.Y, 
TestParameter, AutoAnalysis.Line2.Point1.Data.Var, 
TestParameter, AutoAnalysis.Line2.Point1.Data.Condition, 
TestParameter, AutoAnalysis.Line2.Point1.Data.Start, false
TestParameter, AutoAnalysis.Line2.Point1.Data.StartVar, 
TestParameter, AutoAnalysis.Line2.Point1.Data.StartCondition, 
TestParameter, AutoAnalysis.Line2.Point2.Type, 0
TestParameter, AutoAnalysis.Line2.Point2.XY.X, 
TestParameter, AutoAnalysis.Line2.Point2.XY.Y, 
TestParameter, AutoAnalysis.Line2.Point2.Data.Var, 
TestParameter, AutoAnalysis.Line2.Point2.Data.Condition, 
TestParameter, AutoAnalysis.Line2.Point2.Data.Start, false
TestParameter, AutoAnalysis.Line2.Point2.Data.StartVar, 
TestParameter, AutoAnalysis.Line2.Point2.Data.StartCondition, 
TestParameter, AutoAnalysis.Line2.GradientExpr, 0
TestParameter, AutoAnalysis.Marker.Enabled, false
TestParameter, AutoAnalysis.Marker.Data.Var, 
TestParameter, AutoAnalysis.Marker.Data.Condition, 
TestParameter, AutoAnalysis.Marker.Data.Start, false
TestParameter, AutoAnalysis.Marker.Data.StartVar, 
TestParameter, AutoAnalysis.Marker.Data.StartCondition, 
MetaData, TestRecord.EntryPoint, true
MetaData, TestRecord.RecordTime, 07/05/2020 17:33:14
MetaData, TestRecord.TestTarget, 
MetaData, TestRecord.IterationIndex, 18
MetaData, TestRecord.Preservation, true
MetaData, TestRecord.Flag, 
MetaData, TestRecord.Remarks, 
MetaData, TestRecord.LinkKey, f8ebafe6-bef9-4f6e-9191-07c4d208a61a
Dimension1, 101, 101, 101
Dimension2, 1, 1, 1
DataName, V1, I1, Ohmic
DataValue, -5, -1.8122E-10, 22782616887.428555
DataValue, -4.9, -1.6293E-10, 
DataValue, -4.8, -1.4438E-10, 
DataValue, -4.7, -1.2801E-10, 
DataValue, -4.6000000000000005, -1.2406E-10, 
DataValue, -4.5, -1.2087E-10, 
DataValue, -4.4, -1.1302E-10, 
DataValue, -4.3, -9.83E-11, 
DataValue, -4.2, -9.57E-11, 
DataValue, -4.1, -8.656E-11, 
DataValue, -4, -8.405E-11, 
DataValue, -3.9, -7.513E-11, 
DataValue, -3.8000000000000003, -7.39E-11, 
DataValue, -3.7, -6.298E-11, 
DataValue, -3.6, -6.169E-11, 
DataValue, -3.5, -5.417E-11, 
DataValue, -3.4, -5.137E-11, 
DataValue, -3.3000000000000003, -4.541E-11, 
DataValue, -3.2, -4.319E-11, 
DataValue, -3.1, -4.339E-11, 
DataValue, -3, -3.956E-11, 
DataValue, -2.9, -3.022E-11, 
DataValue, -2.8000000000000003, -3.218E-11, 
DataValue, -2.7, -3.352E-11, 
DataValue, -2.6, -2.392E-11, 
DataValue, -2.5, -1.74E-11, 
DataValue, -2.4, -1.851E-11, 
DataValue, -2.3000000000000003, -1.901E-11, 
DataValue, -2.2, -1.495E-11, 
DataValue, -2.1, -8.56E-12, 
DataValue, -2, -9.87E-12, 
DataValue, -1.9000000000000001, -2.53E-12, 
DataValue, -1.8, -5.58E-12, 
DataValue, -1.7, -6.16E-12, 
DataValue, -1.6, -1.71E-12, 
DataValue, -1.5, 1.25E-12, 
DataValue, -1.4000000000000001, 1.72E-12, 
DataValue, -1.3, 7.95E-12, 
DataValue, -1.2, 5.1E-12, 
DataValue, -1.1, 1.2419999999999999E-11, 
DataValue, -1, 1.097E-11, 
DataValue, -0.9, 1.338E-11, 
DataValue, -0.8, 1.45E-11, 
DataValue, -0.70000000000000007, 1.709E-11, 
DataValue, -0.6, 2.0379999999999998E-11, 
DataValue, -0.5, 1.903E-11, 
DataValue, -0.4, 2.196E-11, 
DataValue, -0.3, 2.583E-11, 
DataValue, -0.2, 2.322E-11, 
DataValue, -0.1, 2.324E-11, 
DataValue, 0, 2.729E-11, 
DataValue, 0.1, 2.881E-11, 
DataValue, 0.2, 2.9099999999999998E-11, 
DataValue, 0.3, 3.422E-11, 
DataValue, 0.4, 3.581E-11, 
DataValue, 0.5, 4.598E-11, 
DataValue, 0.6, 4.499E-11, 
DataValue, 0.70000000000000007, 5.644E-11, 
DataValue, 0.8, 6.631E-11, 
DataValue, 0.9, 7.536E-11, 
DataValue, 1, 8.171E-11, 
DataValue, 1.1, 9.062E-11, 
DataValue, 1.2, 1.0662E-10, 
DataValue, 1.3, 1.2348E-10, 
DataValue, 1.4000000000000001, 1.3331E-10, 
DataValue, 1.5, 1.4789E-10, 
DataValue, 1.6, 1.5914E-10, 
DataValue, 1.7, 1.7782E-10, 
DataValue, 1.8, 1.8901E-10, 
DataValue, 1.9000000000000001, 2.0005E-10, 
DataValue, 2, 2.1848E-10, 
DataValue, 2.1, 2.3661E-10, 
DataValue, 2.2, 2.574E-10, 
DataValue, 2.3000000000000003, 2.7826E-10, 
DataValue, 2.4, 2.8945E-10, 
DataValue, 2.5, 3.0461E-10, 
DataValue, 2.6, 3.2869E-10, 
DataValue, 2.7, 3.3962E-10, 
DataValue, 2.8000000000000003, 3.5631E-10, 
DataValue, 2.9, 3.7863E-10, 
DataValue, 3, 3.9028E-10, 
DataValue, 3.1, 4.0612E-10, 
DataValue, 3.2, 4.1578E-10, 
DataValue, 3.3000000000000003, 4.3711E-10, 
DataValue, 3.4, 4.5195E-10, 
DataValue, 3.5, 4.6791E-10, 
DataValue, 3.6, 4.8526E-10, 
DataValue, 3.7, 4.9809E-10, 
DataValue, 3.8000000000000003, 5.1072E-10, 
DataValue, 3.9, 5.1306E-10, 
DataValue, 4, 5.2628E-10, 
DataValue, 4.1, 5.3975E-10, 
DataValue, 4.2, 5.4862E-10, 
DataValue, 4.3, 5.6009E-10, 
DataValue, 4.4, 5.745E-10, 
DataValue, 4.5, 5.7948E-10, 
DataValue, 4.6000000000000005, 5.8939E-10, 
DataValue, 4.7, 5.9216E-10, 
DataValue, 4.8, 6.0671E-10, 
DataValue, 4.9, 6.2239E-10, 
DataValue, 5, 6.4188E-10, 