
SetupTitle, WW
PrimitiveTest, I/V Sweep
TestParameter, Context.MainFrame, B1500A
TestParameter, Channel.UnitType, SMU, SMU
TestParameter, Channel.Unit, SMU2:HP, SMU1:HP
TestParameter, Channel.IName, I1, I4
TestParameter, Channel.VName, V1, V4
TestParameter, Channel.Mode, V, COMMON
TestParameter, Channel.Func, VAR1, CONST
TestParameter, Channel.Index, 
TestParameter, Channel.Time, 
TestParameter, Measurement.Port.Unit, SMU2:HP, SMU1:HP
TestParameter, Measurement.Port.SeriesResistor, NONE, NONE
TestParameter, Measurement.Port.Filter, ON, ON
TestParameter, Measurement.Port.OutputVoltageComparison, 0, 0
TestParameter, Measurement.Primary.Locus, Single
TestParameter, Measurement.Primary.Scale, LINEAR
TestParameter, Measurement.Primary.Start, -5
TestParameter, Measurement.Primary.Stop, 5
TestParameter, Measurement.Primary.Step, 0.1
TestParameter, Measurement.Primary.Compliance, 0.1
TestParameter, Measurement.Primary.PowerCompliance, 0
TestParameter, Measurement.Aborting.Condition, CONTINUE AT ANY
TestParameter, Measurement.PostOutput.Value, START
TestParameter, Measurement.PostOutput.Retention, OFF
TestParameter, Measurement.Bias.Source, -5, 0
TestParameter, Measurement.Bias.Compliance, 0.1, 1
TestParameter, Measurement.Monitor.Unit, SMU2:HP, SMU1:HP
TestParameter, Measurement.Monitor.Adc, HR ADC, HR ADC
TestParameter, Measurement.Monitor.Measurement, Compliance Side, Compliance Side
TestParameter, Measurement.Monitor.RangingMode, AUTO, AUTO
TestParameter, Measurement.Monitor.RangeBoundary, , 
TestParameter, Measurement.Monitor.RangeRating, BY FULL RANGE, BY FULL RANGE
TestParameter, Measurement.Monitor.RangeRatingCoeff, 50, 50
TestParameter, Measurement.Timing.Hold, 0
TestParameter, Measurement.Timing.Delay, 0.001
TestParameter, Measurement.Adc.HighSpeed.Mode, AUTO
TestParameter, Measurement.Adc.HighSpeed.Coeff, 1
TestParameter, Measurement.Adc.HighResolution.AutoZero, OFF
TestParameter, Measurement.Adc.HighResolution.Mode, PLC
TestParameter, Measurement.Adc.HighResolution.Coeff, 1
TestParameter, Measurement.WaitTime.Source.Coeff, 1
TestParameter, Measurement.WaitTime.Source.Offset, 0
TestParameter, Measurement.WaitTime.Monitor.Coeff, 1
TestParameter, Measurement.WaitTime.Monitor.Offset, 0
TestParameter, Function.User.Name, Ohmic
TestParameter, Function.User.Unit, ohm
TestParameter, Function.User.Definition, avg(V1/I1)
TestParameter, Output.Graph.Enabled, true
TestParameter, Output.Graph.XAxis.Data, V1
TestParameter, Output.Graph.XAxis.Scale, Linear
TestParameter, Output.Graph.XAxis.Left, -5
TestParameter, Output.Graph.XAxis.Right, 5
TestParameter, Output.Graph.YAxis.Data, I1
TestParameter, Output.Graph.YAxis.Scale, Linear
TestParameter, Output.Graph.YAxis.Bottom, -0.001
TestParameter, Output.Graph.YAxis.Top, 0.001
TestParameter, Output.Graph.YAxis.Group, 
TestParameter, Output.Scalar.Data, Ohmic
TestParameter, AutoAnalysis.Interpolation, false
TestParameter, AutoAnalysis.Line1.Enabled, false
TestParameter, AutoAnalysis.Line1.Type, 1
TestParameter, AutoAnalysis.Line1.Fix, True
TestParameter, AutoAnalysis.Line1.YAxis, 0
TestParameter, AutoAnalysis.Line1.Point1.Type, 0
TestParameter, AutoAnalysis.Line1.Point1.XY.X, 
TestParameter, AutoAnalysis.Line1.Point1.XY.Y, 
TestParameter, AutoAnalysis.Line1.Point1.Data.Var, 
TestParameter, AutoAnalysis.Line1.Point1.Data.Condition, 
TestParameter, AutoAnalysis.Line1.Point1.Data.Start, false
TestParameter, AutoAnalysis.Line1.Point1.Data.StartVar, 
TestParameter, AutoAnalysis.Line1.Point1.Data.StartCondition, 
TestParameter, AutoAnalysis.Line1.Point2.Type, 0
TestParameter, AutoAnalysis.Line1.Point2.XY.X, 
TestParameter, AutoAnalysis.Line1.Point2.XY.Y, 
TestParameter, AutoAnalysis.Line1.Point2.Data.Var, 
TestParameter, AutoAnalysis.Line1.Point2.Data.Condition, 
TestParameter, AutoAnalysis.Line1.Point2.Data.Start, false
TestParameter, AutoAnalysis.Line1.Point2.Data.StartVar, 
TestParameter, AutoAnalysis.Line1.Point2.Data.StartCondition, 
TestParameter, AutoAnalysis.Line1.GradientExpr, 0
TestParameter, AutoAnalysis.Line2.Enabled, false
TestParameter, AutoAnalysis.Line2.Type, 1
TestParameter, AutoAnalysis.Line2.Fix, True
TestParameter, AutoAnalysis.Line2.YAxis, 0
TestParameter, AutoAnalysis.Line2.Point1.Type, 0
TestParameter, AutoAnalysis.Line2.Point1.XY.X, 
TestParameter, AutoAnalysis.Line2.Point1.XY.Y, 
TestParameter, AutoAnalysis.Line2.Point1.Data.Var, 
TestParameter, AutoAnalysis.Line2.Point1.Data.Condition, 
TestParameter, AutoAnalysis.Line2.Point1.Data.Start, false
TestParameter, AutoAnalysis.Line2.Point1.Data.StartVar, 
TestParameter, AutoAnalysis.Line2.Point1.Data.StartCondition, 
TestParameter, AutoAnalysis.Line2.Point2.Type, 0
TestParameter, AutoAnalysis.Line2.Point2.XY.X, 
TestParameter, AutoAnalysis.Line2.Point2.XY.Y, 
TestParameter, AutoAnalysis.Line2.Point2.Data.Var, 
TestParameter, AutoAnalysis.Line2.Point2.Data.Condition, 
TestParameter, AutoAnalysis.Line2.Point2.Data.Start, false
TestParameter, AutoAnalysis.Line2.Point2.Data.StartVar, 
TestParameter, AutoAnalysis.Line2.Point2.Data.StartCondition, 
TestParameter, AutoAnalysis.Line2.GradientExpr, 0
TestParameter, AutoAnalysis.Marker.Enabled, false
TestParameter, AutoAnalysis.Marker.Data.Var, 
TestParameter, AutoAnalysis.Marker.Data.Condition, 
TestParameter, AutoAnalysis.Marker.Data.Start, false
TestParameter, AutoAnalysis.Marker.Data.StartVar, 
TestParameter, AutoAnalysis.Marker.Data.StartCondition, 
MetaData, TestRecord.EntryPoint, true
MetaData, TestRecord.RecordTime, 07/05/2020 17:32:23
MetaData, TestRecord.TestTarget, 
MetaData, TestRecord.IterationIndex, 17
MetaData, TestRecord.Preservation, true
MetaData, TestRecord.Flag, 
MetaData, TestRecord.Remarks, 
MetaData, TestRecord.LinkKey, 2136d93a-c32b-48d1-af2f-d3f87fb2df13
Dimension1, 101, 101, 101
Dimension2, 1, 1, 1
DataName, V1, I1, Ohmic
DataValue, -5, -1.4433E-10, 110327498238.52779
DataValue, -4.9, -1.2928E-10, 
DataValue, -4.8, -1.2037E-10, 
DataValue, -4.7, -1.0622E-10, 
DataValue, -4.6000000000000005, -1.0541E-10, 
DataValue, -4.5, -9.42E-11, 
DataValue, -4.4, -9.566E-11, 
DataValue, -4.3, -8.336E-11, 
DataValue, -4.2, -8.131E-11, 
DataValue, -4.1, -7.894E-11, 
DataValue, -4, -7.292E-11, 
DataValue, -3.9, -7.075E-11, 
DataValue, -3.8000000000000003, -6.289E-11, 
DataValue, -3.7, -5.994E-11, 
DataValue, -3.6, -5.73E-11, 
DataValue, -3.5, -4.494E-11, 
DataValue, -3.4, -5.537E-11, 
DataValue, -3.3000000000000003, -4.589E-11, 
DataValue, -3.2, -4.333E-11, 
DataValue, -3.1, -4.09E-11, 
DataValue, -3, -3.642E-11, 
DataValue, -2.9, -3.441E-11, 
DataValue, -2.8000000000000003, -2.864E-11, 
DataValue, -2.7, -2.765E-11, 
DataValue, -2.6, -2.452E-11, 
DataValue, -2.5, -2.017E-11, 
DataValue, -2.4, -2.291E-11, 
DataValue, -2.3000000000000003, -1.507E-11, 
DataValue, -2.2, -1.41E-11, 
DataValue, -2.1, -8.15E-12, 
DataValue, -2, -8.28E-12, 
DataValue, -1.9000000000000001, -7.23E-12, 
DataValue, -1.8, -6.66E-12, 
DataValue, -1.7, -2.7E-12, 
DataValue, -1.6, -4.3E-13, 
DataValue, -1.5, -3.3E-13, 
DataValue, -1.4000000000000001, 2.64E-12, 
DataValue, -1.3, 9.79E-12, 
DataValue, -1.2, 6.67E-12, 
DataValue, -1.1, 9.61E-12, 
DataValue, -1, 8.67E-12, 
DataValue, -0.9, 1.085E-11, 
DataValue, -0.8, 1.138E-11, 
DataValue, -0.70000000000000007, 1.367E-11, 
DataValue, -0.6, 1.262E-11, 
DataValue, -0.5, 1.667E-11, 
DataValue, -0.4, 1.793E-11, 
DataValue, -0.3, 2.304E-11, 
DataValue, -0.2, 2.18E-11, 
DataValue, -0.1, 2.684E-11, 
DataValue, 0, 2.458E-11, 
DataValue, 0.1, 2.734E-11, 
DataValue, 0.2, 2.695E-11, 
DataValue, 0.3, 3.153E-11, 
DataValue, 0.4, 2.884E-11, 
DataValue, 0.5, 3.616E-11, 
DataValue, 0.6, 4.101E-11, 
DataValue, 0.70000000000000007, 5.227E-11, 
DataValue, 0.8, 5.476E-11, 
DataValue, 0.9, 6.452E-11, 
DataValue, 1, 7.314E-11, 
DataValue, 1.1, 7.97E-11, 
DataValue, 1.2, 9.046E-11, 
DataValue, 1.3, 9.267E-11, 
DataValue, 1.4000000000000001, 1.0665E-10, 
DataValue, 1.5, 1.2011E-10, 
DataValue, 1.6, 1.3174E-10, 
DataValue, 1.7, 1.4674E-10, 
DataValue, 1.8, 1.5866E-10, 
DataValue, 1.9000000000000001, 1.7665E-10, 
DataValue, 2, 1.8692E-10, 
DataValue, 2.1, 2.0087E-10, 
DataValue, 2.2, 2.2172E-10, 
DataValue, 2.3000000000000003, 2.4009E-10, 
DataValue, 2.4, 2.482E-10, 
DataValue, 2.5, 2.6214E-10, 
DataValue, 2.6, 2.7934E-10, 
DataValue, 2.7, 2.9829E-10, 
DataValue, 2.8000000000000003, 3.0219E-10, 
DataValue, 2.9, 3.2588E-10, 
DataValue, 3, 3.3504E-10, 
DataValue, 3.1, 3.4992E-10, 
DataValue, 3.2, 3.646E-10, 
DataValue, 3.3000000000000003, 3.8268E-10, 
DataValue, 3.4, 3.8638E-10, 
DataValue, 3.5, 4.1648E-10, 
DataValue, 3.6, 4.2901E-10, 
DataValue, 3.7, 4.4714E-10, 
DataValue, 3.8000000000000003, 4.6354E-10, 
DataValue, 3.9, 4.6274E-10, 
DataValue, 4, 4.6976E-10, 
DataValue, 4.1, 5.0227E-10, 
DataValue, 4.2, 4.8862E-10, 
DataValue, 4.3, 5.0436E-10, 
DataValue, 4.4, 5.1306E-10, 
DataValue, 4.5, 5.2279E-10, 
DataValue, 4.6000000000000005, 5.3598E-10, 
DataValue, 4.7, 5.4182E-10, 
DataValue, 4.8, 5.5379E-10, 
DataValue, 4.9, 5.6945E-10, 
DataValue, 5, 5.8062E-10, 