
SetupTitle, WW
PrimitiveTest, I/V Sweep
TestParameter, Context.MainFrame, B1500A
TestParameter, Channel.UnitType, SMU, SMU
TestParameter, Channel.Unit, SMU2:HP, SMU1:HP
TestParameter, Channel.IName, I1, I4
TestParameter, Channel.VName, V1, V4
TestParameter, Channel.Mode, V, COMMON
TestParameter, Channel.Func, VAR1, CONST
TestParameter, Channel.Index, 
TestParameter, Channel.Time, 
TestParameter, Measurement.Port.Unit, SMU2:HP, SMU1:HP
TestParameter, Measurement.Port.SeriesResistor, NONE, NONE
TestParameter, Measurement.Port.Filter, ON, ON
TestParameter, Measurement.Port.OutputVoltageComparison, 0, 0
TestParameter, Measurement.Primary.Locus, Single
TestParameter, Measurement.Primary.Scale, LINEAR
TestParameter, Measurement.Primary.Start, -5
TestParameter, Measurement.Primary.Stop, 5
TestParameter, Measurement.Primary.Step, 0.1
TestParameter, Measurement.Primary.Compliance, 0.1
TestParameter, Measurement.Primary.PowerCompliance, 0
TestParameter, Measurement.Aborting.Condition, CONTINUE AT ANY
TestParameter, Measurement.PostOutput.Value, START
TestParameter, Measurement.PostOutput.Retention, OFF
TestParameter, Measurement.Bias.Source, -5, 0
TestParameter, Measurement.Bias.Compliance, 0.1, 1
TestParameter, Measurement.Monitor.Unit, SMU2:HP, SMU1:HP
TestParameter, Measurement.Monitor.Adc, HR ADC, HR ADC
TestParameter, Measurement.Monitor.Measurement, Compliance Side, Compliance Side
TestParameter, Measurement.Monitor.RangingMode, AUTO, AUTO
TestParameter, Measurement.Monitor.RangeBoundary, , 
TestParameter, Measurement.Monitor.RangeRating, BY FULL RANGE, BY FULL RANGE
TestParameter, Measurement.Monitor.RangeRatingCoeff, 50, 50
TestParameter, Measurement.Timing.Hold, 0
TestParameter, Measurement.Timing.Delay, 0.001
TestParameter, Measurement.Adc.HighSpeed.Mode, AUTO
TestParameter, Measurement.Adc.HighSpeed.Coeff, 1
TestParameter, Measurement.Adc.HighResolution.AutoZero, OFF
TestParameter, Measurement.Adc.HighResolution.Mode, PLC
TestParameter, Measurement.Adc.HighResolution.Coeff, 1
TestParameter, Measurement.WaitTime.Source.Coeff, 1
TestParameter, Measurement.WaitTime.Source.Offset, 0
TestParameter, Measurement.WaitTime.Monitor.Coeff, 1
TestParameter, Measurement.WaitTime.Monitor.Offset, 0
TestParameter, Function.User.Name, Ohmic
TestParameter, Function.User.Unit, ohm
TestParameter, Function.User.Definition, avg(V1/I1)
TestParameter, Output.Graph.Enabled, true
TestParameter, Output.Graph.XAxis.Data, V1
TestParameter, Output.Graph.XAxis.Scale, Linear
TestParameter, Output.Graph.XAxis.Left, -5
TestParameter, Output.Graph.XAxis.Right, 5
TestParameter, Output.Graph.YAxis.Data, I1
TestParameter, Output.Graph.YAxis.Scale, Linear
TestParameter, Output.Graph.YAxis.Bottom, -0.001
TestParameter, Output.Graph.YAxis.Top, 0.001
TestParameter, Output.Graph.YAxis.Group, 
TestParameter, Output.Scalar.Data, Ohmic
TestParameter, AutoAnalysis.Interpolation, false
TestParameter, AutoAnalysis.Line1.Enabled, false
TestParameter, AutoAnalysis.Line1.Type, 1
TestParameter, AutoAnalysis.Line1.Fix, True
TestParameter, AutoAnalysis.Line1.YAxis, 0
TestParameter, AutoAnalysis.Line1.Point1.Type, 0
TestParameter, AutoAnalysis.Line1.Point1.XY.X, 
TestParameter, AutoAnalysis.Line1.Point1.XY.Y, 
TestParameter, AutoAnalysis.Line1.Point1.Data.Var, 
TestParameter, AutoAnalysis.Line1.Point1.Data.Condition, 
TestParameter, AutoAnalysis.Line1.Point1.Data.Start, false
TestParameter, AutoAnalysis.Line1.Point1.Data.StartVar, 
TestParameter, AutoAnalysis.Line1.Point1.Data.StartCondition, 
TestParameter, AutoAnalysis.Line1.Point2.Type, 0
TestParameter, AutoAnalysis.Line1.Point2.XY.X, 
TestParameter, AutoAnalysis.Line1.Point2.XY.Y, 
TestParameter, AutoAnalysis.Line1.Point2.Data.Var, 
TestParameter, AutoAnalysis.Line1.Point2.Data.Condition, 
TestParameter, AutoAnalysis.Line1.Point2.Data.Start, false
TestParameter, AutoAnalysis.Line1.Point2.Data.StartVar, 
TestParameter, AutoAnalysis.Line1.Point2.Data.StartCondition, 
TestParameter, AutoAnalysis.Line1.GradientExpr, 0
TestParameter, AutoAnalysis.Line2.Enabled, false
TestParameter, AutoAnalysis.Line2.Type, 1
TestParameter, AutoAnalysis.Line2.Fix, True
TestParameter, AutoAnalysis.Line2.YAxis, 0
TestParameter, AutoAnalysis.Line2.Point1.Type, 0
TestParameter, AutoAnalysis.Line2.Point1.XY.X, 
TestParameter, AutoAnalysis.Line2.Point1.XY.Y, 
TestParameter, AutoAnalysis.Line2.Point1.Data.Var, 
TestParameter, AutoAnalysis.Line2.Point1.Data.Condition, 
TestParameter, AutoAnalysis.Line2.Point1.Data.Start, false
TestParameter, AutoAnalysis.Line2.Point1.Data.StartVar, 
TestParameter, AutoAnalysis.Line2.Point1.Data.StartCondition, 
TestParameter, AutoAnalysis.Line2.Point2.Type, 0
TestParameter, AutoAnalysis.Line2.Point2.XY.X, 
TestParameter, AutoAnalysis.Line2.Point2.XY.Y, 
TestParameter, AutoAnalysis.Line2.Point2.Data.Var, 
TestParameter, AutoAnalysis.Line2.Point2.Data.Condition, 
TestParameter, AutoAnalysis.Line2.Point2.Data.Start, false
TestParameter, AutoAnalysis.Line2.Point2.Data.StartVar, 
TestParameter, AutoAnalysis.Line2.Point2.Data.StartCondition, 
TestParameter, AutoAnalysis.Line2.GradientExpr, 0
TestParameter, AutoAnalysis.Marker.Enabled, false
TestParameter, AutoAnalysis.Marker.Data.Var, 
TestParameter, AutoAnalysis.Marker.Data.Condition, 
TestParameter, AutoAnalysis.Marker.Data.Start, false
TestParameter, AutoAnalysis.Marker.Data.StartVar, 
TestParameter, AutoAnalysis.Marker.Data.StartCondition, 
MetaData, TestRecord.EntryPoint, true
MetaData, TestRecord.RecordTime, 07/05/2020 17:31:35
MetaData, TestRecord.TestTarget, 
MetaData, TestRecord.IterationIndex, 16
MetaData, TestRecord.Preservation, true
MetaData, TestRecord.Flag, 
MetaData, TestRecord.Remarks, 
MetaData, TestRecord.LinkKey, 1110750b-9b24-401f-952c-dcec4e4646ab
Dimension1, 101, 101, 101
Dimension2, 1, 1, 1
DataName, V1, I1, Ohmic
DataValue, -5, -9.501E-11, 47942864856.558823
DataValue, -4.9, -7.457E-11, 
DataValue, -4.8, -5.818E-11, 
DataValue, -4.7, -5.182E-11, 
DataValue, -4.6000000000000005, -4.819E-11, 
DataValue, -4.5, -4.222E-11, 
DataValue, -4.4, -3.959E-11, 
DataValue, -4.3, -3.174E-11, 
DataValue, -4.2, -3.602E-11, 
DataValue, -4.1, -3.16E-11, 
DataValue, -4, -2.336E-11, 
DataValue, -3.9, -2.175E-11, 
DataValue, -3.8000000000000003, -1.976E-11, 
DataValue, -3.7, -2.42E-11, 
DataValue, -3.6, -1.618E-11, 
DataValue, -3.5, -1.565E-11, 
DataValue, -3.4, -1.386E-11, 
DataValue, -3.3000000000000003, -1.308E-11, 
DataValue, -3.2, -1.195E-11, 
DataValue, -3.1, -9.09E-12, 
DataValue, -3, -9.81E-12, 
DataValue, -2.9, -1.336E-11, 
DataValue, -2.8000000000000003, -6.65E-12, 
DataValue, -2.7, -5.5E-12, 
DataValue, -2.6, -6.12E-12, 
DataValue, -2.5, -3.84E-12, 
DataValue, -2.4, -1.85E-12, 
DataValue, -2.3000000000000003, -2.3699999999999998E-12, 
DataValue, -2.2, -2.14E-12, 
DataValue, -2.1, -1.45E-12, 
DataValue, -2, -1.93E-12, 
DataValue, -1.9000000000000001, 4.4E-13, 
DataValue, -1.8, -5E-13, 
DataValue, -1.7, 9.7E-13, 
DataValue, -1.6, 2.94E-12, 
DataValue, -1.5, 2.4E-12, 
DataValue, -1.4000000000000001, 2.6E-12, 
DataValue, -1.3, 6.1E-13, 
DataValue, -1.2, 4.15E-12, 
DataValue, -1.1, 5.15E-12, 
DataValue, -1, 3.98E-12, 
DataValue, -0.9, 5.08E-12, 
DataValue, -0.8, 6.75E-12, 
DataValue, -0.70000000000000007, 5.46E-12, 
DataValue, -0.6, 6.51E-12, 
DataValue, -0.5, 6.53E-12, 
DataValue, -0.4, 8.22E-12, 
DataValue, -0.3, 7.37E-12, 
DataValue, -0.2, 9.96E-12, 
DataValue, -0.1, 8.87E-12, 
DataValue, 0, 9.6E-12, 
DataValue, 0.1, 8.93E-12, 
DataValue, 0.2, 1.126E-11, 
DataValue, 0.3, 1.053E-11, 
DataValue, 0.4, 1.185E-11, 
DataValue, 0.5, 1.293E-11, 
DataValue, 0.6, 1.601E-11, 
DataValue, 0.70000000000000007, 1.56E-11, 
DataValue, 0.8, 2.208E-11, 
DataValue, 0.9, 2.325E-11, 
DataValue, 1, 2.458E-11, 
DataValue, 1.1, 2.86E-11, 
DataValue, 1.2, 3.531E-11, 
DataValue, 1.3, 3.777E-11, 
DataValue, 1.4000000000000001, 4.246E-11, 
DataValue, 1.5, 4.885E-11, 
DataValue, 1.6, 5.464E-11, 
DataValue, 1.7, 5.888E-11, 
DataValue, 1.8, 6.892E-11, 
DataValue, 1.9000000000000001, 7.719E-11, 
DataValue, 2, 8.835E-11, 
DataValue, 2.1, 9.416E-11, 
DataValue, 2.2, 1.0097E-10, 
DataValue, 2.3000000000000003, 1.1322E-10, 
DataValue, 2.4, 1.2161E-10, 
DataValue, 2.5, 1.3116E-10, 
DataValue, 2.6, 1.4258E-10, 
DataValue, 2.7, 1.4639E-10, 
DataValue, 2.8000000000000003, 1.5653E-10, 
DataValue, 2.9, 1.7035E-10, 
DataValue, 3, 1.7702E-10, 
DataValue, 3.1, 1.909E-10, 
DataValue, 3.2, 2.0577E-10, 
DataValue, 3.3000000000000003, 2.1483E-10, 
DataValue, 3.4, 2.2615E-10, 
DataValue, 3.5, 2.3458E-10, 
DataValue, 3.6, 2.5042E-10, 
DataValue, 3.7, 2.6572E-10, 
DataValue, 3.8000000000000003, 2.7402E-10, 
DataValue, 3.9, 2.8845E-10, 
DataValue, 4, 2.9785E-10, 
DataValue, 4.1, 3.0909E-10, 
DataValue, 4.2, 3.2508E-10, 
DataValue, 4.3, 3.4022E-10, 
DataValue, 4.4, 3.4735E-10, 
DataValue, 4.5, 3.6069E-10, 
DataValue, 4.6000000000000005, 3.6893E-10, 
DataValue, 4.7, 3.8187E-10, 
DataValue, 4.8, 3.9108E-10, 
DataValue, 4.9, 3.9903E-10, 
DataValue, 5, 4.137E-10, 