
SetupTitle, WW
PrimitiveTest, I/V Sweep
TestParameter, Context.MainFrame, B1500A
TestParameter, Channel.UnitType, SMU, SMU
TestParameter, Channel.Unit, SMU2:HP, SMU1:HP
TestParameter, Channel.IName, I1, I4
TestParameter, Channel.VName, V1, V4
TestParameter, Channel.Mode, V, COMMON
TestParameter, Channel.Func, VAR1, CONST
TestParameter, Channel.Index, 
TestParameter, Channel.Time, 
TestParameter, Measurement.Port.Unit, SMU2:HP, SMU1:HP
TestParameter, Measurement.Port.SeriesResistor, NONE, NONE
TestParameter, Measurement.Port.Filter, ON, ON
TestParameter, Measurement.Port.OutputVoltageComparison, 0, 0
TestParameter, Measurement.Primary.Locus, Single
TestParameter, Measurement.Primary.Scale, LINEAR
TestParameter, Measurement.Primary.Start, -5
TestParameter, Measurement.Primary.Stop, 5
TestParameter, Measurement.Primary.Step, 0.1
TestParameter, Measurement.Primary.Compliance, 0.1
TestParameter, Measurement.Primary.PowerCompliance, 0
TestParameter, Measurement.Aborting.Condition, CONTINUE AT ANY
TestParameter, Measurement.PostOutput.Value, START
TestParameter, Measurement.PostOutput.Retention, OFF
TestParameter, Measurement.Bias.Source, -5, 0
TestParameter, Measurement.Bias.Compliance, 0.1, 1
TestParameter, Measurement.Monitor.Unit, SMU2:HP, SMU1:HP
TestParameter, Measurement.Monitor.Adc, HR ADC, HR ADC
TestParameter, Measurement.Monitor.Measurement, Compliance Side, Compliance Side
TestParameter, Measurement.Monitor.RangingMode, AUTO, AUTO
TestParameter, Measurement.Monitor.RangeBoundary, , 
TestParameter, Measurement.Monitor.RangeRating, BY FULL RANGE, BY FULL RANGE
TestParameter, Measurement.Monitor.RangeRatingCoeff, 50, 50
TestParameter, Measurement.Timing.Hold, 0
TestParameter, Measurement.Timing.Delay, 0.001
TestParameter, Measurement.Adc.HighSpeed.Mode, AUTO
TestParameter, Measurement.Adc.HighSpeed.Coeff, 1
TestParameter, Measurement.Adc.HighResolution.AutoZero, OFF
TestParameter, Measurement.Adc.HighResolution.Mode, PLC
TestParameter, Measurement.Adc.HighResolution.Coeff, 1
TestParameter, Measurement.WaitTime.Source.Coeff, 1
TestParameter, Measurement.WaitTime.Source.Offset, 0
TestParameter, Measurement.WaitTime.Monitor.Coeff, 1
TestParameter, Measurement.WaitTime.Monitor.Offset, 0
TestParameter, Function.User.Name, Ohmic
TestParameter, Function.User.Unit, ohm
TestParameter, Function.User.Definition, avg(V1/I1)
TestParameter, Output.Graph.Enabled, true
TestParameter, Output.Graph.XAxis.Data, V1
TestParameter, Output.Graph.XAxis.Scale, Linear
TestParameter, Output.Graph.XAxis.Left, -5
TestParameter, Output.Graph.XAxis.Right, 5
TestParameter, Output.Graph.YAxis.Data, I1
TestParameter, Output.Graph.YAxis.Scale, Linear
TestParameter, Output.Graph.YAxis.Bottom, -0.001
TestParameter, Output.Graph.YAxis.Top, 0.001
TestParameter, Output.Graph.YAxis.Group, 
TestParameter, Output.Scalar.Data, Ohmic
TestParameter, AutoAnalysis.Interpolation, false
TestParameter, AutoAnalysis.Line1.Enabled, false
TestParameter, AutoAnalysis.Line1.Type, 1
TestParameter, AutoAnalysis.Line1.Fix, True
TestParameter, AutoAnalysis.Line1.YAxis, 0
TestParameter, AutoAnalysis.Line1.Point1.Type, 0
TestParameter, AutoAnalysis.Line1.Point1.XY.X, 
TestParameter, AutoAnalysis.Line1.Point1.XY.Y, 
TestParameter, AutoAnalysis.Line1.Point1.Data.Var, 
TestParameter, AutoAnalysis.Line1.Point1.Data.Condition, 
TestParameter, AutoAnalysis.Line1.Point1.Data.Start, false
TestParameter, AutoAnalysis.Line1.Point1.Data.StartVar, 
TestParameter, AutoAnalysis.Line1.Point1.Data.StartCondition, 
TestParameter, AutoAnalysis.Line1.Point2.Type, 0
TestParameter, AutoAnalysis.Line1.Point2.XY.X, 
TestParameter, AutoAnalysis.Line1.Point2.XY.Y, 
TestParameter, AutoAnalysis.Line1.Point2.Data.Var, 
TestParameter, AutoAnalysis.Line1.Point2.Data.Condition, 
TestParameter, AutoAnalysis.Line1.Point2.Data.Start, false
TestParameter, AutoAnalysis.Line1.Point2.Data.StartVar, 
TestParameter, AutoAnalysis.Line1.Point2.Data.StartCondition, 
TestParameter, AutoAnalysis.Line1.GradientExpr, 0
TestParameter, AutoAnalysis.Line2.Enabled, false
TestParameter, AutoAnalysis.Line2.Type, 1
TestParameter, AutoAnalysis.Line2.Fix, True
TestParameter, AutoAnalysis.Line2.YAxis, 0
TestParameter, AutoAnalysis.Line2.Point1.Type, 0
TestParameter, AutoAnalysis.Line2.Point1.XY.X, 
TestParameter, AutoAnalysis.Line2.Point1.XY.Y, 
TestParameter, AutoAnalysis.Line2.Point1.Data.Var, 
TestParameter, AutoAnalysis.Line2.Point1.Data.Condition, 
TestParameter, AutoAnalysis.Line2.Point1.Data.Start, false
TestParameter, AutoAnalysis.Line2.Point1.Data.StartVar, 
TestParameter, AutoAnalysis.Line2.Point1.Data.StartCondition, 
TestParameter, AutoAnalysis.Line2.Point2.Type, 0
TestParameter, AutoAnalysis.Line2.Point2.XY.X, 
TestParameter, AutoAnalysis.Line2.Point2.XY.Y, 
TestParameter, AutoAnalysis.Line2.Point2.Data.Var, 
TestParameter, AutoAnalysis.Line2.Point2.Data.Condition, 
TestParameter, AutoAnalysis.Line2.Point2.Data.Start, false
TestParameter, AutoAnalysis.Line2.Point2.Data.StartVar, 
TestParameter, AutoAnalysis.Line2.Point2.Data.StartCondition, 
TestParameter, AutoAnalysis.Line2.GradientExpr, 0
TestParameter, AutoAnalysis.Marker.Enabled, false
TestParameter, AutoAnalysis.Marker.Data.Var, 
TestParameter, AutoAnalysis.Marker.Data.Condition, 
TestParameter, AutoAnalysis.Marker.Data.Start, false
TestParameter, AutoAnalysis.Marker.Data.StartVar, 
TestParameter, AutoAnalysis.Marker.Data.StartCondition, 
MetaData, TestRecord.EntryPoint, true
MetaData, TestRecord.RecordTime, 11/24/2020 20:25:19
MetaData, TestRecord.TestTarget, 
MetaData, TestRecord.IterationIndex, 72
MetaData, TestRecord.Preservation, true
MetaData, TestRecord.Flag, 
MetaData, TestRecord.Remarks, 
MetaData, TestRecord.LinkKey, 2d6b065b-f8c0-411a-91c5-350d03368b1f
Dimension1, 101, 101, 101
Dimension2, 1, 1, 1
DataName, V1, I1, Ohmic
DataValue, -5, -8.9616E-08, 421770677.04522103
DataValue, -4.9, -8.9853E-08, 
DataValue, -4.8, -8.6033E-08, 
DataValue, -4.7, -8.102E-08, 
DataValue, -4.6000000000000005, -7.7843E-08, 
DataValue, -4.5, -7.5917999999999992E-08, 
DataValue, -4.4, -7.2377E-08, 
DataValue, -4.3, -7.0388E-08, 
DataValue, -4.2, -6.9403E-08, 
DataValue, -4.1, -6.5482E-08, 
DataValue, -4, -6.228E-08, 
DataValue, -3.9, -6.0091E-08, 
DataValue, -3.8000000000000003, -5.7178E-08, 
DataValue, -3.7, -5.6341E-08, 
DataValue, -3.6, -5.361E-08, 
DataValue, -3.5, -5.2169999999999997E-08, 
DataValue, -3.4, -4.8453E-08, 
DataValue, -3.3000000000000003, -4.7016E-08, 
DataValue, -3.2, -4.5319E-08, 
DataValue, -3.1, -4.2894E-08, 
DataValue, -3, -4.2734E-08, 
DataValue, -2.9, -4.0414E-08, 
DataValue, -2.8000000000000003, -3.9275E-08, 
DataValue, -2.7, -3.8167E-08, 
DataValue, -2.6, -3.7153E-08, 
DataValue, -2.5, -3.6593E-08, 
DataValue, -2.4, -3.5432E-08, 
DataValue, -2.3000000000000003, -3.4342E-08, 
DataValue, -2.2, -3.454E-08, 
DataValue, -2.1, -3.3052E-08, 
DataValue, -2, -3.2483E-08, 
DataValue, -1.9000000000000001, -3.3199E-08, 
DataValue, -1.8, -3.1478E-08, 
DataValue, -1.7, -3.0849999999999995E-08, 
DataValue, -1.6, -3.0032499999999994E-08, 
DataValue, -1.5, -2.9339599999999998E-08, 
DataValue, -1.4000000000000001, -2.8882799999999997E-08, 
DataValue, -1.3, -2.8134699999999997E-08, 
DataValue, -1.2, -2.75407E-08, 
DataValue, -1.1, -2.61703E-08, 
DataValue, -1, -2.5195399999999997E-08, 
DataValue, -0.9, -2.4133999999999996E-08, 
DataValue, -0.8, -2.3282799999999997E-08, 
DataValue, -0.70000000000000007, -2.24689E-08, 
DataValue, -0.6, -2.12483E-08, 
DataValue, -0.5, -2.0209199999999997E-08, 
DataValue, -0.4, -1.90778E-08, 
DataValue, -0.3, -1.81495E-08, 
DataValue, -0.2, -1.6855899999999997E-08, 
DataValue, -0.1, -1.57152E-08, 
DataValue, 0, -1.4645899999999999E-08, 
DataValue, 0.1, -1.3409899999999999E-08, 
DataValue, 0.2, -1.2037199999999998E-08, 
DataValue, 0.3, -1.1248199999999998E-08, 
DataValue, 0.4, -1.03026E-08, 
DataValue, 0.5, -9.003E-09, 
DataValue, 0.6, -7.8113E-09, 
DataValue, 0.70000000000000007, -7.2938999999999994E-09, 
DataValue, 0.8, -6.5129999999999993E-09, 
DataValue, 0.9, -5.3790999999999993E-09, 
DataValue, 1, -4.2998999999999992E-09, 
DataValue, 1.1, -3.7185999999999995E-09, 
DataValue, 1.2, -3.2964999999999995E-09, 
DataValue, 1.3, -2.4794E-09, 
DataValue, 1.4000000000000001, -1.7571999999999999E-09, 
DataValue, 1.5, -1.1587E-09, 
DataValue, 1.6, -6.5709999999999993E-10, 
DataValue, 1.7, 9.5199999999999992E-11, 
DataValue, 1.8, 3.17E-10, 
DataValue, 1.9000000000000001, 1.0746999999999998E-09, 
DataValue, 2, 1.3868999999999998E-09, 
DataValue, 2.1, 2.0661999999999998E-09, 
DataValue, 2.2, 2.2983E-09, 
DataValue, 2.3000000000000003, 2.4867999999999997E-09, 
DataValue, 2.4, 3.0970999999999996E-09, 
DataValue, 2.5, 3.431E-09, 
DataValue, 2.6, 3.4730999999999995E-09, 
DataValue, 2.7, 3.6812999999999997E-09, 
DataValue, 2.8000000000000003, 3.9785999999999995E-09, 
DataValue, 2.9, 4.1533E-09, 
DataValue, 3, 4.5192E-09, 
DataValue, 3.1, 4.5994E-09, 
DataValue, 3.2, 4.7588E-09, 
DataValue, 3.3000000000000003, 5.0863999999999993E-09, 
DataValue, 3.4, 5.3972999999999991E-09, 
DataValue, 3.5, 5.5086E-09, 
DataValue, 3.6, 5.8709E-09, 
DataValue, 3.7, 5.7508999999999992E-09, 
DataValue, 3.8000000000000003, 6.5526999999999995E-09, 
DataValue, 3.9, 6.8650999999999994E-09, 
DataValue, 4, 6.9750999999999992E-09, 
DataValue, 4.1, 6.8497E-09, 
DataValue, 4.2, 7.5675999999999986E-09, 
DataValue, 4.3, 7.6344E-09, 
DataValue, 4.4, 7.5752E-09, 
DataValue, 4.5, 7.6145999999999989E-09, 
DataValue, 4.6000000000000005, 8.586899999999999E-09, 
DataValue, 4.7, 8.8925999999999988E-09, 
DataValue, 4.8, 9.1018999999999989E-09, 
DataValue, 4.9, 9.2707E-09, 
DataValue, 5, 1.02102E-08, 