
SetupTitle, WW
PrimitiveTest, I/V Sweep
TestParameter, Context.MainFrame, B1500A
TestParameter, Channel.UnitType, SMU, SMU
TestParameter, Channel.Unit, SMU2:HP, SMU1:HP
TestParameter, Channel.IName, I1, I4
TestParameter, Channel.VName, V1, V4
TestParameter, Channel.Mode, V, COMMON
TestParameter, Channel.Func, VAR1, CONST
TestParameter, Channel.Index, 
TestParameter, Channel.Time, 
TestParameter, Measurement.Port.Unit, SMU2:HP, SMU1:HP
TestParameter, Measurement.Port.SeriesResistor, NONE, NONE
TestParameter, Measurement.Port.Filter, ON, ON
TestParameter, Measurement.Port.OutputVoltageComparison, 0, 0
TestParameter, Measurement.Primary.Locus, Single
TestParameter, Measurement.Primary.Scale, LINEAR
TestParameter, Measurement.Primary.Start, -5
TestParameter, Measurement.Primary.Stop, 5
TestParameter, Measurement.Primary.Step, 0.1
TestParameter, Measurement.Primary.Compliance, 0.1
TestParameter, Measurement.Primary.PowerCompliance, 0
TestParameter, Measurement.Aborting.Condition, CONTINUE AT ANY
TestParameter, Measurement.PostOutput.Value, START
TestParameter, Measurement.PostOutput.Retention, OFF
TestParameter, Measurement.Bias.Source, -5, 0
TestParameter, Measurement.Bias.Compliance, 0.1, 1
TestParameter, Measurement.Monitor.Unit, SMU2:HP, SMU1:HP
TestParameter, Measurement.Monitor.Adc, HR ADC, HR ADC
TestParameter, Measurement.Monitor.Measurement, Compliance Side, Compliance Side
TestParameter, Measurement.Monitor.RangingMode, AUTO, AUTO
TestParameter, Measurement.Monitor.RangeBoundary, , 
TestParameter, Measurement.Monitor.RangeRating, BY FULL RANGE, BY FULL RANGE
TestParameter, Measurement.Monitor.RangeRatingCoeff, 50, 50
TestParameter, Measurement.Timing.Hold, 0
TestParameter, Measurement.Timing.Delay, 0.001
TestParameter, Measurement.Adc.HighSpeed.Mode, AUTO
TestParameter, Measurement.Adc.HighSpeed.Coeff, 1
TestParameter, Measurement.Adc.HighResolution.AutoZero, OFF
TestParameter, Measurement.Adc.HighResolution.Mode, PLC
TestParameter, Measurement.Adc.HighResolution.Coeff, 1
TestParameter, Measurement.WaitTime.Source.Coeff, 1
TestParameter, Measurement.WaitTime.Source.Offset, 0
TestParameter, Measurement.WaitTime.Monitor.Coeff, 1
TestParameter, Measurement.WaitTime.Monitor.Offset, 0
TestParameter, Function.User.Name, Ohmic
TestParameter, Function.User.Unit, ohm
TestParameter, Function.User.Definition, avg(V1/I1)
TestParameter, Output.Graph.Enabled, true
TestParameter, Output.Graph.XAxis.Data, V1
TestParameter, Output.Graph.XAxis.Scale, Linear
TestParameter, Output.Graph.XAxis.Left, -5
TestParameter, Output.Graph.XAxis.Right, 5
TestParameter, Output.Graph.YAxis.Data, I1
TestParameter, Output.Graph.YAxis.Scale, Linear
TestParameter, Output.Graph.YAxis.Bottom, -0.001
TestParameter, Output.Graph.YAxis.Top, 0.001
TestParameter, Output.Graph.YAxis.Group, 
TestParameter, Output.Scalar.Data, Ohmic
TestParameter, AutoAnalysis.Interpolation, false
TestParameter, AutoAnalysis.Line1.Enabled, false
TestParameter, AutoAnalysis.Line1.Type, 1
TestParameter, AutoAnalysis.Line1.Fix, True
TestParameter, AutoAnalysis.Line1.YAxis, 0
TestParameter, AutoAnalysis.Line1.Point1.Type, 0
TestParameter, AutoAnalysis.Line1.Point1.XY.X, 
TestParameter, AutoAnalysis.Line1.Point1.XY.Y, 
TestParameter, AutoAnalysis.Line1.Point1.Data.Var, 
TestParameter, AutoAnalysis.Line1.Point1.Data.Condition, 
TestParameter, AutoAnalysis.Line1.Point1.Data.Start, false
TestParameter, AutoAnalysis.Line1.Point1.Data.StartVar, 
TestParameter, AutoAnalysis.Line1.Point1.Data.StartCondition, 
TestParameter, AutoAnalysis.Line1.Point2.Type, 0
TestParameter, AutoAnalysis.Line1.Point2.XY.X, 
TestParameter, AutoAnalysis.Line1.Point2.XY.Y, 
TestParameter, AutoAnalysis.Line1.Point2.Data.Var, 
TestParameter, AutoAnalysis.Line1.Point2.Data.Condition, 
TestParameter, AutoAnalysis.Line1.Point2.Data.Start, false
TestParameter, AutoAnalysis.Line1.Point2.Data.StartVar, 
TestParameter, AutoAnalysis.Line1.Point2.Data.StartCondition, 
TestParameter, AutoAnalysis.Line1.GradientExpr, 0
TestParameter, AutoAnalysis.Line2.Enabled, false
TestParameter, AutoAnalysis.Line2.Type, 1
TestParameter, AutoAnalysis.Line2.Fix, True
TestParameter, AutoAnalysis.Line2.YAxis, 0
TestParameter, AutoAnalysis.Line2.Point1.Type, 0
TestParameter, AutoAnalysis.Line2.Point1.XY.X, 
TestParameter, AutoAnalysis.Line2.Point1.XY.Y, 
TestParameter, AutoAnalysis.Line2.Point1.Data.Var, 
TestParameter, AutoAnalysis.Line2.Point1.Data.Condition, 
TestParameter, AutoAnalysis.Line2.Point1.Data.Start, false
TestParameter, AutoAnalysis.Line2.Point1.Data.StartVar, 
TestParameter, AutoAnalysis.Line2.Point1.Data.StartCondition, 
TestParameter, AutoAnalysis.Line2.Point2.Type, 0
TestParameter, AutoAnalysis.Line2.Point2.XY.X, 
TestParameter, AutoAnalysis.Line2.Point2.XY.Y, 
TestParameter, AutoAnalysis.Line2.Point2.Data.Var, 
TestParameter, AutoAnalysis.Line2.Point2.Data.Condition, 
TestParameter, AutoAnalysis.Line2.Point2.Data.Start, false
TestParameter, AutoAnalysis.Line2.Point2.Data.StartVar, 
TestParameter, AutoAnalysis.Line2.Point2.Data.StartCondition, 
TestParameter, AutoAnalysis.Line2.GradientExpr, 0
TestParameter, AutoAnalysis.Marker.Enabled, false
TestParameter, AutoAnalysis.Marker.Data.Var, 
TestParameter, AutoAnalysis.Marker.Data.Condition, 
TestParameter, AutoAnalysis.Marker.Data.Start, false
TestParameter, AutoAnalysis.Marker.Data.StartVar, 
TestParameter, AutoAnalysis.Marker.Data.StartCondition, 
MetaData, TestRecord.EntryPoint, true
MetaData, TestRecord.RecordTime, 11/24/2020 20:24:47
MetaData, TestRecord.TestTarget, 
MetaData, TestRecord.IterationIndex, 71
MetaData, TestRecord.Preservation, true
MetaData, TestRecord.Flag, 
MetaData, TestRecord.Remarks, 
MetaData, TestRecord.LinkKey, c6c64870-29ac-47f5-98e6-ebc95ec44180
Dimension1, 101, 101, 101
Dimension2, 1, 1, 1
DataName, V1, I1, Ohmic
DataValue, -5, -8.8134E-08, 517684553.94805169
DataValue, -4.9, -8.4292E-08, 
DataValue, -4.8, -8.216E-08, 
DataValue, -4.7, -7.9437E-08, 
DataValue, -4.6000000000000005, -7.6277E-08, 
DataValue, -4.5, -7.4213999999999992E-08, 
DataValue, -4.4, -6.9737E-08, 
DataValue, -4.3, -6.4932E-08, 
DataValue, -4.2, -6.2774E-08, 
DataValue, -4.1, -6.2439E-08, 
DataValue, -4, -6.0676E-08, 
DataValue, -3.9, -5.84E-08, 
DataValue, -3.8000000000000003, -5.3960999999999996E-08, 
DataValue, -3.7, -5.251E-08, 
DataValue, -3.6, -5.0005E-08, 
DataValue, -3.5, -4.8663E-08, 
DataValue, -3.4, -4.5799E-08, 
DataValue, -3.3000000000000003, -4.4897999999999996E-08, 
DataValue, -3.2, -4.3113E-08, 
DataValue, -3.1, -4.1647E-08, 
DataValue, -3, -4.0789E-08, 
DataValue, -2.9, -3.9294E-08, 
DataValue, -2.8000000000000003, -3.7506E-08, 
DataValue, -2.7, -3.6782E-08, 
DataValue, -2.6, -3.6038E-08, 
DataValue, -2.5, -3.5332999999999996E-08, 
DataValue, -2.4, -3.4725999999999996E-08, 
DataValue, -2.3000000000000003, -3.3814E-08, 
DataValue, -2.2, -3.3327E-08, 
DataValue, -2.1, -3.2898E-08, 
DataValue, -2, -3.2298E-08, 
DataValue, -1.9000000000000001, -3.1729E-08, 
DataValue, -1.8, -3.11003E-08, 
DataValue, -1.7, -3.06923E-08, 
DataValue, -1.6, -3.0172899999999996E-08, 
DataValue, -1.5, -2.9498599999999997E-08, 
DataValue, -1.4000000000000001, -2.8737299999999998E-08, 
DataValue, -1.3, -2.7996599999999997E-08, 
DataValue, -1.2, -2.7237399999999996E-08, 
DataValue, -1.1, -2.6565499999999997E-08, 
DataValue, -1, -2.5869299999999998E-08, 
DataValue, -0.9, -2.4751599999999997E-08, 
DataValue, -0.8, -2.3896399999999996E-08, 
DataValue, -0.70000000000000007, -2.3042699999999997E-08, 
DataValue, -0.6, -2.22365E-08, 
DataValue, -0.5, -2.0979899999999998E-08, 
DataValue, -0.4, -1.9734199999999997E-08, 
DataValue, -0.3, -1.9014499999999998E-08, 
DataValue, -0.2, -1.78307E-08, 
DataValue, -0.1, -1.6720199999999998E-08, 
DataValue, 0, -1.5529499999999997E-08, 
DataValue, 0.1, -1.4487499999999998E-08, 
DataValue, 0.2, -1.3076199999999998E-08, 
DataValue, 0.3, -1.1561299999999998E-08, 
DataValue, 0.4, -1.0767399999999998E-08, 
DataValue, 0.5, -1.0135099999999998E-08, 
DataValue, 0.6, -8.93E-09, 
DataValue, 0.70000000000000007, -8.0981E-09, 
DataValue, 0.8, -7.4137999999999994E-09, 
DataValue, 0.9, -6.6645999999999995E-09, 
DataValue, 1, -5.8588E-09, 
DataValue, 1.1, -4.7966999999999994E-09, 
DataValue, 1.2, -4.4756999999999993E-09, 
DataValue, 1.3, -3.2314E-09, 
DataValue, 1.4000000000000001, -2.1308999999999997E-09, 
DataValue, 1.5, -1.7155E-09, 
DataValue, 1.6, -1.1220999999999999E-09, 
DataValue, 1.7, -1.275E-10, 
DataValue, 1.8, 4.8499999999999994E-11, 
DataValue, 1.9000000000000001, 3.7989999999999995E-10, 
DataValue, 2, 8.4669999999999988E-10, 
DataValue, 2.1, 1.5022999999999999E-09, 
DataValue, 2.2, 1.5538E-09, 
DataValue, 2.3000000000000003, 2.0039999999999997E-09, 
DataValue, 2.4, 2.6163999999999998E-09, 
DataValue, 2.5, 2.7315999999999995E-09, 
DataValue, 2.6, 2.8548999999999997E-09, 
DataValue, 2.7, 3.1252999999999995E-09, 
DataValue, 2.8000000000000003, 3.5500999999999996E-09, 
DataValue, 2.9, 3.7209999999999995E-09, 
DataValue, 3, 3.7997999999999992E-09, 
DataValue, 3.1, 4.1267999999999994E-09, 
DataValue, 3.2, 4.2686E-09, 
DataValue, 3.3000000000000003, 4.4661E-09, 
DataValue, 3.4, 4.646E-09, 
DataValue, 3.5, 5.1178E-09, 
DataValue, 3.6, 5.1669999999999992E-09, 
DataValue, 3.7, 5.136E-09, 
DataValue, 3.8000000000000003, 5.552E-09, 
DataValue, 3.9, 5.8411999999999992E-09, 
DataValue, 4, 6.1798E-09, 
DataValue, 4.1, 6.207199999999999E-09, 
DataValue, 4.2, 6.5498999999999995E-09, 
DataValue, 4.3, 6.8121999999999993E-09, 
DataValue, 4.4, 7.2776999999999994E-09, 
DataValue, 4.5, 7.5221999999999987E-09, 
DataValue, 4.6000000000000005, 7.8437E-09, 
DataValue, 4.7, 8.553399999999999E-09, 
DataValue, 4.8, 8.6859999999999992E-09, 
DataValue, 4.9, 9.0891999999999988E-09, 
DataValue, 5, 9.2081E-09, 