
SetupTitle, WW
PrimitiveTest, I/V Sweep
TestParameter, Context.MainFrame, B1500A
TestParameter, Channel.UnitType, SMU, SMU
TestParameter, Channel.Unit, SMU2:HP, SMU1:HP
TestParameter, Channel.IName, I1, I4
TestParameter, Channel.VName, V1, V4
TestParameter, Channel.Mode, V, COMMON
TestParameter, Channel.Func, VAR1, CONST
TestParameter, Channel.Index, 
TestParameter, Channel.Time, 
TestParameter, Measurement.Port.Unit, SMU2:HP, SMU1:HP
TestParameter, Measurement.Port.SeriesResistor, NONE, NONE
TestParameter, Measurement.Port.Filter, ON, ON
TestParameter, Measurement.Port.OutputVoltageComparison, 0, 0
TestParameter, Measurement.Primary.Locus, Single
TestParameter, Measurement.Primary.Scale, LINEAR
TestParameter, Measurement.Primary.Start, -5
TestParameter, Measurement.Primary.Stop, 5
TestParameter, Measurement.Primary.Step, 0.1
TestParameter, Measurement.Primary.Compliance, 0.1
TestParameter, Measurement.Primary.PowerCompliance, 0
TestParameter, Measurement.Aborting.Condition, CONTINUE AT ANY
TestParameter, Measurement.PostOutput.Value, START
TestParameter, Measurement.PostOutput.Retention, OFF
TestParameter, Measurement.Bias.Source, -5, 0
TestParameter, Measurement.Bias.Compliance, 0.1, 1
TestParameter, Measurement.Monitor.Unit, SMU2:HP, SMU1:HP
TestParameter, Measurement.Monitor.Adc, HR ADC, HR ADC
TestParameter, Measurement.Monitor.Measurement, Compliance Side, Compliance Side
TestParameter, Measurement.Monitor.RangingMode, AUTO, AUTO
TestParameter, Measurement.Monitor.RangeBoundary, , 
TestParameter, Measurement.Monitor.RangeRating, BY FULL RANGE, BY FULL RANGE
TestParameter, Measurement.Monitor.RangeRatingCoeff, 50, 50
TestParameter, Measurement.Timing.Hold, 0
TestParameter, Measurement.Timing.Delay, 0.001
TestParameter, Measurement.Adc.HighSpeed.Mode, AUTO
TestParameter, Measurement.Adc.HighSpeed.Coeff, 1
TestParameter, Measurement.Adc.HighResolution.AutoZero, OFF
TestParameter, Measurement.Adc.HighResolution.Mode, PLC
TestParameter, Measurement.Adc.HighResolution.Coeff, 1
TestParameter, Measurement.WaitTime.Source.Coeff, 1
TestParameter, Measurement.WaitTime.Source.Offset, 0
TestParameter, Measurement.WaitTime.Monitor.Coeff, 1
TestParameter, Measurement.WaitTime.Monitor.Offset, 0
TestParameter, Function.User.Name, Ohmic
TestParameter, Function.User.Unit, ohm
TestParameter, Function.User.Definition, avg(V1/I1)
TestParameter, Output.Graph.Enabled, true
TestParameter, Output.Graph.XAxis.Data, V1
TestParameter, Output.Graph.XAxis.Scale, Linear
TestParameter, Output.Graph.XAxis.Left, -5
TestParameter, Output.Graph.XAxis.Right, 5
TestParameter, Output.Graph.YAxis.Data, I1
TestParameter, Output.Graph.YAxis.Scale, Linear
TestParameter, Output.Graph.YAxis.Bottom, -0.001
TestParameter, Output.Graph.YAxis.Top, 0.001
TestParameter, Output.Graph.YAxis.Group, 
TestParameter, Output.Scalar.Data, Ohmic
TestParameter, AutoAnalysis.Interpolation, false
TestParameter, AutoAnalysis.Line1.Enabled, false
TestParameter, AutoAnalysis.Line1.Type, 1
TestParameter, AutoAnalysis.Line1.Fix, True
TestParameter, AutoAnalysis.Line1.YAxis, 0
TestParameter, AutoAnalysis.Line1.Point1.Type, 0
TestParameter, AutoAnalysis.Line1.Point1.XY.X, 
TestParameter, AutoAnalysis.Line1.Point1.XY.Y, 
TestParameter, AutoAnalysis.Line1.Point1.Data.Var, 
TestParameter, AutoAnalysis.Line1.Point1.Data.Condition, 
TestParameter, AutoAnalysis.Line1.Point1.Data.Start, false
TestParameter, AutoAnalysis.Line1.Point1.Data.StartVar, 
TestParameter, AutoAnalysis.Line1.Point1.Data.StartCondition, 
TestParameter, AutoAnalysis.Line1.Point2.Type, 0
TestParameter, AutoAnalysis.Line1.Point2.XY.X, 
TestParameter, AutoAnalysis.Line1.Point2.XY.Y, 
TestParameter, AutoAnalysis.Line1.Point2.Data.Var, 
TestParameter, AutoAnalysis.Line1.Point2.Data.Condition, 
TestParameter, AutoAnalysis.Line1.Point2.Data.Start, false
TestParameter, AutoAnalysis.Line1.Point2.Data.StartVar, 
TestParameter, AutoAnalysis.Line1.Point2.Data.StartCondition, 
TestParameter, AutoAnalysis.Line1.GradientExpr, 0
TestParameter, AutoAnalysis.Line2.Enabled, false
TestParameter, AutoAnalysis.Line2.Type, 1
TestParameter, AutoAnalysis.Line2.Fix, True
TestParameter, AutoAnalysis.Line2.YAxis, 0
TestParameter, AutoAnalysis.Line2.Point1.Type, 0
TestParameter, AutoAnalysis.Line2.Point1.XY.X, 
TestParameter, AutoAnalysis.Line2.Point1.XY.Y, 
TestParameter, AutoAnalysis.Line2.Point1.Data.Var, 
TestParameter, AutoAnalysis.Line2.Point1.Data.Condition, 
TestParameter, AutoAnalysis.Line2.Point1.Data.Start, false
TestParameter, AutoAnalysis.Line2.Point1.Data.StartVar, 
TestParameter, AutoAnalysis.Line2.Point1.Data.StartCondition, 
TestParameter, AutoAnalysis.Line2.Point2.Type, 0
TestParameter, AutoAnalysis.Line2.Point2.XY.X, 
TestParameter, AutoAnalysis.Line2.Point2.XY.Y, 
TestParameter, AutoAnalysis.Line2.Point2.Data.Var, 
TestParameter, AutoAnalysis.Line2.Point2.Data.Condition, 
TestParameter, AutoAnalysis.Line2.Point2.Data.Start, false
TestParameter, AutoAnalysis.Line2.Point2.Data.StartVar, 
TestParameter, AutoAnalysis.Line2.Point2.Data.StartCondition, 
TestParameter, AutoAnalysis.Line2.GradientExpr, 0
TestParameter, AutoAnalysis.Marker.Enabled, false
TestParameter, AutoAnalysis.Marker.Data.Var, 
TestParameter, AutoAnalysis.Marker.Data.Condition, 
TestParameter, AutoAnalysis.Marker.Data.Start, false
TestParameter, AutoAnalysis.Marker.Data.StartVar, 
TestParameter, AutoAnalysis.Marker.Data.StartCondition, 
MetaData, TestRecord.EntryPoint, true
MetaData, TestRecord.RecordTime, 11/24/2020 20:24:18
MetaData, TestRecord.TestTarget, 
MetaData, TestRecord.IterationIndex, 70
MetaData, TestRecord.Preservation, true
MetaData, TestRecord.Flag, 
MetaData, TestRecord.Remarks, 
MetaData, TestRecord.LinkKey, 67bd2031-1d4f-4a43-b0e4-0c6f459176f6
Dimension1, 101, 101, 101
Dimension2, 1, 1, 1
DataName, V1, I1, Ohmic
DataValue, -5, -8.4831E-08, 171220221.95984709
DataValue, -4.9, -8.4216E-08, 
DataValue, -4.8, -8.0849E-08, 
DataValue, -4.7, -7.7808999999999992E-08, 
DataValue, -4.6000000000000005, -7.3777E-08, 
DataValue, -4.5, -7.249E-08, 
DataValue, -4.4, -6.8468E-08, 
DataValue, -4.3, -6.6776E-08, 
DataValue, -4.2, -6.3204E-08, 
DataValue, -4.1, -6.1735E-08, 
DataValue, -4, -5.9982E-08, 
DataValue, -3.9, -5.6222E-08, 
DataValue, -3.8000000000000003, -5.4473E-08, 
DataValue, -3.7, -5.194E-08, 
DataValue, -3.6, -5.0954E-08, 
DataValue, -3.5, -4.749E-08, 
DataValue, -3.4, -4.6426999999999996E-08, 
DataValue, -3.3000000000000003, -4.4985E-08, 
DataValue, -3.2, -4.3093E-08, 
DataValue, -3.1, -4.1137E-08, 
DataValue, -3, -3.9884999999999996E-08, 
DataValue, -2.9, -3.8568E-08, 
DataValue, -2.8000000000000003, -3.7683E-08, 
DataValue, -2.7, -3.6933E-08, 
DataValue, -2.6, -3.634E-08, 
DataValue, -2.5, -3.5642E-08, 
DataValue, -2.4, -3.4416E-08, 
DataValue, -2.3000000000000003, -3.3795E-08, 
DataValue, -2.2, -3.326E-08, 
DataValue, -2.1, -3.2683E-08, 
DataValue, -2, -3.2166E-08, 
DataValue, -1.9000000000000001, -3.1545E-08, 
DataValue, -1.8, -3.1268E-08, 
DataValue, -1.7, -3.0672199999999996E-08, 
DataValue, -1.6, -3.03428E-08, 
DataValue, -1.5, -3.0129E-08, 
DataValue, -1.4000000000000001, -2.9498499999999998E-08, 
DataValue, -1.3, -2.8716299999999997E-08, 
DataValue, -1.2, -2.76859E-08, 
DataValue, -1.1, -2.69758E-08, 
DataValue, -1, -2.6071499999999996E-08, 
DataValue, -0.9, -2.5588599999999997E-08, 
DataValue, -0.8, -2.4475E-08, 
DataValue, -0.70000000000000007, -2.3200799999999996E-08, 
DataValue, -0.6, -2.2561199999999997E-08, 
DataValue, -0.5, -2.1195E-08, 
DataValue, -0.4, -2.0880399999999998E-08, 
DataValue, -0.3, -1.9540599999999998E-08, 
DataValue, -0.2, -1.7967299999999998E-08, 
DataValue, -0.1, -1.7189099999999998E-08, 
DataValue, 0, -1.60261E-08, 
DataValue, 0.1, -1.44345E-08, 
DataValue, 0.2, -1.4136399999999999E-08, 
DataValue, 0.3, -1.2705799999999999E-08, 
DataValue, 0.4, -1.1733099999999999E-08, 
DataValue, 0.5, -1.06221E-08, 
DataValue, 0.6, -9.8479999999999983E-09, 
DataValue, 0.70000000000000007, -9.3589E-09, 
DataValue, 0.8, -7.9931E-09, 
DataValue, 0.9, -7.3083E-09, 
DataValue, 1, -6.0133999999999991E-09, 
DataValue, 1.1, -5.5156999999999991E-09, 
DataValue, 1.2, -4.7257E-09, 
DataValue, 1.3, -3.7082999999999997E-09, 
DataValue, 1.4000000000000001, -2.8331999999999997E-09, 
DataValue, 1.5, -2.2759E-09, 
DataValue, 1.6, -1.7926999999999998E-09, 
DataValue, 1.7, -8.9489999999999988E-10, 
DataValue, 1.8, -3.485E-10, 
DataValue, 1.9000000000000001, -2.2399999999999998E-10, 
DataValue, 2, 2.7999999999999996E-10, 
DataValue, 2.1, 8.888999999999999E-10, 
DataValue, 2.2, 1.2059E-09, 
DataValue, 2.3000000000000003, 1.5848999999999998E-09, 
DataValue, 2.4, 1.88579E-09, 
DataValue, 2.5, 2.34516E-09, 
DataValue, 2.6, 2.91133E-09, 
DataValue, 2.7, 3.04212E-09, 
DataValue, 2.8000000000000003, 3.08201E-09, 
DataValue, 2.9, 3.3372999999999996E-09, 
DataValue, 3, 3.5309999999999995E-09, 
DataValue, 3.1, 3.5956E-09, 
DataValue, 3.2, 3.7971E-09, 
DataValue, 3.3000000000000003, 4.087E-09, 
DataValue, 3.4, 4.2034999999999994E-09, 
DataValue, 3.5, 4.6214E-09, 
DataValue, 3.6, 4.843E-09, 
DataValue, 3.7, 4.931E-09, 
DataValue, 3.8000000000000003, 5.2786999999999992E-09, 
DataValue, 3.9, 5.2584999999999996E-09, 
DataValue, 4, 5.6653999999999991E-09, 
DataValue, 4.1, 5.980799999999999E-09, 
DataValue, 4.2, 6.1189999999999992E-09, 
DataValue, 4.3, 6.6375999999999995E-09, 
DataValue, 4.4, 6.8937999999999995E-09, 
DataValue, 4.5, 7.0923E-09, 
DataValue, 4.6000000000000005, 7.3906E-09, 
DataValue, 4.7, 7.8595999999999988E-09, 
DataValue, 4.8, 8.1293E-09, 
DataValue, 4.9, 8.183E-09, 
DataValue, 5, 8.7626999999999991E-09, 