
SetupTitle, WW
PrimitiveTest, I/V Sweep
TestParameter, Context.MainFrame, B1500A
TestParameter, Channel.UnitType, SMU, SMU
TestParameter, Channel.Unit, SMU2:HP, SMU1:HP
TestParameter, Channel.IName, I1, I4
TestParameter, Channel.VName, V1, V4
TestParameter, Channel.Mode, V, COMMON
TestParameter, Channel.Func, VAR1, CONST
TestParameter, Channel.Index, 
TestParameter, Channel.Time, 
TestParameter, Measurement.Port.Unit, SMU2:HP, SMU1:HP
TestParameter, Measurement.Port.SeriesResistor, NONE, NONE
TestParameter, Measurement.Port.Filter, ON, ON
TestParameter, Measurement.Port.OutputVoltageComparison, 0, 0
TestParameter, Measurement.Primary.Locus, Single
TestParameter, Measurement.Primary.Scale, LINEAR
TestParameter, Measurement.Primary.Start, -5
TestParameter, Measurement.Primary.Stop, 5
TestParameter, Measurement.Primary.Step, 0.1
TestParameter, Measurement.Primary.Compliance, 0.1
TestParameter, Measurement.Primary.PowerCompliance, 0
TestParameter, Measurement.Aborting.Condition, CONTINUE AT ANY
TestParameter, Measurement.PostOutput.Value, START
TestParameter, Measurement.PostOutput.Retention, OFF
TestParameter, Measurement.Bias.Source, -5, 0
TestParameter, Measurement.Bias.Compliance, 0.1, 1
TestParameter, Measurement.Monitor.Unit, SMU2:HP, SMU1:HP
TestParameter, Measurement.Monitor.Adc, HR ADC, HR ADC
TestParameter, Measurement.Monitor.Measurement, Compliance Side, Compliance Side
TestParameter, Measurement.Monitor.RangingMode, AUTO, AUTO
TestParameter, Measurement.Monitor.RangeBoundary, , 
TestParameter, Measurement.Monitor.RangeRating, BY FULL RANGE, BY FULL RANGE
TestParameter, Measurement.Monitor.RangeRatingCoeff, 50, 50
TestParameter, Measurement.Timing.Hold, 0
TestParameter, Measurement.Timing.Delay, 0.001
TestParameter, Measurement.Adc.HighSpeed.Mode, AUTO
TestParameter, Measurement.Adc.HighSpeed.Coeff, 1
TestParameter, Measurement.Adc.HighResolution.AutoZero, OFF
TestParameter, Measurement.Adc.HighResolution.Mode, PLC
TestParameter, Measurement.Adc.HighResolution.Coeff, 1
TestParameter, Measurement.WaitTime.Source.Coeff, 1
TestParameter, Measurement.WaitTime.Source.Offset, 0
TestParameter, Measurement.WaitTime.Monitor.Coeff, 1
TestParameter, Measurement.WaitTime.Monitor.Offset, 0
TestParameter, Function.User.Name, Ohmic
TestParameter, Function.User.Unit, ohm
TestParameter, Function.User.Definition, avg(V1/I1)
TestParameter, Output.Graph.Enabled, true
TestParameter, Output.Graph.XAxis.Data, V1
TestParameter, Output.Graph.XAxis.Scale, Linear
TestParameter, Output.Graph.XAxis.Left, -5
TestParameter, Output.Graph.XAxis.Right, 5
TestParameter, Output.Graph.YAxis.Data, I1
TestParameter, Output.Graph.YAxis.Scale, Linear
TestParameter, Output.Graph.YAxis.Bottom, -0.001
TestParameter, Output.Graph.YAxis.Top, 0.001
TestParameter, Output.Graph.YAxis.Group, 
TestParameter, Output.Scalar.Data, Ohmic
TestParameter, AutoAnalysis.Interpolation, false
TestParameter, AutoAnalysis.Line1.Enabled, false
TestParameter, AutoAnalysis.Line1.Type, 1
TestParameter, AutoAnalysis.Line1.Fix, True
TestParameter, AutoAnalysis.Line1.YAxis, 0
TestParameter, AutoAnalysis.Line1.Point1.Type, 0
TestParameter, AutoAnalysis.Line1.Point1.XY.X, 
TestParameter, AutoAnalysis.Line1.Point1.XY.Y, 
TestParameter, AutoAnalysis.Line1.Point1.Data.Var, 
TestParameter, AutoAnalysis.Line1.Point1.Data.Condition, 
TestParameter, AutoAnalysis.Line1.Point1.Data.Start, false
TestParameter, AutoAnalysis.Line1.Point1.Data.StartVar, 
TestParameter, AutoAnalysis.Line1.Point1.Data.StartCondition, 
TestParameter, AutoAnalysis.Line1.Point2.Type, 0
TestParameter, AutoAnalysis.Line1.Point2.XY.X, 
TestParameter, AutoAnalysis.Line1.Point2.XY.Y, 
TestParameter, AutoAnalysis.Line1.Point2.Data.Var, 
TestParameter, AutoAnalysis.Line1.Point2.Data.Condition, 
TestParameter, AutoAnalysis.Line1.Point2.Data.Start, false
TestParameter, AutoAnalysis.Line1.Point2.Data.StartVar, 
TestParameter, AutoAnalysis.Line1.Point2.Data.StartCondition, 
TestParameter, AutoAnalysis.Line1.GradientExpr, 0
TestParameter, AutoAnalysis.Line2.Enabled, false
TestParameter, AutoAnalysis.Line2.Type, 1
TestParameter, AutoAnalysis.Line2.Fix, True
TestParameter, AutoAnalysis.Line2.YAxis, 0
TestParameter, AutoAnalysis.Line2.Point1.Type, 0
TestParameter, AutoAnalysis.Line2.Point1.XY.X, 
TestParameter, AutoAnalysis.Line2.Point1.XY.Y, 
TestParameter, AutoAnalysis.Line2.Point1.Data.Var, 
TestParameter, AutoAnalysis.Line2.Point1.Data.Condition, 
TestParameter, AutoAnalysis.Line2.Point1.Data.Start, false
TestParameter, AutoAnalysis.Line2.Point1.Data.StartVar, 
TestParameter, AutoAnalysis.Line2.Point1.Data.StartCondition, 
TestParameter, AutoAnalysis.Line2.Point2.Type, 0
TestParameter, AutoAnalysis.Line2.Point2.XY.X, 
TestParameter, AutoAnalysis.Line2.Point2.XY.Y, 
TestParameter, AutoAnalysis.Line2.Point2.Data.Var, 
TestParameter, AutoAnalysis.Line2.Point2.Data.Condition, 
TestParameter, AutoAnalysis.Line2.Point2.Data.Start, false
TestParameter, AutoAnalysis.Line2.Point2.Data.StartVar, 
TestParameter, AutoAnalysis.Line2.Point2.Data.StartCondition, 
TestParameter, AutoAnalysis.Line2.GradientExpr, 0
TestParameter, AutoAnalysis.Marker.Enabled, false
TestParameter, AutoAnalysis.Marker.Data.Var, 
TestParameter, AutoAnalysis.Marker.Data.Condition, 
TestParameter, AutoAnalysis.Marker.Data.Start, false
TestParameter, AutoAnalysis.Marker.Data.StartVar, 
TestParameter, AutoAnalysis.Marker.Data.StartCondition, 
MetaData, TestRecord.EntryPoint, true
MetaData, TestRecord.RecordTime, 11/24/2020 20:23:45
MetaData, TestRecord.TestTarget, 
MetaData, TestRecord.IterationIndex, 69
MetaData, TestRecord.Preservation, true
MetaData, TestRecord.Flag, 
MetaData, TestRecord.Remarks, 
MetaData, TestRecord.LinkKey, b8b42e8c-4420-4e2c-a303-a23d2b393dbe
Dimension1, 101, 101, 101
Dimension2, 1, 1, 1
DataName, V1, I1, Ohmic
DataValue, -5, -8.1874E-08, -1913164.9268801981
DataValue, -4.9, -7.8163E-08, 
DataValue, -4.8, -7.4977E-08, 
DataValue, -4.7, -7.2719E-08, 
DataValue, -4.6000000000000005, -7.0741E-08, 
DataValue, -4.5, -6.9151E-08, 
DataValue, -4.4, -6.619E-08, 
DataValue, -4.3, -6.3831E-08, 
DataValue, -4.2, -5.9927999999999992E-08, 
DataValue, -4.1, -5.6737E-08, 
DataValue, -4, -5.6234E-08, 
DataValue, -3.9, -5.2866E-08, 
DataValue, -3.8000000000000003, -5.1383E-08, 
DataValue, -3.7, -4.7757E-08, 
DataValue, -3.6, -4.7576999999999996E-08, 
DataValue, -3.5, -4.6586E-08, 
DataValue, -3.4, -4.4664E-08, 
DataValue, -3.3000000000000003, -4.2673E-08, 
DataValue, -3.2, -4.1057E-08, 
DataValue, -3.1, -4.0545E-08, 
DataValue, -3, -3.9464E-08, 
DataValue, -2.9, -3.7995E-08, 
DataValue, -2.8000000000000003, -3.6997E-08, 
DataValue, -2.7, -3.5997E-08, 
DataValue, -2.6, -3.5316E-08, 
DataValue, -2.5, -3.4938E-08, 
DataValue, -2.4, -3.431E-08, 
DataValue, -2.3000000000000003, -3.3619E-08, 
DataValue, -2.2, -3.3482999999999996E-08, 
DataValue, -2.1, -3.2626E-08, 
DataValue, -2, -3.2152E-08, 
DataValue, -1.9000000000000001, -3.1676399999999994E-08, 
DataValue, -1.8, -3.1326399999999994E-08, 
DataValue, -1.7, -3.0819399999999995E-08, 
DataValue, -1.6, -3.02864E-08, 
DataValue, -1.5, -2.9088E-08, 
DataValue, -1.4000000000000001, -2.9022999999999998E-08, 
DataValue, -1.3, -2.8345599999999996E-08, 
DataValue, -1.2, -2.7979E-08, 
DataValue, -1.1, -2.7159499999999996E-08, 
DataValue, -1, -2.6304099999999997E-08, 
DataValue, -0.9, -2.5285899999999997E-08, 
DataValue, -0.8, -2.39361E-08, 
DataValue, -0.70000000000000007, -2.3535999999999996E-08, 
DataValue, -0.6, -2.2161499999999996E-08, 
DataValue, -0.5, -2.2069599999999997E-08, 
DataValue, -0.4, -2.08918E-08, 
DataValue, -0.3, -1.95648E-08, 
DataValue, -0.2, -1.8420899999999998E-08, 
DataValue, -0.1, -1.69754E-08, 
DataValue, 0, -1.68907E-08, 
DataValue, 0.1, -1.5591999999999998E-08, 
DataValue, 0.2, -1.4439399999999998E-08, 
DataValue, 0.3, -1.31464E-08, 
DataValue, 0.4, -1.26717E-08, 
DataValue, 0.5, -1.19042E-08, 
DataValue, 0.6, -1.0351599999999999E-08, 
DataValue, 0.70000000000000007, -9.3222999999999987E-09, 
DataValue, 0.8, -8.3827E-09, 
DataValue, 0.9, -8.0222999999999987E-09, 
DataValue, 1, -6.9285999999999994E-09, 
DataValue, 1.1, -6.0221E-09, 
DataValue, 1.2, -5.4103999999999994E-09, 
DataValue, 1.3, -4.8158999999999995E-09, 
DataValue, 1.4000000000000001, -4.1140999999999993E-09, 
DataValue, 1.5, -3.5404999999999995E-09, 
DataValue, 1.6, -2.568E-09, 
DataValue, 1.7, -1.7553E-09, 
DataValue, 1.8, -1.3396999999999998E-09, 
DataValue, 1.9000000000000001, -1.1384E-09, 
DataValue, 2, -7.6599999999999986E-11, 
DataValue, 2.1, 5.9309999999999995E-10, 
DataValue, 2.2, 7.3799999999999993E-10, 
DataValue, 2.3000000000000003, 1.0632999999999998E-09, 
DataValue, 2.4, 1.6329999999999998E-09, 
DataValue, 2.5, 2.1477E-09, 
DataValue, 2.6, 2.2395E-09, 
DataValue, 2.7, 2.6316E-09, 
DataValue, 2.8000000000000003, 2.9084999999999996E-09, 
DataValue, 2.9, 3.2244999999999998E-09, 
DataValue, 3, 3.5696999999999998E-09, 
DataValue, 3.1, 3.7191999999999997E-09, 
DataValue, 3.2, 4.2613999999999994E-09, 
DataValue, 3.3000000000000003, 4.2414999999999995E-09, 
DataValue, 3.4, 4.2447999999999992E-09, 
DataValue, 3.5, 4.6709999999999993E-09, 
DataValue, 3.6, 5.3027E-09, 
DataValue, 3.7, 5.2868999999999992E-09, 
DataValue, 3.8000000000000003, 5.4263999999999994E-09, 
DataValue, 3.9, 5.9303E-09, 
DataValue, 4, 6.0839999999999993E-09, 
DataValue, 4.1, 6.0942999999999995E-09, 
DataValue, 4.2, 6.2271E-09, 
DataValue, 4.3, 6.8849999999999993E-09, 
DataValue, 4.4, 6.8182999999999991E-09, 
DataValue, 4.5, 7.346499999999999E-09, 
DataValue, 4.6000000000000005, 7.7109E-09, 
DataValue, 4.7, 7.8866E-09, 
DataValue, 4.8, 8.6374E-09, 
DataValue, 4.9, 8.1286E-09, 
DataValue, 5, 8.6161999999999984E-09, 