
SetupTitle, WW
PrimitiveTest, I/V Sweep
TestParameter, Context.MainFrame, B1500A
TestParameter, Channel.UnitType, SMU, SMU
TestParameter, Channel.Unit, SMU2:HP, SMU1:HP
TestParameter, Channel.IName, I1, I4
TestParameter, Channel.VName, V1, V4
TestParameter, Channel.Mode, V, COMMON
TestParameter, Channel.Func, VAR1, CONST
TestParameter, Channel.Index, 
TestParameter, Channel.Time, 
TestParameter, Measurement.Port.Unit, SMU2:HP, SMU1:HP
TestParameter, Measurement.Port.SeriesResistor, NONE, NONE
TestParameter, Measurement.Port.Filter, ON, ON
TestParameter, Measurement.Port.OutputVoltageComparison, 0, 0
TestParameter, Measurement.Primary.Locus, Single
TestParameter, Measurement.Primary.Scale, LINEAR
TestParameter, Measurement.Primary.Start, -5
TestParameter, Measurement.Primary.Stop, 5
TestParameter, Measurement.Primary.Step, 0.1
TestParameter, Measurement.Primary.Compliance, 0.1
TestParameter, Measurement.Primary.PowerCompliance, 0
TestParameter, Measurement.Aborting.Condition, CONTINUE AT ANY
TestParameter, Measurement.PostOutput.Value, START
TestParameter, Measurement.PostOutput.Retention, OFF
TestParameter, Measurement.Bias.Source, -5, 0
TestParameter, Measurement.Bias.Compliance, 0.1, 1
TestParameter, Measurement.Monitor.Unit, SMU2:HP, SMU1:HP
TestParameter, Measurement.Monitor.Adc, HR ADC, HR ADC
TestParameter, Measurement.Monitor.Measurement, Compliance Side, Compliance Side
TestParameter, Measurement.Monitor.RangingMode, AUTO, AUTO
TestParameter, Measurement.Monitor.RangeBoundary, , 
TestParameter, Measurement.Monitor.RangeRating, BY FULL RANGE, BY FULL RANGE
TestParameter, Measurement.Monitor.RangeRatingCoeff, 50, 50
TestParameter, Measurement.Timing.Hold, 0
TestParameter, Measurement.Timing.Delay, 0.001
TestParameter, Measurement.Adc.HighSpeed.Mode, AUTO
TestParameter, Measurement.Adc.HighSpeed.Coeff, 1
TestParameter, Measurement.Adc.HighResolution.AutoZero, OFF
TestParameter, Measurement.Adc.HighResolution.Mode, PLC
TestParameter, Measurement.Adc.HighResolution.Coeff, 1
TestParameter, Measurement.WaitTime.Source.Coeff, 1
TestParameter, Measurement.WaitTime.Source.Offset, 0
TestParameter, Measurement.WaitTime.Monitor.Coeff, 1
TestParameter, Measurement.WaitTime.Monitor.Offset, 0
TestParameter, Function.User.Name, Ohmic
TestParameter, Function.User.Unit, ohm
TestParameter, Function.User.Definition, avg(V1/I1)
TestParameter, Output.Graph.Enabled, true
TestParameter, Output.Graph.XAxis.Data, V1
TestParameter, Output.Graph.XAxis.Scale, Linear
TestParameter, Output.Graph.XAxis.Left, -5
TestParameter, Output.Graph.XAxis.Right, 5
TestParameter, Output.Graph.YAxis.Data, I1
TestParameter, Output.Graph.YAxis.Scale, Linear
TestParameter, Output.Graph.YAxis.Bottom, -0.001
TestParameter, Output.Graph.YAxis.Top, 0.001
TestParameter, Output.Graph.YAxis.Group, 
TestParameter, Output.Scalar.Data, Ohmic
TestParameter, AutoAnalysis.Interpolation, false
TestParameter, AutoAnalysis.Line1.Enabled, false
TestParameter, AutoAnalysis.Line1.Type, 1
TestParameter, AutoAnalysis.Line1.Fix, True
TestParameter, AutoAnalysis.Line1.YAxis, 0
TestParameter, AutoAnalysis.Line1.Point1.Type, 0
TestParameter, AutoAnalysis.Line1.Point1.XY.X, 
TestParameter, AutoAnalysis.Line1.Point1.XY.Y, 
TestParameter, AutoAnalysis.Line1.Point1.Data.Var, 
TestParameter, AutoAnalysis.Line1.Point1.Data.Condition, 
TestParameter, AutoAnalysis.Line1.Point1.Data.Start, false
TestParameter, AutoAnalysis.Line1.Point1.Data.StartVar, 
TestParameter, AutoAnalysis.Line1.Point1.Data.StartCondition, 
TestParameter, AutoAnalysis.Line1.Point2.Type, 0
TestParameter, AutoAnalysis.Line1.Point2.XY.X, 
TestParameter, AutoAnalysis.Line1.Point2.XY.Y, 
TestParameter, AutoAnalysis.Line1.Point2.Data.Var, 
TestParameter, AutoAnalysis.Line1.Point2.Data.Condition, 
TestParameter, AutoAnalysis.Line1.Point2.Data.Start, false
TestParameter, AutoAnalysis.Line1.Point2.Data.StartVar, 
TestParameter, AutoAnalysis.Line1.Point2.Data.StartCondition, 
TestParameter, AutoAnalysis.Line1.GradientExpr, 0
TestParameter, AutoAnalysis.Line2.Enabled, false
TestParameter, AutoAnalysis.Line2.Type, 1
TestParameter, AutoAnalysis.Line2.Fix, True
TestParameter, AutoAnalysis.Line2.YAxis, 0
TestParameter, AutoAnalysis.Line2.Point1.Type, 0
TestParameter, AutoAnalysis.Line2.Point1.XY.X, 
TestParameter, AutoAnalysis.Line2.Point1.XY.Y, 
TestParameter, AutoAnalysis.Line2.Point1.Data.Var, 
TestParameter, AutoAnalysis.Line2.Point1.Data.Condition, 
TestParameter, AutoAnalysis.Line2.Point1.Data.Start, false
TestParameter, AutoAnalysis.Line2.Point1.Data.StartVar, 
TestParameter, AutoAnalysis.Line2.Point1.Data.StartCondition, 
TestParameter, AutoAnalysis.Line2.Point2.Type, 0
TestParameter, AutoAnalysis.Line2.Point2.XY.X, 
TestParameter, AutoAnalysis.Line2.Point2.XY.Y, 
TestParameter, AutoAnalysis.Line2.Point2.Data.Var, 
TestParameter, AutoAnalysis.Line2.Point2.Data.Condition, 
TestParameter, AutoAnalysis.Line2.Point2.Data.Start, false
TestParameter, AutoAnalysis.Line2.Point2.Data.StartVar, 
TestParameter, AutoAnalysis.Line2.Point2.Data.StartCondition, 
TestParameter, AutoAnalysis.Line2.GradientExpr, 0
TestParameter, AutoAnalysis.Marker.Enabled, false
TestParameter, AutoAnalysis.Marker.Data.Var, 
TestParameter, AutoAnalysis.Marker.Data.Condition, 
TestParameter, AutoAnalysis.Marker.Data.Start, false
TestParameter, AutoAnalysis.Marker.Data.StartVar, 
TestParameter, AutoAnalysis.Marker.Data.StartCondition, 
MetaData, TestRecord.EntryPoint, true
MetaData, TestRecord.RecordTime, 11/24/2020 20:23:01
MetaData, TestRecord.TestTarget, 
MetaData, TestRecord.IterationIndex, 68
MetaData, TestRecord.Preservation, true
MetaData, TestRecord.Flag, 
MetaData, TestRecord.Remarks, 
MetaData, TestRecord.LinkKey, adbbed28-8eab-4911-a6f5-3eccfa98338a
Dimension1, 101, 101, 101
Dimension2, 1, 1, 1
DataName, V1, I1, Ohmic
DataValue, -5, -6.5549E-08, 314494365.55111855
DataValue, -4.9, -6.2778E-08, 
DataValue, -4.8, -6.0231999999999993E-08, 
DataValue, -4.7, -5.7940999999999996E-08, 
DataValue, -4.6000000000000005, -5.5124E-08, 
DataValue, -4.5, -5.414E-08, 
DataValue, -4.4, -5.2988E-08, 
DataValue, -4.3, -5.0551E-08, 
DataValue, -4.2, -4.7924E-08, 
DataValue, -4.1, -4.7177E-08, 
DataValue, -4, -4.5602E-08, 
DataValue, -3.9, -4.5016E-08, 
DataValue, -3.8000000000000003, -4.4349E-08, 
DataValue, -3.7, -4.2343E-08, 
DataValue, -3.6, -4.0707E-08, 
DataValue, -3.5, -4.0792E-08, 
DataValue, -3.4, -3.9337E-08, 
DataValue, -3.3000000000000003, -3.8308E-08, 
DataValue, -3.2, -3.7291E-08, 
DataValue, -3.1, -3.6432E-08, 
DataValue, -3, -3.5032E-08, 
DataValue, -2.9, -3.521E-08, 
DataValue, -2.8000000000000003, -3.3919E-08, 
DataValue, -2.7, -3.3395E-08, 
DataValue, -2.6, -3.276E-08, 
DataValue, -2.5, -3.2187E-08, 
DataValue, -2.4, -3.183E-08, 
DataValue, -2.3000000000000003, -3.1491E-08, 
DataValue, -2.2, -3.134E-08, 
DataValue, -2.1, -3.1011E-08, 
DataValue, -2, -3.07453E-08, 
DataValue, -1.9000000000000001, -3.0366499999999996E-08, 
DataValue, -1.8, -2.9979499999999994E-08, 
DataValue, -1.7, -2.9522099999999997E-08, 
DataValue, -1.6, -2.9180599999999997E-08, 
DataValue, -1.5, -2.8851999999999996E-08, 
DataValue, -1.4000000000000001, -2.8248699999999997E-08, 
DataValue, -1.3, -2.7897199999999996E-08, 
DataValue, -1.2, -2.7435799999999997E-08, 
DataValue, -1.1, -2.6742999999999997E-08, 
DataValue, -1, -2.6479999999999996E-08, 
DataValue, -0.9, -2.49363E-08, 
DataValue, -0.8, -2.3979399999999998E-08, 
DataValue, -0.70000000000000007, -2.40709E-08, 
DataValue, -0.6, -2.3301899999999997E-08, 
DataValue, -0.5, -2.2709E-08, 
DataValue, -0.4, -2.1089099999999997E-08, 
DataValue, -0.3, -2.0729999999999998E-08, 
DataValue, -0.2, -2.0060999999999997E-08, 
DataValue, -0.1, -1.8986599999999998E-08, 
DataValue, 0, -1.81085E-08, 
DataValue, 0.1, -1.71357E-08, 
DataValue, 0.2, -1.6664399999999998E-08, 
DataValue, 0.3, -1.5553799999999997E-08, 
DataValue, 0.4, -1.47026E-08, 
DataValue, 0.5, -1.3743E-08, 
DataValue, 0.6, -1.2897899999999999E-08, 
DataValue, 0.70000000000000007, -1.1447199999999999E-08, 
DataValue, 0.8, -1.0363499999999999E-08, 
DataValue, 0.9, -9.6238E-09, 
DataValue, 1, -8.7375999999999984E-09, 
DataValue, 1.1, -7.7574E-09, 
DataValue, 1.2, -6.3988999999999995E-09, 
DataValue, 1.3, -5.9281999999999994E-09, 
DataValue, 1.4000000000000001, -5.5939999999999995E-09, 
DataValue, 1.5, -4.6391E-09, 
DataValue, 1.6, -3.8727E-09, 
DataValue, 1.7, -2.9499999999999995E-09, 
DataValue, 1.8, -2.2732999999999996E-09, 
DataValue, 1.9000000000000001, -2.3596999999999996E-09, 
DataValue, 2, -1.3034999999999999E-09, 
DataValue, 2.1, -6.5739999999999992E-10, 
DataValue, 2.2, 1.5009999999999998E-10, 
DataValue, 2.3000000000000003, 6.39E-10, 
DataValue, 2.4, 1.1265999999999998E-09, 
DataValue, 2.5, 1.8453999999999999E-09, 
DataValue, 2.6, 2.1551999999999998E-09, 
DataValue, 2.7, 2.6342E-09, 
DataValue, 2.8000000000000003, 3.1119999999999996E-09, 
DataValue, 2.9, 3.6172999999999995E-09, 
DataValue, 3, 4.3771999999999993E-09, 
DataValue, 3.1, 4.5977999999999992E-09, 
DataValue, 3.2, 4.7882E-09, 
DataValue, 3.3000000000000003, 4.8586E-09, 
DataValue, 3.4, 5.5497999999999992E-09, 
DataValue, 3.5, 6.2438999999999991E-09, 
DataValue, 3.6, 6.1740999999999992E-09, 
DataValue, 3.7, 6.1143999999999995E-09, 
DataValue, 3.8000000000000003, 6.6015E-09, 
DataValue, 3.9, 7.4114999999999991E-09, 
DataValue, 4, 7.4176E-09, 
DataValue, 4.1, 7.2597999999999993E-09, 
DataValue, 4.2, 7.9085E-09, 
DataValue, 4.3, 8.3529999999999988E-09, 
DataValue, 4.4, 9.0273999999999988E-09, 
DataValue, 4.5, 9.3367999999999986E-09, 
DataValue, 4.6000000000000005, 8.9915999999999986E-09, 
DataValue, 4.7, 9.4648999999999986E-09, 
DataValue, 4.8, 9.6212E-09, 
DataValue, 4.9, 9.7095999999999988E-09, 
DataValue, 5, 1.02181E-08, 