
SetupTitle, WW
PrimitiveTest, I/V Sweep
TestParameter, Context.MainFrame, B1500A
TestParameter, Channel.UnitType, SMU, SMU
TestParameter, Channel.Unit, SMU2:HP, SMU1:HP
TestParameter, Channel.IName, I1, I4
TestParameter, Channel.VName, V1, V4
TestParameter, Channel.Mode, V, COMMON
TestParameter, Channel.Func, VAR1, CONST
TestParameter, Channel.Index, 
TestParameter, Channel.Time, 
TestParameter, Measurement.Port.Unit, SMU2:HP, SMU1:HP
TestParameter, Measurement.Port.SeriesResistor, NONE, NONE
TestParameter, Measurement.Port.Filter, ON, ON
TestParameter, Measurement.Port.OutputVoltageComparison, 0, 0
TestParameter, Measurement.Primary.Locus, Single
TestParameter, Measurement.Primary.Scale, LINEAR
TestParameter, Measurement.Primary.Start, -5
TestParameter, Measurement.Primary.Stop, 5
TestParameter, Measurement.Primary.Step, 0.1
TestParameter, Measurement.Primary.Compliance, 0.1
TestParameter, Measurement.Primary.PowerCompliance, 0
TestParameter, Measurement.Aborting.Condition, CONTINUE AT ANY
TestParameter, Measurement.PostOutput.Value, START
TestParameter, Measurement.PostOutput.Retention, OFF
TestParameter, Measurement.Bias.Source, -5, 0
TestParameter, Measurement.Bias.Compliance, 0.1, 1
TestParameter, Measurement.Monitor.Unit, SMU2:HP, SMU1:HP
TestParameter, Measurement.Monitor.Adc, HR ADC, HR ADC
TestParameter, Measurement.Monitor.Measurement, Compliance Side, Compliance Side
TestParameter, Measurement.Monitor.RangingMode, AUTO, AUTO
TestParameter, Measurement.Monitor.RangeBoundary, , 
TestParameter, Measurement.Monitor.RangeRating, BY FULL RANGE, BY FULL RANGE
TestParameter, Measurement.Monitor.RangeRatingCoeff, 50, 50
TestParameter, Measurement.Timing.Hold, 0
TestParameter, Measurement.Timing.Delay, 0.001
TestParameter, Measurement.Adc.HighSpeed.Mode, AUTO
TestParameter, Measurement.Adc.HighSpeed.Coeff, 1
TestParameter, Measurement.Adc.HighResolution.AutoZero, OFF
TestParameter, Measurement.Adc.HighResolution.Mode, PLC
TestParameter, Measurement.Adc.HighResolution.Coeff, 1
TestParameter, Measurement.WaitTime.Source.Coeff, 1
TestParameter, Measurement.WaitTime.Source.Offset, 0
TestParameter, Measurement.WaitTime.Monitor.Coeff, 1
TestParameter, Measurement.WaitTime.Monitor.Offset, 0
TestParameter, Function.User.Name, Ohmic
TestParameter, Function.User.Unit, ohm
TestParameter, Function.User.Definition, avg(V1/I1)
TestParameter, Output.Graph.Enabled, true
TestParameter, Output.Graph.XAxis.Data, V1
TestParameter, Output.Graph.XAxis.Scale, Linear
TestParameter, Output.Graph.XAxis.Left, -5
TestParameter, Output.Graph.XAxis.Right, 5
TestParameter, Output.Graph.YAxis.Data, I1
TestParameter, Output.Graph.YAxis.Scale, Linear
TestParameter, Output.Graph.YAxis.Bottom, -0.001
TestParameter, Output.Graph.YAxis.Top, 0.001
TestParameter, Output.Graph.YAxis.Group, 
TestParameter, Output.Scalar.Data, Ohmic
TestParameter, AutoAnalysis.Interpolation, false
TestParameter, AutoAnalysis.Line1.Enabled, false
TestParameter, AutoAnalysis.Line1.Type, 1
TestParameter, AutoAnalysis.Line1.Fix, True
TestParameter, AutoAnalysis.Line1.YAxis, 0
TestParameter, AutoAnalysis.Line1.Point1.Type, 0
TestParameter, AutoAnalysis.Line1.Point1.XY.X, 
TestParameter, AutoAnalysis.Line1.Point1.XY.Y, 
TestParameter, AutoAnalysis.Line1.Point1.Data.Var, 
TestParameter, AutoAnalysis.Line1.Point1.Data.Condition, 
TestParameter, AutoAnalysis.Line1.Point1.Data.Start, false
TestParameter, AutoAnalysis.Line1.Point1.Data.StartVar, 
TestParameter, AutoAnalysis.Line1.Point1.Data.StartCondition, 
TestParameter, AutoAnalysis.Line1.Point2.Type, 0
TestParameter, AutoAnalysis.Line1.Point2.XY.X, 
TestParameter, AutoAnalysis.Line1.Point2.XY.Y, 
TestParameter, AutoAnalysis.Line1.Point2.Data.Var, 
TestParameter, AutoAnalysis.Line1.Point2.Data.Condition, 
TestParameter, AutoAnalysis.Line1.Point2.Data.Start, false
TestParameter, AutoAnalysis.Line1.Point2.Data.StartVar, 
TestParameter, AutoAnalysis.Line1.Point2.Data.StartCondition, 
TestParameter, AutoAnalysis.Line1.GradientExpr, 0
TestParameter, AutoAnalysis.Line2.Enabled, false
TestParameter, AutoAnalysis.Line2.Type, 1
TestParameter, AutoAnalysis.Line2.Fix, True
TestParameter, AutoAnalysis.Line2.YAxis, 0
TestParameter, AutoAnalysis.Line2.Point1.Type, 0
TestParameter, AutoAnalysis.Line2.Point1.XY.X, 
TestParameter, AutoAnalysis.Line2.Point1.XY.Y, 
TestParameter, AutoAnalysis.Line2.Point1.Data.Var, 
TestParameter, AutoAnalysis.Line2.Point1.Data.Condition, 
TestParameter, AutoAnalysis.Line2.Point1.Data.Start, false
TestParameter, AutoAnalysis.Line2.Point1.Data.StartVar, 
TestParameter, AutoAnalysis.Line2.Point1.Data.StartCondition, 
TestParameter, AutoAnalysis.Line2.Point2.Type, 0
TestParameter, AutoAnalysis.Line2.Point2.XY.X, 
TestParameter, AutoAnalysis.Line2.Point2.XY.Y, 
TestParameter, AutoAnalysis.Line2.Point2.Data.Var, 
TestParameter, AutoAnalysis.Line2.Point2.Data.Condition, 
TestParameter, AutoAnalysis.Line2.Point2.Data.Start, false
TestParameter, AutoAnalysis.Line2.Point2.Data.StartVar, 
TestParameter, AutoAnalysis.Line2.Point2.Data.StartCondition, 
TestParameter, AutoAnalysis.Line2.GradientExpr, 0
TestParameter, AutoAnalysis.Marker.Enabled, false
TestParameter, AutoAnalysis.Marker.Data.Var, 
TestParameter, AutoAnalysis.Marker.Data.Condition, 
TestParameter, AutoAnalysis.Marker.Data.Start, false
TestParameter, AutoAnalysis.Marker.Data.StartVar, 
TestParameter, AutoAnalysis.Marker.Data.StartCondition, 
MetaData, TestRecord.EntryPoint, true
MetaData, TestRecord.RecordTime, 11/24/2020 20:19:01
MetaData, TestRecord.TestTarget, 
MetaData, TestRecord.IterationIndex, 60
MetaData, TestRecord.Preservation, true
MetaData, TestRecord.Flag, 
MetaData, TestRecord.Remarks, 
MetaData, TestRecord.LinkKey, 226fadba-517a-4b02-a00f-781a7983279b
Dimension1, 101, 101, 101
Dimension2, 1, 1, 1
DataName, V1, I1, Ohmic
DataValue, -5, -3.0662E-08, -24082881.611256775
DataValue, -4.9, -3.1341E-08, 
DataValue, -4.8, -3.19408E-08, 
DataValue, -4.7, -3.08387E-08, 
DataValue, -4.6000000000000005, -3.1414899999999995E-08, 
DataValue, -4.5, -3.0999899999999994E-08, 
DataValue, -4.4, -2.99775E-08, 
DataValue, -4.3, -2.9272099999999998E-08, 
DataValue, -4.2, -2.9600399999999996E-08, 
DataValue, -4.1, -2.9637799999999996E-08, 
DataValue, -4, -2.9610099999999997E-08, 
DataValue, -3.9, -2.9398599999999996E-08, 
DataValue, -3.8000000000000003, -2.8910399999999997E-08, 
DataValue, -3.7, -2.8651699999999998E-08, 
DataValue, -3.6, -2.8847799999999997E-08, 
DataValue, -3.5, -2.8603199999999996E-08, 
DataValue, -3.4, -2.9150699999999998E-08, 
DataValue, -3.3000000000000003, -2.8716899999999996E-08, 
DataValue, -3.2, -2.8655099999999996E-08, 
DataValue, -3.1, -2.8321499999999997E-08, 
DataValue, -3, -2.84236E-08, 
DataValue, -2.9, -2.8542699999999997E-08, 
DataValue, -2.8000000000000003, -2.8319099999999996E-08, 
DataValue, -2.7, -2.82382E-08, 
DataValue, -2.6, -2.8084199999999996E-08, 
DataValue, -2.5, -2.78655E-08, 
DataValue, -2.4, -2.7570999999999996E-08, 
DataValue, -2.3000000000000003, -2.7562699999999997E-08, 
DataValue, -2.2, -2.7598499999999997E-08, 
DataValue, -2.1, -2.7664099999999998E-08, 
DataValue, -2, -2.7133099999999998E-08, 
DataValue, -1.9000000000000001, -2.7028899999999998E-08, 
DataValue, -1.8, -2.69044E-08, 
DataValue, -1.7, -2.6991499999999997E-08, 
DataValue, -1.6, -2.7091399999999996E-08, 
DataValue, -1.5, -2.6550499999999997E-08, 
DataValue, -1.4000000000000001, -2.6246799999999996E-08, 
DataValue, -1.3, -2.6311699999999998E-08, 
DataValue, -1.2, -2.6007699999999997E-08, 
DataValue, -1.1, -2.6101499999999997E-08, 
DataValue, -1, -2.54085E-08, 
DataValue, -0.9, -2.4980199999999997E-08, 
DataValue, -0.8, -2.5110099999999997E-08, 
DataValue, -0.70000000000000007, -2.41518E-08, 
DataValue, -0.6, -2.3243399999999997E-08, 
DataValue, -0.5, -2.3393999999999998E-08, 
DataValue, -0.4, -2.3324599999999997E-08, 
DataValue, -0.3, -2.2779099999999997E-08, 
DataValue, -0.2, -2.2427699999999998E-08, 
DataValue, -0.1, -2.12519E-08, 
DataValue, 0, -2.2308299999999997E-08, 
DataValue, 0.1, -2.1125199999999996E-08, 
DataValue, 0.2, -2.08983E-08, 
DataValue, 0.3, -1.99725E-08, 
DataValue, 0.4, -2.0049999999999998E-08, 
DataValue, 0.5, -1.97128E-08, 
DataValue, 0.6, -1.91035E-08, 
DataValue, 0.70000000000000007, -1.8092599999999997E-08, 
DataValue, 0.8, -1.7787E-08, 
DataValue, 0.9, -1.6755199999999998E-08, 
DataValue, 1, -1.59179E-08, 
DataValue, 1.1, -1.52064E-08, 
DataValue, 1.2, -1.4149899999999999E-08, 
DataValue, 1.3, -1.3394299999999999E-08, 
DataValue, 1.4000000000000001, -1.36201E-08, 
DataValue, 1.5, -1.37106E-08, 
DataValue, 1.6, -1.3250899999999999E-08, 
DataValue, 1.7, -1.1133499999999998E-08, 
DataValue, 1.8, -1.1515199999999999E-08, 
DataValue, 1.9000000000000001, -1.2599899999999998E-08, 
DataValue, 2, -1.0971199999999999E-08, 
DataValue, 2.1, -9.772E-09, 
DataValue, 2.2, -8.3278E-09, 
DataValue, 2.3000000000000003, -8.4988E-09, 
DataValue, 2.4, -8.6553999999999989E-09, 
DataValue, 2.5, -7.9919E-09, 
DataValue, 2.6, -5.7610999999999991E-09, 
DataValue, 2.7, -6.1411E-09, 
DataValue, 2.8000000000000003, -6.2386999999999991E-09, 
DataValue, 2.9, -4.8314999999999993E-09, 
DataValue, 3, -4.4037E-09, 
DataValue, 3.1, -3.1187999999999996E-09, 
DataValue, 3.2, -2.517E-09, 
DataValue, 3.3000000000000003, -8.692E-10, 
DataValue, 3.4, -3.222E-09, 
DataValue, 3.5, -5.065E-10, 
DataValue, 3.6, -1.1489999999999999E-09, 
DataValue, 3.7, -9.6899999999999986E-10, 
DataValue, 3.8000000000000003, -7.6E-10, 
DataValue, 3.9, -1.1447E-09, 
DataValue, 4, 1.4907999999999999E-09, 
DataValue, 4.1, 2.7879999999999996E-10, 
DataValue, 4.2, 1.5100999999999998E-09, 
DataValue, 4.3, 2.4164999999999997E-09, 
DataValue, 4.4, 4.2902999999999995E-09, 
DataValue, 4.5, 5.3110999999999992E-09, 
DataValue, 4.6000000000000005, 5.4330999999999994E-09, 
DataValue, 4.7, 4.1308E-09, 
DataValue, 4.8, 5.6013E-09, 
DataValue, 4.9, 6.5872E-09, 
DataValue, 5, 8.2159999999999989E-09, 