
SetupTitle, WW
PrimitiveTest, I/V Sweep
TestParameter, Context.MainFrame, B1500A
TestParameter, Channel.UnitType, SMU, SMU
TestParameter, Channel.Unit, SMU2:HP, SMU1:HP
TestParameter, Channel.IName, I1, I4
TestParameter, Channel.VName, V1, V4
TestParameter, Channel.Mode, V, COMMON
TestParameter, Channel.Func, VAR1, CONST
TestParameter, Channel.Index, 
TestParameter, Channel.Time, 
TestParameter, Measurement.Port.Unit, SMU2:HP, SMU1:HP
TestParameter, Measurement.Port.SeriesResistor, NONE, NONE
TestParameter, Measurement.Port.Filter, ON, ON
TestParameter, Measurement.Port.OutputVoltageComparison, 0, 0
TestParameter, Measurement.Primary.Locus, Single
TestParameter, Measurement.Primary.Scale, LINEAR
TestParameter, Measurement.Primary.Start, -5
TestParameter, Measurement.Primary.Stop, 5
TestParameter, Measurement.Primary.Step, 0.1
TestParameter, Measurement.Primary.Compliance, 0.1
TestParameter, Measurement.Primary.PowerCompliance, 0
TestParameter, Measurement.Aborting.Condition, CONTINUE AT ANY
TestParameter, Measurement.PostOutput.Value, START
TestParameter, Measurement.PostOutput.Retention, OFF
TestParameter, Measurement.Bias.Source, -5, 0
TestParameter, Measurement.Bias.Compliance, 0.1, 1
TestParameter, Measurement.Monitor.Unit, SMU2:HP, SMU1:HP
TestParameter, Measurement.Monitor.Adc, HR ADC, HR ADC
TestParameter, Measurement.Monitor.Measurement, Compliance Side, Compliance Side
TestParameter, Measurement.Monitor.RangingMode, AUTO, AUTO
TestParameter, Measurement.Monitor.RangeBoundary, , 
TestParameter, Measurement.Monitor.RangeRating, BY FULL RANGE, BY FULL RANGE
TestParameter, Measurement.Monitor.RangeRatingCoeff, 50, 50
TestParameter, Measurement.Timing.Hold, 0
TestParameter, Measurement.Timing.Delay, 0.001
TestParameter, Measurement.Adc.HighSpeed.Mode, AUTO
TestParameter, Measurement.Adc.HighSpeed.Coeff, 1
TestParameter, Measurement.Adc.HighResolution.AutoZero, OFF
TestParameter, Measurement.Adc.HighResolution.Mode, PLC
TestParameter, Measurement.Adc.HighResolution.Coeff, 1
TestParameter, Measurement.WaitTime.Source.Coeff, 1
TestParameter, Measurement.WaitTime.Source.Offset, 0
TestParameter, Measurement.WaitTime.Monitor.Coeff, 1
TestParameter, Measurement.WaitTime.Monitor.Offset, 0
TestParameter, Function.User.Name, Ohmic
TestParameter, Function.User.Unit, ohm
TestParameter, Function.User.Definition, avg(V1/I1)
TestParameter, Output.Graph.Enabled, true
TestParameter, Output.Graph.XAxis.Data, V1
TestParameter, Output.Graph.XAxis.Scale, Linear
TestParameter, Output.Graph.XAxis.Left, -5
TestParameter, Output.Graph.XAxis.Right, 5
TestParameter, Output.Graph.YAxis.Data, I1
TestParameter, Output.Graph.YAxis.Scale, Linear
TestParameter, Output.Graph.YAxis.Bottom, -0.001
TestParameter, Output.Graph.YAxis.Top, 0.001
TestParameter, Output.Graph.YAxis.Group, 
TestParameter, Output.Scalar.Data, Ohmic
TestParameter, AutoAnalysis.Interpolation, false
TestParameter, AutoAnalysis.Line1.Enabled, false
TestParameter, AutoAnalysis.Line1.Type, 1
TestParameter, AutoAnalysis.Line1.Fix, True
TestParameter, AutoAnalysis.Line1.YAxis, 0
TestParameter, AutoAnalysis.Line1.Point1.Type, 0
TestParameter, AutoAnalysis.Line1.Point1.XY.X, 
TestParameter, AutoAnalysis.Line1.Point1.XY.Y, 
TestParameter, AutoAnalysis.Line1.Point1.Data.Var, 
TestParameter, AutoAnalysis.Line1.Point1.Data.Condition, 
TestParameter, AutoAnalysis.Line1.Point1.Data.Start, false
TestParameter, AutoAnalysis.Line1.Point1.Data.StartVar, 
TestParameter, AutoAnalysis.Line1.Point1.Data.StartCondition, 
TestParameter, AutoAnalysis.Line1.Point2.Type, 0
TestParameter, AutoAnalysis.Line1.Point2.XY.X, 
TestParameter, AutoAnalysis.Line1.Point2.XY.Y, 
TestParameter, AutoAnalysis.Line1.Point2.Data.Var, 
TestParameter, AutoAnalysis.Line1.Point2.Data.Condition, 
TestParameter, AutoAnalysis.Line1.Point2.Data.Start, false
TestParameter, AutoAnalysis.Line1.Point2.Data.StartVar, 
TestParameter, AutoAnalysis.Line1.Point2.Data.StartCondition, 
TestParameter, AutoAnalysis.Line1.GradientExpr, 0
TestParameter, AutoAnalysis.Line2.Enabled, false
TestParameter, AutoAnalysis.Line2.Type, 1
TestParameter, AutoAnalysis.Line2.Fix, True
TestParameter, AutoAnalysis.Line2.YAxis, 0
TestParameter, AutoAnalysis.Line2.Point1.Type, 0
TestParameter, AutoAnalysis.Line2.Point1.XY.X, 
TestParameter, AutoAnalysis.Line2.Point1.XY.Y, 
TestParameter, AutoAnalysis.Line2.Point1.Data.Var, 
TestParameter, AutoAnalysis.Line2.Point1.Data.Condition, 
TestParameter, AutoAnalysis.Line2.Point1.Data.Start, false
TestParameter, AutoAnalysis.Line2.Point1.Data.StartVar, 
TestParameter, AutoAnalysis.Line2.Point1.Data.StartCondition, 
TestParameter, AutoAnalysis.Line2.Point2.Type, 0
TestParameter, AutoAnalysis.Line2.Point2.XY.X, 
TestParameter, AutoAnalysis.Line2.Point2.XY.Y, 
TestParameter, AutoAnalysis.Line2.Point2.Data.Var, 
TestParameter, AutoAnalysis.Line2.Point2.Data.Condition, 
TestParameter, AutoAnalysis.Line2.Point2.Data.Start, false
TestParameter, AutoAnalysis.Line2.Point2.Data.StartVar, 
TestParameter, AutoAnalysis.Line2.Point2.Data.StartCondition, 
TestParameter, AutoAnalysis.Line2.GradientExpr, 0
TestParameter, AutoAnalysis.Marker.Enabled, false
TestParameter, AutoAnalysis.Marker.Data.Var, 
TestParameter, AutoAnalysis.Marker.Data.Condition, 
TestParameter, AutoAnalysis.Marker.Data.Start, false
TestParameter, AutoAnalysis.Marker.Data.StartVar, 
TestParameter, AutoAnalysis.Marker.Data.StartCondition, 
MetaData, TestRecord.EntryPoint, true
MetaData, TestRecord.RecordTime, 11/24/2020 20:12:43
MetaData, TestRecord.TestTarget, 
MetaData, TestRecord.IterationIndex, 49
MetaData, TestRecord.Preservation, true
MetaData, TestRecord.Flag, 
MetaData, TestRecord.Remarks, 
MetaData, TestRecord.LinkKey, f7baf666-3af0-4288-a399-4ed8b4b5cabc
Dimension1, 101, 101, 101
Dimension2, 1, 1, 1
DataName, V1, I1, Ohmic
DataValue, -5, -6.3263299999999994E-07, 7294281.9543581307
DataValue, -4.9, -6.22014E-07, 
DataValue, -4.8, -6.09468E-07, 
DataValue, -4.7, -5.98432E-07, 
DataValue, -4.6000000000000005, -5.85484E-07, 
DataValue, -4.5, -5.73752E-07, 
DataValue, -4.4, -5.62547E-07, 
DataValue, -4.3, -5.49227E-07, 
DataValue, -4.2, -5.40982E-07, 
DataValue, -4.1, -5.27244E-07, 
DataValue, -4, -5.14938E-07, 
DataValue, -3.9, -5.0457099999999995E-07, 
DataValue, -3.8000000000000003, -4.89992E-07, 
DataValue, -3.7, -4.81508E-07, 
DataValue, -3.6, -4.7188399999999997E-07, 
DataValue, -3.5, -4.63259E-07, 
DataValue, -3.4, -4.48767E-07, 
DataValue, -3.3000000000000003, -4.38129E-07, 
DataValue, -3.2, -4.25508E-07, 
DataValue, -3.1, -4.16627E-07, 
DataValue, -3, -4.0479599999999997E-07, 
DataValue, -2.9, -3.93719E-07, 
DataValue, -2.8000000000000003, -3.83092E-07, 
DataValue, -2.7, -3.71407E-07, 
DataValue, -2.6, -3.64277E-07, 
DataValue, -2.5, -3.5168E-07, 
DataValue, -2.4, -3.3953199999999997E-07, 
DataValue, -2.3000000000000003, -3.29263E-07, 
DataValue, -2.2, -3.18084E-07, 
DataValue, -2.1, -3.05666E-07, 
DataValue, -2, -2.94093E-07, 
DataValue, -1.9000000000000001, -2.82268E-07, 
DataValue, -1.8, -2.7161E-07, 
DataValue, -1.7, -2.60634E-07, 
DataValue, -1.6, -2.4758099999999997E-07, 
DataValue, -1.5, -2.32808E-07, 
DataValue, -1.4000000000000001, -2.20448E-07, 
DataValue, -1.3, -2.07421E-07, 
DataValue, -1.2, -1.92979E-07, 
DataValue, -1.1, -1.7891699999999999E-07, 
DataValue, -1, -1.6375E-07, 
DataValue, -0.9, -1.50078E-07, 
DataValue, -0.8, -1.33017E-07, 
DataValue, -0.70000000000000007, -1.1690899999999999E-07, 
DataValue, -0.6, -1.01804E-07, 
DataValue, -0.5, -8.6298E-08, 
DataValue, -0.4, -7.105E-08, 
DataValue, -0.3, -5.4997E-08, 
DataValue, -0.2, -3.9502E-08, 
DataValue, -0.1, -2.22395E-08, 
DataValue, 0, 6.4799999999999993E-10, 
DataValue, 0.1, 1.93343E-08, 
DataValue, 0.2, 3.1961E-08, 
DataValue, 0.3, 4.2979E-08, 
DataValue, 0.4, 5.3077299999999996E-08, 
DataValue, 0.5, 6.2540999999999991E-08, 
DataValue, 0.6, 7.3136999999999988E-08, 
DataValue, 0.70000000000000007, 8.3059199999999987E-08, 
DataValue, 0.8, 9.3412799999999993E-08, 
DataValue, 0.9, 1.0443429999999998E-07, 
DataValue, 1, 1.1424899999999999E-07, 
DataValue, 1.1, 1.25819E-07, 
DataValue, 1.2, 1.3661799999999999E-07, 
DataValue, 1.3, 1.48558E-07, 
DataValue, 1.4000000000000001, 1.59523E-07, 
DataValue, 1.5, 1.72298E-07, 
DataValue, 1.6, 1.8503299999999999E-07, 
DataValue, 1.7, 1.97443E-07, 
DataValue, 1.8, 2.10287E-07, 
DataValue, 1.9000000000000001, 2.22444E-07, 
DataValue, 2, 2.35552E-07, 
DataValue, 2.1, 2.49274E-07, 
DataValue, 2.2, 2.63573E-07, 
DataValue, 2.3000000000000003, 2.7762E-07, 
DataValue, 2.4, 2.90958E-07, 
DataValue, 2.5, 3.05898E-07, 
DataValue, 2.6, 3.22104E-07, 
DataValue, 2.7, 3.36509E-07, 
DataValue, 2.8000000000000003, 3.5042E-07, 
DataValue, 2.9, 3.66731E-07, 
DataValue, 3, 3.80783E-07, 
DataValue, 3.1, 3.98558E-07, 
DataValue, 3.2, 4.15144E-07, 
DataValue, 3.3000000000000003, 4.30943E-07, 
DataValue, 3.4, 4.48392E-07, 
DataValue, 3.5, 4.64622E-07, 
DataValue, 3.6, 4.81318E-07, 
DataValue, 3.7, 4.96864E-07, 
DataValue, 3.8000000000000003, 5.16544E-07, 
DataValue, 3.9, 5.34971E-07, 
DataValue, 4, 5.51483E-07, 
DataValue, 4.1, 5.66729E-07, 
DataValue, 4.2, 5.84198E-07, 
DataValue, 4.3, 6.04407E-07, 
DataValue, 4.4, 6.23635E-07, 
DataValue, 4.5, 6.41039E-07, 
DataValue, 4.6000000000000005, 6.5917599999999995E-07, 
DataValue, 4.7, 6.7640199999999994E-07, 
DataValue, 4.8, 6.95164E-07, 
DataValue, 4.9, 7.1474E-07, 
DataValue, 5, 7.32214E-07, 