
SetupTitle, WW
PrimitiveTest, I/V Sweep
TestParameter, Context.MainFrame, B1500A
TestParameter, Channel.UnitType, SMU, SMU
TestParameter, Channel.Unit, SMU2:HP, SMU1:HP
TestParameter, Channel.IName, I1, I4
TestParameter, Channel.VName, V1, V4
TestParameter, Channel.Mode, V, COMMON
TestParameter, Channel.Func, VAR1, CONST
TestParameter, Channel.Index, 
TestParameter, Channel.Time, 
TestParameter, Measurement.Port.Unit, SMU2:HP, SMU1:HP
TestParameter, Measurement.Port.SeriesResistor, NONE, NONE
TestParameter, Measurement.Port.Filter, ON, ON
TestParameter, Measurement.Port.OutputVoltageComparison, 0, 0
TestParameter, Measurement.Primary.Locus, Single
TestParameter, Measurement.Primary.Scale, LINEAR
TestParameter, Measurement.Primary.Start, -5
TestParameter, Measurement.Primary.Stop, 5
TestParameter, Measurement.Primary.Step, 0.1
TestParameter, Measurement.Primary.Compliance, 0.1
TestParameter, Measurement.Primary.PowerCompliance, 0
TestParameter, Measurement.Aborting.Condition, CONTINUE AT ANY
TestParameter, Measurement.PostOutput.Value, START
TestParameter, Measurement.PostOutput.Retention, OFF
TestParameter, Measurement.Bias.Source, -5, 0
TestParameter, Measurement.Bias.Compliance, 0.1, 1
TestParameter, Measurement.Monitor.Unit, SMU2:HP, SMU1:HP
TestParameter, Measurement.Monitor.Adc, HR ADC, HR ADC
TestParameter, Measurement.Monitor.Measurement, Compliance Side, Compliance Side
TestParameter, Measurement.Monitor.RangingMode, AUTO, AUTO
TestParameter, Measurement.Monitor.RangeBoundary, , 
TestParameter, Measurement.Monitor.RangeRating, BY FULL RANGE, BY FULL RANGE
TestParameter, Measurement.Monitor.RangeRatingCoeff, 50, 50
TestParameter, Measurement.Timing.Hold, 0
TestParameter, Measurement.Timing.Delay, 0.001
TestParameter, Measurement.Adc.HighSpeed.Mode, AUTO
TestParameter, Measurement.Adc.HighSpeed.Coeff, 1
TestParameter, Measurement.Adc.HighResolution.AutoZero, OFF
TestParameter, Measurement.Adc.HighResolution.Mode, PLC
TestParameter, Measurement.Adc.HighResolution.Coeff, 1
TestParameter, Measurement.WaitTime.Source.Coeff, 1
TestParameter, Measurement.WaitTime.Source.Offset, 0
TestParameter, Measurement.WaitTime.Monitor.Coeff, 1
TestParameter, Measurement.WaitTime.Monitor.Offset, 0
TestParameter, Function.User.Name, Ohmic
TestParameter, Function.User.Unit, ohm
TestParameter, Function.User.Definition, avg(V1/I1)
TestParameter, Output.Graph.Enabled, true
TestParameter, Output.Graph.XAxis.Data, V1
TestParameter, Output.Graph.XAxis.Scale, Linear
TestParameter, Output.Graph.XAxis.Left, -5
TestParameter, Output.Graph.XAxis.Right, 5
TestParameter, Output.Graph.YAxis.Data, I1
TestParameter, Output.Graph.YAxis.Scale, Linear
TestParameter, Output.Graph.YAxis.Bottom, -0.001
TestParameter, Output.Graph.YAxis.Top, 0.001
TestParameter, Output.Graph.YAxis.Group, 
TestParameter, Output.Scalar.Data, Ohmic
TestParameter, AutoAnalysis.Interpolation, false
TestParameter, AutoAnalysis.Line1.Enabled, false
TestParameter, AutoAnalysis.Line1.Type, 1
TestParameter, AutoAnalysis.Line1.Fix, True
TestParameter, AutoAnalysis.Line1.YAxis, 0
TestParameter, AutoAnalysis.Line1.Point1.Type, 0
TestParameter, AutoAnalysis.Line1.Point1.XY.X, 
TestParameter, AutoAnalysis.Line1.Point1.XY.Y, 
TestParameter, AutoAnalysis.Line1.Point1.Data.Var, 
TestParameter, AutoAnalysis.Line1.Point1.Data.Condition, 
TestParameter, AutoAnalysis.Line1.Point1.Data.Start, false
TestParameter, AutoAnalysis.Line1.Point1.Data.StartVar, 
TestParameter, AutoAnalysis.Line1.Point1.Data.StartCondition, 
TestParameter, AutoAnalysis.Line1.Point2.Type, 0
TestParameter, AutoAnalysis.Line1.Point2.XY.X, 
TestParameter, AutoAnalysis.Line1.Point2.XY.Y, 
TestParameter, AutoAnalysis.Line1.Point2.Data.Var, 
TestParameter, AutoAnalysis.Line1.Point2.Data.Condition, 
TestParameter, AutoAnalysis.Line1.Point2.Data.Start, false
TestParameter, AutoAnalysis.Line1.Point2.Data.StartVar, 
TestParameter, AutoAnalysis.Line1.Point2.Data.StartCondition, 
TestParameter, AutoAnalysis.Line1.GradientExpr, 0
TestParameter, AutoAnalysis.Line2.Enabled, false
TestParameter, AutoAnalysis.Line2.Type, 1
TestParameter, AutoAnalysis.Line2.Fix, True
TestParameter, AutoAnalysis.Line2.YAxis, 0
TestParameter, AutoAnalysis.Line2.Point1.Type, 0
TestParameter, AutoAnalysis.Line2.Point1.XY.X, 
TestParameter, AutoAnalysis.Line2.Point1.XY.Y, 
TestParameter, AutoAnalysis.Line2.Point1.Data.Var, 
TestParameter, AutoAnalysis.Line2.Point1.Data.Condition, 
TestParameter, AutoAnalysis.Line2.Point1.Data.Start, false
TestParameter, AutoAnalysis.Line2.Point1.Data.StartVar, 
TestParameter, AutoAnalysis.Line2.Point1.Data.StartCondition, 
TestParameter, AutoAnalysis.Line2.Point2.Type, 0
TestParameter, AutoAnalysis.Line2.Point2.XY.X, 
TestParameter, AutoAnalysis.Line2.Point2.XY.Y, 
TestParameter, AutoAnalysis.Line2.Point2.Data.Var, 
TestParameter, AutoAnalysis.Line2.Point2.Data.Condition, 
TestParameter, AutoAnalysis.Line2.Point2.Data.Start, false
TestParameter, AutoAnalysis.Line2.Point2.Data.StartVar, 
TestParameter, AutoAnalysis.Line2.Point2.Data.StartCondition, 
TestParameter, AutoAnalysis.Line2.GradientExpr, 0
TestParameter, AutoAnalysis.Marker.Enabled, false
TestParameter, AutoAnalysis.Marker.Data.Var, 
TestParameter, AutoAnalysis.Marker.Data.Condition, 
TestParameter, AutoAnalysis.Marker.Data.Start, false
TestParameter, AutoAnalysis.Marker.Data.StartVar, 
TestParameter, AutoAnalysis.Marker.Data.StartCondition, 
MetaData, TestRecord.EntryPoint, true
MetaData, TestRecord.RecordTime, 11/24/2020 20:12:11
MetaData, TestRecord.TestTarget, 
MetaData, TestRecord.IterationIndex, 48
MetaData, TestRecord.Preservation, true
MetaData, TestRecord.Flag, 
MetaData, TestRecord.Remarks, 
MetaData, TestRecord.LinkKey, ea5419a6-4adc-4380-89b5-5a3607504148
Dimension1, 101, 101, 101
Dimension2, 1, 1, 1
DataName, V1, I1, Ohmic
DataValue, -5, -6.57209E-07, 7152063.76137635
DataValue, -4.9, -6.4538E-07, 
DataValue, -4.8, -6.31994E-07, 
DataValue, -4.7, -6.18007E-07, 
DataValue, -4.6000000000000005, -6.07583E-07, 
DataValue, -4.5, -5.9356E-07, 
DataValue, -4.4, -5.81515E-07, 
DataValue, -4.3, -5.69085E-07, 
DataValue, -4.2, -5.55753E-07, 
DataValue, -4.1, -5.44779E-07, 
DataValue, -4, -5.3052E-07, 
DataValue, -3.9, -5.19738E-07, 
DataValue, -3.8000000000000003, -5.0559E-07, 
DataValue, -3.7, -4.96307E-07, 
DataValue, -3.6, -4.83494E-07, 
DataValue, -3.5, -4.73923E-07, 
DataValue, -3.4, -4.6067E-07, 
DataValue, -3.3000000000000003, -4.4891799999999997E-07, 
DataValue, -3.2, -4.37332E-07, 
DataValue, -3.1, -4.29721E-07, 
DataValue, -3, -4.17465E-07, 
DataValue, -2.9, -4.06511E-07, 
DataValue, -2.8000000000000003, -3.93768E-07, 
DataValue, -2.7, -3.83594E-07, 
DataValue, -2.6, -3.7083499999999997E-07, 
DataValue, -2.5, -3.6249799999999997E-07, 
DataValue, -2.4, -3.52282E-07, 
DataValue, -2.3000000000000003, -3.36452E-07, 
DataValue, -2.2, -3.28141E-07, 
DataValue, -2.1, -3.15159E-07, 
DataValue, -2, -3.0459E-07, 
DataValue, -1.9000000000000001, -2.91424E-07, 
DataValue, -1.8, -2.79167E-07, 
DataValue, -1.7, -2.66155E-07, 
DataValue, -1.6, -2.5284E-07, 
DataValue, -1.5, -2.40022E-07, 
DataValue, -1.4000000000000001, -2.26019E-07, 
DataValue, -1.3, -2.09607E-07, 
DataValue, -1.2, -1.9609699999999999E-07, 
DataValue, -1.1, -1.81363E-07, 
DataValue, -1, -1.67551E-07, 
DataValue, -0.9, -1.50967E-07, 
DataValue, -0.8, -1.35036E-07, 
DataValue, -0.70000000000000007, -1.18354E-07, 
DataValue, -0.6, -1.03158E-07, 
DataValue, -0.5, -8.7148E-08, 
DataValue, -0.4, -7.1377E-08, 
DataValue, -0.3, -5.5404E-08, 
DataValue, -0.2, -3.9863E-08, 
DataValue, -0.1, -2.23595E-08, 
DataValue, 0, 5.2529999999999993E-10, 
DataValue, 0.1, 1.9139699999999998E-08, 
DataValue, 0.2, 3.22977E-08, 
DataValue, 0.3, 4.3561599999999995E-08, 
DataValue, 0.4, 5.40577E-08, 
DataValue, 0.5, 6.42255E-08, 
DataValue, 0.6, 7.4416E-08, 
DataValue, 0.70000000000000007, 8.4822999999999991E-08, 
DataValue, 0.8, 9.515149999999999E-08, 
DataValue, 0.9, 1.0580999999999999E-07, 
DataValue, 1, 1.1682699999999999E-07, 
DataValue, 1.1, 1.27423E-07, 
DataValue, 1.2, 1.3908E-07, 
DataValue, 1.3, 1.51107E-07, 
DataValue, 1.4000000000000001, 1.61864E-07, 
DataValue, 1.5, 1.75188E-07, 
DataValue, 1.6, 1.8698E-07, 
DataValue, 1.7, 2.00207E-07, 
DataValue, 1.8, 2.12137E-07, 
DataValue, 1.9000000000000001, 2.2532099999999998E-07, 
DataValue, 2, 2.39002E-07, 
DataValue, 2.1, 2.52172E-07, 
DataValue, 2.2, 2.66001E-07, 
DataValue, 2.3000000000000003, 2.7919E-07, 
DataValue, 2.4, 2.9321399999999997E-07, 
DataValue, 2.5, 3.07524E-07, 
DataValue, 2.6, 3.2433099999999997E-07, 
DataValue, 2.7, 3.39567E-07, 
DataValue, 2.8000000000000003, 3.55132E-07, 
DataValue, 2.9, 3.71816E-07, 
DataValue, 3, 3.87592E-07, 
DataValue, 3.1, 4.0325999999999997E-07, 
DataValue, 3.2, 4.19146E-07, 
DataValue, 3.3000000000000003, 4.37216E-07, 
DataValue, 3.4, 4.5531199999999997E-07, 
DataValue, 3.5, 4.7076599999999997E-07, 
DataValue, 3.6, 4.89245E-07, 
DataValue, 3.7, 5.06106E-07, 
DataValue, 3.8000000000000003, 5.24282E-07, 
DataValue, 3.9, 5.42228E-07, 
DataValue, 4, 5.58798E-07, 
DataValue, 4.1, 5.77263E-07, 
DataValue, 4.2, 5.95514E-07, 
DataValue, 4.3, 6.15849E-07, 
DataValue, 4.4, 6.3184E-07, 
DataValue, 4.5, 6.5090599999999994E-07, 
DataValue, 4.6000000000000005, 6.6907199999999994E-07, 
DataValue, 4.7, 6.89268E-07, 
DataValue, 4.8, 7.07709E-07, 
DataValue, 4.9, 7.28258E-07, 
DataValue, 5, 7.46317E-07, 