
SetupTitle, WW
PrimitiveTest, I/V Sweep
TestParameter, Context.MainFrame, B1500A
TestParameter, Channel.UnitType, SMU, SMU
TestParameter, Channel.Unit, SMU2:HP, SMU1:HP
TestParameter, Channel.IName, I1, I4
TestParameter, Channel.VName, V1, V4
TestParameter, Channel.Mode, V, COMMON
TestParameter, Channel.Func, VAR1, CONST
TestParameter, Channel.Index, 
TestParameter, Channel.Time, 
TestParameter, Measurement.Port.Unit, SMU2:HP, SMU1:HP
TestParameter, Measurement.Port.SeriesResistor, NONE, NONE
TestParameter, Measurement.Port.Filter, ON, ON
TestParameter, Measurement.Port.OutputVoltageComparison, 0, 0
TestParameter, Measurement.Primary.Locus, Single
TestParameter, Measurement.Primary.Scale, LINEAR
TestParameter, Measurement.Primary.Start, -5
TestParameter, Measurement.Primary.Stop, 5
TestParameter, Measurement.Primary.Step, 0.1
TestParameter, Measurement.Primary.Compliance, 0.1
TestParameter, Measurement.Primary.PowerCompliance, 0
TestParameter, Measurement.Aborting.Condition, CONTINUE AT ANY
TestParameter, Measurement.PostOutput.Value, START
TestParameter, Measurement.PostOutput.Retention, OFF
TestParameter, Measurement.Bias.Source, -5, 0
TestParameter, Measurement.Bias.Compliance, 0.1, 1
TestParameter, Measurement.Monitor.Unit, SMU2:HP, SMU1:HP
TestParameter, Measurement.Monitor.Adc, HR ADC, HR ADC
TestParameter, Measurement.Monitor.Measurement, Compliance Side, Compliance Side
TestParameter, Measurement.Monitor.RangingMode, AUTO, AUTO
TestParameter, Measurement.Monitor.RangeBoundary, , 
TestParameter, Measurement.Monitor.RangeRating, BY FULL RANGE, BY FULL RANGE
TestParameter, Measurement.Monitor.RangeRatingCoeff, 50, 50
TestParameter, Measurement.Timing.Hold, 0
TestParameter, Measurement.Timing.Delay, 0.001
TestParameter, Measurement.Adc.HighSpeed.Mode, AUTO
TestParameter, Measurement.Adc.HighSpeed.Coeff, 1
TestParameter, Measurement.Adc.HighResolution.AutoZero, OFF
TestParameter, Measurement.Adc.HighResolution.Mode, PLC
TestParameter, Measurement.Adc.HighResolution.Coeff, 1
TestParameter, Measurement.WaitTime.Source.Coeff, 1
TestParameter, Measurement.WaitTime.Source.Offset, 0
TestParameter, Measurement.WaitTime.Monitor.Coeff, 1
TestParameter, Measurement.WaitTime.Monitor.Offset, 0
TestParameter, Function.User.Name, Ohmic
TestParameter, Function.User.Unit, ohm
TestParameter, Function.User.Definition, avg(V1/I1)
TestParameter, Output.Graph.Enabled, true
TestParameter, Output.Graph.XAxis.Data, V1
TestParameter, Output.Graph.XAxis.Scale, Linear
TestParameter, Output.Graph.XAxis.Left, -5
TestParameter, Output.Graph.XAxis.Right, 5
TestParameter, Output.Graph.YAxis.Data, I1
TestParameter, Output.Graph.YAxis.Scale, Linear
TestParameter, Output.Graph.YAxis.Bottom, -0.001
TestParameter, Output.Graph.YAxis.Top, 0.001
TestParameter, Output.Graph.YAxis.Group, 
TestParameter, Output.Scalar.Data, Ohmic
TestParameter, AutoAnalysis.Interpolation, false
TestParameter, AutoAnalysis.Line1.Enabled, false
TestParameter, AutoAnalysis.Line1.Type, 1
TestParameter, AutoAnalysis.Line1.Fix, True
TestParameter, AutoAnalysis.Line1.YAxis, 0
TestParameter, AutoAnalysis.Line1.Point1.Type, 0
TestParameter, AutoAnalysis.Line1.Point1.XY.X, 
TestParameter, AutoAnalysis.Line1.Point1.XY.Y, 
TestParameter, AutoAnalysis.Line1.Point1.Data.Var, 
TestParameter, AutoAnalysis.Line1.Point1.Data.Condition, 
TestParameter, AutoAnalysis.Line1.Point1.Data.Start, false
TestParameter, AutoAnalysis.Line1.Point1.Data.StartVar, 
TestParameter, AutoAnalysis.Line1.Point1.Data.StartCondition, 
TestParameter, AutoAnalysis.Line1.Point2.Type, 0
TestParameter, AutoAnalysis.Line1.Point2.XY.X, 
TestParameter, AutoAnalysis.Line1.Point2.XY.Y, 
TestParameter, AutoAnalysis.Line1.Point2.Data.Var, 
TestParameter, AutoAnalysis.Line1.Point2.Data.Condition, 
TestParameter, AutoAnalysis.Line1.Point2.Data.Start, false
TestParameter, AutoAnalysis.Line1.Point2.Data.StartVar, 
TestParameter, AutoAnalysis.Line1.Point2.Data.StartCondition, 
TestParameter, AutoAnalysis.Line1.GradientExpr, 0
TestParameter, AutoAnalysis.Line2.Enabled, false
TestParameter, AutoAnalysis.Line2.Type, 1
TestParameter, AutoAnalysis.Line2.Fix, True
TestParameter, AutoAnalysis.Line2.YAxis, 0
TestParameter, AutoAnalysis.Line2.Point1.Type, 0
TestParameter, AutoAnalysis.Line2.Point1.XY.X, 
TestParameter, AutoAnalysis.Line2.Point1.XY.Y, 
TestParameter, AutoAnalysis.Line2.Point1.Data.Var, 
TestParameter, AutoAnalysis.Line2.Point1.Data.Condition, 
TestParameter, AutoAnalysis.Line2.Point1.Data.Start, false
TestParameter, AutoAnalysis.Line2.Point1.Data.StartVar, 
TestParameter, AutoAnalysis.Line2.Point1.Data.StartCondition, 
TestParameter, AutoAnalysis.Line2.Point2.Type, 0
TestParameter, AutoAnalysis.Line2.Point2.XY.X, 
TestParameter, AutoAnalysis.Line2.Point2.XY.Y, 
TestParameter, AutoAnalysis.Line2.Point2.Data.Var, 
TestParameter, AutoAnalysis.Line2.Point2.Data.Condition, 
TestParameter, AutoAnalysis.Line2.Point2.Data.Start, false
TestParameter, AutoAnalysis.Line2.Point2.Data.StartVar, 
TestParameter, AutoAnalysis.Line2.Point2.Data.StartCondition, 
TestParameter, AutoAnalysis.Line2.GradientExpr, 0
TestParameter, AutoAnalysis.Marker.Enabled, false
TestParameter, AutoAnalysis.Marker.Data.Var, 
TestParameter, AutoAnalysis.Marker.Data.Condition, 
TestParameter, AutoAnalysis.Marker.Data.Start, false
TestParameter, AutoAnalysis.Marker.Data.StartVar, 
TestParameter, AutoAnalysis.Marker.Data.StartCondition, 
MetaData, TestRecord.EntryPoint, true
MetaData, TestRecord.RecordTime, 11/24/2020 20:11:11
MetaData, TestRecord.TestTarget, 
MetaData, TestRecord.IterationIndex, 46
MetaData, TestRecord.Preservation, true
MetaData, TestRecord.Flag, 
MetaData, TestRecord.Remarks, 
MetaData, TestRecord.LinkKey, 3c06b5af-7a80-4497-8828-495343448f33
Dimension1, 101, 101, 101
Dimension2, 1, 1, 1
DataName, V1, I1, Ohmic
DataValue, -5, -6.7963E-07, 7038258.9791492894
DataValue, -4.9, -6.67605E-07, 
DataValue, -4.8, -6.54118E-07, 
DataValue, -4.7, -6.38248E-07, 
DataValue, -4.6000000000000005, -6.26985E-07, 
DataValue, -4.5, -6.1839099999999994E-07, 
DataValue, -4.4, -6.02861E-07, 
DataValue, -4.3, -5.8733E-07, 
DataValue, -4.2, -5.73863E-07, 
DataValue, -4.1, -5.6070999999999994E-07, 
DataValue, -4, -5.50047E-07, 
DataValue, -3.9, -5.38611E-07, 
DataValue, -3.8000000000000003, -5.24061E-07, 
DataValue, -3.7, -5.11853E-07, 
DataValue, -3.6, -4.97073E-07, 
DataValue, -3.5, -4.86021E-07, 
DataValue, -3.4, -4.7293899999999997E-07, 
DataValue, -3.3000000000000003, -4.63258E-07, 
DataValue, -3.2, -4.5129999999999997E-07, 
DataValue, -3.1, -4.39101E-07, 
DataValue, -3, -4.28928E-07, 
DataValue, -2.9, -4.15985E-07, 
DataValue, -2.8000000000000003, -4.0360699999999997E-07, 
DataValue, -2.7, -3.92696E-07, 
DataValue, -2.6, -3.8054699999999997E-07, 
DataValue, -2.5, -3.7141399999999997E-07, 
DataValue, -2.4, -3.56118E-07, 
DataValue, -2.3000000000000003, -3.46187E-07, 
DataValue, -2.2, -3.34287E-07, 
DataValue, -2.1, -3.23475E-07, 
DataValue, -2, -3.10216E-07, 
DataValue, -1.9000000000000001, -2.99481E-07, 
DataValue, -1.8, -2.82644E-07, 
DataValue, -1.7, -2.70792E-07, 
DataValue, -1.6, -2.56331E-07, 
DataValue, -1.5, -2.44064E-07, 
DataValue, -1.4000000000000001, -2.3094899999999999E-07, 
DataValue, -1.3, -2.15464E-07, 
DataValue, -1.2, -2.00729E-07, 
DataValue, -1.1, -1.85456E-07, 
DataValue, -1, -1.70049E-07, 
DataValue, -0.9, -1.53983E-07, 
DataValue, -0.8, -1.3834E-07, 
DataValue, -0.70000000000000007, -1.22445E-07, 
DataValue, -0.6, -1.05113E-07, 
DataValue, -0.5, -8.9618E-08, 
DataValue, -0.4, -7.2935E-08, 
DataValue, -0.3, -5.6801E-08, 
DataValue, -0.2, -4.052E-08, 
DataValue, -0.1, -2.25512E-08, 
DataValue, 0, 5.2689999999999991E-10, 
DataValue, 0.1, 1.9124E-08, 
DataValue, 0.2, 3.2226E-08, 
DataValue, 0.3, 4.3273399999999995E-08, 
DataValue, 0.4, 5.3734599999999996E-08, 
DataValue, 0.5, 6.35901E-08, 
DataValue, 0.6, 7.3290699999999988E-08, 
DataValue, 0.70000000000000007, 8.32855E-08, 
DataValue, 0.8, 9.4110599999999993E-08, 
DataValue, 0.9, 1.0447289999999999E-07, 
DataValue, 1, 1.1531099999999999E-07, 
DataValue, 1.1, 1.26818E-07, 
DataValue, 1.2, 1.38668E-07, 
DataValue, 1.3, 1.4964399999999999E-07, 
DataValue, 1.4000000000000001, 1.6175799999999999E-07, 
DataValue, 1.5, 1.73784E-07, 
DataValue, 1.6, 1.8547599999999999E-07, 
DataValue, 1.7, 1.98564E-07, 
DataValue, 1.8, 2.1112E-07, 
DataValue, 1.9000000000000001, 2.24894E-07, 
DataValue, 2, 2.39128E-07, 
DataValue, 2.1, 2.53008E-07, 
DataValue, 2.2, 2.67161E-07, 
DataValue, 2.3000000000000003, 2.8152299999999997E-07, 
DataValue, 2.4, 2.97029E-07, 
DataValue, 2.5, 3.1289299999999997E-07, 
DataValue, 2.6, 3.27493E-07, 
DataValue, 2.7, 3.43728E-07, 
DataValue, 2.8000000000000003, 3.58878E-07, 
DataValue, 2.9, 3.76436E-07, 
DataValue, 3, 3.92412E-07, 
DataValue, 3.1, 4.0953499999999997E-07, 
DataValue, 3.2, 4.26006E-07, 
DataValue, 3.3000000000000003, 4.42246E-07, 
DataValue, 3.4, 4.61208E-07, 
DataValue, 3.5, 4.77508E-07, 
DataValue, 3.6, 4.95936E-07, 
DataValue, 3.7, 5.1325E-07, 
DataValue, 3.8000000000000003, 5.33629E-07, 
DataValue, 3.9, 5.5251E-07, 
DataValue, 4, 5.72608E-07, 
DataValue, 4.1, 5.91751E-07, 
DataValue, 4.2, 6.11814E-07, 
DataValue, 4.3, 6.32664E-07, 
DataValue, 4.4, 6.5224099999999994E-07, 
DataValue, 4.5, 6.70724E-07, 
DataValue, 4.6000000000000005, 6.90511E-07, 
DataValue, 4.7, 7.09514E-07, 
DataValue, 4.8, 7.28822E-07, 
DataValue, 4.9, 7.4912999999999993E-07, 
DataValue, 5, 7.7072499999999993E-07, 