
SetupTitle, WW
PrimitiveTest, I/V Sweep
TestParameter, Context.MainFrame, B1500A
TestParameter, Channel.UnitType, SMU, SMU
TestParameter, Channel.Unit, SMU2:HP, SMU1:HP
TestParameter, Channel.IName, I1, I4
TestParameter, Channel.VName, V1, V4
TestParameter, Channel.Mode, V, COMMON
TestParameter, Channel.Func, VAR1, CONST
TestParameter, Channel.Index, 
TestParameter, Channel.Time, 
TestParameter, Measurement.Port.Unit, SMU2:HP, SMU1:HP
TestParameter, Measurement.Port.SeriesResistor, NONE, NONE
TestParameter, Measurement.Port.Filter, ON, ON
TestParameter, Measurement.Port.OutputVoltageComparison, 0, 0
TestParameter, Measurement.Primary.Locus, Single
TestParameter, Measurement.Primary.Scale, LINEAR
TestParameter, Measurement.Primary.Start, -5
TestParameter, Measurement.Primary.Stop, 5
TestParameter, Measurement.Primary.Step, 0.1
TestParameter, Measurement.Primary.Compliance, 0.1
TestParameter, Measurement.Primary.PowerCompliance, 0
TestParameter, Measurement.Aborting.Condition, CONTINUE AT ANY
TestParameter, Measurement.PostOutput.Value, START
TestParameter, Measurement.PostOutput.Retention, OFF
TestParameter, Measurement.Bias.Source, -5, 0
TestParameter, Measurement.Bias.Compliance, 0.1, 1
TestParameter, Measurement.Monitor.Unit, SMU2:HP, SMU1:HP
TestParameter, Measurement.Monitor.Adc, HR ADC, HR ADC
TestParameter, Measurement.Monitor.Measurement, Compliance Side, Compliance Side
TestParameter, Measurement.Monitor.RangingMode, AUTO, AUTO
TestParameter, Measurement.Monitor.RangeBoundary, , 
TestParameter, Measurement.Monitor.RangeRating, BY FULL RANGE, BY FULL RANGE
TestParameter, Measurement.Monitor.RangeRatingCoeff, 50, 50
TestParameter, Measurement.Timing.Hold, 0
TestParameter, Measurement.Timing.Delay, 0.001
TestParameter, Measurement.Adc.HighSpeed.Mode, AUTO
TestParameter, Measurement.Adc.HighSpeed.Coeff, 1
TestParameter, Measurement.Adc.HighResolution.AutoZero, OFF
TestParameter, Measurement.Adc.HighResolution.Mode, PLC
TestParameter, Measurement.Adc.HighResolution.Coeff, 1
TestParameter, Measurement.WaitTime.Source.Coeff, 1
TestParameter, Measurement.WaitTime.Source.Offset, 0
TestParameter, Measurement.WaitTime.Monitor.Coeff, 1
TestParameter, Measurement.WaitTime.Monitor.Offset, 0
TestParameter, Function.User.Name, Ohmic
TestParameter, Function.User.Unit, ohm
TestParameter, Function.User.Definition, avg(V1/I1)
TestParameter, Output.Graph.Enabled, true
TestParameter, Output.Graph.XAxis.Data, V1
TestParameter, Output.Graph.XAxis.Scale, Linear
TestParameter, Output.Graph.XAxis.Left, -5
TestParameter, Output.Graph.XAxis.Right, 5
TestParameter, Output.Graph.YAxis.Data, I1
TestParameter, Output.Graph.YAxis.Scale, Linear
TestParameter, Output.Graph.YAxis.Bottom, -0.001
TestParameter, Output.Graph.YAxis.Top, 0.001
TestParameter, Output.Graph.YAxis.Group, 
TestParameter, Output.Scalar.Data, Ohmic
TestParameter, AutoAnalysis.Interpolation, false
TestParameter, AutoAnalysis.Line1.Enabled, false
TestParameter, AutoAnalysis.Line1.Type, 1
TestParameter, AutoAnalysis.Line1.Fix, True
TestParameter, AutoAnalysis.Line1.YAxis, 0
TestParameter, AutoAnalysis.Line1.Point1.Type, 0
TestParameter, AutoAnalysis.Line1.Point1.XY.X, 
TestParameter, AutoAnalysis.Line1.Point1.XY.Y, 
TestParameter, AutoAnalysis.Line1.Point1.Data.Var, 
TestParameter, AutoAnalysis.Line1.Point1.Data.Condition, 
TestParameter, AutoAnalysis.Line1.Point1.Data.Start, false
TestParameter, AutoAnalysis.Line1.Point1.Data.StartVar, 
TestParameter, AutoAnalysis.Line1.Point1.Data.StartCondition, 
TestParameter, AutoAnalysis.Line1.Point2.Type, 0
TestParameter, AutoAnalysis.Line1.Point2.XY.X, 
TestParameter, AutoAnalysis.Line1.Point2.XY.Y, 
TestParameter, AutoAnalysis.Line1.Point2.Data.Var, 
TestParameter, AutoAnalysis.Line1.Point2.Data.Condition, 
TestParameter, AutoAnalysis.Line1.Point2.Data.Start, false
TestParameter, AutoAnalysis.Line1.Point2.Data.StartVar, 
TestParameter, AutoAnalysis.Line1.Point2.Data.StartCondition, 
TestParameter, AutoAnalysis.Line1.GradientExpr, 0
TestParameter, AutoAnalysis.Line2.Enabled, false
TestParameter, AutoAnalysis.Line2.Type, 1
TestParameter, AutoAnalysis.Line2.Fix, True
TestParameter, AutoAnalysis.Line2.YAxis, 0
TestParameter, AutoAnalysis.Line2.Point1.Type, 0
TestParameter, AutoAnalysis.Line2.Point1.XY.X, 
TestParameter, AutoAnalysis.Line2.Point1.XY.Y, 
TestParameter, AutoAnalysis.Line2.Point1.Data.Var, 
TestParameter, AutoAnalysis.Line2.Point1.Data.Condition, 
TestParameter, AutoAnalysis.Line2.Point1.Data.Start, false
TestParameter, AutoAnalysis.Line2.Point1.Data.StartVar, 
TestParameter, AutoAnalysis.Line2.Point1.Data.StartCondition, 
TestParameter, AutoAnalysis.Line2.Point2.Type, 0
TestParameter, AutoAnalysis.Line2.Point2.XY.X, 
TestParameter, AutoAnalysis.Line2.Point2.XY.Y, 
TestParameter, AutoAnalysis.Line2.Point2.Data.Var, 
TestParameter, AutoAnalysis.Line2.Point2.Data.Condition, 
TestParameter, AutoAnalysis.Line2.Point2.Data.Start, false
TestParameter, AutoAnalysis.Line2.Point2.Data.StartVar, 
TestParameter, AutoAnalysis.Line2.Point2.Data.StartCondition, 
TestParameter, AutoAnalysis.Line2.GradientExpr, 0
TestParameter, AutoAnalysis.Marker.Enabled, false
TestParameter, AutoAnalysis.Marker.Data.Var, 
TestParameter, AutoAnalysis.Marker.Data.Condition, 
TestParameter, AutoAnalysis.Marker.Data.Start, false
TestParameter, AutoAnalysis.Marker.Data.StartVar, 
TestParameter, AutoAnalysis.Marker.Data.StartCondition, 
MetaData, TestRecord.EntryPoint, true
MetaData, TestRecord.RecordTime, 11/24/2020 20:10:06
MetaData, TestRecord.TestTarget, 
MetaData, TestRecord.IterationIndex, 44
MetaData, TestRecord.Preservation, true
MetaData, TestRecord.Flag, 
MetaData, TestRecord.Remarks, 
MetaData, TestRecord.LinkKey, 24cf61e6-547f-4c33-90a9-836cb67d84c4
Dimension1, 101, 101, 101
Dimension2, 1, 1, 1
DataName, V1, I1, Ohmic
DataValue, -5, -6.80975E-07, 7052274.0072223209
DataValue, -4.9, -6.6482199999999994E-07, 
DataValue, -4.8, -6.50729E-07, 
DataValue, -4.7, -6.42937E-07, 
DataValue, -4.6000000000000005, -6.25666E-07, 
DataValue, -4.5, -6.1364999999999994E-07, 
DataValue, -4.4, -5.96275E-07, 
DataValue, -4.3, -5.83926E-07, 
DataValue, -4.2, -5.69382E-07, 
DataValue, -4.1, -5.58473E-07, 
DataValue, -4, -5.4346E-07, 
DataValue, -3.9, -5.32747E-07, 
DataValue, -3.8000000000000003, -5.16121E-07, 
DataValue, -3.7, -5.0798E-07, 
DataValue, -3.6, -4.94616E-07, 
DataValue, -3.5, -4.85053E-07, 
DataValue, -3.4, -4.71284E-07, 
DataValue, -3.3000000000000003, -4.58771E-07, 
DataValue, -3.2, -4.46033E-07, 
DataValue, -3.1, -4.3803599999999997E-07, 
DataValue, -3, -4.23466E-07, 
DataValue, -2.9, -4.15917E-07, 
DataValue, -2.8000000000000003, -4.00317E-07, 
DataValue, -2.7, -3.90352E-07, 
DataValue, -2.6, -3.76867E-07, 
DataValue, -2.5, -3.68596E-07, 
DataValue, -2.4, -3.53565E-07, 
DataValue, -2.3000000000000003, -3.4435E-07, 
DataValue, -2.2, -3.29944E-07, 
DataValue, -2.1, -3.16394E-07, 
DataValue, -2, -3.04375E-07, 
DataValue, -1.9000000000000001, -2.93706E-07, 
DataValue, -1.8, -2.7921199999999997E-07, 
DataValue, -1.7, -2.6504099999999997E-07, 
DataValue, -1.6, -2.51815E-07, 
DataValue, -1.5, -2.3927E-07, 
DataValue, -1.4000000000000001, -2.23959E-07, 
DataValue, -1.3, -2.10968E-07, 
DataValue, -1.2, -1.95847E-07, 
DataValue, -1.1, -1.7896299999999999E-07, 
DataValue, -1, -1.65626E-07, 
DataValue, -0.9, -1.50284E-07, 
DataValue, -0.8, -1.33643E-07, 
DataValue, -0.70000000000000007, -1.18455E-07, 
DataValue, -0.6, -1.03492E-07, 
DataValue, -0.5, -8.7436E-08, 
DataValue, -0.4, -7.0431E-08, 
DataValue, -0.3, -5.4891E-08, 
DataValue, -0.2, -3.9487E-08, 
DataValue, -0.1, -2.2122099999999997E-08, 
DataValue, 0, 6.4319999999999991E-10, 
DataValue, 0.1, 1.96446E-08, 
DataValue, 0.2, 3.2942799999999995E-08, 
DataValue, 0.3, 4.42379E-08, 
DataValue, 0.4, 5.4686199999999995E-08, 
DataValue, 0.5, 6.4615099999999992E-08, 
DataValue, 0.6, 7.47276E-08, 
DataValue, 0.70000000000000007, 8.51077E-08, 
DataValue, 0.8, 9.5682899999999992E-08, 
DataValue, 0.9, 1.0629E-07, 
DataValue, 1, 1.1742299999999999E-07, 
DataValue, 1.1, 1.28514E-07, 
DataValue, 1.2, 1.40366E-07, 
DataValue, 1.3, 1.51009E-07, 
DataValue, 1.4000000000000001, 1.63374E-07, 
DataValue, 1.5, 1.7541499999999999E-07, 
DataValue, 1.6, 1.87181E-07, 
DataValue, 1.7, 1.99789E-07, 
DataValue, 1.8, 2.13227E-07, 
DataValue, 1.9000000000000001, 2.26929E-07, 
DataValue, 2, 2.41078E-07, 
DataValue, 2.1, 2.54199E-07, 
DataValue, 2.2, 2.6812E-07, 
DataValue, 2.3000000000000003, 2.82678E-07, 
DataValue, 2.4, 2.97319E-07, 
DataValue, 2.5, 3.11482E-07, 
DataValue, 2.6, 3.26622E-07, 
DataValue, 2.7, 3.4335E-07, 
DataValue, 2.8000000000000003, 3.5899E-07, 
DataValue, 2.9, 3.7318E-07, 
DataValue, 3, 3.90885E-07, 
DataValue, 3.1, 4.08455E-07, 
DataValue, 3.2, 4.26957E-07, 
DataValue, 3.3000000000000003, 4.43934E-07, 
DataValue, 3.4, 4.62088E-07, 
DataValue, 3.5, 4.81123E-07, 
DataValue, 3.6, 4.98001E-07, 
DataValue, 3.7, 5.1943399999999994E-07, 
DataValue, 3.8000000000000003, 5.37563E-07, 
DataValue, 3.9, 5.57205E-07, 
DataValue, 4, 5.76826E-07, 
DataValue, 4.1, 5.94681E-07, 
DataValue, 4.2, 6.15291E-07, 
DataValue, 4.3, 6.34959E-07, 
DataValue, 4.4, 6.55062E-07, 
DataValue, 4.5, 6.75073E-07, 
DataValue, 4.6000000000000005, 6.93566E-07, 
DataValue, 4.7, 7.13386E-07, 
DataValue, 4.8, 7.3438199999999994E-07, 
DataValue, 4.9, 7.5525199999999994E-07, 
DataValue, 5, 7.7425399999999994E-07, 