
SetupTitle, WW
PrimitiveTest, I/V Sweep
TestParameter, Context.MainFrame, B1500A
TestParameter, Channel.UnitType, SMU, SMU
TestParameter, Channel.Unit, SMU2:HP, SMU1:HP
TestParameter, Channel.IName, I1, I4
TestParameter, Channel.VName, V1, V4
TestParameter, Channel.Mode, V, COMMON
TestParameter, Channel.Func, VAR1, CONST
TestParameter, Channel.Index, 
TestParameter, Channel.Time, 
TestParameter, Measurement.Port.Unit, SMU2:HP, SMU1:HP
TestParameter, Measurement.Port.SeriesResistor, NONE, NONE
TestParameter, Measurement.Port.Filter, ON, ON
TestParameter, Measurement.Port.OutputVoltageComparison, 0, 0
TestParameter, Measurement.Primary.Locus, Single
TestParameter, Measurement.Primary.Scale, LINEAR
TestParameter, Measurement.Primary.Start, -5
TestParameter, Measurement.Primary.Stop, 5
TestParameter, Measurement.Primary.Step, 0.1
TestParameter, Measurement.Primary.Compliance, 0.1
TestParameter, Measurement.Primary.PowerCompliance, 0
TestParameter, Measurement.Aborting.Condition, CONTINUE AT ANY
TestParameter, Measurement.PostOutput.Value, START
TestParameter, Measurement.PostOutput.Retention, OFF
TestParameter, Measurement.Bias.Source, -5, 0
TestParameter, Measurement.Bias.Compliance, 0.1, 1
TestParameter, Measurement.Monitor.Unit, SMU2:HP, SMU1:HP
TestParameter, Measurement.Monitor.Adc, HR ADC, HR ADC
TestParameter, Measurement.Monitor.Measurement, Compliance Side, Compliance Side
TestParameter, Measurement.Monitor.RangingMode, AUTO, AUTO
TestParameter, Measurement.Monitor.RangeBoundary, , 
TestParameter, Measurement.Monitor.RangeRating, BY FULL RANGE, BY FULL RANGE
TestParameter, Measurement.Monitor.RangeRatingCoeff, 50, 50
TestParameter, Measurement.Timing.Hold, 0
TestParameter, Measurement.Timing.Delay, 0.001
TestParameter, Measurement.Adc.HighSpeed.Mode, AUTO
TestParameter, Measurement.Adc.HighSpeed.Coeff, 1
TestParameter, Measurement.Adc.HighResolution.AutoZero, OFF
TestParameter, Measurement.Adc.HighResolution.Mode, PLC
TestParameter, Measurement.Adc.HighResolution.Coeff, 1
TestParameter, Measurement.WaitTime.Source.Coeff, 1
TestParameter, Measurement.WaitTime.Source.Offset, 0
TestParameter, Measurement.WaitTime.Monitor.Coeff, 1
TestParameter, Measurement.WaitTime.Monitor.Offset, 0
TestParameter, Function.User.Name, Ohmic
TestParameter, Function.User.Unit, ohm
TestParameter, Function.User.Definition, avg(V1/I1)
TestParameter, Output.Graph.Enabled, true
TestParameter, Output.Graph.XAxis.Data, V1
TestParameter, Output.Graph.XAxis.Scale, Linear
TestParameter, Output.Graph.XAxis.Left, -5
TestParameter, Output.Graph.XAxis.Right, 5
TestParameter, Output.Graph.YAxis.Data, I1
TestParameter, Output.Graph.YAxis.Scale, Linear
TestParameter, Output.Graph.YAxis.Bottom, -0.001
TestParameter, Output.Graph.YAxis.Top, 0.001
TestParameter, Output.Graph.YAxis.Group, 
TestParameter, Output.Scalar.Data, Ohmic
TestParameter, AutoAnalysis.Interpolation, false
TestParameter, AutoAnalysis.Line1.Enabled, false
TestParameter, AutoAnalysis.Line1.Type, 1
TestParameter, AutoAnalysis.Line1.Fix, True
TestParameter, AutoAnalysis.Line1.YAxis, 0
TestParameter, AutoAnalysis.Line1.Point1.Type, 0
TestParameter, AutoAnalysis.Line1.Point1.XY.X, 
TestParameter, AutoAnalysis.Line1.Point1.XY.Y, 
TestParameter, AutoAnalysis.Line1.Point1.Data.Var, 
TestParameter, AutoAnalysis.Line1.Point1.Data.Condition, 
TestParameter, AutoAnalysis.Line1.Point1.Data.Start, false
TestParameter, AutoAnalysis.Line1.Point1.Data.StartVar, 
TestParameter, AutoAnalysis.Line1.Point1.Data.StartCondition, 
TestParameter, AutoAnalysis.Line1.Point2.Type, 0
TestParameter, AutoAnalysis.Line1.Point2.XY.X, 
TestParameter, AutoAnalysis.Line1.Point2.XY.Y, 
TestParameter, AutoAnalysis.Line1.Point2.Data.Var, 
TestParameter, AutoAnalysis.Line1.Point2.Data.Condition, 
TestParameter, AutoAnalysis.Line1.Point2.Data.Start, false
TestParameter, AutoAnalysis.Line1.Point2.Data.StartVar, 
TestParameter, AutoAnalysis.Line1.Point2.Data.StartCondition, 
TestParameter, AutoAnalysis.Line1.GradientExpr, 0
TestParameter, AutoAnalysis.Line2.Enabled, false
TestParameter, AutoAnalysis.Line2.Type, 1
TestParameter, AutoAnalysis.Line2.Fix, True
TestParameter, AutoAnalysis.Line2.YAxis, 0
TestParameter, AutoAnalysis.Line2.Point1.Type, 0
TestParameter, AutoAnalysis.Line2.Point1.XY.X, 
TestParameter, AutoAnalysis.Line2.Point1.XY.Y, 
TestParameter, AutoAnalysis.Line2.Point1.Data.Var, 
TestParameter, AutoAnalysis.Line2.Point1.Data.Condition, 
TestParameter, AutoAnalysis.Line2.Point1.Data.Start, false
TestParameter, AutoAnalysis.Line2.Point1.Data.StartVar, 
TestParameter, AutoAnalysis.Line2.Point1.Data.StartCondition, 
TestParameter, AutoAnalysis.Line2.Point2.Type, 0
TestParameter, AutoAnalysis.Line2.Point2.XY.X, 
TestParameter, AutoAnalysis.Line2.Point2.XY.Y, 
TestParameter, AutoAnalysis.Line2.Point2.Data.Var, 
TestParameter, AutoAnalysis.Line2.Point2.Data.Condition, 
TestParameter, AutoAnalysis.Line2.Point2.Data.Start, false
TestParameter, AutoAnalysis.Line2.Point2.Data.StartVar, 
TestParameter, AutoAnalysis.Line2.Point2.Data.StartCondition, 
TestParameter, AutoAnalysis.Line2.GradientExpr, 0
TestParameter, AutoAnalysis.Marker.Enabled, false
TestParameter, AutoAnalysis.Marker.Data.Var, 
TestParameter, AutoAnalysis.Marker.Data.Condition, 
TestParameter, AutoAnalysis.Marker.Data.Start, false
TestParameter, AutoAnalysis.Marker.Data.StartVar, 
TestParameter, AutoAnalysis.Marker.Data.StartCondition, 
MetaData, TestRecord.EntryPoint, true
MetaData, TestRecord.RecordTime, 11/24/2020 20:07:47
MetaData, TestRecord.TestTarget, 
MetaData, TestRecord.IterationIndex, 40
MetaData, TestRecord.Preservation, true
MetaData, TestRecord.Flag, 
MetaData, TestRecord.Remarks, 
MetaData, TestRecord.LinkKey, 9ed7a31a-a307-44c5-94f5-48e6f9b5106e
Dimension1, 101, 101, 101
Dimension2, 1, 1, 1
DataName, V1, I1, Ohmic
DataValue, -5, -6.78628E-07, 6980700.5690718861
DataValue, -4.9, -6.67884E-07, 
DataValue, -4.8, -6.51668E-07, 
DataValue, -4.7, -6.38119E-07, 
DataValue, -4.6000000000000005, -6.24261E-07, 
DataValue, -4.5, -6.0956099999999994E-07, 
DataValue, -4.4, -5.96166E-07, 
DataValue, -4.3, -5.8376E-07, 
DataValue, -4.2, -5.72642E-07, 
DataValue, -4.1, -5.6082499999999994E-07, 
DataValue, -4, -5.47242E-07, 
DataValue, -3.9, -5.3432E-07, 
DataValue, -3.8000000000000003, -5.21222E-07, 
DataValue, -3.7, -5.11051E-07, 
DataValue, -3.6, -4.99708E-07, 
DataValue, -3.5, -4.89264E-07, 
DataValue, -3.4, -4.74871E-07, 
DataValue, -3.3000000000000003, -4.6182699999999997E-07, 
DataValue, -3.2, -4.48756E-07, 
DataValue, -3.1, -4.3635999999999997E-07, 
DataValue, -3, -4.24341E-07, 
DataValue, -2.9, -4.13788E-07, 
DataValue, -2.8000000000000003, -4.0008199999999997E-07, 
DataValue, -2.7, -3.8866699999999997E-07, 
DataValue, -2.6, -3.78158E-07, 
DataValue, -2.5, -3.66361E-07, 
DataValue, -2.4, -3.5403E-07, 
DataValue, -2.3000000000000003, -3.40331E-07, 
DataValue, -2.2, -3.27781E-07, 
DataValue, -2.1, -3.16502E-07, 
DataValue, -2, -3.02255E-07, 
DataValue, -1.9000000000000001, -2.90786E-07, 
DataValue, -1.8, -2.77198E-07, 
DataValue, -1.7, -2.6263799999999997E-07, 
DataValue, -1.6, -2.50535E-07, 
DataValue, -1.5, -2.35956E-07, 
DataValue, -1.4000000000000001, -2.24292E-07, 
DataValue, -1.3, -2.07751E-07, 
DataValue, -1.2, -1.94688E-07, 
DataValue, -1.1, -1.78656E-07, 
DataValue, -1, -1.65098E-07, 
DataValue, -0.9, -1.48792E-07, 
DataValue, -0.8, -1.33664E-07, 
DataValue, -0.70000000000000007, -1.18397E-07, 
DataValue, -0.6, -1.02924E-07, 
DataValue, -0.5, -8.7426999999999993E-08, 
DataValue, -0.4, -7.1505E-08, 
DataValue, -0.3, -5.5911E-08, 
DataValue, -0.2, -4.0225E-08, 
DataValue, -0.1, -2.2526499999999997E-08, 
DataValue, 0, 8.439E-10, 
DataValue, 0.1, 2.0043199999999997E-08, 
DataValue, 0.2, 3.34953E-08, 
DataValue, 0.3, 4.4989299999999996E-08, 
DataValue, 0.4, 5.5443499999999996E-08, 
DataValue, 0.5, 6.5531699999999991E-08, 
DataValue, 0.6, 7.5806399999999992E-08, 
DataValue, 0.70000000000000007, 8.61005E-08, 
DataValue, 0.8, 9.6808299999999992E-08, 
DataValue, 0.9, 1.07804E-07, 
DataValue, 1, 1.18084E-07, 
DataValue, 1.1, 1.29982E-07, 
DataValue, 1.2, 1.41225E-07, 
DataValue, 1.3, 1.5244499999999999E-07, 
DataValue, 1.4000000000000001, 1.64548E-07, 
DataValue, 1.5, 1.77615E-07, 
DataValue, 1.6, 1.90293E-07, 
DataValue, 1.7, 2.0305199999999998E-07, 
DataValue, 1.8, 2.16699E-07, 
DataValue, 1.9000000000000001, 2.30203E-07, 
DataValue, 2, 2.4368199999999997E-07, 
DataValue, 2.1, 2.57798E-07, 
DataValue, 2.2, 2.73145E-07, 
DataValue, 2.3000000000000003, 2.87948E-07, 
DataValue, 2.4, 3.02129E-07, 
DataValue, 2.5, 3.19005E-07, 
DataValue, 2.6, 3.3487E-07, 
DataValue, 2.7, 3.49864E-07, 
DataValue, 2.8000000000000003, 3.68025E-07, 
DataValue, 2.9, 3.85083E-07, 
DataValue, 3, 4.01841E-07, 
DataValue, 3.1, 4.1879E-07, 
DataValue, 3.2, 4.3763899999999997E-07, 
DataValue, 3.3000000000000003, 4.56949E-07, 
DataValue, 3.4, 4.75773E-07, 
DataValue, 3.5, 4.94495E-07, 
DataValue, 3.6, 5.13263E-07, 
DataValue, 3.7, 5.31962E-07, 
DataValue, 3.8000000000000003, 5.51307E-07, 
DataValue, 3.9, 5.71705E-07, 
DataValue, 4, 5.91432E-07, 
DataValue, 4.1, 6.10716E-07, 
DataValue, 4.2, 6.31034E-07, 
DataValue, 4.3, 6.53093E-07, 
DataValue, 4.4, 6.70641E-07, 
DataValue, 4.5, 6.90189E-07, 
DataValue, 4.6000000000000005, 7.10745E-07, 
DataValue, 4.7, 7.31574E-07, 
DataValue, 4.8, 7.5125499999999993E-07, 
DataValue, 4.9, 7.72692E-07, 
DataValue, 5, 7.9183E-07, 