
SetupTitle, WW
PrimitiveTest, I/V Sweep
TestParameter, Context.MainFrame, B1500A
TestParameter, Channel.UnitType, SMU, SMU
TestParameter, Channel.Unit, SMU2:HP, SMU1:HP
TestParameter, Channel.IName, I1, I4
TestParameter, Channel.VName, V1, V4
TestParameter, Channel.Mode, V, COMMON
TestParameter, Channel.Func, VAR1, CONST
TestParameter, Channel.Index, 
TestParameter, Channel.Time, 
TestParameter, Measurement.Port.Unit, SMU2:HP, SMU1:HP
TestParameter, Measurement.Port.SeriesResistor, NONE, NONE
TestParameter, Measurement.Port.Filter, ON, ON
TestParameter, Measurement.Port.OutputVoltageComparison, 0, 0
TestParameter, Measurement.Primary.Locus, Single
TestParameter, Measurement.Primary.Scale, LINEAR
TestParameter, Measurement.Primary.Start, -5
TestParameter, Measurement.Primary.Stop, 5
TestParameter, Measurement.Primary.Step, 0.1
TestParameter, Measurement.Primary.Compliance, 0.1
TestParameter, Measurement.Primary.PowerCompliance, 0
TestParameter, Measurement.Aborting.Condition, CONTINUE AT ANY
TestParameter, Measurement.PostOutput.Value, START
TestParameter, Measurement.PostOutput.Retention, OFF
TestParameter, Measurement.Bias.Source, -5, 0
TestParameter, Measurement.Bias.Compliance, 0.1, 1
TestParameter, Measurement.Monitor.Unit, SMU2:HP, SMU1:HP
TestParameter, Measurement.Monitor.Adc, HR ADC, HR ADC
TestParameter, Measurement.Monitor.Measurement, Compliance Side, Compliance Side
TestParameter, Measurement.Monitor.RangingMode, AUTO, AUTO
TestParameter, Measurement.Monitor.RangeBoundary, , 
TestParameter, Measurement.Monitor.RangeRating, BY FULL RANGE, BY FULL RANGE
TestParameter, Measurement.Monitor.RangeRatingCoeff, 50, 50
TestParameter, Measurement.Timing.Hold, 0
TestParameter, Measurement.Timing.Delay, 0.001
TestParameter, Measurement.Adc.HighSpeed.Mode, AUTO
TestParameter, Measurement.Adc.HighSpeed.Coeff, 1
TestParameter, Measurement.Adc.HighResolution.AutoZero, OFF
TestParameter, Measurement.Adc.HighResolution.Mode, PLC
TestParameter, Measurement.Adc.HighResolution.Coeff, 1
TestParameter, Measurement.WaitTime.Source.Coeff, 1
TestParameter, Measurement.WaitTime.Source.Offset, 0
TestParameter, Measurement.WaitTime.Monitor.Coeff, 1
TestParameter, Measurement.WaitTime.Monitor.Offset, 0
TestParameter, Function.User.Name, Ohmic
TestParameter, Function.User.Unit, ohm
TestParameter, Function.User.Definition, avg(V1/I1)
TestParameter, Output.Graph.Enabled, true
TestParameter, Output.Graph.XAxis.Data, V1
TestParameter, Output.Graph.XAxis.Scale, Linear
TestParameter, Output.Graph.XAxis.Left, -5
TestParameter, Output.Graph.XAxis.Right, 5
TestParameter, Output.Graph.YAxis.Data, I1
TestParameter, Output.Graph.YAxis.Scale, Linear
TestParameter, Output.Graph.YAxis.Bottom, -0.001
TestParameter, Output.Graph.YAxis.Top, 0.001
TestParameter, Output.Graph.YAxis.Group, 
TestParameter, Output.Scalar.Data, Ohmic
TestParameter, AutoAnalysis.Interpolation, false
TestParameter, AutoAnalysis.Line1.Enabled, false
TestParameter, AutoAnalysis.Line1.Type, 1
TestParameter, AutoAnalysis.Line1.Fix, True
TestParameter, AutoAnalysis.Line1.YAxis, 0
TestParameter, AutoAnalysis.Line1.Point1.Type, 0
TestParameter, AutoAnalysis.Line1.Point1.XY.X, 
TestParameter, AutoAnalysis.Line1.Point1.XY.Y, 
TestParameter, AutoAnalysis.Line1.Point1.Data.Var, 
TestParameter, AutoAnalysis.Line1.Point1.Data.Condition, 
TestParameter, AutoAnalysis.Line1.Point1.Data.Start, false
TestParameter, AutoAnalysis.Line1.Point1.Data.StartVar, 
TestParameter, AutoAnalysis.Line1.Point1.Data.StartCondition, 
TestParameter, AutoAnalysis.Line1.Point2.Type, 0
TestParameter, AutoAnalysis.Line1.Point2.XY.X, 
TestParameter, AutoAnalysis.Line1.Point2.XY.Y, 
TestParameter, AutoAnalysis.Line1.Point2.Data.Var, 
TestParameter, AutoAnalysis.Line1.Point2.Data.Condition, 
TestParameter, AutoAnalysis.Line1.Point2.Data.Start, false
TestParameter, AutoAnalysis.Line1.Point2.Data.StartVar, 
TestParameter, AutoAnalysis.Line1.Point2.Data.StartCondition, 
TestParameter, AutoAnalysis.Line1.GradientExpr, 0
TestParameter, AutoAnalysis.Line2.Enabled, false
TestParameter, AutoAnalysis.Line2.Type, 1
TestParameter, AutoAnalysis.Line2.Fix, True
TestParameter, AutoAnalysis.Line2.YAxis, 0
TestParameter, AutoAnalysis.Line2.Point1.Type, 0
TestParameter, AutoAnalysis.Line2.Point1.XY.X, 
TestParameter, AutoAnalysis.Line2.Point1.XY.Y, 
TestParameter, AutoAnalysis.Line2.Point1.Data.Var, 
TestParameter, AutoAnalysis.Line2.Point1.Data.Condition, 
TestParameter, AutoAnalysis.Line2.Point1.Data.Start, false
TestParameter, AutoAnalysis.Line2.Point1.Data.StartVar, 
TestParameter, AutoAnalysis.Line2.Point1.Data.StartCondition, 
TestParameter, AutoAnalysis.Line2.Point2.Type, 0
TestParameter, AutoAnalysis.Line2.Point2.XY.X, 
TestParameter, AutoAnalysis.Line2.Point2.XY.Y, 
TestParameter, AutoAnalysis.Line2.Point2.Data.Var, 
TestParameter, AutoAnalysis.Line2.Point2.Data.Condition, 
TestParameter, AutoAnalysis.Line2.Point2.Data.Start, false
TestParameter, AutoAnalysis.Line2.Point2.Data.StartVar, 
TestParameter, AutoAnalysis.Line2.Point2.Data.StartCondition, 
TestParameter, AutoAnalysis.Line2.GradientExpr, 0
TestParameter, AutoAnalysis.Marker.Enabled, false
TestParameter, AutoAnalysis.Marker.Data.Var, 
TestParameter, AutoAnalysis.Marker.Data.Condition, 
TestParameter, AutoAnalysis.Marker.Data.Start, false
TestParameter, AutoAnalysis.Marker.Data.StartVar, 
TestParameter, AutoAnalysis.Marker.Data.StartCondition, 
MetaData, TestRecord.EntryPoint, true
MetaData, TestRecord.RecordTime, 11/24/2020 20:07:11
MetaData, TestRecord.TestTarget, 
MetaData, TestRecord.IterationIndex, 39
MetaData, TestRecord.Preservation, true
MetaData, TestRecord.Flag, 
MetaData, TestRecord.Remarks, 
MetaData, TestRecord.LinkKey, 08515796-49a3-4f5f-a3ef-70fd9e4fe536
Dimension1, 101, 101, 101
Dimension2, 1, 1, 1
DataName, V1, I1, Ohmic
DataValue, -5, -6.89427E-07, 6861915.9859255645
DataValue, -4.9, -6.77101E-07, 
DataValue, -4.8, -6.63762E-07, 
DataValue, -4.7, -6.50114E-07, 
DataValue, -4.6000000000000005, -6.3354E-07, 
DataValue, -4.5, -6.22124E-07, 
DataValue, -4.4, -6.08113E-07, 
DataValue, -4.3, -5.93009E-07, 
DataValue, -4.2, -5.81797E-07, 
DataValue, -4.1, -5.6751E-07, 
DataValue, -4, -5.57356E-07, 
DataValue, -3.9, -5.43095E-07, 
DataValue, -3.8000000000000003, -5.2937999999999994E-07, 
DataValue, -3.7, -5.16682E-07, 
DataValue, -3.6, -5.0459399999999995E-07, 
DataValue, -3.5, -4.9289499999999994E-07, 
DataValue, -3.4, -4.82643E-07, 
DataValue, -3.3000000000000003, -4.6856999999999997E-07, 
DataValue, -3.2, -4.5831E-07, 
DataValue, -3.1, -4.45127E-07, 
DataValue, -3, -4.3582499999999997E-07, 
DataValue, -2.9, -4.23406E-07, 
DataValue, -2.8000000000000003, -4.1159099999999997E-07, 
DataValue, -2.7, -3.99821E-07, 
DataValue, -2.6, -3.87855E-07, 
DataValue, -2.5, -3.75113E-07, 
DataValue, -2.4, -3.64447E-07, 
DataValue, -2.3000000000000003, -3.49737E-07, 
DataValue, -2.2, -3.39302E-07, 
DataValue, -2.1, -3.25556E-07, 
DataValue, -2, -3.12426E-07, 
DataValue, -1.9000000000000001, -2.99723E-07, 
DataValue, -1.8, -2.85882E-07, 
DataValue, -1.7, -2.71518E-07, 
DataValue, -1.6, -2.57127E-07, 
DataValue, -1.5, -2.4451E-07, 
DataValue, -1.4000000000000001, -2.2962E-07, 
DataValue, -1.3, -2.16267E-07, 
DataValue, -1.2, -2.02271E-07, 
DataValue, -1.1, -1.85599E-07, 
DataValue, -1, -1.7103E-07, 
DataValue, -0.9, -1.55768E-07, 
DataValue, -0.8, -1.4008E-07, 
DataValue, -0.70000000000000007, -1.23418E-07, 
DataValue, -0.6, -1.0754799999999999E-07, 
DataValue, -0.5, -9.0671999999999993E-08, 
DataValue, -0.4, -7.3213E-08, 
DataValue, -0.3, -5.7522E-08, 
DataValue, -0.2, -4.1076E-08, 
DataValue, -0.1, -2.2622E-08, 
DataValue, 0, 6.8569999999999992E-10, 
DataValue, 0.1, 1.98721E-08, 
DataValue, 0.2, 3.35151E-08, 
DataValue, 0.3, 4.5351999999999995E-08, 
DataValue, 0.4, 5.6154199999999992E-08, 
DataValue, 0.5, 6.6555999999999991E-08, 
DataValue, 0.6, 7.69879E-08, 
DataValue, 0.70000000000000007, 8.7530199999999988E-08, 
DataValue, 0.8, 9.7786699999999985E-08, 
DataValue, 0.9, 1.09023E-07, 
DataValue, 1, 1.20015E-07, 
DataValue, 1.1, 1.31863E-07, 
DataValue, 1.2, 1.4334099999999999E-07, 
DataValue, 1.3, 1.5538E-07, 
DataValue, 1.4000000000000001, 1.67322E-07, 
DataValue, 1.5, 1.80139E-07, 
DataValue, 1.6, 1.93417E-07, 
DataValue, 1.7, 2.0601E-07, 
DataValue, 1.8, 2.20548E-07, 
DataValue, 1.9000000000000001, 2.34406E-07, 
DataValue, 2, 2.48172E-07, 
DataValue, 2.1, 2.63179E-07, 
DataValue, 2.2, 2.77107E-07, 
DataValue, 2.3000000000000003, 2.93046E-07, 
DataValue, 2.4, 3.07666E-07, 
DataValue, 2.5, 3.22707E-07, 
DataValue, 2.6, 3.38212E-07, 
DataValue, 2.7, 3.54434E-07, 
DataValue, 2.8000000000000003, 3.71382E-07, 
DataValue, 2.9, 3.89444E-07, 
DataValue, 3, 4.04476E-07, 
DataValue, 3.1, 4.21763E-07, 
DataValue, 3.2, 4.41667E-07, 
DataValue, 3.3000000000000003, 4.59804E-07, 
DataValue, 3.4, 4.78764E-07, 
DataValue, 3.5, 4.96759E-07, 
DataValue, 3.6, 5.14274E-07, 
DataValue, 3.7, 5.33788E-07, 
DataValue, 3.8000000000000003, 5.53718E-07, 
DataValue, 3.9, 5.73976E-07, 
DataValue, 4, 5.9391E-07, 
DataValue, 4.1, 6.13354E-07, 
DataValue, 4.2, 6.3423599999999994E-07, 
DataValue, 4.3, 6.54031E-07, 
DataValue, 4.4, 6.74045E-07, 
DataValue, 4.5, 6.94569E-07, 
DataValue, 4.6000000000000005, 7.16927E-07, 
DataValue, 4.7, 7.37772E-07, 
DataValue, 4.8, 7.56249E-07, 
DataValue, 4.9, 7.79163E-07, 
DataValue, 5, 7.99175E-07, 