
SetupTitle, WW
PrimitiveTest, I/V Sweep
TestParameter, Context.MainFrame, B1500A
TestParameter, Channel.UnitType, SMU, SMU
TestParameter, Channel.Unit, SMU2:HP, SMU1:HP
TestParameter, Channel.IName, I1, I4
TestParameter, Channel.VName, V1, V4
TestParameter, Channel.Mode, V, COMMON
TestParameter, Channel.Func, VAR1, CONST
TestParameter, Channel.Index, 
TestParameter, Channel.Time, 
TestParameter, Measurement.Port.Unit, SMU2:HP, SMU1:HP
TestParameter, Measurement.Port.SeriesResistor, NONE, NONE
TestParameter, Measurement.Port.Filter, ON, ON
TestParameter, Measurement.Port.OutputVoltageComparison, 0, 0
TestParameter, Measurement.Primary.Locus, Single
TestParameter, Measurement.Primary.Scale, LINEAR
TestParameter, Measurement.Primary.Start, -5
TestParameter, Measurement.Primary.Stop, 5
TestParameter, Measurement.Primary.Step, 0.1
TestParameter, Measurement.Primary.Compliance, 0.1
TestParameter, Measurement.Primary.PowerCompliance, 0
TestParameter, Measurement.Aborting.Condition, CONTINUE AT ANY
TestParameter, Measurement.PostOutput.Value, START
TestParameter, Measurement.PostOutput.Retention, OFF
TestParameter, Measurement.Bias.Source, -5, 0
TestParameter, Measurement.Bias.Compliance, 0.1, 1
TestParameter, Measurement.Monitor.Unit, SMU2:HP, SMU1:HP
TestParameter, Measurement.Monitor.Adc, HR ADC, HR ADC
TestParameter, Measurement.Monitor.Measurement, Compliance Side, Compliance Side
TestParameter, Measurement.Monitor.RangingMode, AUTO, AUTO
TestParameter, Measurement.Monitor.RangeBoundary, , 
TestParameter, Measurement.Monitor.RangeRating, BY FULL RANGE, BY FULL RANGE
TestParameter, Measurement.Monitor.RangeRatingCoeff, 50, 50
TestParameter, Measurement.Timing.Hold, 0
TestParameter, Measurement.Timing.Delay, 0.001
TestParameter, Measurement.Adc.HighSpeed.Mode, AUTO
TestParameter, Measurement.Adc.HighSpeed.Coeff, 1
TestParameter, Measurement.Adc.HighResolution.AutoZero, OFF
TestParameter, Measurement.Adc.HighResolution.Mode, PLC
TestParameter, Measurement.Adc.HighResolution.Coeff, 1
TestParameter, Measurement.WaitTime.Source.Coeff, 1
TestParameter, Measurement.WaitTime.Source.Offset, 0
TestParameter, Measurement.WaitTime.Monitor.Coeff, 1
TestParameter, Measurement.WaitTime.Monitor.Offset, 0
TestParameter, Function.User.Name, Ohmic
TestParameter, Function.User.Unit, ohm
TestParameter, Function.User.Definition, avg(V1/I1)
TestParameter, Output.Graph.Enabled, true
TestParameter, Output.Graph.XAxis.Data, V1
TestParameter, Output.Graph.XAxis.Scale, Linear
TestParameter, Output.Graph.XAxis.Left, -5
TestParameter, Output.Graph.XAxis.Right, 5
TestParameter, Output.Graph.YAxis.Data, I1
TestParameter, Output.Graph.YAxis.Scale, Linear
TestParameter, Output.Graph.YAxis.Bottom, -0.001
TestParameter, Output.Graph.YAxis.Top, 0.001
TestParameter, Output.Graph.YAxis.Group, 
TestParameter, Output.Scalar.Data, Ohmic
TestParameter, AutoAnalysis.Interpolation, false
TestParameter, AutoAnalysis.Line1.Enabled, false
TestParameter, AutoAnalysis.Line1.Type, 1
TestParameter, AutoAnalysis.Line1.Fix, True
TestParameter, AutoAnalysis.Line1.YAxis, 0
TestParameter, AutoAnalysis.Line1.Point1.Type, 0
TestParameter, AutoAnalysis.Line1.Point1.XY.X, 
TestParameter, AutoAnalysis.Line1.Point1.XY.Y, 
TestParameter, AutoAnalysis.Line1.Point1.Data.Var, 
TestParameter, AutoAnalysis.Line1.Point1.Data.Condition, 
TestParameter, AutoAnalysis.Line1.Point1.Data.Start, false
TestParameter, AutoAnalysis.Line1.Point1.Data.StartVar, 
TestParameter, AutoAnalysis.Line1.Point1.Data.StartCondition, 
TestParameter, AutoAnalysis.Line1.Point2.Type, 0
TestParameter, AutoAnalysis.Line1.Point2.XY.X, 
TestParameter, AutoAnalysis.Line1.Point2.XY.Y, 
TestParameter, AutoAnalysis.Line1.Point2.Data.Var, 
TestParameter, AutoAnalysis.Line1.Point2.Data.Condition, 
TestParameter, AutoAnalysis.Line1.Point2.Data.Start, false
TestParameter, AutoAnalysis.Line1.Point2.Data.StartVar, 
TestParameter, AutoAnalysis.Line1.Point2.Data.StartCondition, 
TestParameter, AutoAnalysis.Line1.GradientExpr, 0
TestParameter, AutoAnalysis.Line2.Enabled, false
TestParameter, AutoAnalysis.Line2.Type, 1
TestParameter, AutoAnalysis.Line2.Fix, True
TestParameter, AutoAnalysis.Line2.YAxis, 0
TestParameter, AutoAnalysis.Line2.Point1.Type, 0
TestParameter, AutoAnalysis.Line2.Point1.XY.X, 
TestParameter, AutoAnalysis.Line2.Point1.XY.Y, 
TestParameter, AutoAnalysis.Line2.Point1.Data.Var, 
TestParameter, AutoAnalysis.Line2.Point1.Data.Condition, 
TestParameter, AutoAnalysis.Line2.Point1.Data.Start, false
TestParameter, AutoAnalysis.Line2.Point1.Data.StartVar, 
TestParameter, AutoAnalysis.Line2.Point1.Data.StartCondition, 
TestParameter, AutoAnalysis.Line2.Point2.Type, 0
TestParameter, AutoAnalysis.Line2.Point2.XY.X, 
TestParameter, AutoAnalysis.Line2.Point2.XY.Y, 
TestParameter, AutoAnalysis.Line2.Point2.Data.Var, 
TestParameter, AutoAnalysis.Line2.Point2.Data.Condition, 
TestParameter, AutoAnalysis.Line2.Point2.Data.Start, false
TestParameter, AutoAnalysis.Line2.Point2.Data.StartVar, 
TestParameter, AutoAnalysis.Line2.Point2.Data.StartCondition, 
TestParameter, AutoAnalysis.Line2.GradientExpr, 0
TestParameter, AutoAnalysis.Marker.Enabled, false
TestParameter, AutoAnalysis.Marker.Data.Var, 
TestParameter, AutoAnalysis.Marker.Data.Condition, 
TestParameter, AutoAnalysis.Marker.Data.Start, false
TestParameter, AutoAnalysis.Marker.Data.StartVar, 
TestParameter, AutoAnalysis.Marker.Data.StartCondition, 
MetaData, TestRecord.EntryPoint, true
MetaData, TestRecord.RecordTime, 11/24/2020 20:05:29
MetaData, TestRecord.TestTarget, 
MetaData, TestRecord.IterationIndex, 37
MetaData, TestRecord.Preservation, true
MetaData, TestRecord.Flag, 
MetaData, TestRecord.Remarks, 
MetaData, TestRecord.LinkKey, ba825b2e-b6c3-462c-8e19-93a72ed0984d
Dimension1, 101, 101, 101
Dimension2, 1, 1, 1
DataName, V1, I1, Ohmic
DataValue, -5, -6.97941E-07, 6753789.474437275
DataValue, -4.9, -6.83319E-07, 
DataValue, -4.8, -6.67519E-07, 
DataValue, -4.7, -6.56774E-07, 
DataValue, -4.6000000000000005, -6.42478E-07, 
DataValue, -4.5, -6.27015E-07, 
DataValue, -4.4, -6.14482E-07, 
DataValue, -4.3, -5.98892E-07, 
DataValue, -4.2, -5.86414E-07, 
DataValue, -4.1, -5.74895E-07, 
DataValue, -4, -5.58754E-07, 
DataValue, -3.9, -5.47807E-07, 
DataValue, -3.8000000000000003, -5.33587E-07, 
DataValue, -3.7, -5.2606E-07, 
DataValue, -3.6, -5.1139E-07, 
DataValue, -3.5, -5.00487E-07, 
DataValue, -3.4, -4.83719E-07, 
DataValue, -3.3000000000000003, -4.74137E-07, 
DataValue, -3.2, -4.59628E-07, 
DataValue, -3.1, -4.52707E-07, 
DataValue, -3, -4.3747E-07, 
DataValue, -2.9, -4.2746299999999997E-07, 
DataValue, -2.8000000000000003, -4.14436E-07, 
DataValue, -2.7, -4.01537E-07, 
DataValue, -2.6, -3.8920399999999997E-07, 
DataValue, -2.5, -3.77579E-07, 
DataValue, -2.4, -3.69002E-07, 
DataValue, -2.3000000000000003, -3.5982E-07, 
DataValue, -2.2, -3.41638E-07, 
DataValue, -2.1, -3.29276E-07, 
DataValue, -2, -3.16685E-07, 
DataValue, -1.9000000000000001, -3.02321E-07, 
DataValue, -1.8, -2.91225E-07, 
DataValue, -1.7, -2.76262E-07, 
DataValue, -1.6, -2.63768E-07, 
DataValue, -1.5, -2.50735E-07, 
DataValue, -1.4000000000000001, -2.32215E-07, 
DataValue, -1.3, -2.1826E-07, 
DataValue, -1.2, -2.03598E-07, 
DataValue, -1.1, -1.87773E-07, 
DataValue, -1, -1.72159E-07, 
DataValue, -0.9, -1.56517E-07, 
DataValue, -0.8, -1.38964E-07, 
DataValue, -0.70000000000000007, -1.23829E-07, 
DataValue, -0.6, -1.062E-07, 
DataValue, -0.5, -8.9231E-08, 
DataValue, -0.4, -7.3364E-08, 
DataValue, -0.3, -5.7028E-08, 
DataValue, -0.2, -4.1196E-08, 
DataValue, -0.1, -2.27631E-08, 
DataValue, 0, 8.4769999999999987E-10, 
DataValue, 0.1, 2.0336899999999997E-08, 
DataValue, 0.2, 3.40532E-08, 
DataValue, 0.3, 4.58243E-08, 
DataValue, 0.4, 5.6594099999999996E-08, 
DataValue, 0.5, 6.71399E-08, 
DataValue, 0.6, 7.77702E-08, 
DataValue, 0.70000000000000007, 8.789859999999999E-08, 
DataValue, 0.8, 9.893739999999999E-08, 
DataValue, 0.9, 1.09939E-07, 
DataValue, 1, 1.21465E-07, 
DataValue, 1.1, 1.32987E-07, 
DataValue, 1.2, 1.45986E-07, 
DataValue, 1.3, 1.58549E-07, 
DataValue, 1.4000000000000001, 1.69459E-07, 
DataValue, 1.5, 1.8290699999999999E-07, 
DataValue, 1.6, 1.95925E-07, 
DataValue, 1.7, 2.09036E-07, 
DataValue, 1.8, 2.24414E-07, 
DataValue, 1.9000000000000001, 2.38667E-07, 
DataValue, 2, 2.51896E-07, 
DataValue, 2.1, 2.67582E-07, 
DataValue, 2.2, 2.82897E-07, 
DataValue, 2.3000000000000003, 2.9805E-07, 
DataValue, 2.4, 3.1530199999999997E-07, 
DataValue, 2.5, 3.32893E-07, 
DataValue, 2.6, 3.47561E-07, 
DataValue, 2.7, 3.6371E-07, 
DataValue, 2.8000000000000003, 3.81917E-07, 
DataValue, 2.9, 3.99951E-07, 
DataValue, 3, 4.17387E-07, 
DataValue, 3.1, 4.36087E-07, 
DataValue, 3.2, 4.53242E-07, 
DataValue, 3.3000000000000003, 4.72292E-07, 
DataValue, 3.4, 4.93216E-07, 
DataValue, 3.5, 5.13194E-07, 
DataValue, 3.6, 5.33533E-07, 
DataValue, 3.7, 5.51107E-07, 
DataValue, 3.8000000000000003, 5.69423E-07, 
DataValue, 3.9, 5.91959E-07, 
DataValue, 4, 6.14211E-07, 
DataValue, 4.1, 6.32641E-07, 
DataValue, 4.2, 6.524E-07, 
DataValue, 4.3, 6.75307E-07, 
DataValue, 4.4, 6.98007E-07, 
DataValue, 4.5, 7.20345E-07, 
DataValue, 4.6000000000000005, 7.4048099999999995E-07, 
DataValue, 4.7, 7.601E-07, 
DataValue, 4.8, 7.8281E-07, 
DataValue, 4.9, 8.02536E-07, 
DataValue, 5, 8.25898E-07, 