
SetupTitle, WW
PrimitiveTest, I/V Sweep
TestParameter, Context.MainFrame, B1500A
TestParameter, Channel.UnitType, SMU, SMU
TestParameter, Channel.Unit, SMU2:HP, SMU1:HP
TestParameter, Channel.IName, I1, I4
TestParameter, Channel.VName, V1, V4
TestParameter, Channel.Mode, V, COMMON
TestParameter, Channel.Func, VAR1, CONST
TestParameter, Channel.Index, 
TestParameter, Channel.Time, 
TestParameter, Measurement.Port.Unit, SMU2:HP, SMU1:HP
TestParameter, Measurement.Port.SeriesResistor, NONE, NONE
TestParameter, Measurement.Port.Filter, ON, ON
TestParameter, Measurement.Port.OutputVoltageComparison, 0, 0
TestParameter, Measurement.Primary.Locus, Single
TestParameter, Measurement.Primary.Scale, LINEAR
TestParameter, Measurement.Primary.Start, -5
TestParameter, Measurement.Primary.Stop, 5
TestParameter, Measurement.Primary.Step, 0.1
TestParameter, Measurement.Primary.Compliance, 0.1
TestParameter, Measurement.Primary.PowerCompliance, 0
TestParameter, Measurement.Aborting.Condition, CONTINUE AT ANY
TestParameter, Measurement.PostOutput.Value, START
TestParameter, Measurement.PostOutput.Retention, OFF
TestParameter, Measurement.Bias.Source, -5, 0
TestParameter, Measurement.Bias.Compliance, 0.1, 1
TestParameter, Measurement.Monitor.Unit, SMU2:HP, SMU1:HP
TestParameter, Measurement.Monitor.Adc, HR ADC, HR ADC
TestParameter, Measurement.Monitor.Measurement, Compliance Side, Compliance Side
TestParameter, Measurement.Monitor.RangingMode, AUTO, AUTO
TestParameter, Measurement.Monitor.RangeBoundary, , 
TestParameter, Measurement.Monitor.RangeRating, BY FULL RANGE, BY FULL RANGE
TestParameter, Measurement.Monitor.RangeRatingCoeff, 50, 50
TestParameter, Measurement.Timing.Hold, 0
TestParameter, Measurement.Timing.Delay, 0.001
TestParameter, Measurement.Adc.HighSpeed.Mode, AUTO
TestParameter, Measurement.Adc.HighSpeed.Coeff, 1
TestParameter, Measurement.Adc.HighResolution.AutoZero, OFF
TestParameter, Measurement.Adc.HighResolution.Mode, PLC
TestParameter, Measurement.Adc.HighResolution.Coeff, 1
TestParameter, Measurement.WaitTime.Source.Coeff, 1
TestParameter, Measurement.WaitTime.Source.Offset, 0
TestParameter, Measurement.WaitTime.Monitor.Coeff, 1
TestParameter, Measurement.WaitTime.Monitor.Offset, 0
TestParameter, Function.User.Name, Ohmic
TestParameter, Function.User.Unit, ohm
TestParameter, Function.User.Definition, avg(V1/I1)
TestParameter, Output.Graph.Enabled, true
TestParameter, Output.Graph.XAxis.Data, V1
TestParameter, Output.Graph.XAxis.Scale, Linear
TestParameter, Output.Graph.XAxis.Left, -5
TestParameter, Output.Graph.XAxis.Right, 5
TestParameter, Output.Graph.YAxis.Data, I1
TestParameter, Output.Graph.YAxis.Scale, Linear
TestParameter, Output.Graph.YAxis.Bottom, -0.001
TestParameter, Output.Graph.YAxis.Top, 0.001
TestParameter, Output.Graph.YAxis.Group, 
TestParameter, Output.Scalar.Data, Ohmic
TestParameter, AutoAnalysis.Interpolation, false
TestParameter, AutoAnalysis.Line1.Enabled, false
TestParameter, AutoAnalysis.Line1.Type, 1
TestParameter, AutoAnalysis.Line1.Fix, True
TestParameter, AutoAnalysis.Line1.YAxis, 0
TestParameter, AutoAnalysis.Line1.Point1.Type, 0
TestParameter, AutoAnalysis.Line1.Point1.XY.X, 
TestParameter, AutoAnalysis.Line1.Point1.XY.Y, 
TestParameter, AutoAnalysis.Line1.Point1.Data.Var, 
TestParameter, AutoAnalysis.Line1.Point1.Data.Condition, 
TestParameter, AutoAnalysis.Line1.Point1.Data.Start, false
TestParameter, AutoAnalysis.Line1.Point1.Data.StartVar, 
TestParameter, AutoAnalysis.Line1.Point1.Data.StartCondition, 
TestParameter, AutoAnalysis.Line1.Point2.Type, 0
TestParameter, AutoAnalysis.Line1.Point2.XY.X, 
TestParameter, AutoAnalysis.Line1.Point2.XY.Y, 
TestParameter, AutoAnalysis.Line1.Point2.Data.Var, 
TestParameter, AutoAnalysis.Line1.Point2.Data.Condition, 
TestParameter, AutoAnalysis.Line1.Point2.Data.Start, false
TestParameter, AutoAnalysis.Line1.Point2.Data.StartVar, 
TestParameter, AutoAnalysis.Line1.Point2.Data.StartCondition, 
TestParameter, AutoAnalysis.Line1.GradientExpr, 0
TestParameter, AutoAnalysis.Line2.Enabled, false
TestParameter, AutoAnalysis.Line2.Type, 1
TestParameter, AutoAnalysis.Line2.Fix, True
TestParameter, AutoAnalysis.Line2.YAxis, 0
TestParameter, AutoAnalysis.Line2.Point1.Type, 0
TestParameter, AutoAnalysis.Line2.Point1.XY.X, 
TestParameter, AutoAnalysis.Line2.Point1.XY.Y, 
TestParameter, AutoAnalysis.Line2.Point1.Data.Var, 
TestParameter, AutoAnalysis.Line2.Point1.Data.Condition, 
TestParameter, AutoAnalysis.Line2.Point1.Data.Start, false
TestParameter, AutoAnalysis.Line2.Point1.Data.StartVar, 
TestParameter, AutoAnalysis.Line2.Point1.Data.StartCondition, 
TestParameter, AutoAnalysis.Line2.Point2.Type, 0
TestParameter, AutoAnalysis.Line2.Point2.XY.X, 
TestParameter, AutoAnalysis.Line2.Point2.XY.Y, 
TestParameter, AutoAnalysis.Line2.Point2.Data.Var, 
TestParameter, AutoAnalysis.Line2.Point2.Data.Condition, 
TestParameter, AutoAnalysis.Line2.Point2.Data.Start, false
TestParameter, AutoAnalysis.Line2.Point2.Data.StartVar, 
TestParameter, AutoAnalysis.Line2.Point2.Data.StartCondition, 
TestParameter, AutoAnalysis.Line2.GradientExpr, 0
TestParameter, AutoAnalysis.Marker.Enabled, false
TestParameter, AutoAnalysis.Marker.Data.Var, 
TestParameter, AutoAnalysis.Marker.Data.Condition, 
TestParameter, AutoAnalysis.Marker.Data.Start, false
TestParameter, AutoAnalysis.Marker.Data.StartVar, 
TestParameter, AutoAnalysis.Marker.Data.StartCondition, 
MetaData, TestRecord.EntryPoint, true
MetaData, TestRecord.RecordTime, 11/24/2020 20:05:00
MetaData, TestRecord.TestTarget, 
MetaData, TestRecord.IterationIndex, 36
MetaData, TestRecord.Preservation, true
MetaData, TestRecord.Flag, 
MetaData, TestRecord.Remarks, 
MetaData, TestRecord.LinkKey, 944dec8a-dc38-4e7f-907a-a5291501e68b
Dimension1, 101, 101, 101
Dimension2, 1, 1, 1
DataName, V1, I1, Ohmic
DataValue, -5, -6.99603E-07, 6758615.5942440163
DataValue, -4.9, -6.82063E-07, 
DataValue, -4.8, -6.66546E-07, 
DataValue, -4.7, -6.53515E-07, 
DataValue, -4.6000000000000005, -6.3928399999999994E-07, 
DataValue, -4.5, -6.24724E-07, 
DataValue, -4.4, -6.10674E-07, 
DataValue, -4.3, -5.97105E-07, 
DataValue, -4.2, -5.8393899999999995E-07, 
DataValue, -4.1, -5.72053E-07, 
DataValue, -4, -5.59315E-07, 
DataValue, -3.9, -5.45232E-07, 
DataValue, -3.8000000000000003, -5.3432E-07, 
DataValue, -3.7, -5.194E-07, 
DataValue, -3.6, -5.0869799999999994E-07, 
DataValue, -3.5, -4.9605E-07, 
DataValue, -3.4, -4.84681E-07, 
DataValue, -3.3000000000000003, -4.7531699999999997E-07, 
DataValue, -3.2, -4.62427E-07, 
DataValue, -3.1, -4.4958E-07, 
DataValue, -3, -4.3752199999999997E-07, 
DataValue, -2.9, -4.2485099999999997E-07, 
DataValue, -2.8000000000000003, -4.12321E-07, 
DataValue, -2.7, -3.99966E-07, 
DataValue, -2.6, -3.88908E-07, 
DataValue, -2.5, -3.77576E-07, 
DataValue, -2.4, -3.63094E-07, 
DataValue, -2.3000000000000003, -3.5205E-07, 
DataValue, -2.2, -3.38227E-07, 
DataValue, -2.1, -3.25113E-07, 
DataValue, -2, -3.12244E-07, 
DataValue, -1.9000000000000001, -2.99452E-07, 
DataValue, -1.8, -2.85802E-07, 
DataValue, -1.7, -2.72899E-07, 
DataValue, -1.6, -2.5857599999999997E-07, 
DataValue, -1.5, -2.4503E-07, 
DataValue, -1.4000000000000001, -2.29809E-07, 
DataValue, -1.3, -2.148E-07, 
DataValue, -1.2, -2.00003E-07, 
DataValue, -1.1, -1.85188E-07, 
DataValue, -1, -1.68649E-07, 
DataValue, -0.9, -1.5326199999999999E-07, 
DataValue, -0.8, -1.37656E-07, 
DataValue, -0.70000000000000007, -1.2102399999999999E-07, 
DataValue, -0.6, -1.0482899999999999E-07, 
DataValue, -0.5, -8.8710999999999993E-08, 
DataValue, -0.4, -7.2587E-08, 
DataValue, -0.3, -5.6958E-08, 
DataValue, -0.2, -4.092E-08, 
DataValue, -0.1, -2.29159E-08, 
DataValue, 0, 9.046E-10, 
DataValue, 0.1, 2.0479299999999997E-08, 
DataValue, 0.2, 3.42726E-08, 
DataValue, 0.3, 4.59549E-08, 
DataValue, 0.4, 5.6993299999999996E-08, 
DataValue, 0.5, 6.74761E-08, 
DataValue, 0.6, 7.8011799999999987E-08, 
DataValue, 0.70000000000000007, 8.91362E-08, 
DataValue, 0.8, 9.9914999999999992E-08, 
DataValue, 0.9, 1.11176E-07, 
DataValue, 1, 1.2275E-07, 
DataValue, 1.1, 1.34433E-07, 
DataValue, 1.2, 1.4597699999999998E-07, 
DataValue, 1.3, 1.57979E-07, 
DataValue, 1.4000000000000001, 1.6989E-07, 
DataValue, 1.5, 1.84068E-07, 
DataValue, 1.6, 1.97222E-07, 
DataValue, 1.7, 2.11024E-07, 
DataValue, 1.8, 2.23368E-07, 
DataValue, 1.9000000000000001, 2.37652E-07, 
DataValue, 2, 2.52516E-07, 
DataValue, 2.1, 2.68016E-07, 
DataValue, 2.2, 2.83841E-07, 
DataValue, 2.3000000000000003, 2.99532E-07, 
DataValue, 2.4, 3.15287E-07, 
DataValue, 2.5, 3.31141E-07, 
DataValue, 2.6, 3.4872E-07, 
DataValue, 2.7, 3.66465E-07, 
DataValue, 2.8000000000000003, 3.84519E-07, 
DataValue, 2.9, 4.01539E-07, 
DataValue, 3, 4.19375E-07, 
DataValue, 3.1, 4.38229E-07, 
DataValue, 3.2, 4.56642E-07, 
DataValue, 3.3000000000000003, 4.75866E-07, 
DataValue, 3.4, 4.9412E-07, 
DataValue, 3.5, 5.1497E-07, 
DataValue, 3.6, 5.36199E-07, 
DataValue, 3.7, 5.55756E-07, 
DataValue, 3.8000000000000003, 5.74903E-07, 
DataValue, 3.9, 5.95474E-07, 
DataValue, 4, 6.1414099999999994E-07, 
DataValue, 4.1, 6.35371E-07, 
DataValue, 4.2, 6.57825E-07, 
DataValue, 4.3, 6.7988E-07, 
DataValue, 4.4, 7.03522E-07, 
DataValue, 4.5, 7.25737E-07, 
DataValue, 4.6000000000000005, 7.48415E-07, 
DataValue, 4.7, 7.70935E-07, 
DataValue, 4.8, 7.92367E-07, 
DataValue, 4.9, 8.1269899999999994E-07, 
DataValue, 5, 8.38056E-07, 