
SetupTitle, WW
PrimitiveTest, I/V Sweep
TestParameter, Context.MainFrame, B1500A
TestParameter, Channel.UnitType, SMU, SMU
TestParameter, Channel.Unit, SMU2:HP, SMU1:HP
TestParameter, Channel.IName, I1, I4
TestParameter, Channel.VName, V1, V4
TestParameter, Channel.Mode, V, COMMON
TestParameter, Channel.Func, VAR1, CONST
TestParameter, Channel.Index, 
TestParameter, Channel.Time, 
TestParameter, Measurement.Port.Unit, SMU2:HP, SMU1:HP
TestParameter, Measurement.Port.SeriesResistor, NONE, NONE
TestParameter, Measurement.Port.Filter, ON, ON
TestParameter, Measurement.Port.OutputVoltageComparison, 0, 0
TestParameter, Measurement.Primary.Locus, Single
TestParameter, Measurement.Primary.Scale, LINEAR
TestParameter, Measurement.Primary.Start, -5
TestParameter, Measurement.Primary.Stop, 5
TestParameter, Measurement.Primary.Step, 0.1
TestParameter, Measurement.Primary.Compliance, 0.1
TestParameter, Measurement.Primary.PowerCompliance, 0
TestParameter, Measurement.Aborting.Condition, CONTINUE AT ANY
TestParameter, Measurement.PostOutput.Value, START
TestParameter, Measurement.PostOutput.Retention, OFF
TestParameter, Measurement.Bias.Source, -5, 0
TestParameter, Measurement.Bias.Compliance, 0.1, 1
TestParameter, Measurement.Monitor.Unit, SMU2:HP, SMU1:HP
TestParameter, Measurement.Monitor.Adc, HR ADC, HR ADC
TestParameter, Measurement.Monitor.Measurement, Compliance Side, Compliance Side
TestParameter, Measurement.Monitor.RangingMode, AUTO, AUTO
TestParameter, Measurement.Monitor.RangeBoundary, , 
TestParameter, Measurement.Monitor.RangeRating, BY FULL RANGE, BY FULL RANGE
TestParameter, Measurement.Monitor.RangeRatingCoeff, 50, 50
TestParameter, Measurement.Timing.Hold, 0
TestParameter, Measurement.Timing.Delay, 0.001
TestParameter, Measurement.Adc.HighSpeed.Mode, AUTO
TestParameter, Measurement.Adc.HighSpeed.Coeff, 1
TestParameter, Measurement.Adc.HighResolution.AutoZero, OFF
TestParameter, Measurement.Adc.HighResolution.Mode, PLC
TestParameter, Measurement.Adc.HighResolution.Coeff, 1
TestParameter, Measurement.WaitTime.Source.Coeff, 1
TestParameter, Measurement.WaitTime.Source.Offset, 0
TestParameter, Measurement.WaitTime.Monitor.Coeff, 1
TestParameter, Measurement.WaitTime.Monitor.Offset, 0
TestParameter, Function.User.Name, Ohmic
TestParameter, Function.User.Unit, ohm
TestParameter, Function.User.Definition, avg(V1/I1)
TestParameter, Output.Graph.Enabled, true
TestParameter, Output.Graph.XAxis.Data, V1
TestParameter, Output.Graph.XAxis.Scale, Linear
TestParameter, Output.Graph.XAxis.Left, -5
TestParameter, Output.Graph.XAxis.Right, 5
TestParameter, Output.Graph.YAxis.Data, I1
TestParameter, Output.Graph.YAxis.Scale, Linear
TestParameter, Output.Graph.YAxis.Bottom, -0.001
TestParameter, Output.Graph.YAxis.Top, 0.001
TestParameter, Output.Graph.YAxis.Group, 
TestParameter, Output.Scalar.Data, Ohmic
TestParameter, AutoAnalysis.Interpolation, false
TestParameter, AutoAnalysis.Line1.Enabled, false
TestParameter, AutoAnalysis.Line1.Type, 1
TestParameter, AutoAnalysis.Line1.Fix, True
TestParameter, AutoAnalysis.Line1.YAxis, 0
TestParameter, AutoAnalysis.Line1.Point1.Type, 0
TestParameter, AutoAnalysis.Line1.Point1.XY.X, 
TestParameter, AutoAnalysis.Line1.Point1.XY.Y, 
TestParameter, AutoAnalysis.Line1.Point1.Data.Var, 
TestParameter, AutoAnalysis.Line1.Point1.Data.Condition, 
TestParameter, AutoAnalysis.Line1.Point1.Data.Start, false
TestParameter, AutoAnalysis.Line1.Point1.Data.StartVar, 
TestParameter, AutoAnalysis.Line1.Point1.Data.StartCondition, 
TestParameter, AutoAnalysis.Line1.Point2.Type, 0
TestParameter, AutoAnalysis.Line1.Point2.XY.X, 
TestParameter, AutoAnalysis.Line1.Point2.XY.Y, 
TestParameter, AutoAnalysis.Line1.Point2.Data.Var, 
TestParameter, AutoAnalysis.Line1.Point2.Data.Condition, 
TestParameter, AutoAnalysis.Line1.Point2.Data.Start, false
TestParameter, AutoAnalysis.Line1.Point2.Data.StartVar, 
TestParameter, AutoAnalysis.Line1.Point2.Data.StartCondition, 
TestParameter, AutoAnalysis.Line1.GradientExpr, 0
TestParameter, AutoAnalysis.Line2.Enabled, false
TestParameter, AutoAnalysis.Line2.Type, 1
TestParameter, AutoAnalysis.Line2.Fix, True
TestParameter, AutoAnalysis.Line2.YAxis, 0
TestParameter, AutoAnalysis.Line2.Point1.Type, 0
TestParameter, AutoAnalysis.Line2.Point1.XY.X, 
TestParameter, AutoAnalysis.Line2.Point1.XY.Y, 
TestParameter, AutoAnalysis.Line2.Point1.Data.Var, 
TestParameter, AutoAnalysis.Line2.Point1.Data.Condition, 
TestParameter, AutoAnalysis.Line2.Point1.Data.Start, false
TestParameter, AutoAnalysis.Line2.Point1.Data.StartVar, 
TestParameter, AutoAnalysis.Line2.Point1.Data.StartCondition, 
TestParameter, AutoAnalysis.Line2.Point2.Type, 0
TestParameter, AutoAnalysis.Line2.Point2.XY.X, 
TestParameter, AutoAnalysis.Line2.Point2.XY.Y, 
TestParameter, AutoAnalysis.Line2.Point2.Data.Var, 
TestParameter, AutoAnalysis.Line2.Point2.Data.Condition, 
TestParameter, AutoAnalysis.Line2.Point2.Data.Start, false
TestParameter, AutoAnalysis.Line2.Point2.Data.StartVar, 
TestParameter, AutoAnalysis.Line2.Point2.Data.StartCondition, 
TestParameter, AutoAnalysis.Line2.GradientExpr, 0
TestParameter, AutoAnalysis.Marker.Enabled, false
TestParameter, AutoAnalysis.Marker.Data.Var, 
TestParameter, AutoAnalysis.Marker.Data.Condition, 
TestParameter, AutoAnalysis.Marker.Data.Start, false
TestParameter, AutoAnalysis.Marker.Data.StartVar, 
TestParameter, AutoAnalysis.Marker.Data.StartCondition, 
MetaData, TestRecord.EntryPoint, true
MetaData, TestRecord.RecordTime, 11/24/2020 20:03:51
MetaData, TestRecord.TestTarget, 
MetaData, TestRecord.IterationIndex, 34
MetaData, TestRecord.Preservation, true
MetaData, TestRecord.Flag, 
MetaData, TestRecord.Remarks, 
MetaData, TestRecord.LinkKey, 06c78db4-2b46-471b-a75b-360fd9f084b7
Dimension1, 101, 101, 101
Dimension2, 1, 1, 1
DataName, V1, I1, Ohmic
DataValue, -5, -7.03288E-07, 6596541.7757691294
DataValue, -4.9, -6.90279E-07, 
DataValue, -4.8, -6.76133E-07, 
DataValue, -4.7, -6.6283499999999994E-07, 
DataValue, -4.6000000000000005, -6.45896E-07, 
DataValue, -4.5, -6.3744299999999995E-07, 
DataValue, -4.4, -6.23398E-07, 
DataValue, -4.3, -6.11589E-07, 
DataValue, -4.2, -5.94593E-07, 
DataValue, -4.1, -5.79234E-07, 
DataValue, -4, -5.69462E-07, 
DataValue, -3.9, -5.52857E-07, 
DataValue, -3.8000000000000003, -5.43798E-07, 
DataValue, -3.7, -5.29153E-07, 
DataValue, -3.6, -5.19366E-07, 
DataValue, -3.5, -5.05596E-07, 
DataValue, -3.4, -4.92315E-07, 
DataValue, -3.3000000000000003, -4.83938E-07, 
DataValue, -3.2, -4.74045E-07, 
DataValue, -3.1, -4.62244E-07, 
DataValue, -3, -4.46127E-07, 
DataValue, -2.9, -4.37887E-07, 
DataValue, -2.8000000000000003, -4.25214E-07, 
DataValue, -2.7, -4.14123E-07, 
DataValue, -2.6, -4.00381E-07, 
DataValue, -2.5, -3.87504E-07, 
DataValue, -2.4, -3.73137E-07, 
DataValue, -2.3000000000000003, -3.6429899999999997E-07, 
DataValue, -2.2, -3.55616E-07, 
DataValue, -2.1, -3.37791E-07, 
DataValue, -2, -3.2741699999999997E-07, 
DataValue, -1.9000000000000001, -3.11393E-07, 
DataValue, -1.8, -3.00203E-07, 
DataValue, -1.7, -2.8478699999999997E-07, 
DataValue, -1.6, -2.72329E-07, 
DataValue, -1.5, -2.56212E-07, 
DataValue, -1.4000000000000001, -2.44416E-07, 
DataValue, -1.3, -2.2896299999999998E-07, 
DataValue, -1.2, -2.15059E-07, 
DataValue, -1.1, -1.97506E-07, 
DataValue, -1, -1.80308E-07, 
DataValue, -0.9, -1.65908E-07, 
DataValue, -0.8, -1.46684E-07, 
DataValue, -0.70000000000000007, -1.30391E-07, 
DataValue, -0.6, -1.1142299999999999E-07, 
DataValue, -0.5, -9.3413999999999992E-08, 
DataValue, -0.4, -7.7105E-08, 
DataValue, -0.3, -6.0281E-08, 
DataValue, -0.2, -4.2353E-08, 
DataValue, -0.1, -2.3247799999999997E-08, 
DataValue, 0, 7.1469999999999992E-10, 
DataValue, 0.1, 2.0329499999999997E-08, 
DataValue, 0.2, 3.4332299999999996E-08, 
DataValue, 0.3, 4.6462799999999993E-08, 
DataValue, 0.4, 5.7463399999999992E-08, 
DataValue, 0.5, 6.8362599999999993E-08, 
DataValue, 0.6, 7.90047E-08, 
DataValue, 0.70000000000000007, 9.0139899999999993E-08, 
DataValue, 0.8, 1.0124179999999999E-07, 
DataValue, 0.9, 1.12925E-07, 
DataValue, 1, 1.24383E-07, 
DataValue, 1.1, 1.369E-07, 
DataValue, 1.2, 1.49125E-07, 
DataValue, 1.3, 1.6131E-07, 
DataValue, 1.4000000000000001, 1.74004E-07, 
DataValue, 1.5, 1.87216E-07, 
DataValue, 1.6, 2.00932E-07, 
DataValue, 1.7, 2.14671E-07, 
DataValue, 1.8, 2.29341E-07, 
DataValue, 1.9000000000000001, 2.43795E-07, 
DataValue, 2, 2.5934499999999997E-07, 
DataValue, 2.1, 2.73898E-07, 
DataValue, 2.2, 2.89112E-07, 
DataValue, 2.3000000000000003, 3.05172E-07, 
DataValue, 2.4, 3.2251099999999997E-07, 
DataValue, 2.5, 3.3932099999999997E-07, 
DataValue, 2.6, 3.54876E-07, 
DataValue, 2.7, 3.72477E-07, 
DataValue, 2.8000000000000003, 3.89213E-07, 
DataValue, 2.9, 4.07833E-07, 
DataValue, 3, 4.25527E-07, 
DataValue, 3.1, 4.45303E-07, 
DataValue, 3.2, 4.64532E-07, 
DataValue, 3.3000000000000003, 4.83485E-07, 
DataValue, 3.4, 5.02993E-07, 
DataValue, 3.5, 5.21468E-07, 
DataValue, 3.6, 5.41519E-07, 
DataValue, 3.7, 5.64236E-07, 
DataValue, 3.8000000000000003, 5.8524E-07, 
DataValue, 3.9, 6.0711799999999994E-07, 
DataValue, 4, 6.27587E-07, 
DataValue, 4.1, 6.48153E-07, 
DataValue, 4.2, 6.69092E-07, 
DataValue, 4.3, 6.90469E-07, 
DataValue, 4.4, 7.12757E-07, 
DataValue, 4.5, 7.33238E-07, 
DataValue, 4.6000000000000005, 7.54336E-07, 
DataValue, 4.7, 7.766E-07, 
DataValue, 4.8, 7.97886E-07, 
DataValue, 4.9, 8.19104E-07, 
DataValue, 5, 8.3980199999999994E-07, 