
SetupTitle, WW
PrimitiveTest, I/V Sweep
TestParameter, Context.MainFrame, B1500A
TestParameter, Channel.UnitType, SMU, SMU
TestParameter, Channel.Unit, SMU2:HP, SMU1:HP
TestParameter, Channel.IName, I1, I4
TestParameter, Channel.VName, V1, V4
TestParameter, Channel.Mode, V, COMMON
TestParameter, Channel.Func, VAR1, CONST
TestParameter, Channel.Index, 
TestParameter, Channel.Time, 
TestParameter, Measurement.Port.Unit, SMU2:HP, SMU1:HP
TestParameter, Measurement.Port.SeriesResistor, NONE, NONE
TestParameter, Measurement.Port.Filter, ON, ON
TestParameter, Measurement.Port.OutputVoltageComparison, 0, 0
TestParameter, Measurement.Primary.Locus, Single
TestParameter, Measurement.Primary.Scale, LINEAR
TestParameter, Measurement.Primary.Start, -5
TestParameter, Measurement.Primary.Stop, 5
TestParameter, Measurement.Primary.Step, 0.1
TestParameter, Measurement.Primary.Compliance, 0.1
TestParameter, Measurement.Primary.PowerCompliance, 0
TestParameter, Measurement.Aborting.Condition, CONTINUE AT ANY
TestParameter, Measurement.PostOutput.Value, START
TestParameter, Measurement.PostOutput.Retention, OFF
TestParameter, Measurement.Bias.Source, -5, 0
TestParameter, Measurement.Bias.Compliance, 0.1, 1
TestParameter, Measurement.Monitor.Unit, SMU2:HP, SMU1:HP
TestParameter, Measurement.Monitor.Adc, HR ADC, HR ADC
TestParameter, Measurement.Monitor.Measurement, Compliance Side, Compliance Side
TestParameter, Measurement.Monitor.RangingMode, AUTO, AUTO
TestParameter, Measurement.Monitor.RangeBoundary, , 
TestParameter, Measurement.Monitor.RangeRating, BY FULL RANGE, BY FULL RANGE
TestParameter, Measurement.Monitor.RangeRatingCoeff, 50, 50
TestParameter, Measurement.Timing.Hold, 0
TestParameter, Measurement.Timing.Delay, 0.001
TestParameter, Measurement.Adc.HighSpeed.Mode, AUTO
TestParameter, Measurement.Adc.HighSpeed.Coeff, 1
TestParameter, Measurement.Adc.HighResolution.AutoZero, OFF
TestParameter, Measurement.Adc.HighResolution.Mode, PLC
TestParameter, Measurement.Adc.HighResolution.Coeff, 1
TestParameter, Measurement.WaitTime.Source.Coeff, 1
TestParameter, Measurement.WaitTime.Source.Offset, 0
TestParameter, Measurement.WaitTime.Monitor.Coeff, 1
TestParameter, Measurement.WaitTime.Monitor.Offset, 0
TestParameter, Function.User.Name, Ohmic
TestParameter, Function.User.Unit, ohm
TestParameter, Function.User.Definition, avg(V1/I1)
TestParameter, Output.Graph.Enabled, true
TestParameter, Output.Graph.XAxis.Data, V1
TestParameter, Output.Graph.XAxis.Scale, Linear
TestParameter, Output.Graph.XAxis.Left, -5
TestParameter, Output.Graph.XAxis.Right, 5
TestParameter, Output.Graph.YAxis.Data, I1
TestParameter, Output.Graph.YAxis.Scale, Linear
TestParameter, Output.Graph.YAxis.Bottom, -0.001
TestParameter, Output.Graph.YAxis.Top, 0.001
TestParameter, Output.Graph.YAxis.Group, 
TestParameter, Output.Scalar.Data, Ohmic
TestParameter, AutoAnalysis.Interpolation, false
TestParameter, AutoAnalysis.Line1.Enabled, false
TestParameter, AutoAnalysis.Line1.Type, 1
TestParameter, AutoAnalysis.Line1.Fix, True
TestParameter, AutoAnalysis.Line1.YAxis, 0
TestParameter, AutoAnalysis.Line1.Point1.Type, 0
TestParameter, AutoAnalysis.Line1.Point1.XY.X, 
TestParameter, AutoAnalysis.Line1.Point1.XY.Y, 
TestParameter, AutoAnalysis.Line1.Point1.Data.Var, 
TestParameter, AutoAnalysis.Line1.Point1.Data.Condition, 
TestParameter, AutoAnalysis.Line1.Point1.Data.Start, false
TestParameter, AutoAnalysis.Line1.Point1.Data.StartVar, 
TestParameter, AutoAnalysis.Line1.Point1.Data.StartCondition, 
TestParameter, AutoAnalysis.Line1.Point2.Type, 0
TestParameter, AutoAnalysis.Line1.Point2.XY.X, 
TestParameter, AutoAnalysis.Line1.Point2.XY.Y, 
TestParameter, AutoAnalysis.Line1.Point2.Data.Var, 
TestParameter, AutoAnalysis.Line1.Point2.Data.Condition, 
TestParameter, AutoAnalysis.Line1.Point2.Data.Start, false
TestParameter, AutoAnalysis.Line1.Point2.Data.StartVar, 
TestParameter, AutoAnalysis.Line1.Point2.Data.StartCondition, 
TestParameter, AutoAnalysis.Line1.GradientExpr, 0
TestParameter, AutoAnalysis.Line2.Enabled, false
TestParameter, AutoAnalysis.Line2.Type, 1
TestParameter, AutoAnalysis.Line2.Fix, True
TestParameter, AutoAnalysis.Line2.YAxis, 0
TestParameter, AutoAnalysis.Line2.Point1.Type, 0
TestParameter, AutoAnalysis.Line2.Point1.XY.X, 
TestParameter, AutoAnalysis.Line2.Point1.XY.Y, 
TestParameter, AutoAnalysis.Line2.Point1.Data.Var, 
TestParameter, AutoAnalysis.Line2.Point1.Data.Condition, 
TestParameter, AutoAnalysis.Line2.Point1.Data.Start, false
TestParameter, AutoAnalysis.Line2.Point1.Data.StartVar, 
TestParameter, AutoAnalysis.Line2.Point1.Data.StartCondition, 
TestParameter, AutoAnalysis.Line2.Point2.Type, 0
TestParameter, AutoAnalysis.Line2.Point2.XY.X, 
TestParameter, AutoAnalysis.Line2.Point2.XY.Y, 
TestParameter, AutoAnalysis.Line2.Point2.Data.Var, 
TestParameter, AutoAnalysis.Line2.Point2.Data.Condition, 
TestParameter, AutoAnalysis.Line2.Point2.Data.Start, false
TestParameter, AutoAnalysis.Line2.Point2.Data.StartVar, 
TestParameter, AutoAnalysis.Line2.Point2.Data.StartCondition, 
TestParameter, AutoAnalysis.Line2.GradientExpr, 0
TestParameter, AutoAnalysis.Marker.Enabled, false
TestParameter, AutoAnalysis.Marker.Data.Var, 
TestParameter, AutoAnalysis.Marker.Data.Condition, 
TestParameter, AutoAnalysis.Marker.Data.Start, false
TestParameter, AutoAnalysis.Marker.Data.StartVar, 
TestParameter, AutoAnalysis.Marker.Data.StartCondition, 
MetaData, TestRecord.EntryPoint, true
MetaData, TestRecord.RecordTime, 11/24/2020 20:03:16
MetaData, TestRecord.TestTarget, 
MetaData, TestRecord.IterationIndex, 33
MetaData, TestRecord.Preservation, true
MetaData, TestRecord.Flag, 
MetaData, TestRecord.Remarks, 
MetaData, TestRecord.LinkKey, b4498fdb-badd-47a3-8ee3-4314a68e4a52
Dimension1, 101, 101, 101
Dimension2, 1, 1, 1
DataName, V1, I1, Ohmic
DataValue, -5, -6.73609E-07, 6759435.8860775866
DataValue, -4.9, -6.59489E-07, 
DataValue, -4.8, -6.49423E-07, 
DataValue, -4.7, -6.3328E-07, 
DataValue, -4.6000000000000005, -6.1961E-07, 
DataValue, -4.5, -6.06521E-07, 
DataValue, -4.4, -5.93682E-07, 
DataValue, -4.3, -5.81561E-07, 
DataValue, -4.2, -5.70663E-07, 
DataValue, -4.1, -5.58874E-07, 
DataValue, -4, -5.46849E-07, 
DataValue, -3.9, -5.36903E-07, 
DataValue, -3.8000000000000003, -5.21783E-07, 
DataValue, -3.7, -5.12105E-07, 
DataValue, -3.6, -4.98918E-07, 
DataValue, -3.5, -4.87804E-07, 
DataValue, -3.4, -4.76736E-07, 
DataValue, -3.3000000000000003, -4.65474E-07, 
DataValue, -3.2, -4.54657E-07, 
DataValue, -3.1, -4.42696E-07, 
DataValue, -3, -4.29967E-07, 
DataValue, -2.9, -4.18042E-07, 
DataValue, -2.8000000000000003, -4.04979E-07, 
DataValue, -2.7, -3.94671E-07, 
DataValue, -2.6, -3.82634E-07, 
DataValue, -2.5, -3.72366E-07, 
DataValue, -2.4, -3.6174999999999997E-07, 
DataValue, -2.3000000000000003, -3.49415E-07, 
DataValue, -2.2, -3.37622E-07, 
DataValue, -2.1, -3.25459E-07, 
DataValue, -2, -3.11306E-07, 
DataValue, -1.9000000000000001, -3.01358E-07, 
DataValue, -1.8, -2.87863E-07, 
DataValue, -1.7, -2.74829E-07, 
DataValue, -1.6, -2.5976699999999997E-07, 
DataValue, -1.5, -2.49001E-07, 
DataValue, -1.4000000000000001, -2.32795E-07, 
DataValue, -1.3, -2.19989E-07, 
DataValue, -1.2, -2.06141E-07, 
DataValue, -1.1, -1.88335E-07, 
DataValue, -1, -1.73236E-07, 
DataValue, -0.9, -1.5834899999999998E-07, 
DataValue, -0.8, -1.42089E-07, 
DataValue, -0.70000000000000007, -1.25437E-07, 
DataValue, -0.6, -1.08116E-07, 
DataValue, -0.5, -9.1961E-08, 
DataValue, -0.4, -7.5914E-08, 
DataValue, -0.3, -5.9659E-08, 
DataValue, -0.2, -4.2084999999999996E-08, 
DataValue, -0.1, -2.3525899999999996E-08, 
DataValue, 0, 5.019E-10, 
DataValue, 0.1, 2.0126299999999997E-08, 
DataValue, 0.2, 3.38032E-08, 
DataValue, 0.3, 4.57356E-08, 
DataValue, 0.4, 5.6846199999999996E-08, 
DataValue, 0.5, 6.76592E-08, 
DataValue, 0.6, 7.8446999999999988E-08, 
DataValue, 0.70000000000000007, 8.93398E-08, 
DataValue, 0.8, 1.0094679999999999E-07, 
DataValue, 0.9, 1.12176E-07, 
DataValue, 1, 1.23834E-07, 
DataValue, 1.1, 1.36295E-07, 
DataValue, 1.2, 1.4882599999999999E-07, 
DataValue, 1.3, 1.60814E-07, 
DataValue, 1.4000000000000001, 1.7323E-07, 
DataValue, 1.5, 1.86534E-07, 
DataValue, 1.6, 2.00001E-07, 
DataValue, 1.7, 2.1406E-07, 
DataValue, 1.8, 2.27158E-07, 
DataValue, 1.9000000000000001, 2.42127E-07, 
DataValue, 2, 2.5682499999999997E-07, 
DataValue, 2.1, 2.72634E-07, 
DataValue, 2.2, 2.87936E-07, 
DataValue, 2.3000000000000003, 3.0268E-07, 
DataValue, 2.4, 3.19432E-07, 
DataValue, 2.5, 3.3563299999999997E-07, 
DataValue, 2.6, 3.51615E-07, 
DataValue, 2.7, 3.68596E-07, 
DataValue, 2.8000000000000003, 3.86881E-07, 
DataValue, 2.9, 4.05442E-07, 
DataValue, 3, 4.2131E-07, 
DataValue, 3.1, 4.40974E-07, 
DataValue, 3.2, 4.59946E-07, 
DataValue, 3.3000000000000003, 4.79004E-07, 
DataValue, 3.4, 4.97142E-07, 
DataValue, 3.5, 5.17397E-07, 
DataValue, 3.6, 5.35536E-07, 
DataValue, 3.7, 5.54526E-07, 
DataValue, 3.8000000000000003, 5.74441E-07, 
DataValue, 3.9, 5.95777E-07, 
DataValue, 4, 6.16127E-07, 
DataValue, 4.1, 6.36568E-07, 
DataValue, 4.2, 6.54311E-07, 
DataValue, 4.3, 6.73949E-07, 
DataValue, 4.4, 6.9329399999999993E-07, 
DataValue, 4.5, 7.13316E-07, 
DataValue, 4.6000000000000005, 7.33944E-07, 
DataValue, 4.7, 7.56239E-07, 
DataValue, 4.8, 7.78295E-07, 
DataValue, 4.9, 7.9663499999999993E-07, 
DataValue, 5, 8.1679E-07, 