
SetupTitle, WW
PrimitiveTest, I/V Sweep
TestParameter, Context.MainFrame, B1500A
TestParameter, Channel.UnitType, SMU, SMU
TestParameter, Channel.Unit, SMU2:HP, SMU1:HP
TestParameter, Channel.IName, I1, I4
TestParameter, Channel.VName, V1, V4
TestParameter, Channel.Mode, V, COMMON
TestParameter, Channel.Func, VAR1, CONST
TestParameter, Channel.Index, 
TestParameter, Channel.Time, 
TestParameter, Measurement.Port.Unit, SMU2:HP, SMU1:HP
TestParameter, Measurement.Port.SeriesResistor, NONE, NONE
TestParameter, Measurement.Port.Filter, ON, ON
TestParameter, Measurement.Port.OutputVoltageComparison, 0, 0
TestParameter, Measurement.Primary.Locus, Single
TestParameter, Measurement.Primary.Scale, LINEAR
TestParameter, Measurement.Primary.Start, -5
TestParameter, Measurement.Primary.Stop, 5
TestParameter, Measurement.Primary.Step, 0.1
TestParameter, Measurement.Primary.Compliance, 0.1
TestParameter, Measurement.Primary.PowerCompliance, 0
TestParameter, Measurement.Aborting.Condition, CONTINUE AT ANY
TestParameter, Measurement.PostOutput.Value, START
TestParameter, Measurement.PostOutput.Retention, OFF
TestParameter, Measurement.Bias.Source, -5, 0
TestParameter, Measurement.Bias.Compliance, 0.1, 1
TestParameter, Measurement.Monitor.Unit, SMU2:HP, SMU1:HP
TestParameter, Measurement.Monitor.Adc, HR ADC, HR ADC
TestParameter, Measurement.Monitor.Measurement, Compliance Side, Compliance Side
TestParameter, Measurement.Monitor.RangingMode, AUTO, AUTO
TestParameter, Measurement.Monitor.RangeBoundary, , 
TestParameter, Measurement.Monitor.RangeRating, BY FULL RANGE, BY FULL RANGE
TestParameter, Measurement.Monitor.RangeRatingCoeff, 50, 50
TestParameter, Measurement.Timing.Hold, 0
TestParameter, Measurement.Timing.Delay, 0.001
TestParameter, Measurement.Adc.HighSpeed.Mode, AUTO
TestParameter, Measurement.Adc.HighSpeed.Coeff, 1
TestParameter, Measurement.Adc.HighResolution.AutoZero, OFF
TestParameter, Measurement.Adc.HighResolution.Mode, PLC
TestParameter, Measurement.Adc.HighResolution.Coeff, 1
TestParameter, Measurement.WaitTime.Source.Coeff, 1
TestParameter, Measurement.WaitTime.Source.Offset, 0
TestParameter, Measurement.WaitTime.Monitor.Coeff, 1
TestParameter, Measurement.WaitTime.Monitor.Offset, 0
TestParameter, Function.User.Name, Ohmic
TestParameter, Function.User.Unit, ohm
TestParameter, Function.User.Definition, avg(V1/I1)
TestParameter, Output.Graph.Enabled, true
TestParameter, Output.Graph.XAxis.Data, V1
TestParameter, Output.Graph.XAxis.Scale, Linear
TestParameter, Output.Graph.XAxis.Left, -5
TestParameter, Output.Graph.XAxis.Right, 5
TestParameter, Output.Graph.YAxis.Data, I1
TestParameter, Output.Graph.YAxis.Scale, Linear
TestParameter, Output.Graph.YAxis.Bottom, -0.001
TestParameter, Output.Graph.YAxis.Top, 0.001
TestParameter, Output.Graph.YAxis.Group, 
TestParameter, Output.Scalar.Data, Ohmic
TestParameter, AutoAnalysis.Interpolation, false
TestParameter, AutoAnalysis.Line1.Enabled, false
TestParameter, AutoAnalysis.Line1.Type, 1
TestParameter, AutoAnalysis.Line1.Fix, True
TestParameter, AutoAnalysis.Line1.YAxis, 0
TestParameter, AutoAnalysis.Line1.Point1.Type, 0
TestParameter, AutoAnalysis.Line1.Point1.XY.X, 
TestParameter, AutoAnalysis.Line1.Point1.XY.Y, 
TestParameter, AutoAnalysis.Line1.Point1.Data.Var, 
TestParameter, AutoAnalysis.Line1.Point1.Data.Condition, 
TestParameter, AutoAnalysis.Line1.Point1.Data.Start, false
TestParameter, AutoAnalysis.Line1.Point1.Data.StartVar, 
TestParameter, AutoAnalysis.Line1.Point1.Data.StartCondition, 
TestParameter, AutoAnalysis.Line1.Point2.Type, 0
TestParameter, AutoAnalysis.Line1.Point2.XY.X, 
TestParameter, AutoAnalysis.Line1.Point2.XY.Y, 
TestParameter, AutoAnalysis.Line1.Point2.Data.Var, 
TestParameter, AutoAnalysis.Line1.Point2.Data.Condition, 
TestParameter, AutoAnalysis.Line1.Point2.Data.Start, false
TestParameter, AutoAnalysis.Line1.Point2.Data.StartVar, 
TestParameter, AutoAnalysis.Line1.Point2.Data.StartCondition, 
TestParameter, AutoAnalysis.Line1.GradientExpr, 0
TestParameter, AutoAnalysis.Line2.Enabled, false
TestParameter, AutoAnalysis.Line2.Type, 1
TestParameter, AutoAnalysis.Line2.Fix, True
TestParameter, AutoAnalysis.Line2.YAxis, 0
TestParameter, AutoAnalysis.Line2.Point1.Type, 0
TestParameter, AutoAnalysis.Line2.Point1.XY.X, 
TestParameter, AutoAnalysis.Line2.Point1.XY.Y, 
TestParameter, AutoAnalysis.Line2.Point1.Data.Var, 
TestParameter, AutoAnalysis.Line2.Point1.Data.Condition, 
TestParameter, AutoAnalysis.Line2.Point1.Data.Start, false
TestParameter, AutoAnalysis.Line2.Point1.Data.StartVar, 
TestParameter, AutoAnalysis.Line2.Point1.Data.StartCondition, 
TestParameter, AutoAnalysis.Line2.Point2.Type, 0
TestParameter, AutoAnalysis.Line2.Point2.XY.X, 
TestParameter, AutoAnalysis.Line2.Point2.XY.Y, 
TestParameter, AutoAnalysis.Line2.Point2.Data.Var, 
TestParameter, AutoAnalysis.Line2.Point2.Data.Condition, 
TestParameter, AutoAnalysis.Line2.Point2.Data.Start, false
TestParameter, AutoAnalysis.Line2.Point2.Data.StartVar, 
TestParameter, AutoAnalysis.Line2.Point2.Data.StartCondition, 
TestParameter, AutoAnalysis.Line2.GradientExpr, 0
TestParameter, AutoAnalysis.Marker.Enabled, false
TestParameter, AutoAnalysis.Marker.Data.Var, 
TestParameter, AutoAnalysis.Marker.Data.Condition, 
TestParameter, AutoAnalysis.Marker.Data.Start, false
TestParameter, AutoAnalysis.Marker.Data.StartVar, 
TestParameter, AutoAnalysis.Marker.Data.StartCondition, 
MetaData, TestRecord.EntryPoint, true
MetaData, TestRecord.RecordTime, 11/24/2020 20:02:43
MetaData, TestRecord.TestTarget, 
MetaData, TestRecord.IterationIndex, 32
MetaData, TestRecord.Preservation, true
MetaData, TestRecord.Flag, 
MetaData, TestRecord.Remarks, 
MetaData, TestRecord.LinkKey, 43dbacba-0925-4206-9720-b4cf13b2817b
Dimension1, 101, 101, 101
Dimension2, 1, 1, 1
DataName, V1, I1, Ohmic
DataValue, -5, -6.42853E-07, 6980290.9224552894
DataValue, -4.9, -6.28776E-07, 
DataValue, -4.8, -6.2004799999999994E-07, 
DataValue, -4.7, -6.07197E-07, 
DataValue, -4.6000000000000005, -5.95774E-07, 
DataValue, -4.5, -5.84151E-07, 
DataValue, -4.4, -5.70856E-07, 
DataValue, -4.3, -5.57128E-07, 
DataValue, -4.2, -5.46515E-07, 
DataValue, -4.1, -5.33637E-07, 
DataValue, -4, -5.23635E-07, 
DataValue, -3.9, -5.1041E-07, 
DataValue, -3.8000000000000003, -4.9786599999999994E-07, 
DataValue, -3.7, -4.87041E-07, 
DataValue, -3.6, -4.7510799999999997E-07, 
DataValue, -3.5, -4.63897E-07, 
DataValue, -3.4, -4.52929E-07, 
DataValue, -3.3000000000000003, -4.4202899999999997E-07, 
DataValue, -3.2, -4.33197E-07, 
DataValue, -3.1, -4.2158499999999997E-07, 
DataValue, -3, -4.10274E-07, 
DataValue, -2.9, -3.98543E-07, 
DataValue, -2.8000000000000003, -3.89567E-07, 
DataValue, -2.7, -3.78126E-07, 
DataValue, -2.6, -3.68294E-07, 
DataValue, -2.5, -3.56814E-07, 
DataValue, -2.4, -3.45673E-07, 
DataValue, -2.3000000000000003, -3.3565399999999997E-07, 
DataValue, -2.2, -3.226E-07, 
DataValue, -2.1, -3.12029E-07, 
DataValue, -2, -3.00529E-07, 
DataValue, -1.9000000000000001, -2.8899E-07, 
DataValue, -1.8, -2.76889E-07, 
DataValue, -1.7, -2.63548E-07, 
DataValue, -1.6, -2.50874E-07, 
DataValue, -1.5, -2.38453E-07, 
DataValue, -1.4000000000000001, -2.2522799999999998E-07, 
DataValue, -1.3, -2.09196E-07, 
DataValue, -1.2, -1.9607199999999998E-07, 
DataValue, -1.1, -1.81936E-07, 
DataValue, -1, -1.66837E-07, 
DataValue, -0.9, -1.51631E-07, 
DataValue, -0.8, -1.35983E-07, 
DataValue, -0.70000000000000007, -1.20679E-07, 
DataValue, -0.6, -1.03739E-07, 
DataValue, -0.5, -8.7949E-08, 
DataValue, -0.4, -7.1796E-08, 
DataValue, -0.3, -5.6528999999999996E-08, 
DataValue, -0.2, -4.0843E-08, 
DataValue, -0.1, -2.30043E-08, 
DataValue, 0, 7.135E-10, 
DataValue, 0.1, 2.0116799999999997E-08, 
DataValue, 0.2, 3.3516499999999994E-08, 
DataValue, 0.3, 4.5253999999999996E-08, 
DataValue, 0.4, 5.6279099999999996E-08, 
DataValue, 0.5, 6.7130399999999988E-08, 
DataValue, 0.6, 7.752919999999999E-08, 
DataValue, 0.70000000000000007, 8.8389299999999988E-08, 
DataValue, 0.8, 9.9843799999999993E-08, 
DataValue, 0.9, 1.10658E-07, 
DataValue, 1, 1.2228399999999999E-07, 
DataValue, 1.1, 1.34162E-07, 
DataValue, 1.2, 1.4562E-07, 
DataValue, 1.3, 1.58464E-07, 
DataValue, 1.4000000000000001, 1.70623E-07, 
DataValue, 1.5, 1.83277E-07, 
DataValue, 1.6, 1.9723999999999999E-07, 
DataValue, 1.7, 2.11472E-07, 
DataValue, 1.8, 2.24594E-07, 
DataValue, 1.9000000000000001, 2.38877E-07, 
DataValue, 2, 2.5233E-07, 
DataValue, 2.1, 2.6667E-07, 
DataValue, 2.2, 2.8235E-07, 
DataValue, 2.3000000000000003, 2.9837E-07, 
DataValue, 2.4, 3.13762E-07, 
DataValue, 2.5, 3.28795E-07, 
DataValue, 2.6, 3.45045E-07, 
DataValue, 2.7, 3.61198E-07, 
DataValue, 2.8000000000000003, 3.77241E-07, 
DataValue, 2.9, 3.94211E-07, 
DataValue, 3, 4.12226E-07, 
DataValue, 3.1, 4.29407E-07, 
DataValue, 3.2, 4.46713E-07, 
DataValue, 3.3000000000000003, 4.64298E-07, 
DataValue, 3.4, 4.82904E-07, 
DataValue, 3.5, 5.0074E-07, 
DataValue, 3.6, 5.19318E-07, 
DataValue, 3.7, 5.37869E-07, 
DataValue, 3.8000000000000003, 5.5778699999999994E-07, 
DataValue, 3.9, 5.75248E-07, 
DataValue, 4, 5.95832E-07, 
DataValue, 4.1, 6.14592E-07, 
DataValue, 4.2, 6.3501E-07, 
DataValue, 4.3, 6.52978E-07, 
DataValue, 4.4, 6.74021E-07, 
DataValue, 4.5, 6.91378E-07, 
DataValue, 4.6000000000000005, 7.12239E-07, 
DataValue, 4.7, 7.32094E-07, 
DataValue, 4.8, 7.49665E-07, 
DataValue, 4.9, 7.69232E-07, 
DataValue, 5, 7.88172E-07, 