
SetupTitle, WW
PrimitiveTest, I/V Sweep
TestParameter, Context.MainFrame, B1500A
TestParameter, Channel.UnitType, SMU, SMU
TestParameter, Channel.Unit, SMU2:HP, SMU1:HP
TestParameter, Channel.IName, I1, I4
TestParameter, Channel.VName, V1, V4
TestParameter, Channel.Mode, V, COMMON
TestParameter, Channel.Func, VAR1, CONST
TestParameter, Channel.Index, 
TestParameter, Channel.Time, 
TestParameter, Measurement.Port.Unit, SMU2:HP, SMU1:HP
TestParameter, Measurement.Port.SeriesResistor, NONE, NONE
TestParameter, Measurement.Port.Filter, ON, ON
TestParameter, Measurement.Port.OutputVoltageComparison, 0, 0
TestParameter, Measurement.Primary.Locus, Single
TestParameter, Measurement.Primary.Scale, LINEAR
TestParameter, Measurement.Primary.Start, -5
TestParameter, Measurement.Primary.Stop, 5
TestParameter, Measurement.Primary.Step, 0.1
TestParameter, Measurement.Primary.Compliance, 0.1
TestParameter, Measurement.Primary.PowerCompliance, 0
TestParameter, Measurement.Aborting.Condition, CONTINUE AT ANY
TestParameter, Measurement.PostOutput.Value, START
TestParameter, Measurement.PostOutput.Retention, OFF
TestParameter, Measurement.Bias.Source, -5, 0
TestParameter, Measurement.Bias.Compliance, 0.1, 1
TestParameter, Measurement.Monitor.Unit, SMU2:HP, SMU1:HP
TestParameter, Measurement.Monitor.Adc, HR ADC, HR ADC
TestParameter, Measurement.Monitor.Measurement, Compliance Side, Compliance Side
TestParameter, Measurement.Monitor.RangingMode, AUTO, AUTO
TestParameter, Measurement.Monitor.RangeBoundary, , 
TestParameter, Measurement.Monitor.RangeRating, BY FULL RANGE, BY FULL RANGE
TestParameter, Measurement.Monitor.RangeRatingCoeff, 50, 50
TestParameter, Measurement.Timing.Hold, 0
TestParameter, Measurement.Timing.Delay, 0.001
TestParameter, Measurement.Adc.HighSpeed.Mode, AUTO
TestParameter, Measurement.Adc.HighSpeed.Coeff, 1
TestParameter, Measurement.Adc.HighResolution.AutoZero, OFF
TestParameter, Measurement.Adc.HighResolution.Mode, PLC
TestParameter, Measurement.Adc.HighResolution.Coeff, 1
TestParameter, Measurement.WaitTime.Source.Coeff, 1
TestParameter, Measurement.WaitTime.Source.Offset, 0
TestParameter, Measurement.WaitTime.Monitor.Coeff, 1
TestParameter, Measurement.WaitTime.Monitor.Offset, 0
TestParameter, Function.User.Name, Ohmic
TestParameter, Function.User.Unit, ohm
TestParameter, Function.User.Definition, avg(V1/I1)
TestParameter, Output.Graph.Enabled, true
TestParameter, Output.Graph.XAxis.Data, V1
TestParameter, Output.Graph.XAxis.Scale, Linear
TestParameter, Output.Graph.XAxis.Left, -5
TestParameter, Output.Graph.XAxis.Right, 5
TestParameter, Output.Graph.YAxis.Data, I1
TestParameter, Output.Graph.YAxis.Scale, Linear
TestParameter, Output.Graph.YAxis.Bottom, -0.001
TestParameter, Output.Graph.YAxis.Top, 0.001
TestParameter, Output.Graph.YAxis.Group, 
TestParameter, Output.Scalar.Data, Ohmic
TestParameter, AutoAnalysis.Interpolation, false
TestParameter, AutoAnalysis.Line1.Enabled, false
TestParameter, AutoAnalysis.Line1.Type, 1
TestParameter, AutoAnalysis.Line1.Fix, True
TestParameter, AutoAnalysis.Line1.YAxis, 0
TestParameter, AutoAnalysis.Line1.Point1.Type, 0
TestParameter, AutoAnalysis.Line1.Point1.XY.X, 
TestParameter, AutoAnalysis.Line1.Point1.XY.Y, 
TestParameter, AutoAnalysis.Line1.Point1.Data.Var, 
TestParameter, AutoAnalysis.Line1.Point1.Data.Condition, 
TestParameter, AutoAnalysis.Line1.Point1.Data.Start, false
TestParameter, AutoAnalysis.Line1.Point1.Data.StartVar, 
TestParameter, AutoAnalysis.Line1.Point1.Data.StartCondition, 
TestParameter, AutoAnalysis.Line1.Point2.Type, 0
TestParameter, AutoAnalysis.Line1.Point2.XY.X, 
TestParameter, AutoAnalysis.Line1.Point2.XY.Y, 
TestParameter, AutoAnalysis.Line1.Point2.Data.Var, 
TestParameter, AutoAnalysis.Line1.Point2.Data.Condition, 
TestParameter, AutoAnalysis.Line1.Point2.Data.Start, false
TestParameter, AutoAnalysis.Line1.Point2.Data.StartVar, 
TestParameter, AutoAnalysis.Line1.Point2.Data.StartCondition, 
TestParameter, AutoAnalysis.Line1.GradientExpr, 0
TestParameter, AutoAnalysis.Line2.Enabled, false
TestParameter, AutoAnalysis.Line2.Type, 1
TestParameter, AutoAnalysis.Line2.Fix, True
TestParameter, AutoAnalysis.Line2.YAxis, 0
TestParameter, AutoAnalysis.Line2.Point1.Type, 0
TestParameter, AutoAnalysis.Line2.Point1.XY.X, 
TestParameter, AutoAnalysis.Line2.Point1.XY.Y, 
TestParameter, AutoAnalysis.Line2.Point1.Data.Var, 
TestParameter, AutoAnalysis.Line2.Point1.Data.Condition, 
TestParameter, AutoAnalysis.Line2.Point1.Data.Start, false
TestParameter, AutoAnalysis.Line2.Point1.Data.StartVar, 
TestParameter, AutoAnalysis.Line2.Point1.Data.StartCondition, 
TestParameter, AutoAnalysis.Line2.Point2.Type, 0
TestParameter, AutoAnalysis.Line2.Point2.XY.X, 
TestParameter, AutoAnalysis.Line2.Point2.XY.Y, 
TestParameter, AutoAnalysis.Line2.Point2.Data.Var, 
TestParameter, AutoAnalysis.Line2.Point2.Data.Condition, 
TestParameter, AutoAnalysis.Line2.Point2.Data.Start, false
TestParameter, AutoAnalysis.Line2.Point2.Data.StartVar, 
TestParameter, AutoAnalysis.Line2.Point2.Data.StartCondition, 
TestParameter, AutoAnalysis.Line2.GradientExpr, 0
TestParameter, AutoAnalysis.Marker.Enabled, false
TestParameter, AutoAnalysis.Marker.Data.Var, 
TestParameter, AutoAnalysis.Marker.Data.Condition, 
TestParameter, AutoAnalysis.Marker.Data.Start, false
TestParameter, AutoAnalysis.Marker.Data.StartVar, 
TestParameter, AutoAnalysis.Marker.Data.StartCondition, 
MetaData, TestRecord.EntryPoint, true
MetaData, TestRecord.RecordTime, 11/24/2020 20:01:42
MetaData, TestRecord.TestTarget, 
MetaData, TestRecord.IterationIndex, 30
MetaData, TestRecord.Preservation, true
MetaData, TestRecord.Flag, 
MetaData, TestRecord.Remarks, 
MetaData, TestRecord.LinkKey, d7207709-0f31-4d85-854d-b912970e8e1b
Dimension1, 101, 101, 101
Dimension2, 1, 1, 1
DataName, V1, I1, Ohmic
DataValue, -5, -6.08252E-07, 7261597.44428172
DataValue, -4.9, -5.96694E-07, 
DataValue, -4.8, -5.8477E-07, 
DataValue, -4.7, -5.73542E-07, 
DataValue, -4.6000000000000005, -5.59895E-07, 
DataValue, -4.5, -5.48784E-07, 
DataValue, -4.4, -5.37027E-07, 
DataValue, -4.3, -5.27521E-07, 
DataValue, -4.2, -5.16088E-07, 
DataValue, -4.1, -5.06564E-07, 
DataValue, -4, -4.91689E-07, 
DataValue, -3.9, -4.82028E-07, 
DataValue, -3.8000000000000003, -4.70593E-07, 
DataValue, -3.7, -4.62147E-07, 
DataValue, -3.6, -4.50779E-07, 
DataValue, -3.5, -4.40963E-07, 
DataValue, -3.4, -4.29856E-07, 
DataValue, -3.3000000000000003, -4.2179399999999997E-07, 
DataValue, -3.2, -4.11469E-07, 
DataValue, -3.1, -4.02047E-07, 
DataValue, -3, -3.91606E-07, 
DataValue, -2.9, -3.81063E-07, 
DataValue, -2.8000000000000003, -3.71355E-07, 
DataValue, -2.7, -3.60551E-07, 
DataValue, -2.6, -3.50528E-07, 
DataValue, -2.5, -3.41754E-07, 
DataValue, -2.4, -3.30761E-07, 
DataValue, -2.3000000000000003, -3.19256E-07, 
DataValue, -2.2, -3.0963E-07, 
DataValue, -2.1, -2.97741E-07, 
DataValue, -2, -2.88308E-07, 
DataValue, -1.9000000000000001, -2.77083E-07, 
DataValue, -1.8, -2.65406E-07, 
DataValue, -1.7, -2.53602E-07, 
DataValue, -1.6, -2.41388E-07, 
DataValue, -1.5, -2.28864E-07, 
DataValue, -1.4000000000000001, -2.16816E-07, 
DataValue, -1.3, -2.02846E-07, 
DataValue, -1.2, -1.89667E-07, 
DataValue, -1.1, -1.75568E-07, 
DataValue, -1, -1.60931E-07, 
DataValue, -0.9, -1.4638E-07, 
DataValue, -0.8, -1.31078E-07, 
DataValue, -0.70000000000000007, -1.15244E-07, 
DataValue, -0.6, -1.00116E-07, 
DataValue, -0.5, -8.5016E-08, 
DataValue, -0.4, -6.979E-08, 
DataValue, -0.3, -5.5162999999999996E-08, 
DataValue, -0.2, -4.0022E-08, 
DataValue, -0.1, -2.2859399999999998E-08, 
DataValue, 0, 6.993E-10, 
DataValue, 0.1, 1.9881599999999997E-08, 
DataValue, 0.2, 3.30994E-08, 
DataValue, 0.3, 4.4603199999999997E-08, 
DataValue, 0.4, 5.5252699999999996E-08, 
DataValue, 0.5, 6.59183E-08, 
DataValue, 0.6, 7.6376E-08, 
DataValue, 0.70000000000000007, 8.6839199999999985E-08, 
DataValue, 0.8, 9.778189999999999E-08, 
DataValue, 0.9, 1.0901899999999999E-07, 
DataValue, 1, 1.2015E-07, 
DataValue, 1.1, 1.3197199999999999E-07, 
DataValue, 1.2, 1.43467E-07, 
DataValue, 1.3, 1.55707E-07, 
DataValue, 1.4000000000000001, 1.68567E-07, 
DataValue, 1.5, 1.80716E-07, 
DataValue, 1.6, 1.93233E-07, 
DataValue, 1.7, 2.06475E-07, 
DataValue, 1.8, 2.20409E-07, 
DataValue, 1.9000000000000001, 2.32789E-07, 
DataValue, 2, 2.4633E-07, 
DataValue, 2.1, 2.60216E-07, 
DataValue, 2.2, 2.74322E-07, 
DataValue, 2.3000000000000003, 2.88785E-07, 
DataValue, 2.4, 3.03284E-07, 
DataValue, 2.5, 3.18346E-07, 
DataValue, 2.6, 3.33662E-07, 
DataValue, 2.7, 3.49254E-07, 
DataValue, 2.8000000000000003, 3.65556E-07, 
DataValue, 2.9, 3.79928E-07, 
DataValue, 3, 3.96471E-07, 
DataValue, 3.1, 4.1366E-07, 
DataValue, 3.2, 4.2979899999999997E-07, 
DataValue, 3.3000000000000003, 4.46579E-07, 
DataValue, 3.4, 4.62606E-07, 
DataValue, 3.5, 4.80136E-07, 
DataValue, 3.6, 4.98098E-07, 
DataValue, 3.7, 5.1441E-07, 
DataValue, 3.8000000000000003, 5.31139E-07, 
DataValue, 3.9, 5.48494E-07, 
DataValue, 4, 5.65454E-07, 
DataValue, 4.1, 5.82992E-07, 
DataValue, 4.2, 6.01212E-07, 
DataValue, 4.3, 6.1675299999999994E-07, 
DataValue, 4.4, 6.35421E-07, 
DataValue, 4.5, 6.5533E-07, 
DataValue, 4.6000000000000005, 6.73051E-07, 
DataValue, 4.7, 6.8864899999999994E-07, 
DataValue, 4.8, 7.05164E-07, 
DataValue, 4.9, 7.23417E-07, 
DataValue, 5, 7.40841E-07, 