
SetupTitle, WW
PrimitiveTest, I/V Sweep
TestParameter, Context.MainFrame, B1500A
TestParameter, Channel.UnitType, SMU, SMU
TestParameter, Channel.Unit, SMU2:HP, SMU1:HP
TestParameter, Channel.IName, I1, I4
TestParameter, Channel.VName, V1, V4
TestParameter, Channel.Mode, V, COMMON
TestParameter, Channel.Func, VAR1, CONST
TestParameter, Channel.Index, 
TestParameter, Channel.Time, 
TestParameter, Measurement.Port.Unit, SMU2:HP, SMU1:HP
TestParameter, Measurement.Port.SeriesResistor, NONE, NONE
TestParameter, Measurement.Port.Filter, ON, ON
TestParameter, Measurement.Port.OutputVoltageComparison, 0, 0
TestParameter, Measurement.Primary.Locus, Single
TestParameter, Measurement.Primary.Scale, LINEAR
TestParameter, Measurement.Primary.Start, -5
TestParameter, Measurement.Primary.Stop, 5
TestParameter, Measurement.Primary.Step, 0.1
TestParameter, Measurement.Primary.Compliance, 0.1
TestParameter, Measurement.Primary.PowerCompliance, 0
TestParameter, Measurement.Aborting.Condition, CONTINUE AT ANY
TestParameter, Measurement.PostOutput.Value, START
TestParameter, Measurement.PostOutput.Retention, OFF
TestParameter, Measurement.Bias.Source, -5, 0
TestParameter, Measurement.Bias.Compliance, 0.1, 1
TestParameter, Measurement.Monitor.Unit, SMU2:HP, SMU1:HP
TestParameter, Measurement.Monitor.Adc, HR ADC, HR ADC
TestParameter, Measurement.Monitor.Measurement, Compliance Side, Compliance Side
TestParameter, Measurement.Monitor.RangingMode, AUTO, AUTO
TestParameter, Measurement.Monitor.RangeBoundary, , 
TestParameter, Measurement.Monitor.RangeRating, BY FULL RANGE, BY FULL RANGE
TestParameter, Measurement.Monitor.RangeRatingCoeff, 50, 50
TestParameter, Measurement.Timing.Hold, 0
TestParameter, Measurement.Timing.Delay, 0.001
TestParameter, Measurement.Adc.HighSpeed.Mode, AUTO
TestParameter, Measurement.Adc.HighSpeed.Coeff, 1
TestParameter, Measurement.Adc.HighResolution.AutoZero, OFF
TestParameter, Measurement.Adc.HighResolution.Mode, PLC
TestParameter, Measurement.Adc.HighResolution.Coeff, 1
TestParameter, Measurement.WaitTime.Source.Coeff, 1
TestParameter, Measurement.WaitTime.Source.Offset, 0
TestParameter, Measurement.WaitTime.Monitor.Coeff, 1
TestParameter, Measurement.WaitTime.Monitor.Offset, 0
TestParameter, Function.User.Name, Ohmic
TestParameter, Function.User.Unit, ohm
TestParameter, Function.User.Definition, avg(V1/I1)
TestParameter, Output.Graph.Enabled, true
TestParameter, Output.Graph.XAxis.Data, V1
TestParameter, Output.Graph.XAxis.Scale, Linear
TestParameter, Output.Graph.XAxis.Left, -5
TestParameter, Output.Graph.XAxis.Right, 5
TestParameter, Output.Graph.YAxis.Data, I1
TestParameter, Output.Graph.YAxis.Scale, Linear
TestParameter, Output.Graph.YAxis.Bottom, -0.001
TestParameter, Output.Graph.YAxis.Top, 0.001
TestParameter, Output.Graph.YAxis.Group, 
TestParameter, Output.Scalar.Data, Ohmic
TestParameter, AutoAnalysis.Interpolation, false
TestParameter, AutoAnalysis.Line1.Enabled, false
TestParameter, AutoAnalysis.Line1.Type, 1
TestParameter, AutoAnalysis.Line1.Fix, True
TestParameter, AutoAnalysis.Line1.YAxis, 0
TestParameter, AutoAnalysis.Line1.Point1.Type, 0
TestParameter, AutoAnalysis.Line1.Point1.XY.X, 
TestParameter, AutoAnalysis.Line1.Point1.XY.Y, 
TestParameter, AutoAnalysis.Line1.Point1.Data.Var, 
TestParameter, AutoAnalysis.Line1.Point1.Data.Condition, 
TestParameter, AutoAnalysis.Line1.Point1.Data.Start, false
TestParameter, AutoAnalysis.Line1.Point1.Data.StartVar, 
TestParameter, AutoAnalysis.Line1.Point1.Data.StartCondition, 
TestParameter, AutoAnalysis.Line1.Point2.Type, 0
TestParameter, AutoAnalysis.Line1.Point2.XY.X, 
TestParameter, AutoAnalysis.Line1.Point2.XY.Y, 
TestParameter, AutoAnalysis.Line1.Point2.Data.Var, 
TestParameter, AutoAnalysis.Line1.Point2.Data.Condition, 
TestParameter, AutoAnalysis.Line1.Point2.Data.Start, false
TestParameter, AutoAnalysis.Line1.Point2.Data.StartVar, 
TestParameter, AutoAnalysis.Line1.Point2.Data.StartCondition, 
TestParameter, AutoAnalysis.Line1.GradientExpr, 0
TestParameter, AutoAnalysis.Line2.Enabled, false
TestParameter, AutoAnalysis.Line2.Type, 1
TestParameter, AutoAnalysis.Line2.Fix, True
TestParameter, AutoAnalysis.Line2.YAxis, 0
TestParameter, AutoAnalysis.Line2.Point1.Type, 0
TestParameter, AutoAnalysis.Line2.Point1.XY.X, 
TestParameter, AutoAnalysis.Line2.Point1.XY.Y, 
TestParameter, AutoAnalysis.Line2.Point1.Data.Var, 
TestParameter, AutoAnalysis.Line2.Point1.Data.Condition, 
TestParameter, AutoAnalysis.Line2.Point1.Data.Start, false
TestParameter, AutoAnalysis.Line2.Point1.Data.StartVar, 
TestParameter, AutoAnalysis.Line2.Point1.Data.StartCondition, 
TestParameter, AutoAnalysis.Line2.Point2.Type, 0
TestParameter, AutoAnalysis.Line2.Point2.XY.X, 
TestParameter, AutoAnalysis.Line2.Point2.XY.Y, 
TestParameter, AutoAnalysis.Line2.Point2.Data.Var, 
TestParameter, AutoAnalysis.Line2.Point2.Data.Condition, 
TestParameter, AutoAnalysis.Line2.Point2.Data.Start, false
TestParameter, AutoAnalysis.Line2.Point2.Data.StartVar, 
TestParameter, AutoAnalysis.Line2.Point2.Data.StartCondition, 
TestParameter, AutoAnalysis.Line2.GradientExpr, 0
TestParameter, AutoAnalysis.Marker.Enabled, false
TestParameter, AutoAnalysis.Marker.Data.Var, 
TestParameter, AutoAnalysis.Marker.Data.Condition, 
TestParameter, AutoAnalysis.Marker.Data.Start, false
TestParameter, AutoAnalysis.Marker.Data.StartVar, 
TestParameter, AutoAnalysis.Marker.Data.StartCondition, 
MetaData, TestRecord.EntryPoint, true
MetaData, TestRecord.RecordTime, 11/24/2020 20:01:13
MetaData, TestRecord.TestTarget, 
MetaData, TestRecord.IterationIndex, 29
MetaData, TestRecord.Preservation, true
MetaData, TestRecord.Flag, 
MetaData, TestRecord.Remarks, 
MetaData, TestRecord.LinkKey, 84e1dc88-3cbf-49c0-8ff8-9f4c6d452873
Dimension1, 101, 101, 101
Dimension2, 1, 1, 1
DataName, V1, I1, Ohmic
DataValue, -5, -5.93997E-07, 7418069.3345152568
DataValue, -4.9, -5.7959299999999994E-07, 
DataValue, -4.8, -5.66572E-07, 
DataValue, -4.7, -5.5785E-07, 
DataValue, -4.6000000000000005, -5.46764E-07, 
DataValue, -4.5, -5.34879E-07, 
DataValue, -4.4, -5.22827E-07, 
DataValue, -4.3, -5.11048E-07, 
DataValue, -4.2, -4.99449E-07, 
DataValue, -4.1, -4.89354E-07, 
DataValue, -4, -4.80186E-07, 
DataValue, -3.9, -4.7025599999999997E-07, 
DataValue, -3.8000000000000003, -4.56797E-07, 
DataValue, -3.7, -4.4814499999999997E-07, 
DataValue, -3.6, -4.37287E-07, 
DataValue, -3.5, -4.28484E-07, 
DataValue, -3.4, -4.1738099999999997E-07, 
DataValue, -3.3000000000000003, -4.09006E-07, 
DataValue, -3.2, -3.96044E-07, 
DataValue, -3.1, -3.87922E-07, 
DataValue, -3, -3.76771E-07, 
DataValue, -2.9, -3.69545E-07, 
DataValue, -2.8000000000000003, -3.57977E-07, 
DataValue, -2.7, -3.49108E-07, 
DataValue, -2.6, -3.40425E-07, 
DataValue, -2.5, -3.3070799999999997E-07, 
DataValue, -2.4, -3.18261E-07, 
DataValue, -2.3000000000000003, -3.1004899999999997E-07, 
DataValue, -2.2, -2.98167E-07, 
DataValue, -2.1, -2.8973E-07, 
DataValue, -2, -2.77285E-07, 
DataValue, -1.9000000000000001, -2.67707E-07, 
DataValue, -1.8, -2.56893E-07, 
DataValue, -1.7, -2.46002E-07, 
DataValue, -1.6, -2.33362E-07, 
DataValue, -1.5, -2.2287299999999999E-07, 
DataValue, -1.4000000000000001, -2.08629E-07, 
DataValue, -1.3, -1.97214E-07, 
DataValue, -1.2, -1.82682E-07, 
DataValue, -1.1, -1.7027699999999998E-07, 
DataValue, -1, -1.56242E-07, 
DataValue, -0.9, -1.40713E-07, 
DataValue, -0.8, -1.27002E-07, 
DataValue, -0.70000000000000007, -1.1193E-07, 
DataValue, -0.6, -9.7124E-08, 
DataValue, -0.5, -8.2617E-08, 
DataValue, -0.4, -6.7771E-08, 
DataValue, -0.3, -5.3610999999999996E-08, 
DataValue, -0.2, -3.9055E-08, 
DataValue, -0.1, -2.2304099999999998E-08, 
DataValue, 0, 7.533E-10, 
DataValue, 0.1, 1.9712899999999997E-08, 
DataValue, 0.2, 3.2711999999999995E-08, 
DataValue, 0.3, 4.3988199999999994E-08, 
DataValue, 0.4, 5.4657499999999992E-08, 
DataValue, 0.5, 6.4991299999999992E-08, 
DataValue, 0.6, 7.5484799999999993E-08, 
DataValue, 0.70000000000000007, 8.58396E-08, 
DataValue, 0.8, 9.6348499999999984E-08, 
DataValue, 0.9, 1.07495E-07, 
DataValue, 1, 1.18955E-07, 
DataValue, 1.1, 1.30185E-07, 
DataValue, 1.2, 1.41504E-07, 
DataValue, 1.3, 1.52816E-07, 
DataValue, 1.4000000000000001, 1.64959E-07, 
DataValue, 1.5, 1.77502E-07, 
DataValue, 1.6, 1.90825E-07, 
DataValue, 1.7, 2.03289E-07, 
DataValue, 1.8, 2.15992E-07, 
DataValue, 1.9000000000000001, 2.30025E-07, 
DataValue, 2, 2.43236E-07, 
DataValue, 2.1, 2.57224E-07, 
DataValue, 2.2, 2.71923E-07, 
DataValue, 2.3000000000000003, 2.85016E-07, 
DataValue, 2.4, 2.9865499999999997E-07, 
DataValue, 2.5, 3.15495E-07, 
DataValue, 2.6, 3.29508E-07, 
DataValue, 2.7, 3.44836E-07, 
DataValue, 2.8000000000000003, 3.60568E-07, 
DataValue, 2.9, 3.76124E-07, 
DataValue, 3, 3.9328899999999997E-07, 
DataValue, 3.1, 4.07311E-07, 
DataValue, 3.2, 4.25667E-07, 
DataValue, 3.3000000000000003, 4.4314E-07, 
DataValue, 3.4, 4.6011999999999997E-07, 
DataValue, 3.5, 4.76432E-07, 
DataValue, 3.6, 4.91707E-07, 
DataValue, 3.7, 5.08282E-07, 
DataValue, 3.8000000000000003, 5.25389E-07, 
DataValue, 3.9, 5.43732E-07, 
DataValue, 4, 5.61424E-07, 
DataValue, 4.1, 5.78306E-07, 
DataValue, 4.2, 5.95728E-07, 
DataValue, 4.3, 6.1280599999999994E-07, 
DataValue, 4.4, 6.28472E-07, 
DataValue, 4.5, 6.46226E-07, 
DataValue, 4.6000000000000005, 6.64704E-07, 
DataValue, 4.7, 6.82319E-07, 
DataValue, 4.8, 6.98674E-07, 
DataValue, 4.9, 7.1687199999999994E-07, 
DataValue, 5, 7.32647E-07, 