
SetupTitle, WW
PrimitiveTest, I/V Sweep
TestParameter, Context.MainFrame, B1500A
TestParameter, Channel.UnitType, SMU, SMU
TestParameter, Channel.Unit, SMU2:HP, SMU1:HP
TestParameter, Channel.IName, I1, I4
TestParameter, Channel.VName, V1, V4
TestParameter, Channel.Mode, V, COMMON
TestParameter, Channel.Func, VAR1, CONST
TestParameter, Channel.Index, 
TestParameter, Channel.Time, 
TestParameter, Measurement.Port.Unit, SMU2:HP, SMU1:HP
TestParameter, Measurement.Port.SeriesResistor, NONE, NONE
TestParameter, Measurement.Port.Filter, ON, ON
TestParameter, Measurement.Port.OutputVoltageComparison, 0, 0
TestParameter, Measurement.Primary.Locus, Single
TestParameter, Measurement.Primary.Scale, LINEAR
TestParameter, Measurement.Primary.Start, -5
TestParameter, Measurement.Primary.Stop, 5
TestParameter, Measurement.Primary.Step, 0.1
TestParameter, Measurement.Primary.Compliance, 0.1
TestParameter, Measurement.Primary.PowerCompliance, 0
TestParameter, Measurement.Aborting.Condition, CONTINUE AT ANY
TestParameter, Measurement.PostOutput.Value, START
TestParameter, Measurement.PostOutput.Retention, OFF
TestParameter, Measurement.Bias.Source, -5, 0
TestParameter, Measurement.Bias.Compliance, 0.1, 1
TestParameter, Measurement.Monitor.Unit, SMU2:HP, SMU1:HP
TestParameter, Measurement.Monitor.Adc, HR ADC, HR ADC
TestParameter, Measurement.Monitor.Measurement, Compliance Side, Compliance Side
TestParameter, Measurement.Monitor.RangingMode, AUTO, AUTO
TestParameter, Measurement.Monitor.RangeBoundary, , 
TestParameter, Measurement.Monitor.RangeRating, BY FULL RANGE, BY FULL RANGE
TestParameter, Measurement.Monitor.RangeRatingCoeff, 50, 50
TestParameter, Measurement.Timing.Hold, 0
TestParameter, Measurement.Timing.Delay, 0.001
TestParameter, Measurement.Adc.HighSpeed.Mode, AUTO
TestParameter, Measurement.Adc.HighSpeed.Coeff, 1
TestParameter, Measurement.Adc.HighResolution.AutoZero, OFF
TestParameter, Measurement.Adc.HighResolution.Mode, PLC
TestParameter, Measurement.Adc.HighResolution.Coeff, 1
TestParameter, Measurement.WaitTime.Source.Coeff, 1
TestParameter, Measurement.WaitTime.Source.Offset, 0
TestParameter, Measurement.WaitTime.Monitor.Coeff, 1
TestParameter, Measurement.WaitTime.Monitor.Offset, 0
TestParameter, Function.User.Name, Ohmic
TestParameter, Function.User.Unit, ohm
TestParameter, Function.User.Definition, avg(V1/I1)
TestParameter, Output.Graph.Enabled, true
TestParameter, Output.Graph.XAxis.Data, V1
TestParameter, Output.Graph.XAxis.Scale, Linear
TestParameter, Output.Graph.XAxis.Left, -5
TestParameter, Output.Graph.XAxis.Right, 5
TestParameter, Output.Graph.YAxis.Data, I1
TestParameter, Output.Graph.YAxis.Scale, Linear
TestParameter, Output.Graph.YAxis.Bottom, -0.001
TestParameter, Output.Graph.YAxis.Top, 0.001
TestParameter, Output.Graph.YAxis.Group, 
TestParameter, Output.Scalar.Data, Ohmic
TestParameter, AutoAnalysis.Interpolation, false
TestParameter, AutoAnalysis.Line1.Enabled, false
TestParameter, AutoAnalysis.Line1.Type, 1
TestParameter, AutoAnalysis.Line1.Fix, True
TestParameter, AutoAnalysis.Line1.YAxis, 0
TestParameter, AutoAnalysis.Line1.Point1.Type, 0
TestParameter, AutoAnalysis.Line1.Point1.XY.X, 
TestParameter, AutoAnalysis.Line1.Point1.XY.Y, 
TestParameter, AutoAnalysis.Line1.Point1.Data.Var, 
TestParameter, AutoAnalysis.Line1.Point1.Data.Condition, 
TestParameter, AutoAnalysis.Line1.Point1.Data.Start, false
TestParameter, AutoAnalysis.Line1.Point1.Data.StartVar, 
TestParameter, AutoAnalysis.Line1.Point1.Data.StartCondition, 
TestParameter, AutoAnalysis.Line1.Point2.Type, 0
TestParameter, AutoAnalysis.Line1.Point2.XY.X, 
TestParameter, AutoAnalysis.Line1.Point2.XY.Y, 
TestParameter, AutoAnalysis.Line1.Point2.Data.Var, 
TestParameter, AutoAnalysis.Line1.Point2.Data.Condition, 
TestParameter, AutoAnalysis.Line1.Point2.Data.Start, false
TestParameter, AutoAnalysis.Line1.Point2.Data.StartVar, 
TestParameter, AutoAnalysis.Line1.Point2.Data.StartCondition, 
TestParameter, AutoAnalysis.Line1.GradientExpr, 0
TestParameter, AutoAnalysis.Line2.Enabled, false
TestParameter, AutoAnalysis.Line2.Type, 1
TestParameter, AutoAnalysis.Line2.Fix, True
TestParameter, AutoAnalysis.Line2.YAxis, 0
TestParameter, AutoAnalysis.Line2.Point1.Type, 0
TestParameter, AutoAnalysis.Line2.Point1.XY.X, 
TestParameter, AutoAnalysis.Line2.Point1.XY.Y, 
TestParameter, AutoAnalysis.Line2.Point1.Data.Var, 
TestParameter, AutoAnalysis.Line2.Point1.Data.Condition, 
TestParameter, AutoAnalysis.Line2.Point1.Data.Start, false
TestParameter, AutoAnalysis.Line2.Point1.Data.StartVar, 
TestParameter, AutoAnalysis.Line2.Point1.Data.StartCondition, 
TestParameter, AutoAnalysis.Line2.Point2.Type, 0
TestParameter, AutoAnalysis.Line2.Point2.XY.X, 
TestParameter, AutoAnalysis.Line2.Point2.XY.Y, 
TestParameter, AutoAnalysis.Line2.Point2.Data.Var, 
TestParameter, AutoAnalysis.Line2.Point2.Data.Condition, 
TestParameter, AutoAnalysis.Line2.Point2.Data.Start, false
TestParameter, AutoAnalysis.Line2.Point2.Data.StartVar, 
TestParameter, AutoAnalysis.Line2.Point2.Data.StartCondition, 
TestParameter, AutoAnalysis.Line2.GradientExpr, 0
TestParameter, AutoAnalysis.Marker.Enabled, false
TestParameter, AutoAnalysis.Marker.Data.Var, 
TestParameter, AutoAnalysis.Marker.Data.Condition, 
TestParameter, AutoAnalysis.Marker.Data.Start, false
TestParameter, AutoAnalysis.Marker.Data.StartVar, 
TestParameter, AutoAnalysis.Marker.Data.StartCondition, 
MetaData, TestRecord.EntryPoint, true
MetaData, TestRecord.RecordTime, 11/24/2020 20:00:16
MetaData, TestRecord.TestTarget, 
MetaData, TestRecord.IterationIndex, 27
MetaData, TestRecord.Preservation, true
MetaData, TestRecord.Flag, 
MetaData, TestRecord.Remarks, 
MetaData, TestRecord.LinkKey, 6243c2f2-63a0-4c4a-93d7-f79e489fcf8e
Dimension1, 101, 101, 101
Dimension2, 1, 1, 1
DataName, V1, I1, Ohmic
DataValue, -5, -5.74525E-07, 7598644.7922077877
DataValue, -4.9, -5.63379E-07, 
DataValue, -4.8, -5.51933E-07, 
DataValue, -4.7, -5.39113E-07, 
DataValue, -4.6000000000000005, -5.28285E-07, 
DataValue, -4.5, -5.17147E-07, 
DataValue, -4.4, -5.04627E-07, 
DataValue, -4.3, -4.9467099999999994E-07, 
DataValue, -4.2, -4.8359E-07, 
DataValue, -4.1, -4.75138E-07, 
DataValue, -4, -4.63381E-07, 
DataValue, -3.9, -4.53018E-07, 
DataValue, -3.8000000000000003, -4.4479E-07, 
DataValue, -3.7, -4.34054E-07, 
DataValue, -3.6, -4.2274699999999997E-07, 
DataValue, -3.5, -4.12486E-07, 
DataValue, -3.4, -4.01348E-07, 
DataValue, -3.3000000000000003, -3.9361499999999997E-07, 
DataValue, -3.2, -3.84347E-07, 
DataValue, -3.1, -3.74064E-07, 
DataValue, -3, -3.6422399999999997E-07, 
DataValue, -2.9, -3.53943E-07, 
DataValue, -2.8000000000000003, -3.44607E-07, 
DataValue, -2.7, -3.34217E-07, 
DataValue, -2.6, -3.26871E-07, 
DataValue, -2.5, -3.15775E-07, 
DataValue, -2.4, -3.07659E-07, 
DataValue, -2.3000000000000003, -2.9751199999999997E-07, 
DataValue, -2.2, -2.87609E-07, 
DataValue, -2.1, -2.76749E-07, 
DataValue, -2, -2.66458E-07, 
DataValue, -1.9000000000000001, -2.54762E-07, 
DataValue, -1.8, -2.44095E-07, 
DataValue, -1.7, -2.3351499999999998E-07, 
DataValue, -1.6, -2.22641E-07, 
DataValue, -1.5, -2.1054699999999999E-07, 
DataValue, -1.4000000000000001, -1.98856E-07, 
DataValue, -1.3, -1.86962E-07, 
DataValue, -1.2, -1.74055E-07, 
DataValue, -1.1, -1.6072E-07, 
DataValue, -1, -1.475E-07, 
DataValue, -0.9, -1.34057E-07, 
DataValue, -0.8, -1.20681E-07, 
DataValue, -0.70000000000000007, -1.0689E-07, 
DataValue, -0.6, -9.2959999999999993E-08, 
DataValue, -0.5, -7.9302E-08, 
DataValue, -0.4, -6.5549E-08, 
DataValue, -0.3, -5.1918E-08, 
DataValue, -0.2, -3.8073E-08, 
DataValue, -0.1, -2.1895099999999997E-08, 
DataValue, 0, 8.945E-10, 
DataValue, 0.1, 1.96288E-08, 
DataValue, 0.2, 3.2338099999999994E-08, 
DataValue, 0.3, 4.3524299999999996E-08, 
DataValue, 0.4, 5.3878499999999995E-08, 
DataValue, 0.5, 6.4146E-08, 
DataValue, 0.6, 7.43137E-08, 
DataValue, 0.70000000000000007, 8.4857299999999993E-08, 
DataValue, 0.8, 9.50214E-08, 
DataValue, 0.9, 1.05956E-07, 
DataValue, 1, 1.17313E-07, 
DataValue, 1.1, 1.28966E-07, 
DataValue, 1.2, 1.40526E-07, 
DataValue, 1.3, 1.52081E-07, 
DataValue, 1.4000000000000001, 1.64128E-07, 
DataValue, 1.5, 1.77035E-07, 
DataValue, 1.6, 1.88467E-07, 
DataValue, 1.7, 2.02257E-07, 
DataValue, 1.8, 2.15909E-07, 
DataValue, 1.9000000000000001, 2.2917499999999999E-07, 
DataValue, 2, 2.41703E-07, 
DataValue, 2.1, 2.56626E-07, 
DataValue, 2.2, 2.70579E-07, 
DataValue, 2.3000000000000003, 2.8536E-07, 
DataValue, 2.4, 2.99597E-07, 
DataValue, 2.5, 3.14563E-07, 
DataValue, 2.6, 3.28754E-07, 
DataValue, 2.7, 3.4270599999999997E-07, 
DataValue, 2.8000000000000003, 3.5827E-07, 
DataValue, 2.9, 3.73645E-07, 
DataValue, 3, 3.89775E-07, 
DataValue, 3.1, 4.0638599999999997E-07, 
DataValue, 3.2, 4.20842E-07, 
DataValue, 3.3000000000000003, 4.36729E-07, 
DataValue, 3.4, 4.54599E-07, 
DataValue, 3.5, 4.70027E-07, 
DataValue, 3.6, 4.85537E-07, 
DataValue, 3.7, 5.02973E-07, 
DataValue, 3.8000000000000003, 5.19234E-07, 
DataValue, 3.9, 5.35945E-07, 
DataValue, 4, 5.52806E-07, 
DataValue, 4.1, 5.6925E-07, 
DataValue, 4.2, 5.8631E-07, 
DataValue, 4.3, 6.04156E-07, 
DataValue, 4.4, 6.22837E-07, 
DataValue, 4.5, 6.40099E-07, 
DataValue, 4.6000000000000005, 6.56785E-07, 
DataValue, 4.7, 6.72264E-07, 
DataValue, 4.8, 6.88712E-07, 
DataValue, 4.9, 7.0709899999999994E-07, 
DataValue, 5, 7.22515E-07, 