
SetupTitle, WW
PrimitiveTest, I/V Sweep
TestParameter, Context.MainFrame, B1500A
TestParameter, Channel.UnitType, SMU, SMU
TestParameter, Channel.Unit, SMU2:HP, SMU1:HP
TestParameter, Channel.IName, I1, I4
TestParameter, Channel.VName, V1, V4
TestParameter, Channel.Mode, V, COMMON
TestParameter, Channel.Func, VAR1, CONST
TestParameter, Channel.Index, 
TestParameter, Channel.Time, 
TestParameter, Measurement.Port.Unit, SMU2:HP, SMU1:HP
TestParameter, Measurement.Port.SeriesResistor, NONE, NONE
TestParameter, Measurement.Port.Filter, ON, ON
TestParameter, Measurement.Port.OutputVoltageComparison, 0, 0
TestParameter, Measurement.Primary.Locus, Single
TestParameter, Measurement.Primary.Scale, LINEAR
TestParameter, Measurement.Primary.Start, -5
TestParameter, Measurement.Primary.Stop, 5
TestParameter, Measurement.Primary.Step, 0.1
TestParameter, Measurement.Primary.Compliance, 0.1
TestParameter, Measurement.Primary.PowerCompliance, 0
TestParameter, Measurement.Aborting.Condition, CONTINUE AT ANY
TestParameter, Measurement.PostOutput.Value, START
TestParameter, Measurement.PostOutput.Retention, OFF
TestParameter, Measurement.Bias.Source, -5, 0
TestParameter, Measurement.Bias.Compliance, 0.1, 1
TestParameter, Measurement.Monitor.Unit, SMU2:HP, SMU1:HP
TestParameter, Measurement.Monitor.Adc, HR ADC, HR ADC
TestParameter, Measurement.Monitor.Measurement, Compliance Side, Compliance Side
TestParameter, Measurement.Monitor.RangingMode, AUTO, AUTO
TestParameter, Measurement.Monitor.RangeBoundary, , 
TestParameter, Measurement.Monitor.RangeRating, BY FULL RANGE, BY FULL RANGE
TestParameter, Measurement.Monitor.RangeRatingCoeff, 50, 50
TestParameter, Measurement.Timing.Hold, 0
TestParameter, Measurement.Timing.Delay, 0.001
TestParameter, Measurement.Adc.HighSpeed.Mode, AUTO
TestParameter, Measurement.Adc.HighSpeed.Coeff, 1
TestParameter, Measurement.Adc.HighResolution.AutoZero, OFF
TestParameter, Measurement.Adc.HighResolution.Mode, PLC
TestParameter, Measurement.Adc.HighResolution.Coeff, 1
TestParameter, Measurement.WaitTime.Source.Coeff, 1
TestParameter, Measurement.WaitTime.Source.Offset, 0
TestParameter, Measurement.WaitTime.Monitor.Coeff, 1
TestParameter, Measurement.WaitTime.Monitor.Offset, 0
TestParameter, Function.User.Name, Ohmic
TestParameter, Function.User.Unit, ohm
TestParameter, Function.User.Definition, avg(V1/I1)
TestParameter, Output.Graph.Enabled, true
TestParameter, Output.Graph.XAxis.Data, V1
TestParameter, Output.Graph.XAxis.Scale, Linear
TestParameter, Output.Graph.XAxis.Left, -5
TestParameter, Output.Graph.XAxis.Right, 5
TestParameter, Output.Graph.YAxis.Data, I1
TestParameter, Output.Graph.YAxis.Scale, Linear
TestParameter, Output.Graph.YAxis.Bottom, -0.001
TestParameter, Output.Graph.YAxis.Top, 0.001
TestParameter, Output.Graph.YAxis.Group, 
TestParameter, Output.Scalar.Data, Ohmic
TestParameter, AutoAnalysis.Interpolation, false
TestParameter, AutoAnalysis.Line1.Enabled, false
TestParameter, AutoAnalysis.Line1.Type, 1
TestParameter, AutoAnalysis.Line1.Fix, True
TestParameter, AutoAnalysis.Line1.YAxis, 0
TestParameter, AutoAnalysis.Line1.Point1.Type, 0
TestParameter, AutoAnalysis.Line1.Point1.XY.X, 
TestParameter, AutoAnalysis.Line1.Point1.XY.Y, 
TestParameter, AutoAnalysis.Line1.Point1.Data.Var, 
TestParameter, AutoAnalysis.Line1.Point1.Data.Condition, 
TestParameter, AutoAnalysis.Line1.Point1.Data.Start, false
TestParameter, AutoAnalysis.Line1.Point1.Data.StartVar, 
TestParameter, AutoAnalysis.Line1.Point1.Data.StartCondition, 
TestParameter, AutoAnalysis.Line1.Point2.Type, 0
TestParameter, AutoAnalysis.Line1.Point2.XY.X, 
TestParameter, AutoAnalysis.Line1.Point2.XY.Y, 
TestParameter, AutoAnalysis.Line1.Point2.Data.Var, 
TestParameter, AutoAnalysis.Line1.Point2.Data.Condition, 
TestParameter, AutoAnalysis.Line1.Point2.Data.Start, false
TestParameter, AutoAnalysis.Line1.Point2.Data.StartVar, 
TestParameter, AutoAnalysis.Line1.Point2.Data.StartCondition, 
TestParameter, AutoAnalysis.Line1.GradientExpr, 0
TestParameter, AutoAnalysis.Line2.Enabled, false
TestParameter, AutoAnalysis.Line2.Type, 1
TestParameter, AutoAnalysis.Line2.Fix, True
TestParameter, AutoAnalysis.Line2.YAxis, 0
TestParameter, AutoAnalysis.Line2.Point1.Type, 0
TestParameter, AutoAnalysis.Line2.Point1.XY.X, 
TestParameter, AutoAnalysis.Line2.Point1.XY.Y, 
TestParameter, AutoAnalysis.Line2.Point1.Data.Var, 
TestParameter, AutoAnalysis.Line2.Point1.Data.Condition, 
TestParameter, AutoAnalysis.Line2.Point1.Data.Start, false
TestParameter, AutoAnalysis.Line2.Point1.Data.StartVar, 
TestParameter, AutoAnalysis.Line2.Point1.Data.StartCondition, 
TestParameter, AutoAnalysis.Line2.Point2.Type, 0
TestParameter, AutoAnalysis.Line2.Point2.XY.X, 
TestParameter, AutoAnalysis.Line2.Point2.XY.Y, 
TestParameter, AutoAnalysis.Line2.Point2.Data.Var, 
TestParameter, AutoAnalysis.Line2.Point2.Data.Condition, 
TestParameter, AutoAnalysis.Line2.Point2.Data.Start, false
TestParameter, AutoAnalysis.Line2.Point2.Data.StartVar, 
TestParameter, AutoAnalysis.Line2.Point2.Data.StartCondition, 
TestParameter, AutoAnalysis.Line2.GradientExpr, 0
TestParameter, AutoAnalysis.Marker.Enabled, false
TestParameter, AutoAnalysis.Marker.Data.Var, 
TestParameter, AutoAnalysis.Marker.Data.Condition, 
TestParameter, AutoAnalysis.Marker.Data.Start, false
TestParameter, AutoAnalysis.Marker.Data.StartVar, 
TestParameter, AutoAnalysis.Marker.Data.StartCondition, 
MetaData, TestRecord.EntryPoint, true
MetaData, TestRecord.RecordTime, 11/24/2020 19:58:51
MetaData, TestRecord.TestTarget, 
MetaData, TestRecord.IterationIndex, 24
MetaData, TestRecord.Preservation, true
MetaData, TestRecord.Flag, 
MetaData, TestRecord.Remarks, 
MetaData, TestRecord.LinkKey, 5ddd8d0a-94bb-45b9-a155-e8637958a49a
Dimension1, 101, 101, 101
Dimension2, 1, 1, 1
DataName, V1, I1, Ohmic
DataValue, -5, -5.67225E-07, 7563363.190329602
DataValue, -4.9, -5.5576199999999994E-07, 
DataValue, -4.8, -5.46413E-07, 
DataValue, -4.7, -5.3393699999999995E-07, 
DataValue, -4.6000000000000005, -5.22309E-07, 
DataValue, -4.5, -5.11751E-07, 
DataValue, -4.4, -5.0141799999999994E-07, 
DataValue, -4.3, -4.91563E-07, 
DataValue, -4.2, -4.77302E-07, 
DataValue, -4.1, -4.70211E-07, 
DataValue, -4, -4.58669E-07, 
DataValue, -3.9, -4.50657E-07, 
DataValue, -3.8000000000000003, -4.3890299999999997E-07, 
DataValue, -3.7, -4.27127E-07, 
DataValue, -3.6, -4.1809999999999997E-07, 
DataValue, -3.5, -4.07636E-07, 
DataValue, -3.4, -3.97832E-07, 
DataValue, -3.3000000000000003, -3.8922E-07, 
DataValue, -3.2, -3.78429E-07, 
DataValue, -3.1, -3.69796E-07, 
DataValue, -3, -3.6011999999999997E-07, 
DataValue, -2.9, -3.5089699999999997E-07, 
DataValue, -2.8000000000000003, -3.41569E-07, 
DataValue, -2.7, -3.3202E-07, 
DataValue, -2.6, -3.22562E-07, 
DataValue, -2.5, -3.13531E-07, 
DataValue, -2.4, -3.0369499999999997E-07, 
DataValue, -2.3000000000000003, -2.94434E-07, 
DataValue, -2.2, -2.81972E-07, 
DataValue, -2.1, -2.73111E-07, 
DataValue, -2, -2.62717E-07, 
DataValue, -1.9000000000000001, -2.53245E-07, 
DataValue, -1.8, -2.4231E-07, 
DataValue, -1.7, -2.31699E-07, 
DataValue, -1.6, -2.20969E-07, 
DataValue, -1.5, -2.09787E-07, 
DataValue, -1.4000000000000001, -1.97887E-07, 
DataValue, -1.3, -1.86201E-07, 
DataValue, -1.2, -1.73186E-07, 
DataValue, -1.1, -1.60714E-07, 
DataValue, -1, -1.47248E-07, 
DataValue, -0.9, -1.33129E-07, 
DataValue, -0.8, -1.1938899999999999E-07, 
DataValue, -0.70000000000000007, -1.0584399999999999E-07, 
DataValue, -0.6, -9.222E-08, 
DataValue, -0.5, -7.8309E-08, 
DataValue, -0.4, -6.4656E-08, 
DataValue, -0.3, -5.1007999999999996E-08, 
DataValue, -0.2, -3.7407E-08, 
DataValue, -0.1, -2.1377999999999998E-08, 
DataValue, 0, 1.2277999999999998E-09, 
DataValue, 0.1, 2.0287099999999997E-08, 
DataValue, 0.2, 3.35795E-08, 
DataValue, 0.3, 4.5468899999999996E-08, 
DataValue, 0.4, 5.6924399999999996E-08, 
DataValue, 0.5, 6.7784699999999992E-08, 
DataValue, 0.6, 7.82323E-08, 
DataValue, 0.70000000000000007, 8.9486599999999991E-08, 
DataValue, 0.8, 1.0081319999999999E-07, 
DataValue, 0.9, 1.11998E-07, 
DataValue, 1, 1.23832E-07, 
DataValue, 1.1, 1.35386E-07, 
DataValue, 1.2, 1.47003E-07, 
DataValue, 1.3, 1.58939E-07, 
DataValue, 1.4000000000000001, 1.71489E-07, 
DataValue, 1.5, 1.8409799999999999E-07, 
DataValue, 1.6, 1.96168E-07, 
DataValue, 1.7, 2.09627E-07, 
DataValue, 1.8, 2.224E-07, 
DataValue, 1.9000000000000001, 2.3570799999999998E-07, 
DataValue, 2, 2.48502E-07, 
DataValue, 2.1, 2.62037E-07, 
DataValue, 2.2, 2.75503E-07, 
DataValue, 2.3000000000000003, 2.89614E-07, 
DataValue, 2.4, 3.03921E-07, 
DataValue, 2.5, 3.17856E-07, 
DataValue, 2.6, 3.32594E-07, 
DataValue, 2.7, 3.46683E-07, 
DataValue, 2.8000000000000003, 3.60879E-07, 
DataValue, 2.9, 3.76E-07, 
DataValue, 3, 3.91848E-07, 
DataValue, 3.1, 4.05599E-07, 
DataValue, 3.2, 4.22948E-07, 
DataValue, 3.3000000000000003, 4.38207E-07, 
DataValue, 3.4, 4.55183E-07, 
DataValue, 3.5, 4.7150999999999997E-07, 
DataValue, 3.6, 4.86888E-07, 
DataValue, 3.7, 5.02033E-07, 
DataValue, 3.8000000000000003, 5.18898E-07, 
DataValue, 3.9, 5.36203E-07, 
DataValue, 4, 5.52625E-07, 
DataValue, 4.1, 5.69461E-07, 
DataValue, 4.2, 5.84839E-07, 
DataValue, 4.3, 6.01523E-07, 
DataValue, 4.4, 6.17775E-07, 
DataValue, 4.5, 6.3456599999999994E-07, 
DataValue, 4.6000000000000005, 6.5162E-07, 
DataValue, 4.7, 6.68287E-07, 
DataValue, 4.8, 6.83988E-07, 
DataValue, 4.9, 6.99902E-07, 
DataValue, 5, 7.16959E-07, 