
SetupTitle, WW
PrimitiveTest, I/V Sweep
TestParameter, Context.MainFrame, B1500A
TestParameter, Channel.UnitType, SMU, SMU
TestParameter, Channel.Unit, SMU2:HP, SMU1:HP
TestParameter, Channel.IName, I1, I4
TestParameter, Channel.VName, V1, V4
TestParameter, Channel.Mode, V, COMMON
TestParameter, Channel.Func, VAR1, CONST
TestParameter, Channel.Index, 
TestParameter, Channel.Time, 
TestParameter, Measurement.Port.Unit, SMU2:HP, SMU1:HP
TestParameter, Measurement.Port.SeriesResistor, NONE, NONE
TestParameter, Measurement.Port.Filter, ON, ON
TestParameter, Measurement.Port.OutputVoltageComparison, 0, 0
TestParameter, Measurement.Primary.Locus, Single
TestParameter, Measurement.Primary.Scale, LINEAR
TestParameter, Measurement.Primary.Start, -5
TestParameter, Measurement.Primary.Stop, 5
TestParameter, Measurement.Primary.Step, 0.1
TestParameter, Measurement.Primary.Compliance, 0.1
TestParameter, Measurement.Primary.PowerCompliance, 0
TestParameter, Measurement.Aborting.Condition, CONTINUE AT ANY
TestParameter, Measurement.PostOutput.Value, START
TestParameter, Measurement.PostOutput.Retention, OFF
TestParameter, Measurement.Bias.Source, -5, 0
TestParameter, Measurement.Bias.Compliance, 0.1, 1
TestParameter, Measurement.Monitor.Unit, SMU2:HP, SMU1:HP
TestParameter, Measurement.Monitor.Adc, HR ADC, HR ADC
TestParameter, Measurement.Monitor.Measurement, Compliance Side, Compliance Side
TestParameter, Measurement.Monitor.RangingMode, AUTO, AUTO
TestParameter, Measurement.Monitor.RangeBoundary, , 
TestParameter, Measurement.Monitor.RangeRating, BY FULL RANGE, BY FULL RANGE
TestParameter, Measurement.Monitor.RangeRatingCoeff, 50, 50
TestParameter, Measurement.Timing.Hold, 0
TestParameter, Measurement.Timing.Delay, 0.001
TestParameter, Measurement.Adc.HighSpeed.Mode, AUTO
TestParameter, Measurement.Adc.HighSpeed.Coeff, 1
TestParameter, Measurement.Adc.HighResolution.AutoZero, OFF
TestParameter, Measurement.Adc.HighResolution.Mode, PLC
TestParameter, Measurement.Adc.HighResolution.Coeff, 1
TestParameter, Measurement.WaitTime.Source.Coeff, 1
TestParameter, Measurement.WaitTime.Source.Offset, 0
TestParameter, Measurement.WaitTime.Monitor.Coeff, 1
TestParameter, Measurement.WaitTime.Monitor.Offset, 0
TestParameter, Function.User.Name, Ohmic
TestParameter, Function.User.Unit, ohm
TestParameter, Function.User.Definition, avg(V1/I1)
TestParameter, Output.Graph.Enabled, true
TestParameter, Output.Graph.XAxis.Data, V1
TestParameter, Output.Graph.XAxis.Scale, Linear
TestParameter, Output.Graph.XAxis.Left, -5
TestParameter, Output.Graph.XAxis.Right, 5
TestParameter, Output.Graph.YAxis.Data, I1
TestParameter, Output.Graph.YAxis.Scale, Linear
TestParameter, Output.Graph.YAxis.Bottom, -0.001
TestParameter, Output.Graph.YAxis.Top, 0.001
TestParameter, Output.Graph.YAxis.Group, 
TestParameter, Output.Scalar.Data, Ohmic
TestParameter, AutoAnalysis.Interpolation, false
TestParameter, AutoAnalysis.Line1.Enabled, false
TestParameter, AutoAnalysis.Line1.Type, 1
TestParameter, AutoAnalysis.Line1.Fix, True
TestParameter, AutoAnalysis.Line1.YAxis, 0
TestParameter, AutoAnalysis.Line1.Point1.Type, 0
TestParameter, AutoAnalysis.Line1.Point1.XY.X, 
TestParameter, AutoAnalysis.Line1.Point1.XY.Y, 
TestParameter, AutoAnalysis.Line1.Point1.Data.Var, 
TestParameter, AutoAnalysis.Line1.Point1.Data.Condition, 
TestParameter, AutoAnalysis.Line1.Point1.Data.Start, false
TestParameter, AutoAnalysis.Line1.Point1.Data.StartVar, 
TestParameter, AutoAnalysis.Line1.Point1.Data.StartCondition, 
TestParameter, AutoAnalysis.Line1.Point2.Type, 0
TestParameter, AutoAnalysis.Line1.Point2.XY.X, 
TestParameter, AutoAnalysis.Line1.Point2.XY.Y, 
TestParameter, AutoAnalysis.Line1.Point2.Data.Var, 
TestParameter, AutoAnalysis.Line1.Point2.Data.Condition, 
TestParameter, AutoAnalysis.Line1.Point2.Data.Start, false
TestParameter, AutoAnalysis.Line1.Point2.Data.StartVar, 
TestParameter, AutoAnalysis.Line1.Point2.Data.StartCondition, 
TestParameter, AutoAnalysis.Line1.GradientExpr, 0
TestParameter, AutoAnalysis.Line2.Enabled, false
TestParameter, AutoAnalysis.Line2.Type, 1
TestParameter, AutoAnalysis.Line2.Fix, True
TestParameter, AutoAnalysis.Line2.YAxis, 0
TestParameter, AutoAnalysis.Line2.Point1.Type, 0
TestParameter, AutoAnalysis.Line2.Point1.XY.X, 
TestParameter, AutoAnalysis.Line2.Point1.XY.Y, 
TestParameter, AutoAnalysis.Line2.Point1.Data.Var, 
TestParameter, AutoAnalysis.Line2.Point1.Data.Condition, 
TestParameter, AutoAnalysis.Line2.Point1.Data.Start, false
TestParameter, AutoAnalysis.Line2.Point1.Data.StartVar, 
TestParameter, AutoAnalysis.Line2.Point1.Data.StartCondition, 
TestParameter, AutoAnalysis.Line2.Point2.Type, 0
TestParameter, AutoAnalysis.Line2.Point2.XY.X, 
TestParameter, AutoAnalysis.Line2.Point2.XY.Y, 
TestParameter, AutoAnalysis.Line2.Point2.Data.Var, 
TestParameter, AutoAnalysis.Line2.Point2.Data.Condition, 
TestParameter, AutoAnalysis.Line2.Point2.Data.Start, false
TestParameter, AutoAnalysis.Line2.Point2.Data.StartVar, 
TestParameter, AutoAnalysis.Line2.Point2.Data.StartCondition, 
TestParameter, AutoAnalysis.Line2.GradientExpr, 0
TestParameter, AutoAnalysis.Marker.Enabled, false
TestParameter, AutoAnalysis.Marker.Data.Var, 
TestParameter, AutoAnalysis.Marker.Data.Condition, 
TestParameter, AutoAnalysis.Marker.Data.Start, false
TestParameter, AutoAnalysis.Marker.Data.StartVar, 
TestParameter, AutoAnalysis.Marker.Data.StartCondition, 
MetaData, TestRecord.EntryPoint, true
MetaData, TestRecord.RecordTime, 11/24/2020 19:57:51
MetaData, TestRecord.TestTarget, 
MetaData, TestRecord.IterationIndex, 22
MetaData, TestRecord.Preservation, true
MetaData, TestRecord.Flag, 
MetaData, TestRecord.Remarks, 
MetaData, TestRecord.LinkKey, cb67a17e-35a8-46e2-8b25-aa1e22ae00c4
Dimension1, 101, 101, 101
Dimension2, 1, 1, 1
DataName, V1, I1, Ohmic
DataValue, -5, -5.50161E-07, 7768107.8536869679
DataValue, -4.9, -5.42156E-07, 
DataValue, -4.8, -5.32704E-07, 
DataValue, -4.7, -5.20064E-07, 
DataValue, -4.6000000000000005, -5.14998E-07, 
DataValue, -4.5, -4.97311E-07, 
DataValue, -4.4, -4.86651E-07, 
DataValue, -4.3, -4.79712E-07, 
DataValue, -4.2, -4.6879E-07, 
DataValue, -4.1, -4.60562E-07, 
DataValue, -4, -4.4957199999999997E-07, 
DataValue, -3.9, -4.35179E-07, 
DataValue, -3.8000000000000003, -4.28563E-07, 
DataValue, -3.7, -4.1654099999999997E-07, 
DataValue, -3.6, -4.10114E-07, 
DataValue, -3.5, -3.99117E-07, 
DataValue, -3.4, -3.88464E-07, 
DataValue, -3.3000000000000003, -3.78615E-07, 
DataValue, -3.2, -3.69476E-07, 
DataValue, -3.1, -3.61135E-07, 
DataValue, -3, -3.53898E-07, 
DataValue, -2.9, -3.43491E-07, 
DataValue, -2.8000000000000003, -3.32866E-07, 
DataValue, -2.7, -3.2274699999999997E-07, 
DataValue, -2.6, -3.14396E-07, 
DataValue, -2.5, -3.0578E-07, 
DataValue, -2.4, -2.97078E-07, 
DataValue, -2.3000000000000003, -2.8443E-07, 
DataValue, -2.2, -2.75956E-07, 
DataValue, -2.1, -2.65408E-07, 
DataValue, -2, -2.56204E-07, 
DataValue, -1.9000000000000001, -2.4680799999999997E-07, 
DataValue, -1.8, -2.41698E-07, 
DataValue, -1.7, -2.27324E-07, 
DataValue, -1.6, -2.17157E-07, 
DataValue, -1.5, -2.0935499999999998E-07, 
DataValue, -1.4000000000000001, -1.88104E-07, 
DataValue, -1.3, -1.75458E-07, 
DataValue, -1.2, -1.67613E-07, 
DataValue, -1.1, -1.57157E-07, 
DataValue, -1, -1.39499E-07, 
DataValue, -0.9, -1.2879799999999999E-07, 
DataValue, -0.8, -1.18008E-07, 
DataValue, -0.70000000000000007, -1.02042E-07, 
DataValue, -0.6, -8.8821E-08, 
DataValue, -0.5, -7.6698E-08, 
DataValue, -0.4, -6.3495E-08, 
DataValue, -0.3, -5.0097E-08, 
DataValue, -0.2, -3.7019E-08, 
DataValue, -0.1, -2.1192E-08, 
DataValue, 0, 1.0692999999999998E-09, 
DataValue, 0.1, 1.97024E-08, 
DataValue, 0.2, 3.2560099999999994E-08, 
DataValue, 0.3, 4.4162499999999996E-08, 
DataValue, 0.4, 5.4939499999999994E-08, 
DataValue, 0.5, 6.5595099999999992E-08, 
DataValue, 0.6, 7.60875E-08, 
DataValue, 0.70000000000000007, 8.6181099999999988E-08, 
DataValue, 0.8, 9.7035199999999993E-08, 
DataValue, 0.9, 1.08429E-07, 
DataValue, 1, 1.19523E-07, 
DataValue, 1.1, 1.30566E-07, 
DataValue, 1.2, 1.41991E-07, 
DataValue, 1.3, 1.53978E-07, 
DataValue, 1.4000000000000001, 1.65519E-07, 
DataValue, 1.5, 1.78003E-07, 
DataValue, 1.6, 1.91016E-07, 
DataValue, 1.7, 2.03526E-07, 
DataValue, 1.8, 2.16006E-07, 
DataValue, 1.9000000000000001, 2.2911E-07, 
DataValue, 2, 2.41815E-07, 
DataValue, 2.1, 2.55161E-07, 
DataValue, 2.2, 2.67695E-07, 
DataValue, 2.3000000000000003, 2.8278099999999997E-07, 
DataValue, 2.4, 2.95275E-07, 
DataValue, 2.5, 3.09728E-07, 
DataValue, 2.6, 3.24039E-07, 
DataValue, 2.7, 3.38054E-07, 
DataValue, 2.8000000000000003, 3.53067E-07, 
DataValue, 2.9, 3.6854499999999997E-07, 
DataValue, 3, 3.83482E-07, 
DataValue, 3.1, 3.97879E-07, 
DataValue, 3.2, 4.1193799999999997E-07, 
DataValue, 3.3000000000000003, 4.27416E-07, 
DataValue, 3.4, 4.43838E-07, 
DataValue, 3.5, 4.59801E-07, 
DataValue, 3.6, 4.75174E-07, 
DataValue, 3.7, 4.8924E-07, 
DataValue, 3.8000000000000003, 5.05356E-07, 
DataValue, 3.9, 5.2105E-07, 
DataValue, 4, 5.3633399999999994E-07, 
DataValue, 4.1, 5.5316499999999994E-07, 
DataValue, 4.2, 5.70159E-07, 
DataValue, 4.3, 5.85318E-07, 
DataValue, 4.4, 6.00377E-07, 
DataValue, 4.5, 6.16952E-07, 
DataValue, 4.6000000000000005, 6.32043E-07, 
DataValue, 4.7, 6.50282E-07, 
DataValue, 4.8, 6.66819E-07, 
DataValue, 4.9, 6.81982E-07, 
DataValue, 5, 6.9691899999999994E-07, 