
SetupTitle, WW
PrimitiveTest, I/V Sweep
TestParameter, Context.MainFrame, B1500A
TestParameter, Channel.UnitType, SMU, SMU
TestParameter, Channel.Unit, SMU2:HP, SMU1:HP
TestParameter, Channel.IName, I1, I4
TestParameter, Channel.VName, V1, V4
TestParameter, Channel.Mode, V, COMMON
TestParameter, Channel.Func, VAR1, CONST
TestParameter, Channel.Index, 
TestParameter, Channel.Time, 
TestParameter, Measurement.Port.Unit, SMU2:HP, SMU1:HP
TestParameter, Measurement.Port.SeriesResistor, NONE, NONE
TestParameter, Measurement.Port.Filter, ON, ON
TestParameter, Measurement.Port.OutputVoltageComparison, 0, 0
TestParameter, Measurement.Primary.Locus, Single
TestParameter, Measurement.Primary.Scale, LINEAR
TestParameter, Measurement.Primary.Start, -5
TestParameter, Measurement.Primary.Stop, 5
TestParameter, Measurement.Primary.Step, 0.1
TestParameter, Measurement.Primary.Compliance, 0.1
TestParameter, Measurement.Primary.PowerCompliance, 0
TestParameter, Measurement.Aborting.Condition, CONTINUE AT ANY
TestParameter, Measurement.PostOutput.Value, START
TestParameter, Measurement.PostOutput.Retention, OFF
TestParameter, Measurement.Bias.Source, -5, 0
TestParameter, Measurement.Bias.Compliance, 0.1, 1
TestParameter, Measurement.Monitor.Unit, SMU2:HP, SMU1:HP
TestParameter, Measurement.Monitor.Adc, HR ADC, HR ADC
TestParameter, Measurement.Monitor.Measurement, Compliance Side, Compliance Side
TestParameter, Measurement.Monitor.RangingMode, AUTO, AUTO
TestParameter, Measurement.Monitor.RangeBoundary, , 
TestParameter, Measurement.Monitor.RangeRating, BY FULL RANGE, BY FULL RANGE
TestParameter, Measurement.Monitor.RangeRatingCoeff, 50, 50
TestParameter, Measurement.Timing.Hold, 0
TestParameter, Measurement.Timing.Delay, 0.001
TestParameter, Measurement.Adc.HighSpeed.Mode, AUTO
TestParameter, Measurement.Adc.HighSpeed.Coeff, 1
TestParameter, Measurement.Adc.HighResolution.AutoZero, OFF
TestParameter, Measurement.Adc.HighResolution.Mode, PLC
TestParameter, Measurement.Adc.HighResolution.Coeff, 1
TestParameter, Measurement.WaitTime.Source.Coeff, 1
TestParameter, Measurement.WaitTime.Source.Offset, 0
TestParameter, Measurement.WaitTime.Monitor.Coeff, 1
TestParameter, Measurement.WaitTime.Monitor.Offset, 0
TestParameter, Function.User.Name, Ohmic
TestParameter, Function.User.Unit, ohm
TestParameter, Function.User.Definition, avg(V1/I1)
TestParameter, Output.Graph.Enabled, true
TestParameter, Output.Graph.XAxis.Data, V1
TestParameter, Output.Graph.XAxis.Scale, Linear
TestParameter, Output.Graph.XAxis.Left, -5
TestParameter, Output.Graph.XAxis.Right, 5
TestParameter, Output.Graph.YAxis.Data, I1
TestParameter, Output.Graph.YAxis.Scale, Linear
TestParameter, Output.Graph.YAxis.Bottom, -0.001
TestParameter, Output.Graph.YAxis.Top, 0.001
TestParameter, Output.Graph.YAxis.Group, 
TestParameter, Output.Scalar.Data, Ohmic
TestParameter, AutoAnalysis.Interpolation, false
TestParameter, AutoAnalysis.Line1.Enabled, false
TestParameter, AutoAnalysis.Line1.Type, 1
TestParameter, AutoAnalysis.Line1.Fix, True
TestParameter, AutoAnalysis.Line1.YAxis, 0
TestParameter, AutoAnalysis.Line1.Point1.Type, 0
TestParameter, AutoAnalysis.Line1.Point1.XY.X, 
TestParameter, AutoAnalysis.Line1.Point1.XY.Y, 
TestParameter, AutoAnalysis.Line1.Point1.Data.Var, 
TestParameter, AutoAnalysis.Line1.Point1.Data.Condition, 
TestParameter, AutoAnalysis.Line1.Point1.Data.Start, false
TestParameter, AutoAnalysis.Line1.Point1.Data.StartVar, 
TestParameter, AutoAnalysis.Line1.Point1.Data.StartCondition, 
TestParameter, AutoAnalysis.Line1.Point2.Type, 0
TestParameter, AutoAnalysis.Line1.Point2.XY.X, 
TestParameter, AutoAnalysis.Line1.Point2.XY.Y, 
TestParameter, AutoAnalysis.Line1.Point2.Data.Var, 
TestParameter, AutoAnalysis.Line1.Point2.Data.Condition, 
TestParameter, AutoAnalysis.Line1.Point2.Data.Start, false
TestParameter, AutoAnalysis.Line1.Point2.Data.StartVar, 
TestParameter, AutoAnalysis.Line1.Point2.Data.StartCondition, 
TestParameter, AutoAnalysis.Line1.GradientExpr, 0
TestParameter, AutoAnalysis.Line2.Enabled, false
TestParameter, AutoAnalysis.Line2.Type, 1
TestParameter, AutoAnalysis.Line2.Fix, True
TestParameter, AutoAnalysis.Line2.YAxis, 0
TestParameter, AutoAnalysis.Line2.Point1.Type, 0
TestParameter, AutoAnalysis.Line2.Point1.XY.X, 
TestParameter, AutoAnalysis.Line2.Point1.XY.Y, 
TestParameter, AutoAnalysis.Line2.Point1.Data.Var, 
TestParameter, AutoAnalysis.Line2.Point1.Data.Condition, 
TestParameter, AutoAnalysis.Line2.Point1.Data.Start, false
TestParameter, AutoAnalysis.Line2.Point1.Data.StartVar, 
TestParameter, AutoAnalysis.Line2.Point1.Data.StartCondition, 
TestParameter, AutoAnalysis.Line2.Point2.Type, 0
TestParameter, AutoAnalysis.Line2.Point2.XY.X, 
TestParameter, AutoAnalysis.Line2.Point2.XY.Y, 
TestParameter, AutoAnalysis.Line2.Point2.Data.Var, 
TestParameter, AutoAnalysis.Line2.Point2.Data.Condition, 
TestParameter, AutoAnalysis.Line2.Point2.Data.Start, false
TestParameter, AutoAnalysis.Line2.Point2.Data.StartVar, 
TestParameter, AutoAnalysis.Line2.Point2.Data.StartCondition, 
TestParameter, AutoAnalysis.Line2.GradientExpr, 0
TestParameter, AutoAnalysis.Marker.Enabled, false
TestParameter, AutoAnalysis.Marker.Data.Var, 
TestParameter, AutoAnalysis.Marker.Data.Condition, 
TestParameter, AutoAnalysis.Marker.Data.Start, false
TestParameter, AutoAnalysis.Marker.Data.StartVar, 
TestParameter, AutoAnalysis.Marker.Data.StartCondition, 
MetaData, TestRecord.EntryPoint, true
MetaData, TestRecord.RecordTime, 11/24/2020 19:57:14
MetaData, TestRecord.TestTarget, 
MetaData, TestRecord.IterationIndex, 21
MetaData, TestRecord.Preservation, true
MetaData, TestRecord.Flag, 
MetaData, TestRecord.Remarks, 
MetaData, TestRecord.LinkKey, 96066b0a-724f-470c-8a1c-cfa1fe9e8335
Dimension1, 101, 101, 101
Dimension2, 1, 1, 1
DataName, V1, I1, Ohmic
DataValue, -5, -5.48372E-07, 7816073.1854018327
DataValue, -4.9, -5.3687E-07, 
DataValue, -4.8, -5.2693299999999994E-07, 
DataValue, -4.7, -5.15191E-07, 
DataValue, -4.6000000000000005, -5.04019E-07, 
DataValue, -4.5, -4.93687E-07, 
DataValue, -4.4, -4.84219E-07, 
DataValue, -4.3, -4.74792E-07, 
DataValue, -4.2, -4.6397299999999997E-07, 
DataValue, -4.1, -4.53681E-07, 
DataValue, -4, -4.44838E-07, 
DataValue, -3.9, -4.32806E-07, 
DataValue, -3.8000000000000003, -4.22203E-07, 
DataValue, -3.7, -4.1306199999999997E-07, 
DataValue, -3.6, -4.04082E-07, 
DataValue, -3.5, -3.92628E-07, 
DataValue, -3.4, -3.8389E-07, 
DataValue, -3.3000000000000003, -3.74694E-07, 
DataValue, -3.2, -3.64645E-07, 
DataValue, -3.1, -3.56275E-07, 
DataValue, -3, -3.47237E-07, 
DataValue, -2.9, -3.37481E-07, 
DataValue, -2.8000000000000003, -3.28002E-07, 
DataValue, -2.7, -3.20437E-07, 
DataValue, -2.6, -3.09269E-07, 
DataValue, -2.5, -3.00841E-07, 
DataValue, -2.4, -2.90068E-07, 
DataValue, -2.3000000000000003, -2.8051799999999997E-07, 
DataValue, -2.2, -2.718E-07, 
DataValue, -2.1, -2.6230799999999997E-07, 
DataValue, -2, -2.51599E-07, 
DataValue, -1.9000000000000001, -2.42675E-07, 
DataValue, -1.8, -2.32406E-07, 
DataValue, -1.7, -2.21926E-07, 
DataValue, -1.6, -2.10974E-07, 
DataValue, -1.5, -1.9978499999999999E-07, 
DataValue, -1.4000000000000001, -1.88874E-07, 
DataValue, -1.3, -1.77101E-07, 
DataValue, -1.2, -1.65183E-07, 
DataValue, -1.1, -1.53138E-07, 
DataValue, -1, -1.4073E-07, 
DataValue, -0.9, -1.28058E-07, 
DataValue, -0.8, -1.15274E-07, 
DataValue, -0.70000000000000007, -1.02527E-07, 
DataValue, -0.6, -8.9495E-08, 
DataValue, -0.5, -7.6034999999999992E-08, 
DataValue, -0.4, -6.3119E-08, 
DataValue, -0.3, -4.9945999999999996E-08, 
DataValue, -0.2, -3.6736E-08, 
DataValue, -0.1, -2.11075E-08, 
DataValue, 0, 9.842E-10, 
DataValue, 0.1, 1.9718599999999998E-08, 
DataValue, 0.2, 3.25959E-08, 
DataValue, 0.3, 4.3952499999999996E-08, 
DataValue, 0.4, 5.4741099999999992E-08, 
DataValue, 0.5, 6.52484E-08, 
DataValue, 0.6, 7.58109E-08, 
DataValue, 0.70000000000000007, 8.6297699999999993E-08, 
DataValue, 0.8, 9.710049999999999E-08, 
DataValue, 0.9, 1.0835E-07, 
DataValue, 1, 1.20079E-07, 
DataValue, 1.1, 1.31872E-07, 
DataValue, 1.2, 1.42927E-07, 
DataValue, 1.3, 1.54458E-07, 
DataValue, 1.4000000000000001, 1.6637999999999999E-07, 
DataValue, 1.5, 1.78437E-07, 
DataValue, 1.6, 1.90574E-07, 
DataValue, 1.7, 2.03912E-07, 
DataValue, 1.8, 2.16829E-07, 
DataValue, 1.9000000000000001, 2.28667E-07, 
DataValue, 2, 2.42343E-07, 
DataValue, 2.1, 2.56135E-07, 
DataValue, 2.2, 2.69281E-07, 
DataValue, 2.3000000000000003, 2.82782E-07, 
DataValue, 2.4, 2.96893E-07, 
DataValue, 2.5, 3.09961E-07, 
DataValue, 2.6, 3.23802E-07, 
DataValue, 2.7, 3.3859799999999997E-07, 
DataValue, 2.8000000000000003, 3.53621E-07, 
DataValue, 2.9, 3.68051E-07, 
DataValue, 3, 3.82543E-07, 
DataValue, 3.1, 3.97574E-07, 
DataValue, 3.2, 4.1306399999999997E-07, 
DataValue, 3.3000000000000003, 4.2793099999999997E-07, 
DataValue, 3.4, 4.43471E-07, 
DataValue, 3.5, 4.58211E-07, 
DataValue, 3.6, 4.73742E-07, 
DataValue, 3.7, 4.90646E-07, 
DataValue, 3.8000000000000003, 5.05561E-07, 
DataValue, 3.9, 5.21387E-07, 
DataValue, 4, 5.37896E-07, 
DataValue, 4.1, 5.54333E-07, 
DataValue, 4.2, 5.68754E-07, 
DataValue, 4.3, 5.8396199999999995E-07, 
DataValue, 4.4, 6.00586E-07, 
DataValue, 4.5, 6.15151E-07, 
DataValue, 4.6000000000000005, 6.29847E-07, 
DataValue, 4.7, 6.47997E-07, 
DataValue, 4.8, 6.6441E-07, 
DataValue, 4.9, 6.7882E-07, 
DataValue, 5, 6.9523E-07, 