
SetupTitle, WW
PrimitiveTest, I/V Sweep
TestParameter, Context.MainFrame, B1500A
TestParameter, Channel.UnitType, SMU, SMU
TestParameter, Channel.Unit, SMU2:HP, SMU1:HP
TestParameter, Channel.IName, I1, I4
TestParameter, Channel.VName, V1, V4
TestParameter, Channel.Mode, V, COMMON
TestParameter, Channel.Func, VAR1, CONST
TestParameter, Channel.Index, 
TestParameter, Channel.Time, 
TestParameter, Measurement.Port.Unit, SMU2:HP, SMU1:HP
TestParameter, Measurement.Port.SeriesResistor, NONE, NONE
TestParameter, Measurement.Port.Filter, ON, ON
TestParameter, Measurement.Port.OutputVoltageComparison, 0, 0
TestParameter, Measurement.Primary.Locus, Single
TestParameter, Measurement.Primary.Scale, LINEAR
TestParameter, Measurement.Primary.Start, -5
TestParameter, Measurement.Primary.Stop, 5
TestParameter, Measurement.Primary.Step, 0.1
TestParameter, Measurement.Primary.Compliance, 0.1
TestParameter, Measurement.Primary.PowerCompliance, 0
TestParameter, Measurement.Aborting.Condition, CONTINUE AT ANY
TestParameter, Measurement.PostOutput.Value, START
TestParameter, Measurement.PostOutput.Retention, OFF
TestParameter, Measurement.Bias.Source, -5, 0
TestParameter, Measurement.Bias.Compliance, 0.1, 1
TestParameter, Measurement.Monitor.Unit, SMU2:HP, SMU1:HP
TestParameter, Measurement.Monitor.Adc, HR ADC, HR ADC
TestParameter, Measurement.Monitor.Measurement, Compliance Side, Compliance Side
TestParameter, Measurement.Monitor.RangingMode, AUTO, AUTO
TestParameter, Measurement.Monitor.RangeBoundary, , 
TestParameter, Measurement.Monitor.RangeRating, BY FULL RANGE, BY FULL RANGE
TestParameter, Measurement.Monitor.RangeRatingCoeff, 50, 50
TestParameter, Measurement.Timing.Hold, 0
TestParameter, Measurement.Timing.Delay, 0.001
TestParameter, Measurement.Adc.HighSpeed.Mode, AUTO
TestParameter, Measurement.Adc.HighSpeed.Coeff, 1
TestParameter, Measurement.Adc.HighResolution.AutoZero, OFF
TestParameter, Measurement.Adc.HighResolution.Mode, PLC
TestParameter, Measurement.Adc.HighResolution.Coeff, 1
TestParameter, Measurement.WaitTime.Source.Coeff, 1
TestParameter, Measurement.WaitTime.Source.Offset, 0
TestParameter, Measurement.WaitTime.Monitor.Coeff, 1
TestParameter, Measurement.WaitTime.Monitor.Offset, 0
TestParameter, Function.User.Name, Ohmic
TestParameter, Function.User.Unit, ohm
TestParameter, Function.User.Definition, avg(V1/I1)
TestParameter, Output.Graph.Enabled, true
TestParameter, Output.Graph.XAxis.Data, V1
TestParameter, Output.Graph.XAxis.Scale, Linear
TestParameter, Output.Graph.XAxis.Left, -5
TestParameter, Output.Graph.XAxis.Right, 5
TestParameter, Output.Graph.YAxis.Data, I1
TestParameter, Output.Graph.YAxis.Scale, Linear
TestParameter, Output.Graph.YAxis.Bottom, -0.001
TestParameter, Output.Graph.YAxis.Top, 0.001
TestParameter, Output.Graph.YAxis.Group, 
TestParameter, Output.Scalar.Data, Ohmic
TestParameter, AutoAnalysis.Interpolation, false
TestParameter, AutoAnalysis.Line1.Enabled, false
TestParameter, AutoAnalysis.Line1.Type, 1
TestParameter, AutoAnalysis.Line1.Fix, True
TestParameter, AutoAnalysis.Line1.YAxis, 0
TestParameter, AutoAnalysis.Line1.Point1.Type, 0
TestParameter, AutoAnalysis.Line1.Point1.XY.X, 
TestParameter, AutoAnalysis.Line1.Point1.XY.Y, 
TestParameter, AutoAnalysis.Line1.Point1.Data.Var, 
TestParameter, AutoAnalysis.Line1.Point1.Data.Condition, 
TestParameter, AutoAnalysis.Line1.Point1.Data.Start, false
TestParameter, AutoAnalysis.Line1.Point1.Data.StartVar, 
TestParameter, AutoAnalysis.Line1.Point1.Data.StartCondition, 
TestParameter, AutoAnalysis.Line1.Point2.Type, 0
TestParameter, AutoAnalysis.Line1.Point2.XY.X, 
TestParameter, AutoAnalysis.Line1.Point2.XY.Y, 
TestParameter, AutoAnalysis.Line1.Point2.Data.Var, 
TestParameter, AutoAnalysis.Line1.Point2.Data.Condition, 
TestParameter, AutoAnalysis.Line1.Point2.Data.Start, false
TestParameter, AutoAnalysis.Line1.Point2.Data.StartVar, 
TestParameter, AutoAnalysis.Line1.Point2.Data.StartCondition, 
TestParameter, AutoAnalysis.Line1.GradientExpr, 0
TestParameter, AutoAnalysis.Line2.Enabled, false
TestParameter, AutoAnalysis.Line2.Type, 1
TestParameter, AutoAnalysis.Line2.Fix, True
TestParameter, AutoAnalysis.Line2.YAxis, 0
TestParameter, AutoAnalysis.Line2.Point1.Type, 0
TestParameter, AutoAnalysis.Line2.Point1.XY.X, 
TestParameter, AutoAnalysis.Line2.Point1.XY.Y, 
TestParameter, AutoAnalysis.Line2.Point1.Data.Var, 
TestParameter, AutoAnalysis.Line2.Point1.Data.Condition, 
TestParameter, AutoAnalysis.Line2.Point1.Data.Start, false
TestParameter, AutoAnalysis.Line2.Point1.Data.StartVar, 
TestParameter, AutoAnalysis.Line2.Point1.Data.StartCondition, 
TestParameter, AutoAnalysis.Line2.Point2.Type, 0
TestParameter, AutoAnalysis.Line2.Point2.XY.X, 
TestParameter, AutoAnalysis.Line2.Point2.XY.Y, 
TestParameter, AutoAnalysis.Line2.Point2.Data.Var, 
TestParameter, AutoAnalysis.Line2.Point2.Data.Condition, 
TestParameter, AutoAnalysis.Line2.Point2.Data.Start, false
TestParameter, AutoAnalysis.Line2.Point2.Data.StartVar, 
TestParameter, AutoAnalysis.Line2.Point2.Data.StartCondition, 
TestParameter, AutoAnalysis.Line2.GradientExpr, 0
TestParameter, AutoAnalysis.Marker.Enabled, false
TestParameter, AutoAnalysis.Marker.Data.Var, 
TestParameter, AutoAnalysis.Marker.Data.Condition, 
TestParameter, AutoAnalysis.Marker.Data.Start, false
TestParameter, AutoAnalysis.Marker.Data.StartVar, 
TestParameter, AutoAnalysis.Marker.Data.StartCondition, 
MetaData, TestRecord.EntryPoint, true
MetaData, TestRecord.RecordTime, 11/24/2020 19:55:42
MetaData, TestRecord.TestTarget, 
MetaData, TestRecord.IterationIndex, 20
MetaData, TestRecord.Preservation, true
MetaData, TestRecord.Flag, 
MetaData, TestRecord.Remarks, 
MetaData, TestRecord.LinkKey, a462972f-5b4d-4f11-a12a-a825a88bf4f0
Dimension1, 101, 101, 101
Dimension2, 1, 1, 1
DataName, V1, I1, Ohmic
DataValue, -5, -5.2704399999999994E-07, 8201429.5351768993
DataValue, -4.9, -5.18463E-07, 
DataValue, -4.8, -5.06844E-07, 
DataValue, -4.7, -4.9695E-07, 
DataValue, -4.6000000000000005, -4.83985E-07, 
DataValue, -4.5, -4.75766E-07, 
DataValue, -4.4, -4.63926E-07, 
DataValue, -4.3, -4.57775E-07, 
DataValue, -4.2, -4.439E-07, 
DataValue, -4.1, -4.34496E-07, 
DataValue, -4, -4.25311E-07, 
DataValue, -3.9, -4.17437E-07, 
DataValue, -3.8000000000000003, -4.0689999999999997E-07, 
DataValue, -3.7, -3.99155E-07, 
DataValue, -3.6, -3.88365E-07, 
DataValue, -3.5, -3.7921399999999997E-07, 
DataValue, -3.4, -3.70052E-07, 
DataValue, -3.3000000000000003, -3.61292E-07, 
DataValue, -3.2, -3.52678E-07, 
DataValue, -3.1, -3.44376E-07, 
DataValue, -3, -3.35177E-07, 
DataValue, -2.9, -3.26866E-07, 
DataValue, -2.8000000000000003, -3.19241E-07, 
DataValue, -2.7, -3.0757499999999997E-07, 
DataValue, -2.6, -2.9989399999999997E-07, 
DataValue, -2.5, -2.87225E-07, 
DataValue, -2.4, -2.79463E-07, 
DataValue, -2.3000000000000003, -2.73787E-07, 
DataValue, -2.2, -2.63531E-07, 
DataValue, -2.1, -2.54316E-07, 
DataValue, -2, -2.45125E-07, 
DataValue, -1.9000000000000001, -2.3723E-07, 
DataValue, -1.8, -2.26691E-07, 
DataValue, -1.7, -2.16664E-07, 
DataValue, -1.6, -2.0592499999999999E-07, 
DataValue, -1.5, -1.96344E-07, 
DataValue, -1.4000000000000001, -1.85713E-07, 
DataValue, -1.3, -1.72532E-07, 
DataValue, -1.2, -1.62727E-07, 
DataValue, -1.1, -1.5045999999999999E-07, 
DataValue, -1, -1.38237E-07, 
DataValue, -0.9, -1.25524E-07, 
DataValue, -0.8, -1.12447E-07, 
DataValue, -0.70000000000000007, -1.00269E-07, 
DataValue, -0.6, -8.6565E-08, 
DataValue, -0.5, -7.3585E-08, 
DataValue, -0.4, -6.1328E-08, 
DataValue, -0.3, -4.906E-08, 
DataValue, -0.2, -3.5785E-08, 
DataValue, -0.1, -2.07813E-08, 
DataValue, 0, 7.1199999999999992E-10, 
DataValue, 0.1, 1.86292E-08, 
DataValue, 0.2, 3.08884E-08, 
DataValue, 0.3, 4.1726999999999994E-08, 
DataValue, 0.4, 5.1732899999999992E-08, 
DataValue, 0.5, 6.14258E-08, 
DataValue, 0.6, 7.11113E-08, 
DataValue, 0.70000000000000007, 8.09726E-08, 
DataValue, 0.8, 9.1049799999999987E-08, 
DataValue, 0.9, 1.011102E-07, 
DataValue, 1, 1.11316E-07, 
DataValue, 1.1, 1.21897E-07, 
DataValue, 1.2, 1.33038E-07, 
DataValue, 1.3, 1.44215E-07, 
DataValue, 1.4000000000000001, 1.54897E-07, 
DataValue, 1.5, 1.6658899999999998E-07, 
DataValue, 1.6, 1.77574E-07, 
DataValue, 1.7, 1.90114E-07, 
DataValue, 1.8, 2.0199E-07, 
DataValue, 1.9000000000000001, 2.15185E-07, 
DataValue, 2, 2.28152E-07, 
DataValue, 2.1, 2.3984E-07, 
DataValue, 2.2, 2.52122E-07, 
DataValue, 2.3000000000000003, 2.6536699999999997E-07, 
DataValue, 2.4, 2.78846E-07, 
DataValue, 2.5, 2.91669E-07, 
DataValue, 2.6, 3.0525999999999997E-07, 
DataValue, 2.7, 3.18735E-07, 
DataValue, 2.8000000000000003, 3.31572E-07, 
DataValue, 2.9, 3.44939E-07, 
DataValue, 3, 3.59701E-07, 
DataValue, 3.1, 3.73419E-07, 
DataValue, 3.2, 3.88418E-07, 
DataValue, 3.3000000000000003, 4.03707E-07, 
DataValue, 3.4, 4.17416E-07, 
DataValue, 3.5, 4.31328E-07, 
DataValue, 3.6, 4.44819E-07, 
DataValue, 3.7, 4.59962E-07, 
DataValue, 3.8000000000000003, 4.74407E-07, 
DataValue, 3.9, 4.90175E-07, 
DataValue, 4, 5.05441E-07, 
DataValue, 4.1, 5.19396E-07, 
DataValue, 4.2, 5.33339E-07, 
DataValue, 4.3, 5.47196E-07, 
DataValue, 4.4, 5.60552E-07, 
DataValue, 4.5, 5.7538899999999994E-07, 
DataValue, 4.6000000000000005, 5.9127E-07, 
DataValue, 4.7, 6.04951E-07, 
DataValue, 4.8, 6.18856E-07, 
DataValue, 4.9, 6.34388E-07, 
DataValue, 5, 6.4787199999999994E-07, 