
SetupTitle, WW
PrimitiveTest, I/V Sweep
TestParameter, Context.MainFrame, B1500A
TestParameter, Channel.UnitType, SMU, SMU
TestParameter, Channel.Unit, SMU2:HP, SMU1:HP
TestParameter, Channel.IName, I1, I4
TestParameter, Channel.VName, V1, V4
TestParameter, Channel.Mode, V, COMMON
TestParameter, Channel.Func, VAR1, CONST
TestParameter, Channel.Index, 
TestParameter, Channel.Time, 
TestParameter, Measurement.Port.Unit, SMU2:HP, SMU1:HP
TestParameter, Measurement.Port.SeriesResistor, NONE, NONE
TestParameter, Measurement.Port.Filter, ON, ON
TestParameter, Measurement.Port.OutputVoltageComparison, 0, 0
TestParameter, Measurement.Primary.Locus, Single
TestParameter, Measurement.Primary.Scale, LINEAR
TestParameter, Measurement.Primary.Start, -5
TestParameter, Measurement.Primary.Stop, 5
TestParameter, Measurement.Primary.Step, 0.1
TestParameter, Measurement.Primary.Compliance, 0.1
TestParameter, Measurement.Primary.PowerCompliance, 0
TestParameter, Measurement.Aborting.Condition, CONTINUE AT ANY
TestParameter, Measurement.PostOutput.Value, START
TestParameter, Measurement.PostOutput.Retention, OFF
TestParameter, Measurement.Bias.Source, -5, 0
TestParameter, Measurement.Bias.Compliance, 0.1, 1
TestParameter, Measurement.Monitor.Unit, SMU2:HP, SMU1:HP
TestParameter, Measurement.Monitor.Adc, HR ADC, HR ADC
TestParameter, Measurement.Monitor.Measurement, Compliance Side, Compliance Side
TestParameter, Measurement.Monitor.RangingMode, AUTO, AUTO
TestParameter, Measurement.Monitor.RangeBoundary, , 
TestParameter, Measurement.Monitor.RangeRating, BY FULL RANGE, BY FULL RANGE
TestParameter, Measurement.Monitor.RangeRatingCoeff, 50, 50
TestParameter, Measurement.Timing.Hold, 0
TestParameter, Measurement.Timing.Delay, 0.001
TestParameter, Measurement.Adc.HighSpeed.Mode, AUTO
TestParameter, Measurement.Adc.HighSpeed.Coeff, 1
TestParameter, Measurement.Adc.HighResolution.AutoZero, OFF
TestParameter, Measurement.Adc.HighResolution.Mode, PLC
TestParameter, Measurement.Adc.HighResolution.Coeff, 1
TestParameter, Measurement.WaitTime.Source.Coeff, 1
TestParameter, Measurement.WaitTime.Source.Offset, 0
TestParameter, Measurement.WaitTime.Monitor.Coeff, 1
TestParameter, Measurement.WaitTime.Monitor.Offset, 0
TestParameter, Function.User.Name, Ohmic
TestParameter, Function.User.Unit, ohm
TestParameter, Function.User.Definition, avg(V1/I1)
TestParameter, Output.Graph.Enabled, true
TestParameter, Output.Graph.XAxis.Data, V1
TestParameter, Output.Graph.XAxis.Scale, Linear
TestParameter, Output.Graph.XAxis.Left, -5
TestParameter, Output.Graph.XAxis.Right, 5
TestParameter, Output.Graph.YAxis.Data, I1
TestParameter, Output.Graph.YAxis.Scale, Linear
TestParameter, Output.Graph.YAxis.Bottom, -0.001
TestParameter, Output.Graph.YAxis.Top, 0.001
TestParameter, Output.Graph.YAxis.Group, 
TestParameter, Output.Scalar.Data, Ohmic
TestParameter, AutoAnalysis.Interpolation, false
TestParameter, AutoAnalysis.Line1.Enabled, false
TestParameter, AutoAnalysis.Line1.Type, 1
TestParameter, AutoAnalysis.Line1.Fix, True
TestParameter, AutoAnalysis.Line1.YAxis, 0
TestParameter, AutoAnalysis.Line1.Point1.Type, 0
TestParameter, AutoAnalysis.Line1.Point1.XY.X, 
TestParameter, AutoAnalysis.Line1.Point1.XY.Y, 
TestParameter, AutoAnalysis.Line1.Point1.Data.Var, 
TestParameter, AutoAnalysis.Line1.Point1.Data.Condition, 
TestParameter, AutoAnalysis.Line1.Point1.Data.Start, false
TestParameter, AutoAnalysis.Line1.Point1.Data.StartVar, 
TestParameter, AutoAnalysis.Line1.Point1.Data.StartCondition, 
TestParameter, AutoAnalysis.Line1.Point2.Type, 0
TestParameter, AutoAnalysis.Line1.Point2.XY.X, 
TestParameter, AutoAnalysis.Line1.Point2.XY.Y, 
TestParameter, AutoAnalysis.Line1.Point2.Data.Var, 
TestParameter, AutoAnalysis.Line1.Point2.Data.Condition, 
TestParameter, AutoAnalysis.Line1.Point2.Data.Start, false
TestParameter, AutoAnalysis.Line1.Point2.Data.StartVar, 
TestParameter, AutoAnalysis.Line1.Point2.Data.StartCondition, 
TestParameter, AutoAnalysis.Line1.GradientExpr, 0
TestParameter, AutoAnalysis.Line2.Enabled, false
TestParameter, AutoAnalysis.Line2.Type, 1
TestParameter, AutoAnalysis.Line2.Fix, True
TestParameter, AutoAnalysis.Line2.YAxis, 0
TestParameter, AutoAnalysis.Line2.Point1.Type, 0
TestParameter, AutoAnalysis.Line2.Point1.XY.X, 
TestParameter, AutoAnalysis.Line2.Point1.XY.Y, 
TestParameter, AutoAnalysis.Line2.Point1.Data.Var, 
TestParameter, AutoAnalysis.Line2.Point1.Data.Condition, 
TestParameter, AutoAnalysis.Line2.Point1.Data.Start, false
TestParameter, AutoAnalysis.Line2.Point1.Data.StartVar, 
TestParameter, AutoAnalysis.Line2.Point1.Data.StartCondition, 
TestParameter, AutoAnalysis.Line2.Point2.Type, 0
TestParameter, AutoAnalysis.Line2.Point2.XY.X, 
TestParameter, AutoAnalysis.Line2.Point2.XY.Y, 
TestParameter, AutoAnalysis.Line2.Point2.Data.Var, 
TestParameter, AutoAnalysis.Line2.Point2.Data.Condition, 
TestParameter, AutoAnalysis.Line2.Point2.Data.Start, false
TestParameter, AutoAnalysis.Line2.Point2.Data.StartVar, 
TestParameter, AutoAnalysis.Line2.Point2.Data.StartCondition, 
TestParameter, AutoAnalysis.Line2.GradientExpr, 0
TestParameter, AutoAnalysis.Marker.Enabled, false
TestParameter, AutoAnalysis.Marker.Data.Var, 
TestParameter, AutoAnalysis.Marker.Data.Condition, 
TestParameter, AutoAnalysis.Marker.Data.Start, false
TestParameter, AutoAnalysis.Marker.Data.StartVar, 
TestParameter, AutoAnalysis.Marker.Data.StartCondition, 
MetaData, TestRecord.EntryPoint, true
MetaData, TestRecord.RecordTime, 09/05/2020 14:49:43
MetaData, TestRecord.TestTarget, 
MetaData, TestRecord.IterationIndex, 49
MetaData, TestRecord.Preservation, true
MetaData, TestRecord.Flag, 
MetaData, TestRecord.Remarks, 
MetaData, TestRecord.LinkKey, a8e9b39e-b86f-4dfb-bc67-6e68d5a62175
Dimension1, 101, 101, 101
Dimension2, 1, 1, 1
DataName, V1, I1, Ohmic
DataValue, -5, -1.0187999999999998E-09, 1803666386.2619031
DataValue, -4.9, -9.849999999999998E-10, 
DataValue, -4.8, -8.8829999999999992E-10, 
DataValue, -4.7, -9.324E-10, 
DataValue, -4.6000000000000005, -9.1479999999999988E-10, 
DataValue, -4.5, -8.8019999999999992E-10, 
DataValue, -4.4, -8.7619999999999993E-10, 
DataValue, -4.3, -8.7579999999999991E-10, 
DataValue, -4.2, -9.1959999999999991E-10, 
DataValue, -4.1, -8.1039999999999991E-10, 
DataValue, -4, -8.3419999999999987E-10, 
DataValue, -3.9, -8.9139999999999994E-10, 
DataValue, -3.8000000000000003, -8.4859999999999994E-10, 
DataValue, -3.7, -8.4909999999999989E-10, 
DataValue, -3.6, -8.399E-10, 
DataValue, -3.5, -8.3399999999999991E-10, 
DataValue, -3.4, -8.399E-10, 
DataValue, -3.3000000000000003, -7.8889999999999993E-10, 
DataValue, -3.2, -7.833E-10, 
DataValue, -3.1, -7.6379999999999989E-10, 
DataValue, -3, -7.496999999999999E-10, 
DataValue, -2.9, -7.6309999999999988E-10, 
DataValue, -2.8000000000000003, -7.111E-10, 
DataValue, -2.7, -7.435E-10, 
DataValue, -2.6, -6.9509999999999991E-10, 
DataValue, -2.5, -6.8339999999999994E-10, 
DataValue, -2.4, -6.869999999999999E-10, 
DataValue, -2.3000000000000003, -6.6849999999999991E-10, 
DataValue, -2.2, -6.7229999999999994E-10, 
DataValue, -2.1, -6.9539999999999989E-10, 
DataValue, -2, -6.566E-10, 
DataValue, -1.9000000000000001, -6.313E-10, 
DataValue, -1.8, -6.9449999999999993E-10, 
DataValue, -1.7, -5.9399999999999991E-10, 
DataValue, -1.6, -7.064E-10, 
DataValue, -1.5, -5.780999999999999E-10, 
DataValue, -1.4000000000000001, -5.844E-10, 
DataValue, -1.3, -6.057E-10, 
DataValue, -1.2, -5.8049999999999991E-10, 
DataValue, -1.1, -6.312E-10, 
DataValue, -1, -6.195E-10, 
DataValue, -0.9, -5.42E-10, 
DataValue, -0.8, -5.7309999999999991E-10, 
DataValue, -0.70000000000000007, -5.2259999999999993E-10, 
DataValue, -0.6, -5.5159999999999994E-10, 
DataValue, -0.5, -4.4709999999999993E-10, 
DataValue, -0.4, -3.4009999999999994E-10, 
DataValue, -0.3, -1.36E-10, 
DataValue, -0.2, 3.25E-11, 
DataValue, -0.1, 2.347E-10, 
DataValue, 0, 5.5559999999999992E-10, 
DataValue, 0.1, 8.7719999999999993E-10, 
DataValue, 0.2, 1.2353999999999999E-09, 
DataValue, 0.3, 1.5432999999999998E-09, 
DataValue, 0.4, 1.8704999999999997E-09, 
DataValue, 0.5, 2.2682999999999997E-09, 
DataValue, 0.6, 2.5518E-09, 
DataValue, 0.70000000000000007, 2.8204E-09, 
DataValue, 0.8, 3.1863999999999997E-09, 
DataValue, 0.9, 3.4904999999999995E-09, 
DataValue, 1, 3.7106999999999996E-09, 
DataValue, 1.1, 4.0148999999999994E-09, 
DataValue, 1.2, 4.2488999999999993E-09, 
DataValue, 1.3, 4.4324999999999993E-09, 
DataValue, 1.4000000000000001, 4.6698E-09, 
DataValue, 1.5, 4.8037999999999995E-09, 
DataValue, 1.6, 4.9752999999999996E-09, 
DataValue, 1.7, 5.0988E-09, 
DataValue, 1.8, 5.131E-09, 
DataValue, 1.9000000000000001, 5.1515999999999995E-09, 
DataValue, 2, 5.2740999999999994E-09, 
DataValue, 2.1, 5.3123999999999991E-09, 
DataValue, 2.2, 5.3122999999999995E-09, 
DataValue, 2.3000000000000003, 5.3233999999999992E-09, 
DataValue, 2.4, 5.4051999999999995E-09, 
DataValue, 2.5, 5.4492E-09, 
DataValue, 2.6, 5.4138999999999993E-09, 
DataValue, 2.7, 5.4946999999999992E-09, 
DataValue, 2.8000000000000003, 5.5298E-09, 
DataValue, 2.9, 5.5317E-09, 
DataValue, 3, 5.6045999999999994E-09, 
DataValue, 3.1, 5.6173E-09, 
DataValue, 3.2, 5.6683999999999992E-09, 
DataValue, 3.3000000000000003, 5.7276999999999996E-09, 
DataValue, 3.4, 5.8609999999999995E-09, 
DataValue, 3.5, 5.8549E-09, 
DataValue, 3.6, 5.8858999999999993E-09, 
DataValue, 3.7, 5.8499E-09, 
DataValue, 3.8000000000000003, 5.9020999999999993E-09, 
DataValue, 3.9, 5.9558E-09, 
DataValue, 4, 5.945E-09, 
DataValue, 4.1, 6.0033E-09, 
DataValue, 4.2, 5.9834999999999994E-09, 
DataValue, 4.3, 6.0113E-09, 
DataValue, 4.4, 6.1161E-09, 
DataValue, 4.5, 6.1764999999999991E-09, 
DataValue, 4.6000000000000005, 6.1284E-09, 
DataValue, 4.7, 6.2362999999999992E-09, 
DataValue, 4.8, 6.2258999999999994E-09, 
DataValue, 4.9, 6.2600999999999991E-09, 
DataValue, 5, 6.3256999999999994E-09, 