
SetupTitle, WW
PrimitiveTest, I/V Sweep
TestParameter, Context.MainFrame, B1500A
TestParameter, Channel.UnitType, SMU, SMU
TestParameter, Channel.Unit, SMU2:HP, SMU1:HP
TestParameter, Channel.IName, I1, I4
TestParameter, Channel.VName, V1, V4
TestParameter, Channel.Mode, V, COMMON
TestParameter, Channel.Func, VAR1, CONST
TestParameter, Channel.Index, 
TestParameter, Channel.Time, 
TestParameter, Measurement.Port.Unit, SMU2:HP, SMU1:HP
TestParameter, Measurement.Port.SeriesResistor, NONE, NONE
TestParameter, Measurement.Port.Filter, ON, ON
TestParameter, Measurement.Port.OutputVoltageComparison, 0, 0
TestParameter, Measurement.Primary.Locus, Single
TestParameter, Measurement.Primary.Scale, LINEAR
TestParameter, Measurement.Primary.Start, -5
TestParameter, Measurement.Primary.Stop, 5
TestParameter, Measurement.Primary.Step, 0.1
TestParameter, Measurement.Primary.Compliance, 0.1
TestParameter, Measurement.Primary.PowerCompliance, 0
TestParameter, Measurement.Aborting.Condition, CONTINUE AT ANY
TestParameter, Measurement.PostOutput.Value, START
TestParameter, Measurement.PostOutput.Retention, OFF
TestParameter, Measurement.Bias.Source, -5, 0
TestParameter, Measurement.Bias.Compliance, 0.1, 1
TestParameter, Measurement.Monitor.Unit, SMU2:HP, SMU1:HP
TestParameter, Measurement.Monitor.Adc, HR ADC, HR ADC
TestParameter, Measurement.Monitor.Measurement, Compliance Side, Compliance Side
TestParameter, Measurement.Monitor.RangingMode, AUTO, AUTO
TestParameter, Measurement.Monitor.RangeBoundary, , 
TestParameter, Measurement.Monitor.RangeRating, BY FULL RANGE, BY FULL RANGE
TestParameter, Measurement.Monitor.RangeRatingCoeff, 50, 50
TestParameter, Measurement.Timing.Hold, 0
TestParameter, Measurement.Timing.Delay, 0.001
TestParameter, Measurement.Adc.HighSpeed.Mode, AUTO
TestParameter, Measurement.Adc.HighSpeed.Coeff, 1
TestParameter, Measurement.Adc.HighResolution.AutoZero, OFF
TestParameter, Measurement.Adc.HighResolution.Mode, PLC
TestParameter, Measurement.Adc.HighResolution.Coeff, 1
TestParameter, Measurement.WaitTime.Source.Coeff, 1
TestParameter, Measurement.WaitTime.Source.Offset, 0
TestParameter, Measurement.WaitTime.Monitor.Coeff, 1
TestParameter, Measurement.WaitTime.Monitor.Offset, 0
TestParameter, Function.User.Name, Ohmic
TestParameter, Function.User.Unit, ohm
TestParameter, Function.User.Definition, avg(V1/I1)
TestParameter, Output.Graph.Enabled, true
TestParameter, Output.Graph.XAxis.Data, V1
TestParameter, Output.Graph.XAxis.Scale, Linear
TestParameter, Output.Graph.XAxis.Left, -5
TestParameter, Output.Graph.XAxis.Right, 5
TestParameter, Output.Graph.YAxis.Data, I1
TestParameter, Output.Graph.YAxis.Scale, Linear
TestParameter, Output.Graph.YAxis.Bottom, -0.001
TestParameter, Output.Graph.YAxis.Top, 0.001
TestParameter, Output.Graph.YAxis.Group, 
TestParameter, Output.Scalar.Data, Ohmic
TestParameter, AutoAnalysis.Interpolation, false
TestParameter, AutoAnalysis.Line1.Enabled, false
TestParameter, AutoAnalysis.Line1.Type, 1
TestParameter, AutoAnalysis.Line1.Fix, True
TestParameter, AutoAnalysis.Line1.YAxis, 0
TestParameter, AutoAnalysis.Line1.Point1.Type, 0
TestParameter, AutoAnalysis.Line1.Point1.XY.X, 
TestParameter, AutoAnalysis.Line1.Point1.XY.Y, 
TestParameter, AutoAnalysis.Line1.Point1.Data.Var, 
TestParameter, AutoAnalysis.Line1.Point1.Data.Condition, 
TestParameter, AutoAnalysis.Line1.Point1.Data.Start, false
TestParameter, AutoAnalysis.Line1.Point1.Data.StartVar, 
TestParameter, AutoAnalysis.Line1.Point1.Data.StartCondition, 
TestParameter, AutoAnalysis.Line1.Point2.Type, 0
TestParameter, AutoAnalysis.Line1.Point2.XY.X, 
TestParameter, AutoAnalysis.Line1.Point2.XY.Y, 
TestParameter, AutoAnalysis.Line1.Point2.Data.Var, 
TestParameter, AutoAnalysis.Line1.Point2.Data.Condition, 
TestParameter, AutoAnalysis.Line1.Point2.Data.Start, false
TestParameter, AutoAnalysis.Line1.Point2.Data.StartVar, 
TestParameter, AutoAnalysis.Line1.Point2.Data.StartCondition, 
TestParameter, AutoAnalysis.Line1.GradientExpr, 0
TestParameter, AutoAnalysis.Line2.Enabled, false
TestParameter, AutoAnalysis.Line2.Type, 1
TestParameter, AutoAnalysis.Line2.Fix, True
TestParameter, AutoAnalysis.Line2.YAxis, 0
TestParameter, AutoAnalysis.Line2.Point1.Type, 0
TestParameter, AutoAnalysis.Line2.Point1.XY.X, 
TestParameter, AutoAnalysis.Line2.Point1.XY.Y, 
TestParameter, AutoAnalysis.Line2.Point1.Data.Var, 
TestParameter, AutoAnalysis.Line2.Point1.Data.Condition, 
TestParameter, AutoAnalysis.Line2.Point1.Data.Start, false
TestParameter, AutoAnalysis.Line2.Point1.Data.StartVar, 
TestParameter, AutoAnalysis.Line2.Point1.Data.StartCondition, 
TestParameter, AutoAnalysis.Line2.Point2.Type, 0
TestParameter, AutoAnalysis.Line2.Point2.XY.X, 
TestParameter, AutoAnalysis.Line2.Point2.XY.Y, 
TestParameter, AutoAnalysis.Line2.Point2.Data.Var, 
TestParameter, AutoAnalysis.Line2.Point2.Data.Condition, 
TestParameter, AutoAnalysis.Line2.Point2.Data.Start, false
TestParameter, AutoAnalysis.Line2.Point2.Data.StartVar, 
TestParameter, AutoAnalysis.Line2.Point2.Data.StartCondition, 
TestParameter, AutoAnalysis.Line2.GradientExpr, 0
TestParameter, AutoAnalysis.Marker.Enabled, false
TestParameter, AutoAnalysis.Marker.Data.Var, 
TestParameter, AutoAnalysis.Marker.Data.Condition, 
TestParameter, AutoAnalysis.Marker.Data.Start, false
TestParameter, AutoAnalysis.Marker.Data.StartVar, 
TestParameter, AutoAnalysis.Marker.Data.StartCondition, 
MetaData, TestRecord.EntryPoint, true
MetaData, TestRecord.RecordTime, 09/05/2020 14:48:43
MetaData, TestRecord.TestTarget, 
MetaData, TestRecord.IterationIndex, 47
MetaData, TestRecord.Preservation, true
MetaData, TestRecord.Flag, 
MetaData, TestRecord.Remarks, 
MetaData, TestRecord.LinkKey, ed79a8f5-8032-4e1f-83eb-de610361cc41
Dimension1, 101, 101, 101
Dimension2, 1, 1, 1
DataName, V1, I1, Ohmic
DataValue, -5, -8.4619999999999993E-10, 2404609045.8738351
DataValue, -4.9, -9.1179999999999989E-10, 
DataValue, -4.8, -9.915E-10, 
DataValue, -4.7, -8.4099999999999989E-10, 
DataValue, -4.6000000000000005, -8.632999999999999E-10, 
DataValue, -4.5, -7.2859999999999994E-10, 
DataValue, -4.4, -6.899E-10, 
DataValue, -4.3, -7.7269999999999993E-10, 
DataValue, -4.2, -7.2889999999999993E-10, 
DataValue, -4.1, -8.011E-10, 
DataValue, -4, -8.055E-10, 
DataValue, -3.9, -7.7189999999999989E-10, 
DataValue, -3.8000000000000003, -8.264E-10, 
DataValue, -3.7, -7.6899999999999993E-10, 
DataValue, -3.6, -7.4289999999999989E-10, 
DataValue, -3.5, -7.9389999999999992E-10, 
DataValue, -3.4, -7.688999999999999E-10, 
DataValue, -3.3000000000000003, -7.1829999999999989E-10, 
DataValue, -3.2, -7.1229999999999991E-10, 
DataValue, -3.1, -6.431E-10, 
DataValue, -3, -6.7819999999999989E-10, 
DataValue, -2.9, -7.108E-10, 
DataValue, -2.8000000000000003, -7.2109999999999992E-10, 
DataValue, -2.7, -6.552999999999999E-10, 
DataValue, -2.6, -5.8159999999999994E-10, 
DataValue, -2.5, -6.026E-10, 
DataValue, -2.4, -6.073E-10, 
DataValue, -2.3000000000000003, -6.3719999999999993E-10, 
DataValue, -2.2, -6.923999999999999E-10, 
DataValue, -2.1, -5.9939999999999992E-10, 
DataValue, -2, -6.441E-10, 
DataValue, -1.9000000000000001, -5.4649999999999992E-10, 
DataValue, -1.8, -5.7889999999999993E-10, 
DataValue, -1.7, -5.7649999999999992E-10, 
DataValue, -1.6, -5.9399999999999991E-10, 
DataValue, -1.5, -5.801E-10, 
DataValue, -1.4000000000000001, -5.7419999999999994E-10, 
DataValue, -1.3, -4.871E-10, 
DataValue, -1.2, -5.079E-10, 
DataValue, -1.1, -5.1779999999999991E-10, 
DataValue, -1, -5.42E-10, 
DataValue, -0.9, -5.611E-10, 
DataValue, -0.8, -5.0739999999999992E-10, 
DataValue, -0.70000000000000007, -4.678E-10, 
DataValue, -0.6, -3.7649999999999994E-10, 
DataValue, -0.5, -3.4099999999999996E-10, 
DataValue, -0.4, -2.9229999999999996E-10, 
DataValue, -0.3, -1.4839999999999997E-10, 
DataValue, -0.2, -7.1999999999999992E-12, 
DataValue, -0.1, 1.997E-10, 
DataValue, 0, 3.5799999999999995E-10, 
DataValue, 0.1, 6.215999999999999E-10, 
DataValue, 0.2, 8.507E-10, 
DataValue, 0.3, 1.1224E-09, 
DataValue, 0.4, 1.3219E-09, 
DataValue, 0.5, 1.6300999999999998E-09, 
DataValue, 0.6, 1.8202999999999998E-09, 
DataValue, 0.70000000000000007, 2.1829999999999996E-09, 
DataValue, 0.8, 2.3613999999999997E-09, 
DataValue, 0.9, 2.4803E-09, 
DataValue, 1, 2.7469999999999997E-09, 
DataValue, 1.1, 2.8827999999999996E-09, 
DataValue, 1.2, 3.0181999999999998E-09, 
DataValue, 1.3, 3.1398E-09, 
DataValue, 1.4000000000000001, 3.3757E-09, 
DataValue, 1.5, 3.4680999999999996E-09, 
DataValue, 1.6, 3.5758999999999996E-09, 
DataValue, 1.7, 3.6917999999999996E-09, 
DataValue, 1.8, 3.7209E-09, 
DataValue, 1.9000000000000001, 3.7575999999999995E-09, 
DataValue, 2, 3.8174999999999993E-09, 
DataValue, 2.1, 3.8796999999999993E-09, 
DataValue, 2.2, 3.9472999999999994E-09, 
DataValue, 2.3000000000000003, 3.9016999999999995E-09, 
DataValue, 2.4, 3.9463999999999995E-09, 
DataValue, 2.5, 3.9090999999999992E-09, 
DataValue, 2.6, 3.9588E-09, 
DataValue, 2.7, 4.0247E-09, 
DataValue, 2.8000000000000003, 3.996E-09, 
DataValue, 2.9, 4.0537E-09, 
DataValue, 3, 3.9898E-09, 
DataValue, 3.1, 4.0528999999999995E-09, 
DataValue, 3.2, 4.0932999999999995E-09, 
DataValue, 3.3000000000000003, 4.1485E-09, 
DataValue, 3.4, 4.1274E-09, 
DataValue, 3.5, 4.1498999999999995E-09, 
DataValue, 3.6, 4.2345999999999994E-09, 
DataValue, 3.7, 4.2578E-09, 
DataValue, 3.8000000000000003, 4.2725999999999995E-09, 
DataValue, 3.9, 4.2576999999999995E-09, 
DataValue, 4, 4.2965E-09, 
DataValue, 4.1, 4.3224999999999995E-09, 
DataValue, 4.2, 4.3732E-09, 
DataValue, 4.3, 4.3715E-09, 
DataValue, 4.4, 4.3272E-09, 
DataValue, 4.5, 4.381E-09, 
DataValue, 4.6000000000000005, 4.3911999999999995E-09, 
DataValue, 4.7, 4.4503999999999994E-09, 
DataValue, 4.8, 4.395E-09, 
DataValue, 4.9, 4.4834E-09, 
DataValue, 5, 4.4957999999999993E-09, 