
SetupTitle, WW
PrimitiveTest, I/V Sweep
TestParameter, Context.MainFrame, B1500A
TestParameter, Channel.UnitType, SMU, SMU
TestParameter, Channel.Unit, SMU2:HP, SMU1:HP
TestParameter, Channel.IName, I1, I4
TestParameter, Channel.VName, V1, V4
TestParameter, Channel.Mode, V, COMMON
TestParameter, Channel.Func, VAR1, CONST
TestParameter, Channel.Index, 
TestParameter, Channel.Time, 
TestParameter, Measurement.Port.Unit, SMU2:HP, SMU1:HP
TestParameter, Measurement.Port.SeriesResistor, NONE, NONE
TestParameter, Measurement.Port.Filter, ON, ON
TestParameter, Measurement.Port.OutputVoltageComparison, 0, 0
TestParameter, Measurement.Primary.Locus, Single
TestParameter, Measurement.Primary.Scale, LINEAR
TestParameter, Measurement.Primary.Start, -5
TestParameter, Measurement.Primary.Stop, 5
TestParameter, Measurement.Primary.Step, 0.1
TestParameter, Measurement.Primary.Compliance, 0.1
TestParameter, Measurement.Primary.PowerCompliance, 0
TestParameter, Measurement.Aborting.Condition, CONTINUE AT ANY
TestParameter, Measurement.PostOutput.Value, START
TestParameter, Measurement.PostOutput.Retention, OFF
TestParameter, Measurement.Bias.Source, -5, 0
TestParameter, Measurement.Bias.Compliance, 0.1, 1
TestParameter, Measurement.Monitor.Unit, SMU2:HP, SMU1:HP
TestParameter, Measurement.Monitor.Adc, HR ADC, HR ADC
TestParameter, Measurement.Monitor.Measurement, Compliance Side, Compliance Side
TestParameter, Measurement.Monitor.RangingMode, AUTO, AUTO
TestParameter, Measurement.Monitor.RangeBoundary, , 
TestParameter, Measurement.Monitor.RangeRating, BY FULL RANGE, BY FULL RANGE
TestParameter, Measurement.Monitor.RangeRatingCoeff, 50, 50
TestParameter, Measurement.Timing.Hold, 0
TestParameter, Measurement.Timing.Delay, 0.001
TestParameter, Measurement.Adc.HighSpeed.Mode, AUTO
TestParameter, Measurement.Adc.HighSpeed.Coeff, 1
TestParameter, Measurement.Adc.HighResolution.AutoZero, OFF
TestParameter, Measurement.Adc.HighResolution.Mode, PLC
TestParameter, Measurement.Adc.HighResolution.Coeff, 1
TestParameter, Measurement.WaitTime.Source.Coeff, 1
TestParameter, Measurement.WaitTime.Source.Offset, 0
TestParameter, Measurement.WaitTime.Monitor.Coeff, 1
TestParameter, Measurement.WaitTime.Monitor.Offset, 0
TestParameter, Function.User.Name, Ohmic
TestParameter, Function.User.Unit, ohm
TestParameter, Function.User.Definition, avg(V1/I1)
TestParameter, Output.Graph.Enabled, true
TestParameter, Output.Graph.XAxis.Data, V1
TestParameter, Output.Graph.XAxis.Scale, Linear
TestParameter, Output.Graph.XAxis.Left, -5
TestParameter, Output.Graph.XAxis.Right, 5
TestParameter, Output.Graph.YAxis.Data, I1
TestParameter, Output.Graph.YAxis.Scale, Linear
TestParameter, Output.Graph.YAxis.Bottom, -0.001
TestParameter, Output.Graph.YAxis.Top, 0.001
TestParameter, Output.Graph.YAxis.Group, 
TestParameter, Output.Scalar.Data, Ohmic
TestParameter, AutoAnalysis.Interpolation, false
TestParameter, AutoAnalysis.Line1.Enabled, false
TestParameter, AutoAnalysis.Line1.Type, 1
TestParameter, AutoAnalysis.Line1.Fix, True
TestParameter, AutoAnalysis.Line1.YAxis, 0
TestParameter, AutoAnalysis.Line1.Point1.Type, 0
TestParameter, AutoAnalysis.Line1.Point1.XY.X, 
TestParameter, AutoAnalysis.Line1.Point1.XY.Y, 
TestParameter, AutoAnalysis.Line1.Point1.Data.Var, 
TestParameter, AutoAnalysis.Line1.Point1.Data.Condition, 
TestParameter, AutoAnalysis.Line1.Point1.Data.Start, false
TestParameter, AutoAnalysis.Line1.Point1.Data.StartVar, 
TestParameter, AutoAnalysis.Line1.Point1.Data.StartCondition, 
TestParameter, AutoAnalysis.Line1.Point2.Type, 0
TestParameter, AutoAnalysis.Line1.Point2.XY.X, 
TestParameter, AutoAnalysis.Line1.Point2.XY.Y, 
TestParameter, AutoAnalysis.Line1.Point2.Data.Var, 
TestParameter, AutoAnalysis.Line1.Point2.Data.Condition, 
TestParameter, AutoAnalysis.Line1.Point2.Data.Start, false
TestParameter, AutoAnalysis.Line1.Point2.Data.StartVar, 
TestParameter, AutoAnalysis.Line1.Point2.Data.StartCondition, 
TestParameter, AutoAnalysis.Line1.GradientExpr, 0
TestParameter, AutoAnalysis.Line2.Enabled, false
TestParameter, AutoAnalysis.Line2.Type, 1
TestParameter, AutoAnalysis.Line2.Fix, True
TestParameter, AutoAnalysis.Line2.YAxis, 0
TestParameter, AutoAnalysis.Line2.Point1.Type, 0
TestParameter, AutoAnalysis.Line2.Point1.XY.X, 
TestParameter, AutoAnalysis.Line2.Point1.XY.Y, 
TestParameter, AutoAnalysis.Line2.Point1.Data.Var, 
TestParameter, AutoAnalysis.Line2.Point1.Data.Condition, 
TestParameter, AutoAnalysis.Line2.Point1.Data.Start, false
TestParameter, AutoAnalysis.Line2.Point1.Data.StartVar, 
TestParameter, AutoAnalysis.Line2.Point1.Data.StartCondition, 
TestParameter, AutoAnalysis.Line2.Point2.Type, 0
TestParameter, AutoAnalysis.Line2.Point2.XY.X, 
TestParameter, AutoAnalysis.Line2.Point2.XY.Y, 
TestParameter, AutoAnalysis.Line2.Point2.Data.Var, 
TestParameter, AutoAnalysis.Line2.Point2.Data.Condition, 
TestParameter, AutoAnalysis.Line2.Point2.Data.Start, false
TestParameter, AutoAnalysis.Line2.Point2.Data.StartVar, 
TestParameter, AutoAnalysis.Line2.Point2.Data.StartCondition, 
TestParameter, AutoAnalysis.Line2.GradientExpr, 0
TestParameter, AutoAnalysis.Marker.Enabled, false
TestParameter, AutoAnalysis.Marker.Data.Var, 
TestParameter, AutoAnalysis.Marker.Data.Condition, 
TestParameter, AutoAnalysis.Marker.Data.Start, false
TestParameter, AutoAnalysis.Marker.Data.StartVar, 
TestParameter, AutoAnalysis.Marker.Data.StartCondition, 
MetaData, TestRecord.EntryPoint, true
MetaData, TestRecord.RecordTime, 09/05/2020 14:48:16
MetaData, TestRecord.TestTarget, 
MetaData, TestRecord.IterationIndex, 46
MetaData, TestRecord.Preservation, true
MetaData, TestRecord.Flag, 
MetaData, TestRecord.Remarks, 
MetaData, TestRecord.LinkKey, 0bf69fa3-b4d7-477c-a67f-4147ad734b93
Dimension1, 101, 101, 101
Dimension2, 1, 1, 1
DataName, V1, I1, Ohmic
DataValue, -5, -7.1629999999999989E-10, 3392622517.8393917
DataValue, -4.9, -7.705E-10, 
DataValue, -4.8, -8.1419999999999994E-10, 
DataValue, -4.7, -6.3619999999999993E-10, 
DataValue, -4.6000000000000005, -7.641999999999999E-10, 
DataValue, -4.5, -7.624E-10, 
DataValue, -4.4, -7.9529999999999993E-10, 
DataValue, -4.3, -7.1779999999999994E-10, 
DataValue, -4.2, -4.769E-10, 
DataValue, -4.1, -6.228E-10, 
DataValue, -4, -6.0379999999999992E-10, 
DataValue, -3.9, -7.86E-10, 
DataValue, -3.8000000000000003, -4.024E-10, 
DataValue, -3.7, -4.857E-10, 
DataValue, -3.6, -7.105E-10, 
DataValue, -3.5, -7.2349999999999993E-10, 
DataValue, -3.4, -5.784E-10, 
DataValue, -3.3000000000000003, -7.24E-10, 
DataValue, -3.2, -6.4129999999999995E-10, 
DataValue, -3.1, -5.702E-10, 
DataValue, -3, -5.480999999999999E-10, 
DataValue, -2.9, -5.0239999999999994E-10, 
DataValue, -2.8000000000000003, -6.296999999999999E-10, 
DataValue, -2.7, -5.82E-10, 
DataValue, -2.6, -5.1589999999999995E-10, 
DataValue, -2.5, -4.743E-10, 
DataValue, -2.4, -6.4049999999999991E-10, 
DataValue, -2.3000000000000003, -4.518E-10, 
DataValue, -2.2, -6.033E-10, 
DataValue, -2.1, -5.065E-10, 
DataValue, -2, -4.3799999999999994E-10, 
DataValue, -1.9000000000000001, -4.4489999999999993E-10, 
DataValue, -1.8, -4.1619999999999997E-10, 
DataValue, -1.7, -4.1139999999999994E-10, 
DataValue, -1.6, -4.807E-10, 
DataValue, -1.5, -5.9309999999999995E-10, 
DataValue, -1.4000000000000001, -5.3169999999999993E-10, 
DataValue, -1.3, -4.8519999999999994E-10, 
DataValue, -1.2, -3.9169999999999995E-10, 
DataValue, -1.1, -4.5749999999999997E-10, 
DataValue, -1, -5.447E-10, 
DataValue, -0.9, -3.6089999999999996E-10, 
DataValue, -0.8, -3.419E-10, 
DataValue, -0.70000000000000007, -2.8029999999999995E-10, 
DataValue, -0.6, -2.7729999999999996E-10, 
DataValue, -0.5, -2.5959999999999996E-10, 
DataValue, -0.4, -1.5059999999999998E-10, 
DataValue, -0.3, -3.4999999999999996E-12, 
DataValue, -0.2, 9.5199999999999992E-11, 
DataValue, -0.1, 2.3199999999999997E-10, 
DataValue, 0, 4.1459999999999994E-10, 
DataValue, 0.1, 5.838E-10, 
DataValue, 0.2, 7.270999999999999E-10, 
DataValue, 0.3, 8.6099999999999992E-10, 
DataValue, 0.4, 1.0275999999999998E-09, 
DataValue, 0.5, 1.3327E-09, 
DataValue, 0.6, 1.6228999999999998E-09, 
DataValue, 0.70000000000000007, 1.7402999999999999E-09, 
DataValue, 0.8, 1.9845E-09, 
DataValue, 0.9, 2.0241999999999997E-09, 
DataValue, 1, 2.2656999999999997E-09, 
DataValue, 1.1, 2.5569999999999998E-09, 
DataValue, 1.2, 2.664E-09, 
DataValue, 1.3, 2.7579999999999998E-09, 
DataValue, 1.4000000000000001, 2.9169999999999997E-09, 
DataValue, 1.5, 2.9761999999999997E-09, 
DataValue, 1.6, 3.0442E-09, 
DataValue, 1.7, 3.1213999999999996E-09, 
DataValue, 1.8, 3.2344999999999995E-09, 
DataValue, 1.9000000000000001, 3.2454999999999996E-09, 
DataValue, 2, 3.4009999999999997E-09, 
DataValue, 2.1, 3.2813E-09, 
DataValue, 2.2, 3.4845999999999997E-09, 
DataValue, 2.3000000000000003, 3.4352999999999995E-09, 
DataValue, 2.4, 3.4956E-09, 
DataValue, 2.5, 3.4890999999999995E-09, 
DataValue, 2.6, 3.5774999999999997E-09, 
DataValue, 2.7, 3.5979999999999998E-09, 
DataValue, 2.8000000000000003, 3.5261999999999997E-09, 
DataValue, 2.9, 3.5568999999999996E-09, 
DataValue, 3, 3.5516999999999996E-09, 
DataValue, 3.1, 3.4871999999999997E-09, 
DataValue, 3.2, 3.5083999999999996E-09, 
DataValue, 3.3000000000000003, 3.6764999999999995E-09, 
DataValue, 3.4, 3.6188999999999996E-09, 
DataValue, 3.5, 3.6801999999999998E-09, 
DataValue, 3.6, 3.6811999999999997E-09, 
DataValue, 3.7, 3.8102999999999995E-09, 
DataValue, 3.8000000000000003, 3.8064E-09, 
DataValue, 3.9, 3.6713999999999995E-09, 
DataValue, 4, 3.7191999999999997E-09, 
DataValue, 4.1, 3.7633E-09, 
DataValue, 4.2, 3.7940999999999995E-09, 
DataValue, 4.3, 3.8355E-09, 
DataValue, 4.4, 3.8569E-09, 
DataValue, 4.5, 3.8435E-09, 
DataValue, 4.6000000000000005, 3.8299999999999994E-09, 
DataValue, 4.7, 3.8824999999999994E-09, 
DataValue, 4.8, 3.8753999999999993E-09, 
DataValue, 4.9, 3.9800999999999995E-09, 
DataValue, 5, 3.9485E-09, 