
SetupTitle, WW
PrimitiveTest, I/V Sweep
TestParameter, Context.MainFrame, B1500A
TestParameter, Channel.UnitType, SMU, SMU
TestParameter, Channel.Unit, SMU2:HP, SMU1:HP
TestParameter, Channel.IName, I1, I4
TestParameter, Channel.VName, V1, V4
TestParameter, Channel.Mode, V, COMMON
TestParameter, Channel.Func, VAR1, CONST
TestParameter, Channel.Index, 
TestParameter, Channel.Time, 
TestParameter, Measurement.Port.Unit, SMU2:HP, SMU1:HP
TestParameter, Measurement.Port.SeriesResistor, NONE, NONE
TestParameter, Measurement.Port.Filter, ON, ON
TestParameter, Measurement.Port.OutputVoltageComparison, 0, 0
TestParameter, Measurement.Primary.Locus, Single
TestParameter, Measurement.Primary.Scale, LINEAR
TestParameter, Measurement.Primary.Start, -5
TestParameter, Measurement.Primary.Stop, 5
TestParameter, Measurement.Primary.Step, 0.1
TestParameter, Measurement.Primary.Compliance, 0.1
TestParameter, Measurement.Primary.PowerCompliance, 0
TestParameter, Measurement.Aborting.Condition, CONTINUE AT ANY
TestParameter, Measurement.PostOutput.Value, START
TestParameter, Measurement.PostOutput.Retention, OFF
TestParameter, Measurement.Bias.Source, -5, 0
TestParameter, Measurement.Bias.Compliance, 0.1, 1
TestParameter, Measurement.Monitor.Unit, SMU2:HP, SMU1:HP
TestParameter, Measurement.Monitor.Adc, HR ADC, HR ADC
TestParameter, Measurement.Monitor.Measurement, Compliance Side, Compliance Side
TestParameter, Measurement.Monitor.RangingMode, AUTO, AUTO
TestParameter, Measurement.Monitor.RangeBoundary, , 
TestParameter, Measurement.Monitor.RangeRating, BY FULL RANGE, BY FULL RANGE
TestParameter, Measurement.Monitor.RangeRatingCoeff, 50, 50
TestParameter, Measurement.Timing.Hold, 0
TestParameter, Measurement.Timing.Delay, 0.001
TestParameter, Measurement.Adc.HighSpeed.Mode, AUTO
TestParameter, Measurement.Adc.HighSpeed.Coeff, 1
TestParameter, Measurement.Adc.HighResolution.AutoZero, OFF
TestParameter, Measurement.Adc.HighResolution.Mode, PLC
TestParameter, Measurement.Adc.HighResolution.Coeff, 1
TestParameter, Measurement.WaitTime.Source.Coeff, 1
TestParameter, Measurement.WaitTime.Source.Offset, 0
TestParameter, Measurement.WaitTime.Monitor.Coeff, 1
TestParameter, Measurement.WaitTime.Monitor.Offset, 0
TestParameter, Function.User.Name, Ohmic
TestParameter, Function.User.Unit, ohm
TestParameter, Function.User.Definition, avg(V1/I1)
TestParameter, Output.Graph.Enabled, true
TestParameter, Output.Graph.XAxis.Data, V1
TestParameter, Output.Graph.XAxis.Scale, Linear
TestParameter, Output.Graph.XAxis.Left, -5
TestParameter, Output.Graph.XAxis.Right, 5
TestParameter, Output.Graph.YAxis.Data, I1
TestParameter, Output.Graph.YAxis.Scale, Linear
TestParameter, Output.Graph.YAxis.Bottom, -0.001
TestParameter, Output.Graph.YAxis.Top, 0.001
TestParameter, Output.Graph.YAxis.Group, 
TestParameter, Output.Scalar.Data, Ohmic
TestParameter, AutoAnalysis.Interpolation, false
TestParameter, AutoAnalysis.Line1.Enabled, false
TestParameter, AutoAnalysis.Line1.Type, 1
TestParameter, AutoAnalysis.Line1.Fix, True
TestParameter, AutoAnalysis.Line1.YAxis, 0
TestParameter, AutoAnalysis.Line1.Point1.Type, 0
TestParameter, AutoAnalysis.Line1.Point1.XY.X, 
TestParameter, AutoAnalysis.Line1.Point1.XY.Y, 
TestParameter, AutoAnalysis.Line1.Point1.Data.Var, 
TestParameter, AutoAnalysis.Line1.Point1.Data.Condition, 
TestParameter, AutoAnalysis.Line1.Point1.Data.Start, false
TestParameter, AutoAnalysis.Line1.Point1.Data.StartVar, 
TestParameter, AutoAnalysis.Line1.Point1.Data.StartCondition, 
TestParameter, AutoAnalysis.Line1.Point2.Type, 0
TestParameter, AutoAnalysis.Line1.Point2.XY.X, 
TestParameter, AutoAnalysis.Line1.Point2.XY.Y, 
TestParameter, AutoAnalysis.Line1.Point2.Data.Var, 
TestParameter, AutoAnalysis.Line1.Point2.Data.Condition, 
TestParameter, AutoAnalysis.Line1.Point2.Data.Start, false
TestParameter, AutoAnalysis.Line1.Point2.Data.StartVar, 
TestParameter, AutoAnalysis.Line1.Point2.Data.StartCondition, 
TestParameter, AutoAnalysis.Line1.GradientExpr, 0
TestParameter, AutoAnalysis.Line2.Enabled, false
TestParameter, AutoAnalysis.Line2.Type, 1
TestParameter, AutoAnalysis.Line2.Fix, True
TestParameter, AutoAnalysis.Line2.YAxis, 0
TestParameter, AutoAnalysis.Line2.Point1.Type, 0
TestParameter, AutoAnalysis.Line2.Point1.XY.X, 
TestParameter, AutoAnalysis.Line2.Point1.XY.Y, 
TestParameter, AutoAnalysis.Line2.Point1.Data.Var, 
TestParameter, AutoAnalysis.Line2.Point1.Data.Condition, 
TestParameter, AutoAnalysis.Line2.Point1.Data.Start, false
TestParameter, AutoAnalysis.Line2.Point1.Data.StartVar, 
TestParameter, AutoAnalysis.Line2.Point1.Data.StartCondition, 
TestParameter, AutoAnalysis.Line2.Point2.Type, 0
TestParameter, AutoAnalysis.Line2.Point2.XY.X, 
TestParameter, AutoAnalysis.Line2.Point2.XY.Y, 
TestParameter, AutoAnalysis.Line2.Point2.Data.Var, 
TestParameter, AutoAnalysis.Line2.Point2.Data.Condition, 
TestParameter, AutoAnalysis.Line2.Point2.Data.Start, false
TestParameter, AutoAnalysis.Line2.Point2.Data.StartVar, 
TestParameter, AutoAnalysis.Line2.Point2.Data.StartCondition, 
TestParameter, AutoAnalysis.Line2.GradientExpr, 0
TestParameter, AutoAnalysis.Marker.Enabled, false
TestParameter, AutoAnalysis.Marker.Data.Var, 
TestParameter, AutoAnalysis.Marker.Data.Condition, 
TestParameter, AutoAnalysis.Marker.Data.Start, false
TestParameter, AutoAnalysis.Marker.Data.StartVar, 
TestParameter, AutoAnalysis.Marker.Data.StartCondition, 
MetaData, TestRecord.EntryPoint, true
MetaData, TestRecord.RecordTime, 09/05/2020 14:46:55
MetaData, TestRecord.TestTarget, 
MetaData, TestRecord.IterationIndex, 43
MetaData, TestRecord.Preservation, true
MetaData, TestRecord.Flag, 
MetaData, TestRecord.Remarks, 
MetaData, TestRecord.LinkKey, cebdd64a-bbbe-4246-97b8-62d82ceb38aa
Dimension1, 101, 101, 101
Dimension2, 1, 1, 1
DataName, V1, I1, Ohmic
DataValue, -5, -5.1079999999999993E-10, 4667032109.7220259
DataValue, -4.9, -4.7129999999999991E-10, 
DataValue, -4.8, -4.4719999999999997E-10, 
DataValue, -4.7, -4.4109999999999996E-10, 
DataValue, -4.6000000000000005, -4.5069999999999995E-10, 
DataValue, -4.5, -4.5259999999999997E-10, 
DataValue, -4.4, -4.014E-10, 
DataValue, -4.3, -4.176E-10, 
DataValue, -4.2, -3.95E-10, 
DataValue, -4.1, -3.9269999999999995E-10, 
DataValue, -4, -3.293E-10, 
DataValue, -3.9, -2.974E-10, 
DataValue, -3.8000000000000003, -3.5699999999999996E-10, 
DataValue, -3.7, -3.5849999999999995E-10, 
DataValue, -3.6, -3.8629999999999995E-10, 
DataValue, -3.5, -3.36E-10, 
DataValue, -3.4, -3.4659999999999997E-10, 
DataValue, -3.3000000000000003, -3.5939999999999997E-10, 
DataValue, -3.2, -2.755E-10, 
DataValue, -3.1, -3.0559999999999996E-10, 
DataValue, -3, -3.045E-10, 
DataValue, -2.9, -2.4629999999999997E-10, 
DataValue, -2.8000000000000003, -2.7779999999999996E-10, 
DataValue, -2.7, -2.705E-10, 
DataValue, -2.6, -2.8169999999999997E-10, 
DataValue, -2.5, -2.523E-10, 
DataValue, -2.4, -2.1859999999999997E-10, 
DataValue, -2.3000000000000003, -2.1869999999999998E-10, 
DataValue, -2.2, -2.4949999999999997E-10, 
DataValue, -2.1, -2.406E-10, 
DataValue, -2, -2.1899999999999997E-10, 
DataValue, -1.9000000000000001, -2.5049999999999996E-10, 
DataValue, -1.8, -2.1439999999999998E-10, 
DataValue, -1.7, -2.3449999999999997E-10, 
DataValue, -1.6, -1.8919999999999998E-10, 
DataValue, -1.5, -2.0509999999999997E-10, 
DataValue, -1.4000000000000001, -1.9919999999999997E-10, 
DataValue, -1.3, -2.0779999999999997E-10, 
DataValue, -1.2, -1.8919999999999998E-10, 
DataValue, -1.1, -1.9029999999999998E-10, 
DataValue, -1, -1.8939999999999999E-10, 
DataValue, -0.9, -1.8329999999999998E-10, 
DataValue, -0.8, -1.8829999999999999E-10, 
DataValue, -0.70000000000000007, -1.349E-10, 
DataValue, -0.6, -1.278E-10, 
DataValue, -0.5, -9.6399999999999985E-11, 
DataValue, -0.4, -2.4399999999999998E-11, 
DataValue, -0.3, 5.38E-11, 
DataValue, -0.2, 1.7099999999999998E-10, 
DataValue, -0.1, 2.4389999999999995E-10, 
DataValue, 0, 3.628E-10, 
DataValue, 0.1, 5.1519999999999994E-10, 
DataValue, 0.2, 6.875E-10, 
DataValue, 0.3, 7.725E-10, 
DataValue, 0.4, 8.8759999999999991E-10, 
DataValue, 0.5, 1.0504999999999998E-09, 
DataValue, 0.6, 1.2148999999999998E-09, 
DataValue, 0.70000000000000007, 1.3724E-09, 
DataValue, 0.8, 1.4722E-09, 
DataValue, 0.9, 1.6121999999999999E-09, 
DataValue, 1, 1.7331999999999998E-09, 
DataValue, 1.1, 1.8147999999999998E-09, 
DataValue, 1.2, 1.8923999999999998E-09, 
DataValue, 1.3, 2.00379E-09, 
DataValue, 1.4000000000000001, 2.11882E-09, 
DataValue, 1.5, 2.17052E-09, 
DataValue, 1.6, 2.26583E-09, 
DataValue, 1.7, 2.35061E-09, 
DataValue, 1.8, 2.40613E-09, 
DataValue, 1.9000000000000001, 2.51635E-09, 
DataValue, 2, 2.52027E-09, 
DataValue, 2.1, 2.54737E-09, 
DataValue, 2.2, 2.56132E-09, 
DataValue, 2.3000000000000003, 2.64532E-09, 
DataValue, 2.4, 2.64826E-09, 
DataValue, 2.5, 2.70511E-09, 
DataValue, 2.6, 2.68269E-09, 
DataValue, 2.7, 2.73909E-09, 
DataValue, 2.8000000000000003, 2.75504E-09, 
DataValue, 2.9, 2.82983E-09, 
DataValue, 3, 2.83735E-09, 
DataValue, 3.1, 2.86417E-09, 
DataValue, 3.2, 2.8929E-09, 
DataValue, 3.3000000000000003, 2.86121E-09, 
DataValue, 3.4, 2.88488E-09, 
DataValue, 3.5, 2.84771E-09, 
DataValue, 3.6, 2.90174E-09, 
DataValue, 3.7, 2.84974E-09, 
DataValue, 3.8000000000000003, 2.88955E-09, 
DataValue, 3.9, 2.90266E-09, 
DataValue, 4, 2.89122E-09, 
DataValue, 4.1, 3.04738E-09, 
DataValue, 4.2, 2.96531E-09, 
DataValue, 4.3, 2.97686E-09, 
DataValue, 4.4, 3.00038E-09, 
DataValue, 4.5, 2.98576E-09, 
DataValue, 4.6000000000000005, 2.99631E-09, 
DataValue, 4.7, 2.98597E-09, 
DataValue, 4.8, 2.97617E-09, 
DataValue, 4.9, 2.9642E-09, 
DataValue, 5, 2.97922E-09, 