
SetupTitle, WW
PrimitiveTest, I/V Sweep
TestParameter, Context.MainFrame, B1500A
TestParameter, Channel.UnitType, SMU, SMU
TestParameter, Channel.Unit, SMU2:HP, SMU1:HP
TestParameter, Channel.IName, I1, I4
TestParameter, Channel.VName, V1, V4
TestParameter, Channel.Mode, V, COMMON
TestParameter, Channel.Func, VAR1, CONST
TestParameter, Channel.Index, 
TestParameter, Channel.Time, 
TestParameter, Measurement.Port.Unit, SMU2:HP, SMU1:HP
TestParameter, Measurement.Port.SeriesResistor, NONE, NONE
TestParameter, Measurement.Port.Filter, ON, ON
TestParameter, Measurement.Port.OutputVoltageComparison, 0, 0
TestParameter, Measurement.Primary.Locus, Single
TestParameter, Measurement.Primary.Scale, LINEAR
TestParameter, Measurement.Primary.Start, -5
TestParameter, Measurement.Primary.Stop, 5
TestParameter, Measurement.Primary.Step, 0.1
TestParameter, Measurement.Primary.Compliance, 0.1
TestParameter, Measurement.Primary.PowerCompliance, 0
TestParameter, Measurement.Aborting.Condition, CONTINUE AT ANY
TestParameter, Measurement.PostOutput.Value, START
TestParameter, Measurement.PostOutput.Retention, OFF
TestParameter, Measurement.Bias.Source, -5, 0
TestParameter, Measurement.Bias.Compliance, 0.1, 1
TestParameter, Measurement.Monitor.Unit, SMU2:HP, SMU1:HP
TestParameter, Measurement.Monitor.Adc, HR ADC, HR ADC
TestParameter, Measurement.Monitor.Measurement, Compliance Side, Compliance Side
TestParameter, Measurement.Monitor.RangingMode, AUTO, AUTO
TestParameter, Measurement.Monitor.RangeBoundary, , 
TestParameter, Measurement.Monitor.RangeRating, BY FULL RANGE, BY FULL RANGE
TestParameter, Measurement.Monitor.RangeRatingCoeff, 50, 50
TestParameter, Measurement.Timing.Hold, 0
TestParameter, Measurement.Timing.Delay, 0.001
TestParameter, Measurement.Adc.HighSpeed.Mode, AUTO
TestParameter, Measurement.Adc.HighSpeed.Coeff, 1
TestParameter, Measurement.Adc.HighResolution.AutoZero, OFF
TestParameter, Measurement.Adc.HighResolution.Mode, PLC
TestParameter, Measurement.Adc.HighResolution.Coeff, 1
TestParameter, Measurement.WaitTime.Source.Coeff, 1
TestParameter, Measurement.WaitTime.Source.Offset, 0
TestParameter, Measurement.WaitTime.Monitor.Coeff, 1
TestParameter, Measurement.WaitTime.Monitor.Offset, 0
TestParameter, Function.User.Name, Ohmic
TestParameter, Function.User.Unit, ohm
TestParameter, Function.User.Definition, avg(V1/I1)
TestParameter, Output.Graph.Enabled, true
TestParameter, Output.Graph.XAxis.Data, V1
TestParameter, Output.Graph.XAxis.Scale, Linear
TestParameter, Output.Graph.XAxis.Left, -5
TestParameter, Output.Graph.XAxis.Right, 5
TestParameter, Output.Graph.YAxis.Data, I1
TestParameter, Output.Graph.YAxis.Scale, Linear
TestParameter, Output.Graph.YAxis.Bottom, -0.001
TestParameter, Output.Graph.YAxis.Top, 0.001
TestParameter, Output.Graph.YAxis.Group, 
TestParameter, Output.Scalar.Data, Ohmic
TestParameter, AutoAnalysis.Interpolation, false
TestParameter, AutoAnalysis.Line1.Enabled, false
TestParameter, AutoAnalysis.Line1.Type, 1
TestParameter, AutoAnalysis.Line1.Fix, True
TestParameter, AutoAnalysis.Line1.YAxis, 0
TestParameter, AutoAnalysis.Line1.Point1.Type, 0
TestParameter, AutoAnalysis.Line1.Point1.XY.X, 
TestParameter, AutoAnalysis.Line1.Point1.XY.Y, 
TestParameter, AutoAnalysis.Line1.Point1.Data.Var, 
TestParameter, AutoAnalysis.Line1.Point1.Data.Condition, 
TestParameter, AutoAnalysis.Line1.Point1.Data.Start, false
TestParameter, AutoAnalysis.Line1.Point1.Data.StartVar, 
TestParameter, AutoAnalysis.Line1.Point1.Data.StartCondition, 
TestParameter, AutoAnalysis.Line1.Point2.Type, 0
TestParameter, AutoAnalysis.Line1.Point2.XY.X, 
TestParameter, AutoAnalysis.Line1.Point2.XY.Y, 
TestParameter, AutoAnalysis.Line1.Point2.Data.Var, 
TestParameter, AutoAnalysis.Line1.Point2.Data.Condition, 
TestParameter, AutoAnalysis.Line1.Point2.Data.Start, false
TestParameter, AutoAnalysis.Line1.Point2.Data.StartVar, 
TestParameter, AutoAnalysis.Line1.Point2.Data.StartCondition, 
TestParameter, AutoAnalysis.Line1.GradientExpr, 0
TestParameter, AutoAnalysis.Line2.Enabled, false
TestParameter, AutoAnalysis.Line2.Type, 1
TestParameter, AutoAnalysis.Line2.Fix, True
TestParameter, AutoAnalysis.Line2.YAxis, 0
TestParameter, AutoAnalysis.Line2.Point1.Type, 0
TestParameter, AutoAnalysis.Line2.Point1.XY.X, 
TestParameter, AutoAnalysis.Line2.Point1.XY.Y, 
TestParameter, AutoAnalysis.Line2.Point1.Data.Var, 
TestParameter, AutoAnalysis.Line2.Point1.Data.Condition, 
TestParameter, AutoAnalysis.Line2.Point1.Data.Start, false
TestParameter, AutoAnalysis.Line2.Point1.Data.StartVar, 
TestParameter, AutoAnalysis.Line2.Point1.Data.StartCondition, 
TestParameter, AutoAnalysis.Line2.Point2.Type, 0
TestParameter, AutoAnalysis.Line2.Point2.XY.X, 
TestParameter, AutoAnalysis.Line2.Point2.XY.Y, 
TestParameter, AutoAnalysis.Line2.Point2.Data.Var, 
TestParameter, AutoAnalysis.Line2.Point2.Data.Condition, 
TestParameter, AutoAnalysis.Line2.Point2.Data.Start, false
TestParameter, AutoAnalysis.Line2.Point2.Data.StartVar, 
TestParameter, AutoAnalysis.Line2.Point2.Data.StartCondition, 
TestParameter, AutoAnalysis.Line2.GradientExpr, 0
TestParameter, AutoAnalysis.Marker.Enabled, false
TestParameter, AutoAnalysis.Marker.Data.Var, 
TestParameter, AutoAnalysis.Marker.Data.Condition, 
TestParameter, AutoAnalysis.Marker.Data.Start, false
TestParameter, AutoAnalysis.Marker.Data.StartVar, 
TestParameter, AutoAnalysis.Marker.Data.StartCondition, 
MetaData, TestRecord.EntryPoint, true
MetaData, TestRecord.RecordTime, 09/05/2020 14:46:26
MetaData, TestRecord.TestTarget, 
MetaData, TestRecord.IterationIndex, 42
MetaData, TestRecord.Preservation, true
MetaData, TestRecord.Flag, 
MetaData, TestRecord.Remarks, 
MetaData, TestRecord.LinkKey, 6dda443e-1d6f-4505-9651-b32fc879567c
Dimension1, 101, 101, 101
Dimension2, 1, 1, 1
DataName, V1, I1, Ohmic
DataValue, -5, -4.7469999999999992E-10, 4443917319.1182413
DataValue, -4.9, -4.948E-10, 
DataValue, -4.8, -4.8149999999999994E-10, 
DataValue, -4.7, -4.3389999999999997E-10, 
DataValue, -4.6000000000000005, -4.4019999999999994E-10, 
DataValue, -4.5, -4.6259999999999993E-10, 
DataValue, -4.4, -4.1469999999999997E-10, 
DataValue, -4.3, -3.6159999999999997E-10, 
DataValue, -4.2, -3.972E-10, 
DataValue, -4.1, -3.8019999999999994E-10, 
DataValue, -4, -3.9539999999999995E-10, 
DataValue, -3.9, -3.8139999999999994E-10, 
DataValue, -3.8000000000000003, -3.8679999999999995E-10, 
DataValue, -3.7, -3.5179999999999996E-10, 
DataValue, -3.6, -3.8059999999999996E-10, 
DataValue, -3.5, -3.421E-10, 
DataValue, -3.4, -3.4329999999999994E-10, 
DataValue, -3.3000000000000003, -3.4399999999999995E-10, 
DataValue, -3.2, -2.993E-10, 
DataValue, -3.1, -3.3319999999999995E-10, 
DataValue, -3, -3.018E-10, 
DataValue, -2.9, -3.271E-10, 
DataValue, -2.8000000000000003, -3.015E-10, 
DataValue, -2.7, -3.4589999999999996E-10, 
DataValue, -2.6, -3.0849999999999997E-10, 
DataValue, -2.5, -3.2789999999999997E-10, 
DataValue, -2.4, -2.9889999999999997E-10, 
DataValue, -2.3000000000000003, -3.1569999999999995E-10, 
DataValue, -2.2, -3.0559999999999996E-10, 
DataValue, -2.1, -2.666E-10, 
DataValue, -2, -2.676E-10, 
DataValue, -1.9000000000000001, -2.7389999999999995E-10, 
DataValue, -1.8, -2.4759999999999995E-10, 
DataValue, -1.7, -2.1689999999999997E-10, 
DataValue, -1.6, -2.2409999999999998E-10, 
DataValue, -1.5, -2.617E-10, 
DataValue, -1.4000000000000001, -2.334E-10, 
DataValue, -1.3, -2.264E-10, 
DataValue, -1.2, -2.0629999999999998E-10, 
DataValue, -1.1, -2.0059999999999999E-10, 
DataValue, -1, -2.2999999999999998E-10, 
DataValue, -0.9, -2.1509999999999999E-10, 
DataValue, -0.8, -1.8209999999999997E-10, 
DataValue, -0.70000000000000007, -1.504E-10, 
DataValue, -0.6, -9.6999999999999988E-11, 
DataValue, -0.5, -7.4999999999999987E-11, 
DataValue, -0.4, -1.98E-11, 
DataValue, -0.3, 6.98E-11, 
DataValue, -0.2, 1.291E-10, 
DataValue, -0.1, 2.3719999999999997E-10, 
DataValue, 0, 3.1099999999999996E-10, 
DataValue, 0.1, 4.935E-10, 
DataValue, 0.2, 5.928E-10, 
DataValue, 0.3, 7.179E-10, 
DataValue, 0.4, 8.1419999999999994E-10, 
DataValue, 0.5, 9.8779999999999984E-10, 
DataValue, 0.6, 1.0915999999999998E-09, 
DataValue, 0.70000000000000007, 1.1904E-09, 
DataValue, 0.8, 1.3433E-09, 
DataValue, 0.9, 1.574E-09, 
DataValue, 1, 1.6596999999999998E-09, 
DataValue, 1.1, 1.7312999999999998E-09, 
DataValue, 1.2, 1.8291999999999999E-09, 
DataValue, 1.3, 1.9316E-09, 
DataValue, 1.4000000000000001, 1.9585E-09, 
DataValue, 1.5, 2.0424E-09, 
DataValue, 1.6, 2.1446E-09, 
DataValue, 1.7, 2.24646E-09, 
DataValue, 1.8, 2.24765E-09, 
DataValue, 1.9000000000000001, 2.35764E-09, 
DataValue, 2, 2.36612E-09, 
DataValue, 2.1, 2.47601E-09, 
DataValue, 2.2, 2.45296E-09, 
DataValue, 2.3000000000000003, 2.50452E-09, 
DataValue, 2.4, 2.53179E-09, 
DataValue, 2.5, 2.47745E-09, 
DataValue, 2.6, 2.54871E-09, 
DataValue, 2.7, 2.58187E-09, 
DataValue, 2.8000000000000003, 2.58881E-09, 
DataValue, 2.9, 2.50622E-09, 
DataValue, 3, 2.59623E-09, 
DataValue, 3.1, 2.61954E-09, 
DataValue, 3.2, 2.6067E-09, 
DataValue, 3.3000000000000003, 2.65104E-09, 
DataValue, 3.4, 2.69519E-09, 
DataValue, 3.5, 2.6656E-09, 
DataValue, 3.6, 2.72498E-09, 
DataValue, 3.7, 2.69785E-09, 
DataValue, 3.8000000000000003, 2.74963E-09, 
DataValue, 3.9, 2.79107E-09, 
DataValue, 4, 2.81592E-09, 
DataValue, 4.1, 2.82582E-09, 
DataValue, 4.2, 2.77982E-09, 
DataValue, 4.3, 2.8018499999999998E-09, 
DataValue, 4.4, 2.77639E-09, 
DataValue, 4.5, 2.80122E-09, 
DataValue, 4.6000000000000005, 2.82746E-09, 
DataValue, 4.7, 2.87052E-09, 
DataValue, 4.8, 2.81665E-09, 
DataValue, 4.9, 2.83089E-09, 
DataValue, 5, 2.87647E-09, 