
SetupTitle, WW
PrimitiveTest, I/V Sweep
TestParameter, Context.MainFrame, B1500A
TestParameter, Channel.UnitType, SMU, SMU
TestParameter, Channel.Unit, SMU2:HP, SMU1:HP
TestParameter, Channel.IName, I1, I4
TestParameter, Channel.VName, V1, V4
TestParameter, Channel.Mode, V, COMMON
TestParameter, Channel.Func, VAR1, CONST
TestParameter, Channel.Index, 
TestParameter, Channel.Time, 
TestParameter, Measurement.Port.Unit, SMU2:HP, SMU1:HP
TestParameter, Measurement.Port.SeriesResistor, NONE, NONE
TestParameter, Measurement.Port.Filter, ON, ON
TestParameter, Measurement.Port.OutputVoltageComparison, 0, 0
TestParameter, Measurement.Primary.Locus, Single
TestParameter, Measurement.Primary.Scale, LINEAR
TestParameter, Measurement.Primary.Start, -5
TestParameter, Measurement.Primary.Stop, 5
TestParameter, Measurement.Primary.Step, 0.1
TestParameter, Measurement.Primary.Compliance, 0.1
TestParameter, Measurement.Primary.PowerCompliance, 0
TestParameter, Measurement.Aborting.Condition, CONTINUE AT ANY
TestParameter, Measurement.PostOutput.Value, START
TestParameter, Measurement.PostOutput.Retention, OFF
TestParameter, Measurement.Bias.Source, -5, 0
TestParameter, Measurement.Bias.Compliance, 0.1, 1
TestParameter, Measurement.Monitor.Unit, SMU2:HP, SMU1:HP
TestParameter, Measurement.Monitor.Adc, HR ADC, HR ADC
TestParameter, Measurement.Monitor.Measurement, Compliance Side, Compliance Side
TestParameter, Measurement.Monitor.RangingMode, AUTO, AUTO
TestParameter, Measurement.Monitor.RangeBoundary, , 
TestParameter, Measurement.Monitor.RangeRating, BY FULL RANGE, BY FULL RANGE
TestParameter, Measurement.Monitor.RangeRatingCoeff, 50, 50
TestParameter, Measurement.Timing.Hold, 0
TestParameter, Measurement.Timing.Delay, 0.001
TestParameter, Measurement.Adc.HighSpeed.Mode, AUTO
TestParameter, Measurement.Adc.HighSpeed.Coeff, 1
TestParameter, Measurement.Adc.HighResolution.AutoZero, OFF
TestParameter, Measurement.Adc.HighResolution.Mode, PLC
TestParameter, Measurement.Adc.HighResolution.Coeff, 1
TestParameter, Measurement.WaitTime.Source.Coeff, 1
TestParameter, Measurement.WaitTime.Source.Offset, 0
TestParameter, Measurement.WaitTime.Monitor.Coeff, 1
TestParameter, Measurement.WaitTime.Monitor.Offset, 0
TestParameter, Function.User.Name, Ohmic
TestParameter, Function.User.Unit, ohm
TestParameter, Function.User.Definition, avg(V1/I1)
TestParameter, Output.Graph.Enabled, true
TestParameter, Output.Graph.XAxis.Data, V1
TestParameter, Output.Graph.XAxis.Scale, Linear
TestParameter, Output.Graph.XAxis.Left, -5
TestParameter, Output.Graph.XAxis.Right, 5
TestParameter, Output.Graph.YAxis.Data, I1
TestParameter, Output.Graph.YAxis.Scale, Linear
TestParameter, Output.Graph.YAxis.Bottom, -0.001
TestParameter, Output.Graph.YAxis.Top, 0.001
TestParameter, Output.Graph.YAxis.Group, 
TestParameter, Output.Scalar.Data, Ohmic
TestParameter, AutoAnalysis.Interpolation, false
TestParameter, AutoAnalysis.Line1.Enabled, false
TestParameter, AutoAnalysis.Line1.Type, 1
TestParameter, AutoAnalysis.Line1.Fix, True
TestParameter, AutoAnalysis.Line1.YAxis, 0
TestParameter, AutoAnalysis.Line1.Point1.Type, 0
TestParameter, AutoAnalysis.Line1.Point1.XY.X, 
TestParameter, AutoAnalysis.Line1.Point1.XY.Y, 
TestParameter, AutoAnalysis.Line1.Point1.Data.Var, 
TestParameter, AutoAnalysis.Line1.Point1.Data.Condition, 
TestParameter, AutoAnalysis.Line1.Point1.Data.Start, false
TestParameter, AutoAnalysis.Line1.Point1.Data.StartVar, 
TestParameter, AutoAnalysis.Line1.Point1.Data.StartCondition, 
TestParameter, AutoAnalysis.Line1.Point2.Type, 0
TestParameter, AutoAnalysis.Line1.Point2.XY.X, 
TestParameter, AutoAnalysis.Line1.Point2.XY.Y, 
TestParameter, AutoAnalysis.Line1.Point2.Data.Var, 
TestParameter, AutoAnalysis.Line1.Point2.Data.Condition, 
TestParameter, AutoAnalysis.Line1.Point2.Data.Start, false
TestParameter, AutoAnalysis.Line1.Point2.Data.StartVar, 
TestParameter, AutoAnalysis.Line1.Point2.Data.StartCondition, 
TestParameter, AutoAnalysis.Line1.GradientExpr, 0
TestParameter, AutoAnalysis.Line2.Enabled, false
TestParameter, AutoAnalysis.Line2.Type, 1
TestParameter, AutoAnalysis.Line2.Fix, True
TestParameter, AutoAnalysis.Line2.YAxis, 0
TestParameter, AutoAnalysis.Line2.Point1.Type, 0
TestParameter, AutoAnalysis.Line2.Point1.XY.X, 
TestParameter, AutoAnalysis.Line2.Point1.XY.Y, 
TestParameter, AutoAnalysis.Line2.Point1.Data.Var, 
TestParameter, AutoAnalysis.Line2.Point1.Data.Condition, 
TestParameter, AutoAnalysis.Line2.Point1.Data.Start, false
TestParameter, AutoAnalysis.Line2.Point1.Data.StartVar, 
TestParameter, AutoAnalysis.Line2.Point1.Data.StartCondition, 
TestParameter, AutoAnalysis.Line2.Point2.Type, 0
TestParameter, AutoAnalysis.Line2.Point2.XY.X, 
TestParameter, AutoAnalysis.Line2.Point2.XY.Y, 
TestParameter, AutoAnalysis.Line2.Point2.Data.Var, 
TestParameter, AutoAnalysis.Line2.Point2.Data.Condition, 
TestParameter, AutoAnalysis.Line2.Point2.Data.Start, false
TestParameter, AutoAnalysis.Line2.Point2.Data.StartVar, 
TestParameter, AutoAnalysis.Line2.Point2.Data.StartCondition, 
TestParameter, AutoAnalysis.Line2.GradientExpr, 0
TestParameter, AutoAnalysis.Marker.Enabled, false
TestParameter, AutoAnalysis.Marker.Data.Var, 
TestParameter, AutoAnalysis.Marker.Data.Condition, 
TestParameter, AutoAnalysis.Marker.Data.Start, false
TestParameter, AutoAnalysis.Marker.Data.StartVar, 
TestParameter, AutoAnalysis.Marker.Data.StartCondition, 
MetaData, TestRecord.EntryPoint, true
MetaData, TestRecord.RecordTime, 09/05/2020 14:45:54
MetaData, TestRecord.TestTarget, 
MetaData, TestRecord.IterationIndex, 41
MetaData, TestRecord.Preservation, true
MetaData, TestRecord.Flag, 
MetaData, TestRecord.Remarks, 
MetaData, TestRecord.LinkKey, 9deae035-ad7d-40ca-bb75-e037edbd77f0
Dimension1, 101, 101, 101
Dimension2, 1, 1, 1
DataName, V1, I1, Ohmic
DataValue, -5, -5.6939999999999992E-10, 4083535256.4006896
DataValue, -4.9, -5.069999999999999E-10, 
DataValue, -4.8, -4.9959999999999991E-10, 
DataValue, -4.7, -4.56E-10, 
DataValue, -4.6000000000000005, -4.981E-10, 
DataValue, -4.5, -4.2319999999999994E-10, 
DataValue, -4.4, -4.2889999999999994E-10, 
DataValue, -4.3, -4.5779999999999996E-10, 
DataValue, -4.2, -4.5259999999999997E-10, 
DataValue, -4.1, -4.698E-10, 
DataValue, -4, -3.9999999999999996E-10, 
DataValue, -3.9, -4.4989999999999997E-10, 
DataValue, -3.8000000000000003, -4.3499999999999995E-10, 
DataValue, -3.7, -4.3819999999999994E-10, 
DataValue, -3.6, -3.9439999999999995E-10, 
DataValue, -3.5, -4.031E-10, 
DataValue, -3.4, -3.9659999999999995E-10, 
DataValue, -3.3000000000000003, -3.7599999999999994E-10, 
DataValue, -3.2, -3.8359999999999995E-10, 
DataValue, -3.1, -3.687E-10, 
DataValue, -3, -3.812E-10, 
DataValue, -2.9, -3.4269999999999996E-10, 
DataValue, -2.8000000000000003, -3.512E-10, 
DataValue, -2.7, -3.603E-10, 
DataValue, -2.6, -3.7419999999999996E-10, 
DataValue, -2.5, -3.2719999999999997E-10, 
DataValue, -2.4, -3.392E-10, 
DataValue, -2.3000000000000003, -2.836E-10, 
DataValue, -2.2, -3.151E-10, 
DataValue, -2.1, -3.1369999999999996E-10, 
DataValue, -2, -2.8669999999999995E-10, 
DataValue, -1.9000000000000001, -2.929E-10, 
DataValue, -1.8, -2.799E-10, 
DataValue, -1.7, -2.9E-10, 
DataValue, -1.6, -2.7559999999999996E-10, 
DataValue, -1.5, -3.062E-10, 
DataValue, -1.4000000000000001, -2.578E-10, 
DataValue, -1.3, -2.679E-10, 
DataValue, -1.2, -2.42E-10, 
DataValue, -1.1, -2.6839999999999997E-10, 
DataValue, -1, -2.3519999999999997E-10, 
DataValue, -0.9, -2.0569999999999997E-10, 
DataValue, -0.8, -1.873E-10, 
DataValue, -0.70000000000000007, -2.0369999999999998E-10, 
DataValue, -0.6, -1.369E-10, 
DataValue, -0.5, -9.9899999999999986E-11, 
DataValue, -0.4, -1.3499999999999999E-11, 
DataValue, -0.3, 5.14E-11, 
DataValue, -0.2, 1.653E-10, 
DataValue, -0.1, 2.291E-10, 
DataValue, 0, 3.4169999999999997E-10, 
DataValue, 0.1, 4.883E-10, 
DataValue, 0.2, 5.9129999999999991E-10, 
DataValue, 0.3, 7.304E-10, 
DataValue, 0.4, 8.4819999999999992E-10, 
DataValue, 0.5, 1.0161999999999999E-09, 
DataValue, 0.6, 1.1379E-09, 
DataValue, 0.70000000000000007, 1.2648999999999998E-09, 
DataValue, 0.8, 1.3680999999999999E-09, 
DataValue, 0.9, 1.4951999999999998E-09, 
DataValue, 1, 1.6445999999999999E-09, 
DataValue, 1.1, 1.7135E-09, 
DataValue, 1.2, 1.8196999999999998E-09, 
DataValue, 1.3, 1.94888E-09, 
DataValue, 1.4000000000000001, 2.02255E-09, 
DataValue, 1.5, 2.12099E-09, 
DataValue, 1.6, 2.17181E-09, 
DataValue, 1.7, 2.25746E-09, 
DataValue, 1.8, 2.31858E-09, 
DataValue, 1.9000000000000001, 2.40683E-09, 
DataValue, 2, 2.48365E-09, 
DataValue, 2.1, 2.47724E-09, 
DataValue, 2.2, 2.49055E-09, 
DataValue, 2.3000000000000003, 2.54307E-09, 
DataValue, 2.4, 2.57731E-09, 
DataValue, 2.5, 2.58087E-09, 
DataValue, 2.6, 2.55338E-09, 
DataValue, 2.7, 2.62412E-09, 
DataValue, 2.8000000000000003, 2.6428E-09, 
DataValue, 2.9, 2.66901E-09, 
DataValue, 3, 2.69635E-09, 
DataValue, 3.1, 2.69814E-09, 
DataValue, 3.2, 2.75153E-09, 
DataValue, 3.3000000000000003, 2.77577E-09, 
DataValue, 3.4, 2.78698E-09, 
DataValue, 3.5, 2.78562E-09, 
DataValue, 3.6, 2.78565E-09, 
DataValue, 3.7, 2.7533E-09, 
DataValue, 3.8000000000000003, 2.85867E-09, 
DataValue, 3.9, 2.8499E-09, 
DataValue, 4, 2.86919E-09, 
DataValue, 4.1, 2.92036E-09, 
DataValue, 4.2, 2.94771E-09, 
DataValue, 4.3, 2.97992E-09, 
DataValue, 4.4, 2.93958E-09, 
DataValue, 4.5, 2.91434E-09, 
DataValue, 4.6000000000000005, 3.00023E-09, 
DataValue, 4.7, 2.97621E-09, 
DataValue, 4.8, 3.03543E-09, 
DataValue, 4.9, 3.00706E-09, 
DataValue, 5, 2.99397E-09, 