
SetupTitle, WW
PrimitiveTest, I/V Sweep
TestParameter, Context.MainFrame, B1500A
TestParameter, Channel.UnitType, SMU, SMU
TestParameter, Channel.Unit, SMU2:HP, SMU1:HP
TestParameter, Channel.IName, I1, I4
TestParameter, Channel.VName, V1, V4
TestParameter, Channel.Mode, V, COMMON
TestParameter, Channel.Func, VAR1, CONST
TestParameter, Channel.Index, 
TestParameter, Channel.Time, 
TestParameter, Measurement.Port.Unit, SMU2:HP, SMU1:HP
TestParameter, Measurement.Port.SeriesResistor, NONE, NONE
TestParameter, Measurement.Port.Filter, ON, ON
TestParameter, Measurement.Port.OutputVoltageComparison, 0, 0
TestParameter, Measurement.Primary.Locus, Single
TestParameter, Measurement.Primary.Scale, LINEAR
TestParameter, Measurement.Primary.Start, -5
TestParameter, Measurement.Primary.Stop, 5
TestParameter, Measurement.Primary.Step, 0.1
TestParameter, Measurement.Primary.Compliance, 0.1
TestParameter, Measurement.Primary.PowerCompliance, 0
TestParameter, Measurement.Aborting.Condition, CONTINUE AT ANY
TestParameter, Measurement.PostOutput.Value, START
TestParameter, Measurement.PostOutput.Retention, OFF
TestParameter, Measurement.Bias.Source, -5, 0
TestParameter, Measurement.Bias.Compliance, 0.1, 1
TestParameter, Measurement.Monitor.Unit, SMU2:HP, SMU1:HP
TestParameter, Measurement.Monitor.Adc, HR ADC, HR ADC
TestParameter, Measurement.Monitor.Measurement, Compliance Side, Compliance Side
TestParameter, Measurement.Monitor.RangingMode, AUTO, AUTO
TestParameter, Measurement.Monitor.RangeBoundary, , 
TestParameter, Measurement.Monitor.RangeRating, BY FULL RANGE, BY FULL RANGE
TestParameter, Measurement.Monitor.RangeRatingCoeff, 50, 50
TestParameter, Measurement.Timing.Hold, 0
TestParameter, Measurement.Timing.Delay, 0.001
TestParameter, Measurement.Adc.HighSpeed.Mode, AUTO
TestParameter, Measurement.Adc.HighSpeed.Coeff, 1
TestParameter, Measurement.Adc.HighResolution.AutoZero, OFF
TestParameter, Measurement.Adc.HighResolution.Mode, PLC
TestParameter, Measurement.Adc.HighResolution.Coeff, 1
TestParameter, Measurement.WaitTime.Source.Coeff, 1
TestParameter, Measurement.WaitTime.Source.Offset, 0
TestParameter, Measurement.WaitTime.Monitor.Coeff, 1
TestParameter, Measurement.WaitTime.Monitor.Offset, 0
TestParameter, Function.User.Name, Ohmic
TestParameter, Function.User.Unit, ohm
TestParameter, Function.User.Definition, avg(V1/I1)
TestParameter, Output.Graph.Enabled, true
TestParameter, Output.Graph.XAxis.Data, V1
TestParameter, Output.Graph.XAxis.Scale, Linear
TestParameter, Output.Graph.XAxis.Left, -5
TestParameter, Output.Graph.XAxis.Right, 5
TestParameter, Output.Graph.YAxis.Data, I1
TestParameter, Output.Graph.YAxis.Scale, Linear
TestParameter, Output.Graph.YAxis.Bottom, -0.001
TestParameter, Output.Graph.YAxis.Top, 0.001
TestParameter, Output.Graph.YAxis.Group, 
TestParameter, Output.Scalar.Data, Ohmic
TestParameter, AutoAnalysis.Interpolation, false
TestParameter, AutoAnalysis.Line1.Enabled, false
TestParameter, AutoAnalysis.Line1.Type, 1
TestParameter, AutoAnalysis.Line1.Fix, True
TestParameter, AutoAnalysis.Line1.YAxis, 0
TestParameter, AutoAnalysis.Line1.Point1.Type, 0
TestParameter, AutoAnalysis.Line1.Point1.XY.X, 
TestParameter, AutoAnalysis.Line1.Point1.XY.Y, 
TestParameter, AutoAnalysis.Line1.Point1.Data.Var, 
TestParameter, AutoAnalysis.Line1.Point1.Data.Condition, 
TestParameter, AutoAnalysis.Line1.Point1.Data.Start, false
TestParameter, AutoAnalysis.Line1.Point1.Data.StartVar, 
TestParameter, AutoAnalysis.Line1.Point1.Data.StartCondition, 
TestParameter, AutoAnalysis.Line1.Point2.Type, 0
TestParameter, AutoAnalysis.Line1.Point2.XY.X, 
TestParameter, AutoAnalysis.Line1.Point2.XY.Y, 
TestParameter, AutoAnalysis.Line1.Point2.Data.Var, 
TestParameter, AutoAnalysis.Line1.Point2.Data.Condition, 
TestParameter, AutoAnalysis.Line1.Point2.Data.Start, false
TestParameter, AutoAnalysis.Line1.Point2.Data.StartVar, 
TestParameter, AutoAnalysis.Line1.Point2.Data.StartCondition, 
TestParameter, AutoAnalysis.Line1.GradientExpr, 0
TestParameter, AutoAnalysis.Line2.Enabled, false
TestParameter, AutoAnalysis.Line2.Type, 1
TestParameter, AutoAnalysis.Line2.Fix, True
TestParameter, AutoAnalysis.Line2.YAxis, 0
TestParameter, AutoAnalysis.Line2.Point1.Type, 0
TestParameter, AutoAnalysis.Line2.Point1.XY.X, 
TestParameter, AutoAnalysis.Line2.Point1.XY.Y, 
TestParameter, AutoAnalysis.Line2.Point1.Data.Var, 
TestParameter, AutoAnalysis.Line2.Point1.Data.Condition, 
TestParameter, AutoAnalysis.Line2.Point1.Data.Start, false
TestParameter, AutoAnalysis.Line2.Point1.Data.StartVar, 
TestParameter, AutoAnalysis.Line2.Point1.Data.StartCondition, 
TestParameter, AutoAnalysis.Line2.Point2.Type, 0
TestParameter, AutoAnalysis.Line2.Point2.XY.X, 
TestParameter, AutoAnalysis.Line2.Point2.XY.Y, 
TestParameter, AutoAnalysis.Line2.Point2.Data.Var, 
TestParameter, AutoAnalysis.Line2.Point2.Data.Condition, 
TestParameter, AutoAnalysis.Line2.Point2.Data.Start, false
TestParameter, AutoAnalysis.Line2.Point2.Data.StartVar, 
TestParameter, AutoAnalysis.Line2.Point2.Data.StartCondition, 
TestParameter, AutoAnalysis.Line2.GradientExpr, 0
TestParameter, AutoAnalysis.Marker.Enabled, false
TestParameter, AutoAnalysis.Marker.Data.Var, 
TestParameter, AutoAnalysis.Marker.Data.Condition, 
TestParameter, AutoAnalysis.Marker.Data.Start, false
TestParameter, AutoAnalysis.Marker.Data.StartVar, 
TestParameter, AutoAnalysis.Marker.Data.StartCondition, 
MetaData, TestRecord.EntryPoint, true
MetaData, TestRecord.RecordTime, 09/05/2020 14:45:21
MetaData, TestRecord.TestTarget, 
MetaData, TestRecord.IterationIndex, 40
MetaData, TestRecord.Preservation, true
MetaData, TestRecord.Flag, 
MetaData, TestRecord.Remarks, 
MetaData, TestRecord.LinkKey, 4fc4ed86-da32-47c5-b7f4-9f0fa61b8638
Dimension1, 101, 101, 101
Dimension2, 1, 1, 1
DataName, V1, I1, Ohmic
DataValue, -5, -6.666E-10, 3088704077.4002457
DataValue, -4.9, -6.7259999999999993E-10, 
DataValue, -4.8, -6.2739999999999992E-10, 
DataValue, -4.7, -6.421E-10, 
DataValue, -4.6000000000000005, -5.946E-10, 
DataValue, -4.5, -6.380999999999999E-10, 
DataValue, -4.4, -6.212E-10, 
DataValue, -4.3, -5.659E-10, 
DataValue, -4.2, -5.7349999999999993E-10, 
DataValue, -4.1, -5.439E-10, 
DataValue, -4, -5.538E-10, 
DataValue, -3.9, -5.23E-10, 
DataValue, -3.8000000000000003, -7.7289999999999988E-10, 
DataValue, -3.7, -5.2869999999999994E-10, 
DataValue, -3.6, -5.348E-10, 
DataValue, -3.5, -5.4049999999999994E-10, 
DataValue, -3.4, -5.228E-10, 
DataValue, -3.3000000000000003, -5.356E-10, 
DataValue, -3.2, -4.8139999999999991E-10, 
DataValue, -3.1, -4.9329999999999994E-10, 
DataValue, -3, -4.6959999999999991E-10, 
DataValue, -2.9, -4.877E-10, 
DataValue, -2.8000000000000003, -4.4429999999999995E-10, 
DataValue, -2.7, -4.7369999999999993E-10, 
DataValue, -2.6, -4.6929999999999992E-10, 
DataValue, -2.5, -4.3159999999999994E-10, 
DataValue, -2.4, -4.1979999999999994E-10, 
DataValue, -2.3000000000000003, -4.1829999999999994E-10, 
DataValue, -2.2, -4.331E-10, 
DataValue, -2.1, -4.1599999999999996E-10, 
DataValue, -2, -4.2089999999999996E-10, 
DataValue, -1.9000000000000001, -4.437E-10, 
DataValue, -1.8, -4.1579999999999995E-10, 
DataValue, -1.7, -3.4839999999999995E-10, 
DataValue, -1.6, -3.741E-10, 
DataValue, -1.5, -3.6699999999999997E-10, 
DataValue, -1.4000000000000001, -3.4619999999999995E-10, 
DataValue, -1.3, -3.35E-10, 
DataValue, -1.2, -3.4319999999999996E-10, 
DataValue, -1.1, -3.247E-10, 
DataValue, -1, -2.9869999999999996E-10, 
DataValue, -0.9, -3.025E-10, 
DataValue, -0.8, -3.0089999999999996E-10, 
DataValue, -0.70000000000000007, -2.8169999999999997E-10, 
DataValue, -0.6, -2.4359999999999997E-10, 
DataValue, -0.5, -2.002E-10, 
DataValue, -0.4, -1.268E-10, 
DataValue, -0.3, -2.4399999999999998E-11, 
DataValue, -0.2, 6.0299999999999988E-11, 
DataValue, -0.1, 1.403E-10, 
DataValue, 0, 2.6619999999999997E-10, 
DataValue, 0.1, 4.1299999999999997E-10, 
DataValue, 0.2, 5.588999999999999E-10, 
DataValue, 0.3, 6.926E-10, 
DataValue, 0.4, 8.3639999999999992E-10, 
DataValue, 0.5, 9.706E-10, 
DataValue, 0.6, 1.1358E-09, 
DataValue, 0.70000000000000007, 1.309E-09, 
DataValue, 0.8, 1.4435999999999999E-09, 
DataValue, 0.9, 1.6186999999999998E-09, 
DataValue, 1, 1.6913E-09, 
DataValue, 1.1, 1.8227E-09, 
DataValue, 1.2, 1.9496E-09, 
DataValue, 1.3, 2.0549E-09, 
DataValue, 1.4000000000000001, 2.1546E-09, 
DataValue, 1.5, 2.2599999999999996E-09, 
DataValue, 1.6, 2.3382999999999997E-09, 
DataValue, 1.7, 2.4819E-09, 
DataValue, 1.8, 2.5590999999999996E-09, 
DataValue, 1.9000000000000001, 2.5877999999999997E-09, 
DataValue, 2, 2.5920999999999998E-09, 
DataValue, 2.1, 2.6316E-09, 
DataValue, 2.2, 2.67902E-09, 
DataValue, 2.3000000000000003, 2.75768E-09, 
DataValue, 2.4, 2.74987E-09, 
DataValue, 2.5, 2.80716E-09, 
DataValue, 2.6, 2.88252E-09, 
DataValue, 2.7, 2.86666E-09, 
DataValue, 2.8000000000000003, 2.95625E-09, 
DataValue, 2.9, 3.0034E-09, 
DataValue, 3, 3.04245E-09, 
DataValue, 3.1, 3.0424E-09, 
DataValue, 3.2, 3.06903E-09, 
DataValue, 3.3000000000000003, 3.07608E-09, 
DataValue, 3.4, 3.00648E-09, 
DataValue, 3.5, 3.03561E-09, 
DataValue, 3.6, 3.02931E-09, 
DataValue, 3.7, 3.12459E-09, 
DataValue, 3.8000000000000003, 3.10336E-09, 
DataValue, 3.9, 3.07752E-09, 
DataValue, 4, 3.11784E-09, 
DataValue, 4.1, 3.11825E-09, 
DataValue, 4.2, 3.13359E-09, 
DataValue, 4.3, 3.15436E-09, 
DataValue, 4.4, 3.18433E-09, 
DataValue, 4.5, 3.21413E-09, 
DataValue, 4.6000000000000005, 3.23736E-09, 
DataValue, 4.7, 3.22641E-09, 
DataValue, 4.8, 3.23557E-09, 
DataValue, 4.9, 3.29623E-09, 
DataValue, 5, 3.35257E-09, 