
SetupTitle, WW
PrimitiveTest, I/V Sweep
TestParameter, Context.MainFrame, B1500A
TestParameter, Channel.UnitType, SMU, SMU
TestParameter, Channel.Unit, SMU2:HP, SMU1:HP
TestParameter, Channel.IName, I1, I4
TestParameter, Channel.VName, V1, V4
TestParameter, Channel.Mode, V, COMMON
TestParameter, Channel.Func, VAR1, CONST
TestParameter, Channel.Index, 
TestParameter, Channel.Time, 
TestParameter, Measurement.Port.Unit, SMU2:HP, SMU1:HP
TestParameter, Measurement.Port.SeriesResistor, NONE, NONE
TestParameter, Measurement.Port.Filter, ON, ON
TestParameter, Measurement.Port.OutputVoltageComparison, 0, 0
TestParameter, Measurement.Primary.Locus, Single
TestParameter, Measurement.Primary.Scale, LINEAR
TestParameter, Measurement.Primary.Start, -5
TestParameter, Measurement.Primary.Stop, 5
TestParameter, Measurement.Primary.Step, 0.1
TestParameter, Measurement.Primary.Compliance, 0.1
TestParameter, Measurement.Primary.PowerCompliance, 0
TestParameter, Measurement.Aborting.Condition, CONTINUE AT ANY
TestParameter, Measurement.PostOutput.Value, START
TestParameter, Measurement.PostOutput.Retention, OFF
TestParameter, Measurement.Bias.Source, -5, 0
TestParameter, Measurement.Bias.Compliance, 0.1, 1
TestParameter, Measurement.Monitor.Unit, SMU2:HP, SMU1:HP
TestParameter, Measurement.Monitor.Adc, HR ADC, HR ADC
TestParameter, Measurement.Monitor.Measurement, Compliance Side, Compliance Side
TestParameter, Measurement.Monitor.RangingMode, AUTO, AUTO
TestParameter, Measurement.Monitor.RangeBoundary, , 
TestParameter, Measurement.Monitor.RangeRating, BY FULL RANGE, BY FULL RANGE
TestParameter, Measurement.Monitor.RangeRatingCoeff, 50, 50
TestParameter, Measurement.Timing.Hold, 0
TestParameter, Measurement.Timing.Delay, 0.001
TestParameter, Measurement.Adc.HighSpeed.Mode, AUTO
TestParameter, Measurement.Adc.HighSpeed.Coeff, 1
TestParameter, Measurement.Adc.HighResolution.AutoZero, OFF
TestParameter, Measurement.Adc.HighResolution.Mode, PLC
TestParameter, Measurement.Adc.HighResolution.Coeff, 1
TestParameter, Measurement.WaitTime.Source.Coeff, 1
TestParameter, Measurement.WaitTime.Source.Offset, 0
TestParameter, Measurement.WaitTime.Monitor.Coeff, 1
TestParameter, Measurement.WaitTime.Monitor.Offset, 0
TestParameter, Function.User.Name, Ohmic
TestParameter, Function.User.Unit, ohm
TestParameter, Function.User.Definition, avg(V1/I1)
TestParameter, Output.Graph.Enabled, true
TestParameter, Output.Graph.XAxis.Data, V1
TestParameter, Output.Graph.XAxis.Scale, Linear
TestParameter, Output.Graph.XAxis.Left, -5
TestParameter, Output.Graph.XAxis.Right, 5
TestParameter, Output.Graph.YAxis.Data, I1
TestParameter, Output.Graph.YAxis.Scale, Linear
TestParameter, Output.Graph.YAxis.Bottom, -0.001
TestParameter, Output.Graph.YAxis.Top, 0.001
TestParameter, Output.Graph.YAxis.Group, 
TestParameter, Output.Scalar.Data, Ohmic
TestParameter, AutoAnalysis.Interpolation, false
TestParameter, AutoAnalysis.Line1.Enabled, false
TestParameter, AutoAnalysis.Line1.Type, 1
TestParameter, AutoAnalysis.Line1.Fix, True
TestParameter, AutoAnalysis.Line1.YAxis, 0
TestParameter, AutoAnalysis.Line1.Point1.Type, 0
TestParameter, AutoAnalysis.Line1.Point1.XY.X, 
TestParameter, AutoAnalysis.Line1.Point1.XY.Y, 
TestParameter, AutoAnalysis.Line1.Point1.Data.Var, 
TestParameter, AutoAnalysis.Line1.Point1.Data.Condition, 
TestParameter, AutoAnalysis.Line1.Point1.Data.Start, false
TestParameter, AutoAnalysis.Line1.Point1.Data.StartVar, 
TestParameter, AutoAnalysis.Line1.Point1.Data.StartCondition, 
TestParameter, AutoAnalysis.Line1.Point2.Type, 0
TestParameter, AutoAnalysis.Line1.Point2.XY.X, 
TestParameter, AutoAnalysis.Line1.Point2.XY.Y, 
TestParameter, AutoAnalysis.Line1.Point2.Data.Var, 
TestParameter, AutoAnalysis.Line1.Point2.Data.Condition, 
TestParameter, AutoAnalysis.Line1.Point2.Data.Start, false
TestParameter, AutoAnalysis.Line1.Point2.Data.StartVar, 
TestParameter, AutoAnalysis.Line1.Point2.Data.StartCondition, 
TestParameter, AutoAnalysis.Line1.GradientExpr, 0
TestParameter, AutoAnalysis.Line2.Enabled, false
TestParameter, AutoAnalysis.Line2.Type, 1
TestParameter, AutoAnalysis.Line2.Fix, True
TestParameter, AutoAnalysis.Line2.YAxis, 0
TestParameter, AutoAnalysis.Line2.Point1.Type, 0
TestParameter, AutoAnalysis.Line2.Point1.XY.X, 
TestParameter, AutoAnalysis.Line2.Point1.XY.Y, 
TestParameter, AutoAnalysis.Line2.Point1.Data.Var, 
TestParameter, AutoAnalysis.Line2.Point1.Data.Condition, 
TestParameter, AutoAnalysis.Line2.Point1.Data.Start, false
TestParameter, AutoAnalysis.Line2.Point1.Data.StartVar, 
TestParameter, AutoAnalysis.Line2.Point1.Data.StartCondition, 
TestParameter, AutoAnalysis.Line2.Point2.Type, 0
TestParameter, AutoAnalysis.Line2.Point2.XY.X, 
TestParameter, AutoAnalysis.Line2.Point2.XY.Y, 
TestParameter, AutoAnalysis.Line2.Point2.Data.Var, 
TestParameter, AutoAnalysis.Line2.Point2.Data.Condition, 
TestParameter, AutoAnalysis.Line2.Point2.Data.Start, false
TestParameter, AutoAnalysis.Line2.Point2.Data.StartVar, 
TestParameter, AutoAnalysis.Line2.Point2.Data.StartCondition, 
TestParameter, AutoAnalysis.Line2.GradientExpr, 0
TestParameter, AutoAnalysis.Marker.Enabled, false
TestParameter, AutoAnalysis.Marker.Data.Var, 
TestParameter, AutoAnalysis.Marker.Data.Condition, 
TestParameter, AutoAnalysis.Marker.Data.Start, false
TestParameter, AutoAnalysis.Marker.Data.StartVar, 
TestParameter, AutoAnalysis.Marker.Data.StartCondition, 
MetaData, TestRecord.EntryPoint, true
MetaData, TestRecord.RecordTime, 09/05/2020 14:44:00
MetaData, TestRecord.TestTarget, 
MetaData, TestRecord.IterationIndex, 38
MetaData, TestRecord.Preservation, true
MetaData, TestRecord.Flag, 
MetaData, TestRecord.Remarks, 
MetaData, TestRecord.LinkKey, 1ca4a61d-7596-49db-8fba-532dbc59b679
Dimension1, 101, 101, 101
Dimension2, 1, 1, 1
DataName, V1, I1, Ohmic
DataValue, -5, -9.3529999999999986E-10, 3728345692.7640538
DataValue, -4.9, -7.7569999999999992E-10, 
DataValue, -4.8, -7.27E-10, 
DataValue, -4.7, -6.3549999999999993E-10, 
DataValue, -4.6000000000000005, -7.5759999999999995E-10, 
DataValue, -4.5, -7.270999999999999E-10, 
DataValue, -4.4, -7.0209999999999988E-10, 
DataValue, -4.3, -5.4789999999999994E-10, 
DataValue, -4.2, -6.215E-10, 
DataValue, -4.1, -6.326E-10, 
DataValue, -4, -6.403E-10, 
DataValue, -3.9, -6.05E-10, 
DataValue, -3.8000000000000003, -6.0039999999999991E-10, 
DataValue, -3.7, -6.569E-10, 
DataValue, -3.6, -5.463E-10, 
DataValue, -3.5, -6.0279999999999992E-10, 
DataValue, -3.4, -5.7519999999999994E-10, 
DataValue, -3.3000000000000003, -5.4479999999999992E-10, 
DataValue, -3.2, -6.835E-10, 
DataValue, -3.1, -4.742E-10, 
DataValue, -3, -4.937E-10, 
DataValue, -2.9, -4.8679999999999991E-10, 
DataValue, -2.8000000000000003, -4.5629999999999996E-10, 
DataValue, -2.7, -4.7029999999999992E-10, 
DataValue, -2.6, -5.1689999999999994E-10, 
DataValue, -2.5, -6.212E-10, 
DataValue, -2.4, -6.0749999999999992E-10, 
DataValue, -2.3000000000000003, -5.1139999999999991E-10, 
DataValue, -2.2, -4.6289999999999997E-10, 
DataValue, -2.1, -4.739E-10, 
DataValue, -2, -4.6119999999999997E-10, 
DataValue, -1.9000000000000001, -5.336E-10, 
DataValue, -1.8, -5.7009999999999992E-10, 
DataValue, -1.7, -4.5609999999999996E-10, 
DataValue, -1.6, -4.9969999999999994E-10, 
DataValue, -1.5, -5.2969999999999994E-10, 
DataValue, -1.4000000000000001, -5.497E-10, 
DataValue, -1.3, -5.5459999999999993E-10, 
DataValue, -1.2, -3.7019999999999997E-10, 
DataValue, -1.1, -4.955E-10, 
DataValue, -1, -4.1899999999999995E-10, 
DataValue, -0.9, -3.1539999999999997E-10, 
DataValue, -0.8, -3.805E-10, 
DataValue, -0.70000000000000007, -3.1719999999999995E-10, 
DataValue, -0.6, -2.9259999999999995E-10, 
DataValue, -0.5, -1.7959999999999998E-10, 
DataValue, -0.4, -1.2559999999999999E-10, 
DataValue, -0.3, -2.4E-12, 
DataValue, -0.2, 7.2899999999999989E-11, 
DataValue, -0.1, 1.713E-10, 
DataValue, 0, 3.468E-10, 
DataValue, 0.1, 6.1549999999999989E-10, 
DataValue, 0.2, 7.6649999999999989E-10, 
DataValue, 0.3, 9.1279999999999989E-10, 
DataValue, 0.4, 1.2127999999999998E-09, 
DataValue, 0.5, 1.3511999999999998E-09, 
DataValue, 0.6, 1.5782999999999998E-09, 
DataValue, 0.70000000000000007, 1.7472999999999998E-09, 
DataValue, 0.8, 2.0947E-09, 
DataValue, 0.9, 2.2565E-09, 
DataValue, 1, 2.4467E-09, 
DataValue, 1.1, 2.7619999999999998E-09, 
DataValue, 1.2, 2.9528999999999996E-09, 
DataValue, 1.3, 3.1058999999999998E-09, 
DataValue, 1.4000000000000001, 3.2414999999999996E-09, 
DataValue, 1.5, 3.3887999999999997E-09, 
DataValue, 1.6, 3.5809999999999995E-09, 
DataValue, 1.7, 3.6966999999999994E-09, 
DataValue, 1.8, 3.8418999999999993E-09, 
DataValue, 1.9000000000000001, 3.9790999999999992E-09, 
DataValue, 2, 4.0664999999999996E-09, 
DataValue, 2.1, 4.1448E-09, 
DataValue, 2.2, 4.2181999999999994E-09, 
DataValue, 2.3000000000000003, 4.3138E-09, 
DataValue, 2.4, 4.3397999999999994E-09, 
DataValue, 2.5, 4.3700999999999992E-09, 
DataValue, 2.6, 4.4715999999999993E-09, 
DataValue, 2.7, 4.5328999999999995E-09, 
DataValue, 2.8000000000000003, 4.4832999999999992E-09, 
DataValue, 2.9, 4.5385999999999992E-09, 
DataValue, 3, 4.5773E-09, 
DataValue, 3.1, 4.6251999999999993E-09, 
DataValue, 3.2, 4.619E-09, 
DataValue, 3.3000000000000003, 4.6432999999999995E-09, 
DataValue, 3.4, 4.6894999999999996E-09, 
DataValue, 3.5, 4.7227999999999994E-09, 
DataValue, 3.6, 4.7633E-09, 
DataValue, 3.7, 4.8508E-09, 
DataValue, 3.8000000000000003, 4.8988E-09, 
DataValue, 3.9, 4.9077999999999991E-09, 
DataValue, 4, 4.9318999999999995E-09, 
DataValue, 4.1, 4.9699999999999992E-09, 
DataValue, 4.2, 4.9871E-09, 
DataValue, 4.3, 5.0342999999999995E-09, 
DataValue, 4.4, 5.0007E-09, 
DataValue, 4.5, 5.0924999999999991E-09, 
DataValue, 4.6000000000000005, 5.1569E-09, 
DataValue, 4.7, 5.1368E-09, 
DataValue, 4.8, 5.0351999999999993E-09, 
DataValue, 4.9, 5.1781999999999993E-09, 
DataValue, 5, 5.1883999999999992E-09, 