
SetupTitle, WW
PrimitiveTest, I/V Sweep
TestParameter, Context.MainFrame, B1500A
TestParameter, Channel.UnitType, SMU, SMU
TestParameter, Channel.Unit, SMU2:HP, SMU1:HP
TestParameter, Channel.IName, I1, I4
TestParameter, Channel.VName, V1, V4
TestParameter, Channel.Mode, V, COMMON
TestParameter, Channel.Func, VAR1, CONST
TestParameter, Channel.Index, 
TestParameter, Channel.Time, 
TestParameter, Measurement.Port.Unit, SMU2:HP, SMU1:HP
TestParameter, Measurement.Port.SeriesResistor, NONE, NONE
TestParameter, Measurement.Port.Filter, ON, ON
TestParameter, Measurement.Port.OutputVoltageComparison, 0, 0
TestParameter, Measurement.Primary.Locus, Single
TestParameter, Measurement.Primary.Scale, LINEAR
TestParameter, Measurement.Primary.Start, -5
TestParameter, Measurement.Primary.Stop, 5
TestParameter, Measurement.Primary.Step, 0.1
TestParameter, Measurement.Primary.Compliance, 0.1
TestParameter, Measurement.Primary.PowerCompliance, 0
TestParameter, Measurement.Aborting.Condition, CONTINUE AT ANY
TestParameter, Measurement.PostOutput.Value, START
TestParameter, Measurement.PostOutput.Retention, OFF
TestParameter, Measurement.Bias.Source, -5, 0
TestParameter, Measurement.Bias.Compliance, 0.1, 1
TestParameter, Measurement.Monitor.Unit, SMU2:HP, SMU1:HP
TestParameter, Measurement.Monitor.Adc, HR ADC, HR ADC
TestParameter, Measurement.Monitor.Measurement, Compliance Side, Compliance Side
TestParameter, Measurement.Monitor.RangingMode, AUTO, AUTO
TestParameter, Measurement.Monitor.RangeBoundary, , 
TestParameter, Measurement.Monitor.RangeRating, BY FULL RANGE, BY FULL RANGE
TestParameter, Measurement.Monitor.RangeRatingCoeff, 50, 50
TestParameter, Measurement.Timing.Hold, 0
TestParameter, Measurement.Timing.Delay, 0.001
TestParameter, Measurement.Adc.HighSpeed.Mode, AUTO
TestParameter, Measurement.Adc.HighSpeed.Coeff, 1
TestParameter, Measurement.Adc.HighResolution.AutoZero, OFF
TestParameter, Measurement.Adc.HighResolution.Mode, PLC
TestParameter, Measurement.Adc.HighResolution.Coeff, 1
TestParameter, Measurement.WaitTime.Source.Coeff, 1
TestParameter, Measurement.WaitTime.Source.Offset, 0
TestParameter, Measurement.WaitTime.Monitor.Coeff, 1
TestParameter, Measurement.WaitTime.Monitor.Offset, 0
TestParameter, Function.User.Name, Ohmic
TestParameter, Function.User.Unit, ohm
TestParameter, Function.User.Definition, avg(V1/I1)
TestParameter, Output.Graph.Enabled, true
TestParameter, Output.Graph.XAxis.Data, V1
TestParameter, Output.Graph.XAxis.Scale, Linear
TestParameter, Output.Graph.XAxis.Left, -5
TestParameter, Output.Graph.XAxis.Right, 5
TestParameter, Output.Graph.YAxis.Data, I1
TestParameter, Output.Graph.YAxis.Scale, Linear
TestParameter, Output.Graph.YAxis.Bottom, -0.001
TestParameter, Output.Graph.YAxis.Top, 0.001
TestParameter, Output.Graph.YAxis.Group, 
TestParameter, Output.Scalar.Data, Ohmic
TestParameter, AutoAnalysis.Interpolation, false
TestParameter, AutoAnalysis.Line1.Enabled, false
TestParameter, AutoAnalysis.Line1.Type, 1
TestParameter, AutoAnalysis.Line1.Fix, True
TestParameter, AutoAnalysis.Line1.YAxis, 0
TestParameter, AutoAnalysis.Line1.Point1.Type, 0
TestParameter, AutoAnalysis.Line1.Point1.XY.X, 
TestParameter, AutoAnalysis.Line1.Point1.XY.Y, 
TestParameter, AutoAnalysis.Line1.Point1.Data.Var, 
TestParameter, AutoAnalysis.Line1.Point1.Data.Condition, 
TestParameter, AutoAnalysis.Line1.Point1.Data.Start, false
TestParameter, AutoAnalysis.Line1.Point1.Data.StartVar, 
TestParameter, AutoAnalysis.Line1.Point1.Data.StartCondition, 
TestParameter, AutoAnalysis.Line1.Point2.Type, 0
TestParameter, AutoAnalysis.Line1.Point2.XY.X, 
TestParameter, AutoAnalysis.Line1.Point2.XY.Y, 
TestParameter, AutoAnalysis.Line1.Point2.Data.Var, 
TestParameter, AutoAnalysis.Line1.Point2.Data.Condition, 
TestParameter, AutoAnalysis.Line1.Point2.Data.Start, false
TestParameter, AutoAnalysis.Line1.Point2.Data.StartVar, 
TestParameter, AutoAnalysis.Line1.Point2.Data.StartCondition, 
TestParameter, AutoAnalysis.Line1.GradientExpr, 0
TestParameter, AutoAnalysis.Line2.Enabled, false
TestParameter, AutoAnalysis.Line2.Type, 1
TestParameter, AutoAnalysis.Line2.Fix, True
TestParameter, AutoAnalysis.Line2.YAxis, 0
TestParameter, AutoAnalysis.Line2.Point1.Type, 0
TestParameter, AutoAnalysis.Line2.Point1.XY.X, 
TestParameter, AutoAnalysis.Line2.Point1.XY.Y, 
TestParameter, AutoAnalysis.Line2.Point1.Data.Var, 
TestParameter, AutoAnalysis.Line2.Point1.Data.Condition, 
TestParameter, AutoAnalysis.Line2.Point1.Data.Start, false
TestParameter, AutoAnalysis.Line2.Point1.Data.StartVar, 
TestParameter, AutoAnalysis.Line2.Point1.Data.StartCondition, 
TestParameter, AutoAnalysis.Line2.Point2.Type, 0
TestParameter, AutoAnalysis.Line2.Point2.XY.X, 
TestParameter, AutoAnalysis.Line2.Point2.XY.Y, 
TestParameter, AutoAnalysis.Line2.Point2.Data.Var, 
TestParameter, AutoAnalysis.Line2.Point2.Data.Condition, 
TestParameter, AutoAnalysis.Line2.Point2.Data.Start, false
TestParameter, AutoAnalysis.Line2.Point2.Data.StartVar, 
TestParameter, AutoAnalysis.Line2.Point2.Data.StartCondition, 
TestParameter, AutoAnalysis.Line2.GradientExpr, 0
TestParameter, AutoAnalysis.Marker.Enabled, false
TestParameter, AutoAnalysis.Marker.Data.Var, 
TestParameter, AutoAnalysis.Marker.Data.Condition, 
TestParameter, AutoAnalysis.Marker.Data.Start, false
TestParameter, AutoAnalysis.Marker.Data.StartVar, 
TestParameter, AutoAnalysis.Marker.Data.StartCondition, 
MetaData, TestRecord.EntryPoint, true
MetaData, TestRecord.RecordTime, 09/05/2020 14:43:30
MetaData, TestRecord.TestTarget, 
MetaData, TestRecord.IterationIndex, 37
MetaData, TestRecord.Preservation, true
MetaData, TestRecord.Flag, 
MetaData, TestRecord.Remarks, 
MetaData, TestRecord.LinkKey, c13c5ae2-b861-461e-8275-97c5a3663ec5
Dimension1, 101, 101, 101
Dimension2, 1, 1, 1
DataName, V1, I1, Ohmic
DataValue, -5, -8.1859999999999994E-10, 2245035749.3658938
DataValue, -4.9, -9.1229999999999994E-10, 
DataValue, -4.8, -8.0389999999999988E-10, 
DataValue, -4.7, -7.351999999999999E-10, 
DataValue, -4.6000000000000005, -6.943999999999999E-10, 
DataValue, -4.5, -7.159E-10, 
DataValue, -4.4, -7.317E-10, 
DataValue, -4.3, -7.0399999999999995E-10, 
DataValue, -4.2, -8.6149999999999987E-10, 
DataValue, -4.1, -6.936E-10, 
DataValue, -4, -7.159E-10, 
DataValue, -3.9, -6.4589999999999991E-10, 
DataValue, -3.8000000000000003, -6.431E-10, 
DataValue, -3.7, -6.239E-10, 
DataValue, -3.6, -6.629E-10, 
DataValue, -3.5, -6.0379999999999992E-10, 
DataValue, -3.4, -6.2469999999999992E-10, 
DataValue, -3.3000000000000003, -5.187999999999999E-10, 
DataValue, -3.2, -5.8869999999999994E-10, 
DataValue, -3.1, -5.305999999999999E-10, 
DataValue, -3, -5.083E-10, 
DataValue, -2.9, -4.965E-10, 
DataValue, -2.8000000000000003, -4.974E-10, 
DataValue, -2.7, -4.4549999999999996E-10, 
DataValue, -2.6, -4.3319999999999996E-10, 
DataValue, -2.5, -4.4179999999999996E-10, 
DataValue, -2.4, -4.3209999999999993E-10, 
DataValue, -2.3000000000000003, -4.026E-10, 
DataValue, -2.2, -3.6389999999999995E-10, 
DataValue, -2.1, -3.505E-10, 
DataValue, -2, -3.4839999999999995E-10, 
DataValue, -1.9000000000000001, -3.7599999999999994E-10, 
DataValue, -1.8, -3.143E-10, 
DataValue, -1.7, -3.64E-10, 
DataValue, -1.6, -3.0359999999999996E-10, 
DataValue, -1.5, -3.2779999999999994E-10, 
DataValue, -1.4000000000000001, -2.9309999999999995E-10, 
DataValue, -1.3, -3.485E-10, 
DataValue, -1.2, -3.5159999999999995E-10, 
DataValue, -1.1, -3.3409999999999996E-10, 
DataValue, -1, -3.2399999999999997E-10, 
DataValue, -0.9, -2.538E-10, 
DataValue, -0.8, -2.6479999999999995E-10, 
DataValue, -0.70000000000000007, -2.604E-10, 
DataValue, -0.6, -2.524E-10, 
DataValue, -0.5, -1.9559999999999998E-10, 
DataValue, -0.4, -9.7999999999999985E-11, 
DataValue, -0.3, 7.6E-12, 
DataValue, -0.2, 1.5439999999999998E-10, 
DataValue, -0.1, 3.288E-10, 
DataValue, 0, 5.8E-10, 
DataValue, 0.1, 7.7659999999999988E-10, 
DataValue, 0.2, 1.0065999999999998E-09, 
DataValue, 0.3, 1.2166E-09, 
DataValue, 0.4, 1.4945E-09, 
DataValue, 0.5, 1.7546999999999997E-09, 
DataValue, 0.6, 2.0566999999999997E-09, 
DataValue, 0.70000000000000007, 2.3146E-09, 
DataValue, 0.8, 2.5455999999999996E-09, 
DataValue, 0.9, 2.8340999999999995E-09, 
DataValue, 1, 3.0958999999999996E-09, 
DataValue, 1.1, 3.3388999999999997E-09, 
DataValue, 1.2, 3.5113999999999997E-09, 
DataValue, 1.3, 3.7411999999999994E-09, 
DataValue, 1.4000000000000001, 3.9405E-09, 
DataValue, 1.5, 4.1628E-09, 
DataValue, 1.6, 4.3315E-09, 
DataValue, 1.7, 4.5436E-09, 
DataValue, 1.8, 4.7385999999999993E-09, 
DataValue, 1.9000000000000001, 4.9217E-09, 
DataValue, 2, 5.0087E-09, 
DataValue, 2.1, 5.1679E-09, 
DataValue, 2.2, 5.2671999999999993E-09, 
DataValue, 2.3000000000000003, 5.2993999999999993E-09, 
DataValue, 2.4, 5.3881E-09, 
DataValue, 2.5, 5.4233E-09, 
DataValue, 2.6, 5.4628999999999994E-09, 
DataValue, 2.7, 5.5417999999999992E-09, 
DataValue, 2.8000000000000003, 5.5501999999999993E-09, 
DataValue, 2.9, 5.6160999999999992E-09, 
DataValue, 3, 5.6447E-09, 
DataValue, 3.1, 5.6892E-09, 
DataValue, 3.2, 5.7478999999999991E-09, 
DataValue, 3.3000000000000003, 5.7594E-09, 
DataValue, 3.4, 5.8499E-09, 
DataValue, 3.5, 5.9158E-09, 
DataValue, 3.6, 5.8730999999999995E-09, 
DataValue, 3.7, 5.8951E-09, 
DataValue, 3.8000000000000003, 5.9716999999999991E-09, 
DataValue, 3.9, 6.0511999999999991E-09, 
DataValue, 4, 6.0280999999999991E-09, 
DataValue, 4.1, 5.9910999999999993E-09, 
DataValue, 4.2, 6.0726999999999995E-09, 
DataValue, 4.3, 6.0927999999999995E-09, 
DataValue, 4.4, 6.1256999999999992E-09, 
DataValue, 4.5, 6.2109E-09, 
DataValue, 4.6000000000000005, 6.204599999999999E-09, 
DataValue, 4.7, 6.2327999999999994E-09, 
DataValue, 4.8, 6.3133999999999993E-09, 
DataValue, 4.9, 6.2833999999999992E-09, 
DataValue, 5, 6.3088999999999992E-09, 