
SetupTitle, WW
PrimitiveTest, I/V Sweep
TestParameter, Context.MainFrame, B1500A
TestParameter, Channel.UnitType, SMU, SMU
TestParameter, Channel.Unit, SMU2:HP, SMU1:HP
TestParameter, Channel.IName, I1, I4
TestParameter, Channel.VName, V1, V4
TestParameter, Channel.Mode, V, COMMON
TestParameter, Channel.Func, VAR1, CONST
TestParameter, Channel.Index, 
TestParameter, Channel.Time, 
TestParameter, Measurement.Port.Unit, SMU2:HP, SMU1:HP
TestParameter, Measurement.Port.SeriesResistor, NONE, NONE
TestParameter, Measurement.Port.Filter, ON, ON
TestParameter, Measurement.Port.OutputVoltageComparison, 0, 0
TestParameter, Measurement.Primary.Locus, Single
TestParameter, Measurement.Primary.Scale, LINEAR
TestParameter, Measurement.Primary.Start, -5
TestParameter, Measurement.Primary.Stop, 5
TestParameter, Measurement.Primary.Step, 0.1
TestParameter, Measurement.Primary.Compliance, 0.1
TestParameter, Measurement.Primary.PowerCompliance, 0
TestParameter, Measurement.Aborting.Condition, CONTINUE AT ANY
TestParameter, Measurement.PostOutput.Value, START
TestParameter, Measurement.PostOutput.Retention, OFF
TestParameter, Measurement.Bias.Source, -5, 0
TestParameter, Measurement.Bias.Compliance, 0.1, 1
TestParameter, Measurement.Monitor.Unit, SMU2:HP, SMU1:HP
TestParameter, Measurement.Monitor.Adc, HR ADC, HR ADC
TestParameter, Measurement.Monitor.Measurement, Compliance Side, Compliance Side
TestParameter, Measurement.Monitor.RangingMode, AUTO, AUTO
TestParameter, Measurement.Monitor.RangeBoundary, , 
TestParameter, Measurement.Monitor.RangeRating, BY FULL RANGE, BY FULL RANGE
TestParameter, Measurement.Monitor.RangeRatingCoeff, 50, 50
TestParameter, Measurement.Timing.Hold, 0
TestParameter, Measurement.Timing.Delay, 0.001
TestParameter, Measurement.Adc.HighSpeed.Mode, AUTO
TestParameter, Measurement.Adc.HighSpeed.Coeff, 1
TestParameter, Measurement.Adc.HighResolution.AutoZero, OFF
TestParameter, Measurement.Adc.HighResolution.Mode, PLC
TestParameter, Measurement.Adc.HighResolution.Coeff, 1
TestParameter, Measurement.WaitTime.Source.Coeff, 1
TestParameter, Measurement.WaitTime.Source.Offset, 0
TestParameter, Measurement.WaitTime.Monitor.Coeff, 1
TestParameter, Measurement.WaitTime.Monitor.Offset, 0
TestParameter, Function.User.Name, Ohmic
TestParameter, Function.User.Unit, ohm
TestParameter, Function.User.Definition, avg(V1/I1)
TestParameter, Output.Graph.Enabled, true
TestParameter, Output.Graph.XAxis.Data, V1
TestParameter, Output.Graph.XAxis.Scale, Linear
TestParameter, Output.Graph.XAxis.Left, -5
TestParameter, Output.Graph.XAxis.Right, 5
TestParameter, Output.Graph.YAxis.Data, I1
TestParameter, Output.Graph.YAxis.Scale, Linear
TestParameter, Output.Graph.YAxis.Bottom, -0.001
TestParameter, Output.Graph.YAxis.Top, 0.001
TestParameter, Output.Graph.YAxis.Group, 
TestParameter, Output.Scalar.Data, Ohmic
TestParameter, AutoAnalysis.Interpolation, false
TestParameter, AutoAnalysis.Line1.Enabled, false
TestParameter, AutoAnalysis.Line1.Type, 1
TestParameter, AutoAnalysis.Line1.Fix, True
TestParameter, AutoAnalysis.Line1.YAxis, 0
TestParameter, AutoAnalysis.Line1.Point1.Type, 0
TestParameter, AutoAnalysis.Line1.Point1.XY.X, 
TestParameter, AutoAnalysis.Line1.Point1.XY.Y, 
TestParameter, AutoAnalysis.Line1.Point1.Data.Var, 
TestParameter, AutoAnalysis.Line1.Point1.Data.Condition, 
TestParameter, AutoAnalysis.Line1.Point1.Data.Start, false
TestParameter, AutoAnalysis.Line1.Point1.Data.StartVar, 
TestParameter, AutoAnalysis.Line1.Point1.Data.StartCondition, 
TestParameter, AutoAnalysis.Line1.Point2.Type, 0
TestParameter, AutoAnalysis.Line1.Point2.XY.X, 
TestParameter, AutoAnalysis.Line1.Point2.XY.Y, 
TestParameter, AutoAnalysis.Line1.Point2.Data.Var, 
TestParameter, AutoAnalysis.Line1.Point2.Data.Condition, 
TestParameter, AutoAnalysis.Line1.Point2.Data.Start, false
TestParameter, AutoAnalysis.Line1.Point2.Data.StartVar, 
TestParameter, AutoAnalysis.Line1.Point2.Data.StartCondition, 
TestParameter, AutoAnalysis.Line1.GradientExpr, 0
TestParameter, AutoAnalysis.Line2.Enabled, false
TestParameter, AutoAnalysis.Line2.Type, 1
TestParameter, AutoAnalysis.Line2.Fix, True
TestParameter, AutoAnalysis.Line2.YAxis, 0
TestParameter, AutoAnalysis.Line2.Point1.Type, 0
TestParameter, AutoAnalysis.Line2.Point1.XY.X, 
TestParameter, AutoAnalysis.Line2.Point1.XY.Y, 
TestParameter, AutoAnalysis.Line2.Point1.Data.Var, 
TestParameter, AutoAnalysis.Line2.Point1.Data.Condition, 
TestParameter, AutoAnalysis.Line2.Point1.Data.Start, false
TestParameter, AutoAnalysis.Line2.Point1.Data.StartVar, 
TestParameter, AutoAnalysis.Line2.Point1.Data.StartCondition, 
TestParameter, AutoAnalysis.Line2.Point2.Type, 0
TestParameter, AutoAnalysis.Line2.Point2.XY.X, 
TestParameter, AutoAnalysis.Line2.Point2.XY.Y, 
TestParameter, AutoAnalysis.Line2.Point2.Data.Var, 
TestParameter, AutoAnalysis.Line2.Point2.Data.Condition, 
TestParameter, AutoAnalysis.Line2.Point2.Data.Start, false
TestParameter, AutoAnalysis.Line2.Point2.Data.StartVar, 
TestParameter, AutoAnalysis.Line2.Point2.Data.StartCondition, 
TestParameter, AutoAnalysis.Line2.GradientExpr, 0
TestParameter, AutoAnalysis.Marker.Enabled, false
TestParameter, AutoAnalysis.Marker.Data.Var, 
TestParameter, AutoAnalysis.Marker.Data.Condition, 
TestParameter, AutoAnalysis.Marker.Data.Start, false
TestParameter, AutoAnalysis.Marker.Data.StartVar, 
TestParameter, AutoAnalysis.Marker.Data.StartCondition, 
MetaData, TestRecord.EntryPoint, true
MetaData, TestRecord.RecordTime, 09/05/2020 14:43:00
MetaData, TestRecord.TestTarget, 
MetaData, TestRecord.IterationIndex, 36
MetaData, TestRecord.Preservation, true
MetaData, TestRecord.Flag, 
MetaData, TestRecord.Remarks, 
MetaData, TestRecord.LinkKey, f9a84a6e-fdd2-4ddf-90cf-c26491be5851
Dimension1, 101, 101, 101
Dimension2, 1, 1, 1
DataName, V1, I1, Ohmic
DataValue, -5, -1.1137E-09, 2019101177.0787466
DataValue, -4.9, -1.0855999999999999E-09, 
DataValue, -4.8, -1.0182999999999999E-09, 
DataValue, -4.7, -9.956E-10, 
DataValue, -4.6000000000000005, -9.383E-10, 
DataValue, -4.5, -9.1559999999999992E-10, 
DataValue, -4.4, -9.6959999999999984E-10, 
DataValue, -4.3, -8.8459999999999992E-10, 
DataValue, -4.2, -8.9779999999999994E-10, 
DataValue, -4.1, -8.2089999999999993E-10, 
DataValue, -4, -8.5989999999999989E-10, 
DataValue, -3.9, -8.2019999999999992E-10, 
DataValue, -3.8000000000000003, -8.0039999999999994E-10, 
DataValue, -3.7, -7.9139999999999987E-10, 
DataValue, -3.6, -7.934999999999999E-10, 
DataValue, -3.5, -7.7509999999999994E-10, 
DataValue, -3.4, -7.796999999999999E-10, 
DataValue, -3.3000000000000003, -7.651999999999999E-10, 
DataValue, -3.2, -7.6479999999999988E-10, 
DataValue, -3.1, -6.548E-10, 
DataValue, -3, -7.233E-10, 
DataValue, -2.9, -7E-10, 
DataValue, -2.8000000000000003, -6.7129999999999995E-10, 
DataValue, -2.7, -6.666E-10, 
DataValue, -2.6, -6.215999999999999E-10, 
DataValue, -2.5, -6.296999999999999E-10, 
DataValue, -2.4, -5.9409999999999994E-10, 
DataValue, -2.3000000000000003, -5.9339999999999994E-10, 
DataValue, -2.2, -5.7959999999999994E-10, 
DataValue, -2.1, -5.6239999999999994E-10, 
DataValue, -2, -5.743E-10, 
DataValue, -1.9000000000000001, -5.174E-10, 
DataValue, -1.8, -4.9759999999999992E-10, 
DataValue, -1.7, -4.742E-10, 
DataValue, -1.6, -5.3269999999999993E-10, 
DataValue, -1.5, -4.5489999999999995E-10, 
DataValue, -1.4000000000000001, -4.3289999999999997E-10, 
DataValue, -1.3, -4.6869999999999994E-10, 
DataValue, -1.2, -4.0069999999999997E-10, 
DataValue, -1.1, -4.3199999999999996E-10, 
DataValue, -1, -3.9589999999999995E-10, 
DataValue, -0.9, -4.142E-10, 
DataValue, -0.8, -4.265E-10, 
DataValue, -0.70000000000000007, -3.7869999999999994E-10, 
DataValue, -0.6, -4.0289999999999997E-10, 
DataValue, -0.5, -3.839E-10, 
DataValue, -0.4, -3.2999999999999995E-10, 
DataValue, -0.3, -2.1829999999999999E-10, 
DataValue, -0.2, -7.6599999999999986E-11, 
DataValue, -0.1, 2.1059999999999998E-10, 
DataValue, 0, 3.7769999999999995E-10, 
DataValue, 0.1, 6.34E-10, 
DataValue, 0.2, 8.4619999999999993E-10, 
DataValue, 0.3, 1.1348999999999999E-09, 
DataValue, 0.4, 1.4380999999999998E-09, 
DataValue, 0.5, 1.7218999999999998E-09, 
DataValue, 0.6, 1.9791E-09, 
DataValue, 0.70000000000000007, 2.3554E-09, 
DataValue, 0.8, 2.6748E-09, 
DataValue, 0.9, 3.0132999999999995E-09, 
DataValue, 1, 3.2912999999999996E-09, 
DataValue, 1.1, 3.5275999999999997E-09, 
DataValue, 1.2, 3.7348E-09, 
DataValue, 1.3, 3.9625999999999995E-09, 
DataValue, 1.4000000000000001, 4.2028E-09, 
DataValue, 1.5, 4.4639999999999995E-09, 
DataValue, 1.6, 4.6631999999999994E-09, 
DataValue, 1.7, 4.9014999999999993E-09, 
DataValue, 1.8, 5.0789999999999995E-09, 
DataValue, 1.9000000000000001, 5.3129E-09, 
DataValue, 2, 5.3881E-09, 
DataValue, 2.1, 5.5544999999999994E-09, 
DataValue, 2.2, 5.6735999999999991E-09, 
DataValue, 2.3000000000000003, 5.7605999999999993E-09, 
DataValue, 2.4, 5.9244999999999995E-09, 
DataValue, 2.5, 5.9413E-09, 
DataValue, 2.6, 6.0061E-09, 
DataValue, 2.7, 6.0312999999999992E-09, 
DataValue, 2.8000000000000003, 6.0450999999999993E-09, 
DataValue, 2.9, 6.0603999999999995E-09, 
DataValue, 3, 6.0472999999999992E-09, 
DataValue, 3.1, 6.1571E-09, 
DataValue, 3.2, 6.1848999999999992E-09, 
DataValue, 3.3000000000000003, 6.2569999999999994E-09, 
DataValue, 3.4, 6.2377E-09, 
DataValue, 3.5, 6.2934999999999994E-09, 
DataValue, 3.6, 6.3347E-09, 
DataValue, 3.7, 6.3451999999999991E-09, 
DataValue, 3.8000000000000003, 6.3861E-09, 
DataValue, 3.9, 6.4047E-09, 
DataValue, 4, 6.4014999999999995E-09, 
DataValue, 4.1, 6.4198E-09, 
DataValue, 4.2, 6.5198E-09, 
DataValue, 4.3, 6.5526999999999995E-09, 
DataValue, 4.4, 6.5946999999999992E-09, 
DataValue, 4.5, 6.6959999999999992E-09, 
DataValue, 4.6000000000000005, 6.762799999999999E-09, 
DataValue, 4.7, 6.7536999999999991E-09, 
DataValue, 4.8, 6.8263999999999995E-09, 
DataValue, 4.9, 6.839499999999999E-09, 
DataValue, 5, 6.8519999999999991E-09, 