
SetupTitle, WW
PrimitiveTest, I/V Sweep
TestParameter, Context.MainFrame, B1500A
TestParameter, Channel.UnitType, SMU, SMU
TestParameter, Channel.Unit, SMU2:HP, SMU1:HP
TestParameter, Channel.IName, I1, I4
TestParameter, Channel.VName, V1, V4
TestParameter, Channel.Mode, V, COMMON
TestParameter, Channel.Func, VAR1, CONST
TestParameter, Channel.Index, 
TestParameter, Channel.Time, 
TestParameter, Measurement.Port.Unit, SMU2:HP, SMU1:HP
TestParameter, Measurement.Port.SeriesResistor, NONE, NONE
TestParameter, Measurement.Port.Filter, ON, ON
TestParameter, Measurement.Port.OutputVoltageComparison, 0, 0
TestParameter, Measurement.Primary.Locus, Single
TestParameter, Measurement.Primary.Scale, LINEAR
TestParameter, Measurement.Primary.Start, -5
TestParameter, Measurement.Primary.Stop, 5
TestParameter, Measurement.Primary.Step, 0.1
TestParameter, Measurement.Primary.Compliance, 0.1
TestParameter, Measurement.Primary.PowerCompliance, 0
TestParameter, Measurement.Aborting.Condition, CONTINUE AT ANY
TestParameter, Measurement.PostOutput.Value, START
TestParameter, Measurement.PostOutput.Retention, OFF
TestParameter, Measurement.Bias.Source, -5, 0
TestParameter, Measurement.Bias.Compliance, 0.1, 1
TestParameter, Measurement.Monitor.Unit, SMU2:HP, SMU1:HP
TestParameter, Measurement.Monitor.Adc, HR ADC, HR ADC
TestParameter, Measurement.Monitor.Measurement, Compliance Side, Compliance Side
TestParameter, Measurement.Monitor.RangingMode, AUTO, AUTO
TestParameter, Measurement.Monitor.RangeBoundary, , 
TestParameter, Measurement.Monitor.RangeRating, BY FULL RANGE, BY FULL RANGE
TestParameter, Measurement.Monitor.RangeRatingCoeff, 50, 50
TestParameter, Measurement.Timing.Hold, 0
TestParameter, Measurement.Timing.Delay, 0.001
TestParameter, Measurement.Adc.HighSpeed.Mode, AUTO
TestParameter, Measurement.Adc.HighSpeed.Coeff, 1
TestParameter, Measurement.Adc.HighResolution.AutoZero, OFF
TestParameter, Measurement.Adc.HighResolution.Mode, PLC
TestParameter, Measurement.Adc.HighResolution.Coeff, 1
TestParameter, Measurement.WaitTime.Source.Coeff, 1
TestParameter, Measurement.WaitTime.Source.Offset, 0
TestParameter, Measurement.WaitTime.Monitor.Coeff, 1
TestParameter, Measurement.WaitTime.Monitor.Offset, 0
TestParameter, Function.User.Name, Ohmic
TestParameter, Function.User.Unit, ohm
TestParameter, Function.User.Definition, avg(V1/I1)
TestParameter, Output.Graph.Enabled, true
TestParameter, Output.Graph.XAxis.Data, V1
TestParameter, Output.Graph.XAxis.Scale, Linear
TestParameter, Output.Graph.XAxis.Left, -5
TestParameter, Output.Graph.XAxis.Right, 5
TestParameter, Output.Graph.YAxis.Data, I1
TestParameter, Output.Graph.YAxis.Scale, Linear
TestParameter, Output.Graph.YAxis.Bottom, -0.001
TestParameter, Output.Graph.YAxis.Top, 0.001
TestParameter, Output.Graph.YAxis.Group, 
TestParameter, Output.Scalar.Data, Ohmic
TestParameter, AutoAnalysis.Interpolation, false
TestParameter, AutoAnalysis.Line1.Enabled, false
TestParameter, AutoAnalysis.Line1.Type, 1
TestParameter, AutoAnalysis.Line1.Fix, True
TestParameter, AutoAnalysis.Line1.YAxis, 0
TestParameter, AutoAnalysis.Line1.Point1.Type, 0
TestParameter, AutoAnalysis.Line1.Point1.XY.X, 
TestParameter, AutoAnalysis.Line1.Point1.XY.Y, 
TestParameter, AutoAnalysis.Line1.Point1.Data.Var, 
TestParameter, AutoAnalysis.Line1.Point1.Data.Condition, 
TestParameter, AutoAnalysis.Line1.Point1.Data.Start, false
TestParameter, AutoAnalysis.Line1.Point1.Data.StartVar, 
TestParameter, AutoAnalysis.Line1.Point1.Data.StartCondition, 
TestParameter, AutoAnalysis.Line1.Point2.Type, 0
TestParameter, AutoAnalysis.Line1.Point2.XY.X, 
TestParameter, AutoAnalysis.Line1.Point2.XY.Y, 
TestParameter, AutoAnalysis.Line1.Point2.Data.Var, 
TestParameter, AutoAnalysis.Line1.Point2.Data.Condition, 
TestParameter, AutoAnalysis.Line1.Point2.Data.Start, false
TestParameter, AutoAnalysis.Line1.Point2.Data.StartVar, 
TestParameter, AutoAnalysis.Line1.Point2.Data.StartCondition, 
TestParameter, AutoAnalysis.Line1.GradientExpr, 0
TestParameter, AutoAnalysis.Line2.Enabled, false
TestParameter, AutoAnalysis.Line2.Type, 1
TestParameter, AutoAnalysis.Line2.Fix, True
TestParameter, AutoAnalysis.Line2.YAxis, 0
TestParameter, AutoAnalysis.Line2.Point1.Type, 0
TestParameter, AutoAnalysis.Line2.Point1.XY.X, 
TestParameter, AutoAnalysis.Line2.Point1.XY.Y, 
TestParameter, AutoAnalysis.Line2.Point1.Data.Var, 
TestParameter, AutoAnalysis.Line2.Point1.Data.Condition, 
TestParameter, AutoAnalysis.Line2.Point1.Data.Start, false
TestParameter, AutoAnalysis.Line2.Point1.Data.StartVar, 
TestParameter, AutoAnalysis.Line2.Point1.Data.StartCondition, 
TestParameter, AutoAnalysis.Line2.Point2.Type, 0
TestParameter, AutoAnalysis.Line2.Point2.XY.X, 
TestParameter, AutoAnalysis.Line2.Point2.XY.Y, 
TestParameter, AutoAnalysis.Line2.Point2.Data.Var, 
TestParameter, AutoAnalysis.Line2.Point2.Data.Condition, 
TestParameter, AutoAnalysis.Line2.Point2.Data.Start, false
TestParameter, AutoAnalysis.Line2.Point2.Data.StartVar, 
TestParameter, AutoAnalysis.Line2.Point2.Data.StartCondition, 
TestParameter, AutoAnalysis.Line2.GradientExpr, 0
TestParameter, AutoAnalysis.Marker.Enabled, false
TestParameter, AutoAnalysis.Marker.Data.Var, 
TestParameter, AutoAnalysis.Marker.Data.Condition, 
TestParameter, AutoAnalysis.Marker.Data.Start, false
TestParameter, AutoAnalysis.Marker.Data.StartVar, 
TestParameter, AutoAnalysis.Marker.Data.StartCondition, 
MetaData, TestRecord.EntryPoint, true
MetaData, TestRecord.RecordTime, 09/05/2020 14:42:30
MetaData, TestRecord.TestTarget, 
MetaData, TestRecord.IterationIndex, 35
MetaData, TestRecord.Preservation, true
MetaData, TestRecord.Flag, 
MetaData, TestRecord.Remarks, 
MetaData, TestRecord.LinkKey, 7e9d0cae-86a1-401d-9173-d58813d221aa
Dimension1, 101, 101, 101
Dimension2, 1, 1, 1
DataName, V1, I1, Ohmic
DataValue, -5, -1.1797999999999998E-09, 1893096732.05517
DataValue, -4.9, -1.1852999999999998E-09, 
DataValue, -4.8, -1.1447E-09, 
DataValue, -4.7, -1.1353999999999998E-09, 
DataValue, -4.6000000000000005, -1.0366E-09, 
DataValue, -4.5, -9.815E-10, 
DataValue, -4.4, -1.0752E-09, 
DataValue, -4.3, -9.4659999999999981E-10, 
DataValue, -4.2, -9.2169999999999993E-10, 
DataValue, -4.1, -8.311E-10, 
DataValue, -4, -8.7679999999999991E-10, 
DataValue, -3.9, -8.359999999999999E-10, 
DataValue, -3.8000000000000003, -8.4839999999999988E-10, 
DataValue, -3.7, -8.2449999999999989E-10, 
DataValue, -3.6, -7.9869999999999994E-10, 
DataValue, -3.5, -1.0435E-09, 
DataValue, -3.4, -8.4749999999999992E-10, 
DataValue, -3.3000000000000003, -8.038E-10, 
DataValue, -3.2, -7.6279999999999989E-10, 
DataValue, -3.1, -8.3779999999999994E-10, 
DataValue, -3, -7.206E-10, 
DataValue, -2.9, -7.5279999999999992E-10, 
DataValue, -2.8000000000000003, -6.794E-10, 
DataValue, -2.7, -6.566E-10, 
DataValue, -2.6, -7.3849999999999988E-10, 
DataValue, -2.5, -6.3309999999999991E-10, 
DataValue, -2.4, -5.946E-10, 
DataValue, -2.3000000000000003, -7.1729999999999989E-10, 
DataValue, -2.2, -6.033999999999999E-10, 
DataValue, -2.1, -6.185E-10, 
DataValue, -2, -5.362E-10, 
DataValue, -1.9000000000000001, -5.676E-10, 
DataValue, -1.8, -5.605999999999999E-10, 
DataValue, -1.7, -5.6299999999999992E-10, 
DataValue, -1.6, -5.23E-10, 
DataValue, -1.5, -4.8239999999999991E-10, 
DataValue, -1.4000000000000001, -4.688E-10, 
DataValue, -1.3, -4.4299999999999997E-10, 
DataValue, -1.2, -4.4499999999999996E-10, 
DataValue, -1.1, -4.0989999999999995E-10, 
DataValue, -1, -4.7879999999999994E-10, 
DataValue, -0.9, -4.5839999999999994E-10, 
DataValue, -0.8, -3.967E-10, 
DataValue, -0.70000000000000007, -4.4169999999999993E-10, 
DataValue, -0.6, -3.94E-10, 
DataValue, -0.5, -4.368E-10, 
DataValue, -0.4, -3.426E-10, 
DataValue, -0.3, -2.6109999999999996E-10, 
DataValue, -0.2, -1.622E-10, 
DataValue, -0.1, -6.4599999999999989E-11, 
DataValue, 0, 2.9229999999999996E-10, 
DataValue, 0.1, 4.5689999999999994E-10, 
DataValue, 0.2, 7.1089999999999989E-10, 
DataValue, 0.3, 1.0503999999999998E-09, 
DataValue, 0.4, 1.5150999999999999E-09, 
DataValue, 0.5, 1.8336999999999998E-09, 
DataValue, 0.6, 2.1735999999999996E-09, 
DataValue, 0.70000000000000007, 2.4938E-09, 
DataValue, 0.8, 2.8898999999999997E-09, 
DataValue, 0.9, 3.2153E-09, 
DataValue, 1, 3.5523E-09, 
DataValue, 1.1, 3.7977999999999994E-09, 
DataValue, 1.2, 4.0943999999999994E-09, 
DataValue, 1.3, 4.4244999999999994E-09, 
DataValue, 1.4000000000000001, 4.7130999999999994E-09, 
DataValue, 1.5, 5.0552999999999993E-09, 
DataValue, 1.6, 5.2222E-09, 
DataValue, 1.7, 5.4866E-09, 
DataValue, 1.8, 5.6369E-09, 
DataValue, 1.9000000000000001, 5.8424999999999992E-09, 
DataValue, 2, 6.0506E-09, 
DataValue, 2.1, 6.1878999999999993E-09, 
DataValue, 2.2, 6.338099999999999E-09, 
DataValue, 2.3000000000000003, 6.4330999999999992E-09, 
DataValue, 2.4, 6.4682E-09, 
DataValue, 2.5, 6.429699999999999E-09, 
DataValue, 2.6, 6.4600999999999992E-09, 
DataValue, 2.7, 6.524099999999999E-09, 
DataValue, 2.8000000000000003, 6.5799999999999992E-09, 
DataValue, 2.9, 6.6272999999999992E-09, 
DataValue, 3, 6.7231999999999993E-09, 
DataValue, 3.1, 6.7611E-09, 
DataValue, 3.2, 6.7207E-09, 
DataValue, 3.3000000000000003, 6.7692999999999989E-09, 
DataValue, 3.4, 6.8428999999999992E-09, 
DataValue, 3.5, 6.9082999999999994E-09, 
DataValue, 3.6, 6.8761999999999991E-09, 
DataValue, 3.7, 7.0257999999999995E-09, 
DataValue, 3.8000000000000003, 7.0080999999999994E-09, 
DataValue, 3.9, 7.0299999999999991E-09, 
DataValue, 4, 7.1335999999999994E-09, 
DataValue, 4.1, 7.1072999999999992E-09, 
DataValue, 4.2, 7.1817E-09, 
DataValue, 4.3, 7.2584999999999993E-09, 
DataValue, 4.4, 7.2998999999999996E-09, 
DataValue, 4.5, 7.2772E-09, 
DataValue, 4.6000000000000005, 7.2046999999999993E-09, 
DataValue, 4.7, 7.235899999999999E-09, 
DataValue, 4.8, 7.3651999999999993E-09, 
DataValue, 4.9, 7.4155999999999991E-09, 
DataValue, 5, 7.4983E-09, 