
SetupTitle, WW
PrimitiveTest, I/V Sweep
TestParameter, Context.MainFrame, B1500A
TestParameter, Channel.UnitType, SMU, SMU
TestParameter, Channel.Unit, SMU2:HP, SMU1:HP
TestParameter, Channel.IName, I1, I4
TestParameter, Channel.VName, V1, V4
TestParameter, Channel.Mode, V, COMMON
TestParameter, Channel.Func, VAR1, CONST
TestParameter, Channel.Index, 
TestParameter, Channel.Time, 
TestParameter, Measurement.Port.Unit, SMU2:HP, SMU1:HP
TestParameter, Measurement.Port.SeriesResistor, NONE, NONE
TestParameter, Measurement.Port.Filter, ON, ON
TestParameter, Measurement.Port.OutputVoltageComparison, 0, 0
TestParameter, Measurement.Primary.Locus, Single
TestParameter, Measurement.Primary.Scale, LINEAR
TestParameter, Measurement.Primary.Start, -5
TestParameter, Measurement.Primary.Stop, 5
TestParameter, Measurement.Primary.Step, 0.1
TestParameter, Measurement.Primary.Compliance, 0.1
TestParameter, Measurement.Primary.PowerCompliance, 0
TestParameter, Measurement.Aborting.Condition, CONTINUE AT ANY
TestParameter, Measurement.PostOutput.Value, START
TestParameter, Measurement.PostOutput.Retention, OFF
TestParameter, Measurement.Bias.Source, -5, 0
TestParameter, Measurement.Bias.Compliance, 0.1, 1
TestParameter, Measurement.Monitor.Unit, SMU2:HP, SMU1:HP
TestParameter, Measurement.Monitor.Adc, HR ADC, HR ADC
TestParameter, Measurement.Monitor.Measurement, Compliance Side, Compliance Side
TestParameter, Measurement.Monitor.RangingMode, AUTO, AUTO
TestParameter, Measurement.Monitor.RangeBoundary, , 
TestParameter, Measurement.Monitor.RangeRating, BY FULL RANGE, BY FULL RANGE
TestParameter, Measurement.Monitor.RangeRatingCoeff, 50, 50
TestParameter, Measurement.Timing.Hold, 0
TestParameter, Measurement.Timing.Delay, 0.001
TestParameter, Measurement.Adc.HighSpeed.Mode, AUTO
TestParameter, Measurement.Adc.HighSpeed.Coeff, 1
TestParameter, Measurement.Adc.HighResolution.AutoZero, OFF
TestParameter, Measurement.Adc.HighResolution.Mode, PLC
TestParameter, Measurement.Adc.HighResolution.Coeff, 1
TestParameter, Measurement.WaitTime.Source.Coeff, 1
TestParameter, Measurement.WaitTime.Source.Offset, 0
TestParameter, Measurement.WaitTime.Monitor.Coeff, 1
TestParameter, Measurement.WaitTime.Monitor.Offset, 0
TestParameter, Function.User.Name, Ohmic
TestParameter, Function.User.Unit, ohm
TestParameter, Function.User.Definition, avg(V1/I1)
TestParameter, Output.Graph.Enabled, true
TestParameter, Output.Graph.XAxis.Data, V1
TestParameter, Output.Graph.XAxis.Scale, Linear
TestParameter, Output.Graph.XAxis.Left, -5
TestParameter, Output.Graph.XAxis.Right, 5
TestParameter, Output.Graph.YAxis.Data, I1
TestParameter, Output.Graph.YAxis.Scale, Linear
TestParameter, Output.Graph.YAxis.Bottom, -0.001
TestParameter, Output.Graph.YAxis.Top, 0.001
TestParameter, Output.Graph.YAxis.Group, 
TestParameter, Output.Scalar.Data, Ohmic
TestParameter, AutoAnalysis.Interpolation, false
TestParameter, AutoAnalysis.Line1.Enabled, false
TestParameter, AutoAnalysis.Line1.Type, 1
TestParameter, AutoAnalysis.Line1.Fix, True
TestParameter, AutoAnalysis.Line1.YAxis, 0
TestParameter, AutoAnalysis.Line1.Point1.Type, 0
TestParameter, AutoAnalysis.Line1.Point1.XY.X, 
TestParameter, AutoAnalysis.Line1.Point1.XY.Y, 
TestParameter, AutoAnalysis.Line1.Point1.Data.Var, 
TestParameter, AutoAnalysis.Line1.Point1.Data.Condition, 
TestParameter, AutoAnalysis.Line1.Point1.Data.Start, false
TestParameter, AutoAnalysis.Line1.Point1.Data.StartVar, 
TestParameter, AutoAnalysis.Line1.Point1.Data.StartCondition, 
TestParameter, AutoAnalysis.Line1.Point2.Type, 0
TestParameter, AutoAnalysis.Line1.Point2.XY.X, 
TestParameter, AutoAnalysis.Line1.Point2.XY.Y, 
TestParameter, AutoAnalysis.Line1.Point2.Data.Var, 
TestParameter, AutoAnalysis.Line1.Point2.Data.Condition, 
TestParameter, AutoAnalysis.Line1.Point2.Data.Start, false
TestParameter, AutoAnalysis.Line1.Point2.Data.StartVar, 
TestParameter, AutoAnalysis.Line1.Point2.Data.StartCondition, 
TestParameter, AutoAnalysis.Line1.GradientExpr, 0
TestParameter, AutoAnalysis.Line2.Enabled, false
TestParameter, AutoAnalysis.Line2.Type, 1
TestParameter, AutoAnalysis.Line2.Fix, True
TestParameter, AutoAnalysis.Line2.YAxis, 0
TestParameter, AutoAnalysis.Line2.Point1.Type, 0
TestParameter, AutoAnalysis.Line2.Point1.XY.X, 
TestParameter, AutoAnalysis.Line2.Point1.XY.Y, 
TestParameter, AutoAnalysis.Line2.Point1.Data.Var, 
TestParameter, AutoAnalysis.Line2.Point1.Data.Condition, 
TestParameter, AutoAnalysis.Line2.Point1.Data.Start, false
TestParameter, AutoAnalysis.Line2.Point1.Data.StartVar, 
TestParameter, AutoAnalysis.Line2.Point1.Data.StartCondition, 
TestParameter, AutoAnalysis.Line2.Point2.Type, 0
TestParameter, AutoAnalysis.Line2.Point2.XY.X, 
TestParameter, AutoAnalysis.Line2.Point2.XY.Y, 
TestParameter, AutoAnalysis.Line2.Point2.Data.Var, 
TestParameter, AutoAnalysis.Line2.Point2.Data.Condition, 
TestParameter, AutoAnalysis.Line2.Point2.Data.Start, false
TestParameter, AutoAnalysis.Line2.Point2.Data.StartVar, 
TestParameter, AutoAnalysis.Line2.Point2.Data.StartCondition, 
TestParameter, AutoAnalysis.Line2.GradientExpr, 0
TestParameter, AutoAnalysis.Marker.Enabled, false
TestParameter, AutoAnalysis.Marker.Data.Var, 
TestParameter, AutoAnalysis.Marker.Data.Condition, 
TestParameter, AutoAnalysis.Marker.Data.Start, false
TestParameter, AutoAnalysis.Marker.Data.StartVar, 
TestParameter, AutoAnalysis.Marker.Data.StartCondition, 
MetaData, TestRecord.EntryPoint, true
MetaData, TestRecord.RecordTime, 09/05/2020 14:41:15
MetaData, TestRecord.TestTarget, 
MetaData, TestRecord.IterationIndex, 33
MetaData, TestRecord.Preservation, true
MetaData, TestRecord.Flag, 
MetaData, TestRecord.Remarks, 
MetaData, TestRecord.LinkKey, 85537d42-ba47-447f-9dc1-599f5d50ee84
Dimension1, 101, 101, 101
Dimension2, 1, 1, 1
DataName, V1, I1, Ohmic
DataValue, -5, -1.2388E-09, 1801178335.8397648
DataValue, -4.9, -1.1505E-09, 
DataValue, -4.8, -1.0973E-09, 
DataValue, -4.7, -1.1166999999999999E-09, 
DataValue, -4.6000000000000005, -1.1648E-09, 
DataValue, -4.5, -1.057E-09, 
DataValue, -4.4, -9.9189999999999985E-10, 
DataValue, -4.3, -9.1999999999999992E-10, 
DataValue, -4.2, -9.627E-10, 
DataValue, -4.1, -9.5409999999999984E-10, 
DataValue, -4, -9.3659999999999985E-10, 
DataValue, -3.9, -9.0309999999999991E-10, 
DataValue, -3.8000000000000003, -8.6679999999999994E-10, 
DataValue, -3.7, -8.8779999999999987E-10, 
DataValue, -3.6, -9.0269999999999989E-10, 
DataValue, -3.5, -8.8339999999999987E-10, 
DataValue, -3.4, -8.1129999999999988E-10, 
DataValue, -3.3000000000000003, -7.927E-10, 
DataValue, -3.2, -7.988999999999999E-10, 
DataValue, -3.1, -7.9189999999999992E-10, 
DataValue, -3, -7.4939999999999991E-10, 
DataValue, -2.9, -7.0659999999999992E-10, 
DataValue, -2.8000000000000003, -6.7289999999999992E-10, 
DataValue, -2.7, -6.7399999999999995E-10, 
DataValue, -2.6, -7.132999999999999E-10, 
DataValue, -2.5, -6.6589999999999994E-10, 
DataValue, -2.4, -6.95E-10, 
DataValue, -2.3000000000000003, -6.403E-10, 
DataValue, -2.2, -6.2729999999999989E-10, 
DataValue, -2.1, -6.801E-10, 
DataValue, -2, -5.8179999999999989E-10, 
DataValue, -1.9000000000000001, -6.201E-10, 
DataValue, -1.8, -5.9029999999999992E-10, 
DataValue, -1.7, -5.946E-10, 
DataValue, -1.6, -5.4109999999999992E-10, 
DataValue, -1.5, -5.9679999999999995E-10, 
DataValue, -1.4000000000000001, -5.554E-10, 
DataValue, -1.3, -5.399E-10, 
DataValue, -1.2, -5.224E-10, 
DataValue, -1.1, -4.847E-10, 
DataValue, -1, -4.7769999999999991E-10, 
DataValue, -0.9, -5.221E-10, 
DataValue, -0.8, -4.816E-10, 
DataValue, -0.70000000000000007, -4.9289999999999992E-10, 
DataValue, -0.6, -5.008E-10, 
DataValue, -0.5, -5.1919999999999992E-10, 
DataValue, -0.4, -4.766E-10, 
DataValue, -0.3, -4.8279999999999993E-10, 
DataValue, -0.2, -3.6259999999999997E-10, 
DataValue, -0.1, -2.0039999999999998E-10, 
DataValue, 0, 4.83E-11, 
DataValue, 0.1, 2.1339999999999998E-10, 
DataValue, 0.2, 5.244E-10, 
DataValue, 0.3, 8.4469999999999989E-10, 
DataValue, 0.4, 1.1883E-09, 
DataValue, 0.5, 1.5303999999999998E-09, 
DataValue, 0.6, 1.8912E-09, 
DataValue, 0.70000000000000007, 2.2491999999999996E-09, 
DataValue, 0.8, 2.6556E-09, 
DataValue, 0.9, 2.9908999999999997E-09, 
DataValue, 1, 3.3626999999999996E-09, 
DataValue, 1.1, 3.7960999999999993E-09, 
DataValue, 1.2, 4.0152E-09, 
DataValue, 1.3, 4.3810999999999993E-09, 
DataValue, 1.4000000000000001, 4.6445E-09, 
DataValue, 1.5, 4.9005999999999994E-09, 
DataValue, 1.6, 5.1485E-09, 
DataValue, 1.7, 5.4250999999999994E-09, 
DataValue, 1.8, 5.7117999999999992E-09, 
DataValue, 1.9000000000000001, 5.8821E-09, 
DataValue, 2, 6.0577999999999995E-09, 
DataValue, 2.1, 6.2586999999999995E-09, 
DataValue, 2.2, 6.3665999999999991E-09, 
DataValue, 2.3000000000000003, 6.5185999999999994E-09, 
DataValue, 2.4, 6.5773E-09, 
DataValue, 2.5, 6.633399999999999E-09, 
DataValue, 2.6, 6.6881E-09, 
DataValue, 2.7, 6.7184999999999991E-09, 
DataValue, 2.8000000000000003, 6.7950999999999994E-09, 
DataValue, 2.9, 6.7764999999999995E-09, 
DataValue, 3, 6.8862E-09, 
DataValue, 3.1, 6.8560999999999991E-09, 
DataValue, 3.2, 6.9047999999999996E-09, 
DataValue, 3.3000000000000003, 6.9678999999999995E-09, 
DataValue, 3.4, 6.9702999999999994E-09, 
DataValue, 3.5, 7.0380999999999995E-09, 
DataValue, 3.6, 7.0873E-09, 
DataValue, 3.7, 7.1917999999999991E-09, 
DataValue, 3.8000000000000003, 7.1380999999999996E-09, 
DataValue, 3.9, 7.1484999999999995E-09, 
DataValue, 4, 7.2467999999999994E-09, 
DataValue, 4.1, 7.3063999999999995E-09, 
DataValue, 4.2, 7.3137E-09, 
DataValue, 4.3, 7.3402999999999996E-09, 
DataValue, 4.4, 7.3876E-09, 
DataValue, 4.5, 7.4655E-09, 
DataValue, 4.6000000000000005, 7.5392E-09, 
DataValue, 4.7, 7.5038999999999985E-09, 
DataValue, 4.8, 7.5467E-09, 
DataValue, 4.9, 7.6044999999999987E-09, 
DataValue, 5, 7.6617999999999985E-09, 