
SetupTitle, WW
PrimitiveTest, I/V Sweep
TestParameter, Context.MainFrame, B1500A
TestParameter, Channel.UnitType, SMU, SMU
TestParameter, Channel.Unit, SMU2:HP, SMU1:HP
TestParameter, Channel.IName, I1, I4
TestParameter, Channel.VName, V1, V4
TestParameter, Channel.Mode, V, COMMON
TestParameter, Channel.Func, VAR1, CONST
TestParameter, Channel.Index, 
TestParameter, Channel.Time, 
TestParameter, Measurement.Port.Unit, SMU2:HP, SMU1:HP
TestParameter, Measurement.Port.SeriesResistor, NONE, NONE
TestParameter, Measurement.Port.Filter, ON, ON
TestParameter, Measurement.Port.OutputVoltageComparison, 0, 0
TestParameter, Measurement.Primary.Locus, Single
TestParameter, Measurement.Primary.Scale, LINEAR
TestParameter, Measurement.Primary.Start, -5
TestParameter, Measurement.Primary.Stop, 5
TestParameter, Measurement.Primary.Step, 0.1
TestParameter, Measurement.Primary.Compliance, 0.1
TestParameter, Measurement.Primary.PowerCompliance, 0
TestParameter, Measurement.Aborting.Condition, CONTINUE AT ANY
TestParameter, Measurement.PostOutput.Value, START
TestParameter, Measurement.PostOutput.Retention, OFF
TestParameter, Measurement.Bias.Source, -5, 0
TestParameter, Measurement.Bias.Compliance, 0.1, 1
TestParameter, Measurement.Monitor.Unit, SMU2:HP, SMU1:HP
TestParameter, Measurement.Monitor.Adc, HR ADC, HR ADC
TestParameter, Measurement.Monitor.Measurement, Compliance Side, Compliance Side
TestParameter, Measurement.Monitor.RangingMode, AUTO, AUTO
TestParameter, Measurement.Monitor.RangeBoundary, , 
TestParameter, Measurement.Monitor.RangeRating, BY FULL RANGE, BY FULL RANGE
TestParameter, Measurement.Monitor.RangeRatingCoeff, 50, 50
TestParameter, Measurement.Timing.Hold, 0
TestParameter, Measurement.Timing.Delay, 0.001
TestParameter, Measurement.Adc.HighSpeed.Mode, AUTO
TestParameter, Measurement.Adc.HighSpeed.Coeff, 1
TestParameter, Measurement.Adc.HighResolution.AutoZero, OFF
TestParameter, Measurement.Adc.HighResolution.Mode, PLC
TestParameter, Measurement.Adc.HighResolution.Coeff, 1
TestParameter, Measurement.WaitTime.Source.Coeff, 1
TestParameter, Measurement.WaitTime.Source.Offset, 0
TestParameter, Measurement.WaitTime.Monitor.Coeff, 1
TestParameter, Measurement.WaitTime.Monitor.Offset, 0
TestParameter, Function.User.Name, Ohmic
TestParameter, Function.User.Unit, ohm
TestParameter, Function.User.Definition, avg(V1/I1)
TestParameter, Output.Graph.Enabled, true
TestParameter, Output.Graph.XAxis.Data, V1
TestParameter, Output.Graph.XAxis.Scale, Linear
TestParameter, Output.Graph.XAxis.Left, -5
TestParameter, Output.Graph.XAxis.Right, 5
TestParameter, Output.Graph.YAxis.Data, I1
TestParameter, Output.Graph.YAxis.Scale, Linear
TestParameter, Output.Graph.YAxis.Bottom, -0.001
TestParameter, Output.Graph.YAxis.Top, 0.001
TestParameter, Output.Graph.YAxis.Group, 
TestParameter, Output.Scalar.Data, Ohmic
TestParameter, AutoAnalysis.Interpolation, false
TestParameter, AutoAnalysis.Line1.Enabled, false
TestParameter, AutoAnalysis.Line1.Type, 1
TestParameter, AutoAnalysis.Line1.Fix, True
TestParameter, AutoAnalysis.Line1.YAxis, 0
TestParameter, AutoAnalysis.Line1.Point1.Type, 0
TestParameter, AutoAnalysis.Line1.Point1.XY.X, 
TestParameter, AutoAnalysis.Line1.Point1.XY.Y, 
TestParameter, AutoAnalysis.Line1.Point1.Data.Var, 
TestParameter, AutoAnalysis.Line1.Point1.Data.Condition, 
TestParameter, AutoAnalysis.Line1.Point1.Data.Start, false
TestParameter, AutoAnalysis.Line1.Point1.Data.StartVar, 
TestParameter, AutoAnalysis.Line1.Point1.Data.StartCondition, 
TestParameter, AutoAnalysis.Line1.Point2.Type, 0
TestParameter, AutoAnalysis.Line1.Point2.XY.X, 
TestParameter, AutoAnalysis.Line1.Point2.XY.Y, 
TestParameter, AutoAnalysis.Line1.Point2.Data.Var, 
TestParameter, AutoAnalysis.Line1.Point2.Data.Condition, 
TestParameter, AutoAnalysis.Line1.Point2.Data.Start, false
TestParameter, AutoAnalysis.Line1.Point2.Data.StartVar, 
TestParameter, AutoAnalysis.Line1.Point2.Data.StartCondition, 
TestParameter, AutoAnalysis.Line1.GradientExpr, 0
TestParameter, AutoAnalysis.Line2.Enabled, false
TestParameter, AutoAnalysis.Line2.Type, 1
TestParameter, AutoAnalysis.Line2.Fix, True
TestParameter, AutoAnalysis.Line2.YAxis, 0
TestParameter, AutoAnalysis.Line2.Point1.Type, 0
TestParameter, AutoAnalysis.Line2.Point1.XY.X, 
TestParameter, AutoAnalysis.Line2.Point1.XY.Y, 
TestParameter, AutoAnalysis.Line2.Point1.Data.Var, 
TestParameter, AutoAnalysis.Line2.Point1.Data.Condition, 
TestParameter, AutoAnalysis.Line2.Point1.Data.Start, false
TestParameter, AutoAnalysis.Line2.Point1.Data.StartVar, 
TestParameter, AutoAnalysis.Line2.Point1.Data.StartCondition, 
TestParameter, AutoAnalysis.Line2.Point2.Type, 0
TestParameter, AutoAnalysis.Line2.Point2.XY.X, 
TestParameter, AutoAnalysis.Line2.Point2.XY.Y, 
TestParameter, AutoAnalysis.Line2.Point2.Data.Var, 
TestParameter, AutoAnalysis.Line2.Point2.Data.Condition, 
TestParameter, AutoAnalysis.Line2.Point2.Data.Start, false
TestParameter, AutoAnalysis.Line2.Point2.Data.StartVar, 
TestParameter, AutoAnalysis.Line2.Point2.Data.StartCondition, 
TestParameter, AutoAnalysis.Line2.GradientExpr, 0
TestParameter, AutoAnalysis.Marker.Enabled, false
TestParameter, AutoAnalysis.Marker.Data.Var, 
TestParameter, AutoAnalysis.Marker.Data.Condition, 
TestParameter, AutoAnalysis.Marker.Data.Start, false
TestParameter, AutoAnalysis.Marker.Data.StartVar, 
TestParameter, AutoAnalysis.Marker.Data.StartCondition, 
MetaData, TestRecord.EntryPoint, true
MetaData, TestRecord.RecordTime, 09/05/2020 14:40:12
MetaData, TestRecord.TestTarget, 
MetaData, TestRecord.IterationIndex, 31
MetaData, TestRecord.Preservation, true
MetaData, TestRecord.Flag, 
MetaData, TestRecord.Remarks, 
MetaData, TestRecord.LinkKey, 2d41c0b8-a507-4ef0-b2d2-16b46bc307fe
Dimension1, 101, 101, 101
Dimension2, 1, 1, 1
DataName, V1, I1, Ohmic
DataValue, -5, -2.7780999999999997E-09, -263623572.1272389
DataValue, -4.9, -2.9216E-09, 
DataValue, -4.8, -2.3246999999999996E-09, 
DataValue, -4.7, -2.0541999999999998E-09, 
DataValue, -4.6000000000000005, -1.6404999999999999E-09, 
DataValue, -4.5, -1.6299E-09, 
DataValue, -4.4, -1.7838999999999998E-09, 
DataValue, -4.3, -1.6603999999999998E-09, 
DataValue, -4.2, -1.6080999999999999E-09, 
DataValue, -4.1, -1.2183999999999999E-09, 
DataValue, -4, -1.2768E-09, 
DataValue, -3.9, -1.3402999999999998E-09, 
DataValue, -3.8000000000000003, -1.2730999999999999E-09, 
DataValue, -3.7, -1.373E-09, 
DataValue, -3.6, -1.1954999999999999E-09, 
DataValue, -3.5, -1.2855999999999998E-09, 
DataValue, -3.4, -1.3417999999999999E-09, 
DataValue, -3.3000000000000003, -1.2669999999999999E-09, 
DataValue, -3.2, -1.2566E-09, 
DataValue, -3.1, -1.2171999999999999E-09, 
DataValue, -3, -1.2687999999999998E-09, 
DataValue, -2.9, -1.4405999999999998E-09, 
DataValue, -2.8000000000000003, -1.4532E-09, 
DataValue, -2.7, -1.394E-09, 
DataValue, -2.6, -1.3054999999999999E-09, 
DataValue, -2.5, -1.5445999999999998E-09, 
DataValue, -2.4, -1.4028E-09, 
DataValue, -2.3000000000000003, -1.4258999999999998E-09, 
DataValue, -2.2, -1.1768E-09, 
DataValue, -2.1, -1.2101999999999998E-09, 
DataValue, -2, -1.2631E-09, 
DataValue, -1.9000000000000001, -1.2955E-09, 
DataValue, -1.8, -1.3128999999999999E-09, 
DataValue, -1.7, -1.3715999999999999E-09, 
DataValue, -1.6, -1.2646999999999998E-09, 
DataValue, -1.5, -1.3620999999999999E-09, 
DataValue, -1.4000000000000001, -1.1623999999999998E-09, 
DataValue, -1.3, -1.084E-09, 
DataValue, -1.2, -1.3108999999999999E-09, 
DataValue, -1.1, -1.2560999999999998E-09, 
DataValue, -1, -1.181E-09, 
DataValue, -0.9, -1.2592999999999998E-09, 
DataValue, -0.8, -1.1822E-09, 
DataValue, -0.70000000000000007, -1.2757999999999999E-09, 
DataValue, -0.6, -1.3114999999999999E-09, 
DataValue, -0.5, -1.2086E-09, 
DataValue, -0.4, -1.0373E-09, 
DataValue, -0.3, -9.6839999999999988E-10, 
DataValue, -0.2, -1.1837E-09, 
DataValue, -0.1, -1.1083E-09, 
DataValue, 0, -6.616999999999999E-10, 
DataValue, 0.1, -5.1479999999999992E-10, 
DataValue, 0.2, -3.5769999999999996E-10, 
DataValue, 0.3, -2.2E-12, 
DataValue, 0.4, 4.903E-10, 
DataValue, 0.5, 8.136E-10, 
DataValue, 0.6, 1.3285E-09, 
DataValue, 0.70000000000000007, 1.5835999999999998E-09, 
DataValue, 0.8, 2.0376999999999997E-09, 
DataValue, 0.9, 2.2574999999999997E-09, 
DataValue, 1, 2.6993999999999996E-09, 
DataValue, 1.1, 3.2433999999999998E-09, 
DataValue, 1.2, 3.7136999999999997E-09, 
DataValue, 1.3, 3.8917999999999993E-09, 
DataValue, 1.4000000000000001, 4.0712999999999994E-09, 
DataValue, 1.5, 4.3788E-09, 
DataValue, 1.6, 4.7029999999999992E-09, 
DataValue, 1.7, 4.9908E-09, 
DataValue, 1.8, 5.7570999999999995E-09, 
DataValue, 1.9000000000000001, 5.8726E-09, 
DataValue, 2, 5.9655999999999993E-09, 
DataValue, 2.1, 5.7784E-09, 
DataValue, 2.2, 5.8637999999999995E-09, 
DataValue, 2.3000000000000003, 5.8905999999999995E-09, 
DataValue, 2.4, 6.0973999999999992E-09, 
DataValue, 2.5, 6.069E-09, 
DataValue, 2.6, 6.2064999999999992E-09, 
DataValue, 2.7, 6.0860999999999995E-09, 
DataValue, 2.8000000000000003, 6.2355999999999994E-09, 
DataValue, 2.9, 6.1686999999999992E-09, 
DataValue, 3, 6.7508999999999991E-09, 
DataValue, 3.1, 6.6166999999999993E-09, 
DataValue, 3.2, 6.6773999999999993E-09, 
DataValue, 3.3000000000000003, 6.8156999999999991E-09, 
DataValue, 3.4, 7.0279E-09, 
DataValue, 3.5, 7.0605999999999994E-09, 
DataValue, 3.6, 7.048599999999999E-09, 
DataValue, 3.7, 7.1845999999999994E-09, 
DataValue, 3.8000000000000003, 6.303099999999999E-09, 
DataValue, 3.9, 6.6434E-09, 
DataValue, 4, 6.683299999999999E-09, 
DataValue, 4.1, 6.8525E-09, 
DataValue, 4.2, 6.9196999999999996E-09, 
DataValue, 4.3, 6.8864999999999993E-09, 
DataValue, 4.4, 6.7481999999999995E-09, 
DataValue, 4.5, 6.8150999999999989E-09, 
DataValue, 4.6000000000000005, 6.8966999999999991E-09, 
DataValue, 4.7, 6.9791999999999992E-09, 
DataValue, 4.8, 7.0839999999999991E-09, 
DataValue, 4.9, 7.0778E-09, 
DataValue, 5, 7.1234999999999992E-09, 