
SetupTitle, WW
PrimitiveTest, I/V Sweep
TestParameter, Context.MainFrame, B1500A
TestParameter, Channel.UnitType, SMU, SMU
TestParameter, Channel.Unit, SMU2:HP, SMU1:HP
TestParameter, Channel.IName, I1, I4
TestParameter, Channel.VName, V1, V4
TestParameter, Channel.Mode, V, COMMON
TestParameter, Channel.Func, VAR1, CONST
TestParameter, Channel.Index, 
TestParameter, Channel.Time, 
TestParameter, Measurement.Port.Unit, SMU2:HP, SMU1:HP
TestParameter, Measurement.Port.SeriesResistor, NONE, NONE
TestParameter, Measurement.Port.Filter, ON, ON
TestParameter, Measurement.Port.OutputVoltageComparison, 0, 0
TestParameter, Measurement.Primary.Locus, Single
TestParameter, Measurement.Primary.Scale, LINEAR
TestParameter, Measurement.Primary.Start, -5
TestParameter, Measurement.Primary.Stop, 5
TestParameter, Measurement.Primary.Step, 0.1
TestParameter, Measurement.Primary.Compliance, 0.1
TestParameter, Measurement.Primary.PowerCompliance, 0
TestParameter, Measurement.Aborting.Condition, CONTINUE AT ANY
TestParameter, Measurement.PostOutput.Value, START
TestParameter, Measurement.PostOutput.Retention, OFF
TestParameter, Measurement.Bias.Source, -5, 0
TestParameter, Measurement.Bias.Compliance, 0.1, 1
TestParameter, Measurement.Monitor.Unit, SMU2:HP, SMU1:HP
TestParameter, Measurement.Monitor.Adc, HR ADC, HR ADC
TestParameter, Measurement.Monitor.Measurement, Compliance Side, Compliance Side
TestParameter, Measurement.Monitor.RangingMode, AUTO, AUTO
TestParameter, Measurement.Monitor.RangeBoundary, , 
TestParameter, Measurement.Monitor.RangeRating, BY FULL RANGE, BY FULL RANGE
TestParameter, Measurement.Monitor.RangeRatingCoeff, 50, 50
TestParameter, Measurement.Timing.Hold, 0
TestParameter, Measurement.Timing.Delay, 0.001
TestParameter, Measurement.Adc.HighSpeed.Mode, AUTO
TestParameter, Measurement.Adc.HighSpeed.Coeff, 1
TestParameter, Measurement.Adc.HighResolution.AutoZero, OFF
TestParameter, Measurement.Adc.HighResolution.Mode, PLC
TestParameter, Measurement.Adc.HighResolution.Coeff, 1
TestParameter, Measurement.WaitTime.Source.Coeff, 1
TestParameter, Measurement.WaitTime.Source.Offset, 0
TestParameter, Measurement.WaitTime.Monitor.Coeff, 1
TestParameter, Measurement.WaitTime.Monitor.Offset, 0
TestParameter, Function.User.Name, Ohmic
TestParameter, Function.User.Unit, ohm
TestParameter, Function.User.Definition, avg(V1/I1)
TestParameter, Output.Graph.Enabled, true
TestParameter, Output.Graph.XAxis.Data, V1
TestParameter, Output.Graph.XAxis.Scale, Linear
TestParameter, Output.Graph.XAxis.Left, -5
TestParameter, Output.Graph.XAxis.Right, 5
TestParameter, Output.Graph.YAxis.Data, I1
TestParameter, Output.Graph.YAxis.Scale, Linear
TestParameter, Output.Graph.YAxis.Bottom, -0.001
TestParameter, Output.Graph.YAxis.Top, 0.001
TestParameter, Output.Graph.YAxis.Group, 
TestParameter, Output.Scalar.Data, Ohmic
TestParameter, AutoAnalysis.Interpolation, false
TestParameter, AutoAnalysis.Line1.Enabled, false
TestParameter, AutoAnalysis.Line1.Type, 1
TestParameter, AutoAnalysis.Line1.Fix, True
TestParameter, AutoAnalysis.Line1.YAxis, 0
TestParameter, AutoAnalysis.Line1.Point1.Type, 0
TestParameter, AutoAnalysis.Line1.Point1.XY.X, 
TestParameter, AutoAnalysis.Line1.Point1.XY.Y, 
TestParameter, AutoAnalysis.Line1.Point1.Data.Var, 
TestParameter, AutoAnalysis.Line1.Point1.Data.Condition, 
TestParameter, AutoAnalysis.Line1.Point1.Data.Start, false
TestParameter, AutoAnalysis.Line1.Point1.Data.StartVar, 
TestParameter, AutoAnalysis.Line1.Point1.Data.StartCondition, 
TestParameter, AutoAnalysis.Line1.Point2.Type, 0
TestParameter, AutoAnalysis.Line1.Point2.XY.X, 
TestParameter, AutoAnalysis.Line1.Point2.XY.Y, 
TestParameter, AutoAnalysis.Line1.Point2.Data.Var, 
TestParameter, AutoAnalysis.Line1.Point2.Data.Condition, 
TestParameter, AutoAnalysis.Line1.Point2.Data.Start, false
TestParameter, AutoAnalysis.Line1.Point2.Data.StartVar, 
TestParameter, AutoAnalysis.Line1.Point2.Data.StartCondition, 
TestParameter, AutoAnalysis.Line1.GradientExpr, 0
TestParameter, AutoAnalysis.Line2.Enabled, false
TestParameter, AutoAnalysis.Line2.Type, 1
TestParameter, AutoAnalysis.Line2.Fix, True
TestParameter, AutoAnalysis.Line2.YAxis, 0
TestParameter, AutoAnalysis.Line2.Point1.Type, 0
TestParameter, AutoAnalysis.Line2.Point1.XY.X, 
TestParameter, AutoAnalysis.Line2.Point1.XY.Y, 
TestParameter, AutoAnalysis.Line2.Point1.Data.Var, 
TestParameter, AutoAnalysis.Line2.Point1.Data.Condition, 
TestParameter, AutoAnalysis.Line2.Point1.Data.Start, false
TestParameter, AutoAnalysis.Line2.Point1.Data.StartVar, 
TestParameter, AutoAnalysis.Line2.Point1.Data.StartCondition, 
TestParameter, AutoAnalysis.Line2.Point2.Type, 0
TestParameter, AutoAnalysis.Line2.Point2.XY.X, 
TestParameter, AutoAnalysis.Line2.Point2.XY.Y, 
TestParameter, AutoAnalysis.Line2.Point2.Data.Var, 
TestParameter, AutoAnalysis.Line2.Point2.Data.Condition, 
TestParameter, AutoAnalysis.Line2.Point2.Data.Start, false
TestParameter, AutoAnalysis.Line2.Point2.Data.StartVar, 
TestParameter, AutoAnalysis.Line2.Point2.Data.StartCondition, 
TestParameter, AutoAnalysis.Line2.GradientExpr, 0
TestParameter, AutoAnalysis.Marker.Enabled, false
TestParameter, AutoAnalysis.Marker.Data.Var, 
TestParameter, AutoAnalysis.Marker.Data.Condition, 
TestParameter, AutoAnalysis.Marker.Data.Start, false
TestParameter, AutoAnalysis.Marker.Data.StartVar, 
TestParameter, AutoAnalysis.Marker.Data.StartCondition, 
MetaData, TestRecord.EntryPoint, true
MetaData, TestRecord.RecordTime, 09/05/2020 14:38:24
MetaData, TestRecord.TestTarget, 
MetaData, TestRecord.IterationIndex, 27
MetaData, TestRecord.Preservation, true
MetaData, TestRecord.Flag, 
MetaData, TestRecord.Remarks, 
MetaData, TestRecord.LinkKey, dca25105-035c-4d94-be13-571b775a9523
Dimension1, 101, 101, 101
Dimension2, 1, 1, 1
DataName, V1, I1, Ohmic
DataValue, -5, -1.3135999999999999E-09, 1325887813.9719489
DataValue, -4.9, -1.3387E-09, 
DataValue, -4.8, -1.286E-09, 
DataValue, -4.7, -1.2811999999999999E-09, 
DataValue, -4.6000000000000005, -1.2695999999999998E-09, 
DataValue, -4.5, -1.2372999999999999E-09, 
DataValue, -4.4, -1.2294E-09, 
DataValue, -4.3, -1.2719E-09, 
DataValue, -4.2, -1.1445E-09, 
DataValue, -4.1, -1.2211999999999999E-09, 
DataValue, -4, -1.5872999999999999E-09, 
DataValue, -3.9, -1.1216E-09, 
DataValue, -3.8000000000000003, -1.2632E-09, 
DataValue, -3.7, -1.1550999999999999E-09, 
DataValue, -3.6, -1.1780999999999999E-09, 
DataValue, -3.5, -1.185E-09, 
DataValue, -3.4, -1.0020999999999999E-09, 
DataValue, -3.3000000000000003, -1.0064E-09, 
DataValue, -3.2, -1.0382E-09, 
DataValue, -3.1, -1.0503999999999998E-09, 
DataValue, -3, -1.3537999999999998E-09, 
DataValue, -2.9, -9.2989999999999986E-10, 
DataValue, -2.8000000000000003, -8.6359999999999989E-10, 
DataValue, -2.7, -1.1311E-09, 
DataValue, -2.6, -1.4473E-09, 
DataValue, -2.5, -1.4695999999999998E-09, 
DataValue, -2.4, -1.5270999999999998E-09, 
DataValue, -2.3000000000000003, -1.4345E-09, 
DataValue, -2.2, -1.2726E-09, 
DataValue, -2.1, -9.1119999999999991E-10, 
DataValue, -2, -7.4639999999999992E-10, 
DataValue, -1.9000000000000001, -7.8909999999999989E-10, 
DataValue, -1.8, -9.7E-10, 
DataValue, -1.7, -8.7949999999999991E-10, 
DataValue, -1.6, -1.2242999999999998E-09, 
DataValue, -1.5, -1.0462E-09, 
DataValue, -1.4000000000000001, -1.0394E-09, 
DataValue, -1.3, -9.3319999999999984E-10, 
DataValue, -1.2, -8.8009999999999989E-10, 
DataValue, -1.1, -7.9529999999999993E-10, 
DataValue, -1, -9.4139999999999987E-10, 
DataValue, -0.9, -8.001E-10, 
DataValue, -0.8, -8.5669999999999995E-10, 
DataValue, -0.70000000000000007, -6.3849999999999991E-10, 
DataValue, -0.6, -7.6599999999999994E-10, 
DataValue, -0.5, -7.2549999999999992E-10, 
DataValue, -0.4, -7.4609999999999994E-10, 
DataValue, -0.3, -8.0929999999999988E-10, 
DataValue, -0.2, -7.415999999999999E-10, 
DataValue, -0.1, -4.7469999999999992E-10, 
DataValue, 0, -3.9509999999999996E-10, 
DataValue, 0.1, -2.2129999999999998E-10, 
DataValue, 0.2, -4.5999999999999996E-11, 
DataValue, 0.3, 1.744E-10, 
DataValue, 0.4, 5.655E-10, 
DataValue, 0.5, 7.543999999999999E-10, 
DataValue, 0.6, 1.1266999999999998E-09, 
DataValue, 0.70000000000000007, 1.4371E-09, 
DataValue, 0.8, 1.7971E-09, 
DataValue, 0.9, 2.1627E-09, 
DataValue, 1, 2.4837999999999996E-09, 
DataValue, 1.1, 2.8948999999999996E-09, 
DataValue, 1.2, 3.1481999999999995E-09, 
DataValue, 1.3, 3.3355999999999995E-09, 
DataValue, 1.4000000000000001, 3.7093999999999996E-09, 
DataValue, 1.5, 3.9252E-09, 
DataValue, 1.6, 4.2045999999999993E-09, 
DataValue, 1.7, 4.4410999999999995E-09, 
DataValue, 1.8, 4.7117999999999994E-09, 
DataValue, 1.9000000000000001, 4.9044999999999993E-09, 
DataValue, 2, 5.0835E-09, 
DataValue, 2.1, 5.2803999999999993E-09, 
DataValue, 2.2, 5.5343999999999994E-09, 
DataValue, 2.3000000000000003, 5.4905E-09, 
DataValue, 2.4, 5.7155999999999996E-09, 
DataValue, 2.5, 5.8739E-09, 
DataValue, 2.6, 5.8916999999999994E-09, 
DataValue, 2.7, 5.9223E-09, 
DataValue, 2.8000000000000003, 6.0305E-09, 
DataValue, 2.9, 6.069799999999999E-09, 
DataValue, 3, 6.0433E-09, 
DataValue, 3.1, 6.1256E-09, 
DataValue, 3.2, 6.1688E-09, 
DataValue, 3.3000000000000003, 6.2599999999999995E-09, 
DataValue, 3.4, 6.3064999999999993E-09, 
DataValue, 3.5, 6.3172E-09, 
DataValue, 3.6, 6.4205999999999991E-09, 
DataValue, 3.7, 6.4559E-09, 
DataValue, 3.8000000000000003, 6.4118999999999993E-09, 
DataValue, 3.9, 6.4982999999999994E-09, 
DataValue, 4, 6.5522999999999994E-09, 
DataValue, 4.1, 6.5946999999999992E-09, 
DataValue, 4.2, 6.7039999999999992E-09, 
DataValue, 4.3, 6.7246999999999993E-09, 
DataValue, 4.4, 6.8036999999999996E-09, 
DataValue, 4.5, 6.7946E-09, 
DataValue, 4.6000000000000005, 6.8669999999999996E-09, 
DataValue, 4.7, 6.9491999999999991E-09, 
DataValue, 4.8, 6.9748999999999991E-09, 
DataValue, 4.9, 6.9949999999999991E-09, 
DataValue, 5, 7.0711E-09, 