
SetupTitle, WW
PrimitiveTest, I/V Sweep
TestParameter, Context.MainFrame, B1500A
TestParameter, Channel.UnitType, SMU, SMU
TestParameter, Channel.Unit, SMU2:HP, SMU1:HP
TestParameter, Channel.IName, I1, I4
TestParameter, Channel.VName, V1, V4
TestParameter, Channel.Mode, V, COMMON
TestParameter, Channel.Func, VAR1, CONST
TestParameter, Channel.Index, 
TestParameter, Channel.Time, 
TestParameter, Measurement.Port.Unit, SMU2:HP, SMU1:HP
TestParameter, Measurement.Port.SeriesResistor, NONE, NONE
TestParameter, Measurement.Port.Filter, ON, ON
TestParameter, Measurement.Port.OutputVoltageComparison, 0, 0
TestParameter, Measurement.Primary.Locus, Single
TestParameter, Measurement.Primary.Scale, LINEAR
TestParameter, Measurement.Primary.Start, -5
TestParameter, Measurement.Primary.Stop, 5
TestParameter, Measurement.Primary.Step, 0.1
TestParameter, Measurement.Primary.Compliance, 0.1
TestParameter, Measurement.Primary.PowerCompliance, 0
TestParameter, Measurement.Aborting.Condition, CONTINUE AT ANY
TestParameter, Measurement.PostOutput.Value, START
TestParameter, Measurement.PostOutput.Retention, OFF
TestParameter, Measurement.Bias.Source, -5, 0
TestParameter, Measurement.Bias.Compliance, 0.1, 1
TestParameter, Measurement.Monitor.Unit, SMU2:HP, SMU1:HP
TestParameter, Measurement.Monitor.Adc, HR ADC, HR ADC
TestParameter, Measurement.Monitor.Measurement, Compliance Side, Compliance Side
TestParameter, Measurement.Monitor.RangingMode, AUTO, AUTO
TestParameter, Measurement.Monitor.RangeBoundary, , 
TestParameter, Measurement.Monitor.RangeRating, BY FULL RANGE, BY FULL RANGE
TestParameter, Measurement.Monitor.RangeRatingCoeff, 50, 50
TestParameter, Measurement.Timing.Hold, 0
TestParameter, Measurement.Timing.Delay, 0.001
TestParameter, Measurement.Adc.HighSpeed.Mode, AUTO
TestParameter, Measurement.Adc.HighSpeed.Coeff, 1
TestParameter, Measurement.Adc.HighResolution.AutoZero, OFF
TestParameter, Measurement.Adc.HighResolution.Mode, PLC
TestParameter, Measurement.Adc.HighResolution.Coeff, 1
TestParameter, Measurement.WaitTime.Source.Coeff, 1
TestParameter, Measurement.WaitTime.Source.Offset, 0
TestParameter, Measurement.WaitTime.Monitor.Coeff, 1
TestParameter, Measurement.WaitTime.Monitor.Offset, 0
TestParameter, Function.User.Name, Ohmic
TestParameter, Function.User.Unit, ohm
TestParameter, Function.User.Definition, avg(V1/I1)
TestParameter, Output.Graph.Enabled, true
TestParameter, Output.Graph.XAxis.Data, V1
TestParameter, Output.Graph.XAxis.Scale, Linear
TestParameter, Output.Graph.XAxis.Left, -5
TestParameter, Output.Graph.XAxis.Right, 5
TestParameter, Output.Graph.YAxis.Data, I1
TestParameter, Output.Graph.YAxis.Scale, Linear
TestParameter, Output.Graph.YAxis.Bottom, -0.001
TestParameter, Output.Graph.YAxis.Top, 0.001
TestParameter, Output.Graph.YAxis.Group, 
TestParameter, Output.Scalar.Data, Ohmic
TestParameter, AutoAnalysis.Interpolation, false
TestParameter, AutoAnalysis.Line1.Enabled, false
TestParameter, AutoAnalysis.Line1.Type, 1
TestParameter, AutoAnalysis.Line1.Fix, True
TestParameter, AutoAnalysis.Line1.YAxis, 0
TestParameter, AutoAnalysis.Line1.Point1.Type, 0
TestParameter, AutoAnalysis.Line1.Point1.XY.X, 
TestParameter, AutoAnalysis.Line1.Point1.XY.Y, 
TestParameter, AutoAnalysis.Line1.Point1.Data.Var, 
TestParameter, AutoAnalysis.Line1.Point1.Data.Condition, 
TestParameter, AutoAnalysis.Line1.Point1.Data.Start, false
TestParameter, AutoAnalysis.Line1.Point1.Data.StartVar, 
TestParameter, AutoAnalysis.Line1.Point1.Data.StartCondition, 
TestParameter, AutoAnalysis.Line1.Point2.Type, 0
TestParameter, AutoAnalysis.Line1.Point2.XY.X, 
TestParameter, AutoAnalysis.Line1.Point2.XY.Y, 
TestParameter, AutoAnalysis.Line1.Point2.Data.Var, 
TestParameter, AutoAnalysis.Line1.Point2.Data.Condition, 
TestParameter, AutoAnalysis.Line1.Point2.Data.Start, false
TestParameter, AutoAnalysis.Line1.Point2.Data.StartVar, 
TestParameter, AutoAnalysis.Line1.Point2.Data.StartCondition, 
TestParameter, AutoAnalysis.Line1.GradientExpr, 0
TestParameter, AutoAnalysis.Line2.Enabled, false
TestParameter, AutoAnalysis.Line2.Type, 1
TestParameter, AutoAnalysis.Line2.Fix, True
TestParameter, AutoAnalysis.Line2.YAxis, 0
TestParameter, AutoAnalysis.Line2.Point1.Type, 0
TestParameter, AutoAnalysis.Line2.Point1.XY.X, 
TestParameter, AutoAnalysis.Line2.Point1.XY.Y, 
TestParameter, AutoAnalysis.Line2.Point1.Data.Var, 
TestParameter, AutoAnalysis.Line2.Point1.Data.Condition, 
TestParameter, AutoAnalysis.Line2.Point1.Data.Start, false
TestParameter, AutoAnalysis.Line2.Point1.Data.StartVar, 
TestParameter, AutoAnalysis.Line2.Point1.Data.StartCondition, 
TestParameter, AutoAnalysis.Line2.Point2.Type, 0
TestParameter, AutoAnalysis.Line2.Point2.XY.X, 
TestParameter, AutoAnalysis.Line2.Point2.XY.Y, 
TestParameter, AutoAnalysis.Line2.Point2.Data.Var, 
TestParameter, AutoAnalysis.Line2.Point2.Data.Condition, 
TestParameter, AutoAnalysis.Line2.Point2.Data.Start, false
TestParameter, AutoAnalysis.Line2.Point2.Data.StartVar, 
TestParameter, AutoAnalysis.Line2.Point2.Data.StartCondition, 
TestParameter, AutoAnalysis.Line2.GradientExpr, 0
TestParameter, AutoAnalysis.Marker.Enabled, false
TestParameter, AutoAnalysis.Marker.Data.Var, 
TestParameter, AutoAnalysis.Marker.Data.Condition, 
TestParameter, AutoAnalysis.Marker.Data.Start, false
TestParameter, AutoAnalysis.Marker.Data.StartVar, 
TestParameter, AutoAnalysis.Marker.Data.StartCondition, 
MetaData, TestRecord.EntryPoint, true
MetaData, TestRecord.RecordTime, 09/05/2020 14:37:56
MetaData, TestRecord.TestTarget, 
MetaData, TestRecord.IterationIndex, 26
MetaData, TestRecord.Preservation, true
MetaData, TestRecord.Flag, 
MetaData, TestRecord.Remarks, 
MetaData, TestRecord.LinkKey, 9924ab9c-22dc-4246-9e55-a47a785dc484
Dimension1, 101, 101, 101
Dimension2, 1, 1, 1
DataName, V1, I1, Ohmic
DataValue, -5, -1.6114999999999999E-09, 1173625507.709739
DataValue, -4.9, -2.2143999999999997E-09, 
DataValue, -4.8, -2.1039999999999998E-09, 
DataValue, -4.7, -1.9448999999999998E-09, 
DataValue, -4.6000000000000005, -2.0230999999999998E-09, 
DataValue, -4.5, -1.9884E-09, 
DataValue, -4.4, -1.8810999999999996E-09, 
DataValue, -4.3, -1.8637999999999997E-09, 
DataValue, -4.2, -1.7648999999999998E-09, 
DataValue, -4.1, -1.7432999999999998E-09, 
DataValue, -4, -1.4964E-09, 
DataValue, -3.9, -1.5747E-09, 
DataValue, -3.8000000000000003, -1.6369999999999998E-09, 
DataValue, -3.7, -1.4788E-09, 
DataValue, -3.6, -1.4776999999999998E-09, 
DataValue, -3.5, -1.5144999999999999E-09, 
DataValue, -3.4, -1.4730999999999998E-09, 
DataValue, -3.3000000000000003, -1.6723E-09, 
DataValue, -3.2, -1.5011E-09, 
DataValue, -3.1, -1.2968E-09, 
DataValue, -3, -1.0080999999999999E-09, 
DataValue, -2.9, -1.0589E-09, 
DataValue, -2.8000000000000003, -9.894E-10, 
DataValue, -2.7, -1.0268999999999998E-09, 
DataValue, -2.6, -9.8439999999999983E-10, 
DataValue, -2.5, -1.0187999999999998E-09, 
DataValue, -2.4, -9.8649999999999985E-10, 
DataValue, -2.3000000000000003, -1.0233E-09, 
DataValue, -2.2, -9.5829999999999989E-10, 
DataValue, -2.1, -1.398E-09, 
DataValue, -2, -1.3504999999999998E-09, 
DataValue, -1.9000000000000001, -1.2187E-09, 
DataValue, -1.8, -1.2265999999999999E-09, 
DataValue, -1.7, -1.2371999999999998E-09, 
DataValue, -1.6, -1.2566E-09, 
DataValue, -1.5, -1.1951E-09, 
DataValue, -1.4000000000000001, -1.2431E-09, 
DataValue, -1.3, -1.226E-09, 
DataValue, -1.2, -1.2193E-09, 
DataValue, -1.1, -1.1858E-09, 
DataValue, -1, -8.4579999999999991E-10, 
DataValue, -0.9, -7.233E-10, 
DataValue, -0.8, -1.0952E-09, 
DataValue, -0.70000000000000007, -8.8559999999999992E-10, 
DataValue, -0.6, -8.203E-10, 
DataValue, -0.5, -8.143999999999999E-10, 
DataValue, -0.4, -7.7339999999999993E-10, 
DataValue, -0.3, -7.2539999999999989E-10, 
DataValue, -0.2, -6.6319999999999994E-10, 
DataValue, -0.1, -6.012E-10, 
DataValue, 0, -5.0739999999999992E-10, 
DataValue, 0.1, -4.4469999999999997E-10, 
DataValue, 0.2, -2.659E-10, 
DataValue, 0.3, 9.93E-11, 
DataValue, 0.4, 6.1489999999999991E-10, 
DataValue, 0.5, 6.8069999999999993E-10, 
DataValue, 0.6, 9.006999999999999E-10, 
DataValue, 0.70000000000000007, 1.2153E-09, 
DataValue, 0.8, 1.5810999999999998E-09, 
DataValue, 0.9, 1.7988999999999999E-09, 
DataValue, 1, 2.1925999999999996E-09, 
DataValue, 1.1, 2.4260999999999997E-09, 
DataValue, 1.2, 2.9639999999999997E-09, 
DataValue, 1.3, 3.2494999999999996E-09, 
DataValue, 1.4000000000000001, 3.5438999999999997E-09, 
DataValue, 1.5, 3.6765999999999995E-09, 
DataValue, 1.6, 3.9837E-09, 
DataValue, 1.7, 4.1505E-09, 
DataValue, 1.8, 4.4091999999999992E-09, 
DataValue, 1.9000000000000001, 4.6622E-09, 
DataValue, 2, 4.7938E-09, 
DataValue, 2.1, 5.0027E-09, 
DataValue, 2.2, 5.128E-09, 
DataValue, 2.3000000000000003, 5.3689999999999991E-09, 
DataValue, 2.4, 5.5166E-09, 
DataValue, 2.5, 5.5207E-09, 
DataValue, 2.6, 5.5859999999999995E-09, 
DataValue, 2.7, 5.6376E-09, 
DataValue, 2.8000000000000003, 5.6192999999999994E-09, 
DataValue, 2.9, 5.9713999999999995E-09, 
DataValue, 3, 5.8914999999999994E-09, 
DataValue, 3.1, 6.0162999999999996E-09, 
DataValue, 3.2, 6.003699999999999E-09, 
DataValue, 3.3000000000000003, 6.0238999999999994E-09, 
DataValue, 3.4, 6.1286999999999993E-09, 
DataValue, 3.5, 6.1988E-09, 
DataValue, 3.6, 6.2431999999999993E-09, 
DataValue, 3.7, 6.3967999999999993E-09, 
DataValue, 3.8000000000000003, 6.5390999999999995E-09, 
DataValue, 3.9, 6.6261E-09, 
DataValue, 4, 6.664299999999999E-09, 
DataValue, 4.1, 6.6555E-09, 
DataValue, 4.2, 6.6879E-09, 
DataValue, 4.3, 6.7183999999999995E-09, 
DataValue, 4.4, 6.7899999999999991E-09, 
DataValue, 4.5, 6.8117999999999992E-09, 
DataValue, 4.6000000000000005, 6.8628999999999995E-09, 
DataValue, 4.7, 6.8795999999999993E-09, 
DataValue, 4.8, 6.9045999999999995E-09, 
DataValue, 4.9, 6.993299999999999E-09, 
DataValue, 5, 7.014899999999999E-09, 