
SetupTitle, WW
PrimitiveTest, I/V Sweep
TestParameter, Context.MainFrame, B1500A
TestParameter, Channel.UnitType, SMU, SMU
TestParameter, Channel.Unit, SMU2:HP, SMU1:HP
TestParameter, Channel.IName, I1, I4
TestParameter, Channel.VName, V1, V4
TestParameter, Channel.Mode, V, COMMON
TestParameter, Channel.Func, VAR1, CONST
TestParameter, Channel.Index, 
TestParameter, Channel.Time, 
TestParameter, Measurement.Port.Unit, SMU2:HP, SMU1:HP
TestParameter, Measurement.Port.SeriesResistor, NONE, NONE
TestParameter, Measurement.Port.Filter, ON, ON
TestParameter, Measurement.Port.OutputVoltageComparison, 0, 0
TestParameter, Measurement.Primary.Locus, Single
TestParameter, Measurement.Primary.Scale, LINEAR
TestParameter, Measurement.Primary.Start, -5
TestParameter, Measurement.Primary.Stop, 5
TestParameter, Measurement.Primary.Step, 0.1
TestParameter, Measurement.Primary.Compliance, 0.1
TestParameter, Measurement.Primary.PowerCompliance, 0
TestParameter, Measurement.Aborting.Condition, CONTINUE AT ANY
TestParameter, Measurement.PostOutput.Value, START
TestParameter, Measurement.PostOutput.Retention, OFF
TestParameter, Measurement.Bias.Source, -5, 0
TestParameter, Measurement.Bias.Compliance, 0.1, 1
TestParameter, Measurement.Monitor.Unit, SMU2:HP, SMU1:HP
TestParameter, Measurement.Monitor.Adc, HR ADC, HR ADC
TestParameter, Measurement.Monitor.Measurement, Compliance Side, Compliance Side
TestParameter, Measurement.Monitor.RangingMode, AUTO, AUTO
TestParameter, Measurement.Monitor.RangeBoundary, , 
TestParameter, Measurement.Monitor.RangeRating, BY FULL RANGE, BY FULL RANGE
TestParameter, Measurement.Monitor.RangeRatingCoeff, 50, 50
TestParameter, Measurement.Timing.Hold, 0
TestParameter, Measurement.Timing.Delay, 0.001
TestParameter, Measurement.Adc.HighSpeed.Mode, AUTO
TestParameter, Measurement.Adc.HighSpeed.Coeff, 1
TestParameter, Measurement.Adc.HighResolution.AutoZero, OFF
TestParameter, Measurement.Adc.HighResolution.Mode, PLC
TestParameter, Measurement.Adc.HighResolution.Coeff, 1
TestParameter, Measurement.WaitTime.Source.Coeff, 1
TestParameter, Measurement.WaitTime.Source.Offset, 0
TestParameter, Measurement.WaitTime.Monitor.Coeff, 1
TestParameter, Measurement.WaitTime.Monitor.Offset, 0
TestParameter, Function.User.Name, Ohmic
TestParameter, Function.User.Unit, ohm
TestParameter, Function.User.Definition, avg(V1/I1)
TestParameter, Output.Graph.Enabled, true
TestParameter, Output.Graph.XAxis.Data, V1
TestParameter, Output.Graph.XAxis.Scale, Linear
TestParameter, Output.Graph.XAxis.Left, -5
TestParameter, Output.Graph.XAxis.Right, 5
TestParameter, Output.Graph.YAxis.Data, I1
TestParameter, Output.Graph.YAxis.Scale, Linear
TestParameter, Output.Graph.YAxis.Bottom, -0.001
TestParameter, Output.Graph.YAxis.Top, 0.001
TestParameter, Output.Graph.YAxis.Group, 
TestParameter, Output.Scalar.Data, Ohmic
TestParameter, AutoAnalysis.Interpolation, false
TestParameter, AutoAnalysis.Line1.Enabled, false
TestParameter, AutoAnalysis.Line1.Type, 1
TestParameter, AutoAnalysis.Line1.Fix, True
TestParameter, AutoAnalysis.Line1.YAxis, 0
TestParameter, AutoAnalysis.Line1.Point1.Type, 0
TestParameter, AutoAnalysis.Line1.Point1.XY.X, 
TestParameter, AutoAnalysis.Line1.Point1.XY.Y, 
TestParameter, AutoAnalysis.Line1.Point1.Data.Var, 
TestParameter, AutoAnalysis.Line1.Point1.Data.Condition, 
TestParameter, AutoAnalysis.Line1.Point1.Data.Start, false
TestParameter, AutoAnalysis.Line1.Point1.Data.StartVar, 
TestParameter, AutoAnalysis.Line1.Point1.Data.StartCondition, 
TestParameter, AutoAnalysis.Line1.Point2.Type, 0
TestParameter, AutoAnalysis.Line1.Point2.XY.X, 
TestParameter, AutoAnalysis.Line1.Point2.XY.Y, 
TestParameter, AutoAnalysis.Line1.Point2.Data.Var, 
TestParameter, AutoAnalysis.Line1.Point2.Data.Condition, 
TestParameter, AutoAnalysis.Line1.Point2.Data.Start, false
TestParameter, AutoAnalysis.Line1.Point2.Data.StartVar, 
TestParameter, AutoAnalysis.Line1.Point2.Data.StartCondition, 
TestParameter, AutoAnalysis.Line1.GradientExpr, 0
TestParameter, AutoAnalysis.Line2.Enabled, false
TestParameter, AutoAnalysis.Line2.Type, 1
TestParameter, AutoAnalysis.Line2.Fix, True
TestParameter, AutoAnalysis.Line2.YAxis, 0
TestParameter, AutoAnalysis.Line2.Point1.Type, 0
TestParameter, AutoAnalysis.Line2.Point1.XY.X, 
TestParameter, AutoAnalysis.Line2.Point1.XY.Y, 
TestParameter, AutoAnalysis.Line2.Point1.Data.Var, 
TestParameter, AutoAnalysis.Line2.Point1.Data.Condition, 
TestParameter, AutoAnalysis.Line2.Point1.Data.Start, false
TestParameter, AutoAnalysis.Line2.Point1.Data.StartVar, 
TestParameter, AutoAnalysis.Line2.Point1.Data.StartCondition, 
TestParameter, AutoAnalysis.Line2.Point2.Type, 0
TestParameter, AutoAnalysis.Line2.Point2.XY.X, 
TestParameter, AutoAnalysis.Line2.Point2.XY.Y, 
TestParameter, AutoAnalysis.Line2.Point2.Data.Var, 
TestParameter, AutoAnalysis.Line2.Point2.Data.Condition, 
TestParameter, AutoAnalysis.Line2.Point2.Data.Start, false
TestParameter, AutoAnalysis.Line2.Point2.Data.StartVar, 
TestParameter, AutoAnalysis.Line2.Point2.Data.StartCondition, 
TestParameter, AutoAnalysis.Line2.GradientExpr, 0
TestParameter, AutoAnalysis.Marker.Enabled, false
TestParameter, AutoAnalysis.Marker.Data.Var, 
TestParameter, AutoAnalysis.Marker.Data.Condition, 
TestParameter, AutoAnalysis.Marker.Data.Start, false
TestParameter, AutoAnalysis.Marker.Data.StartVar, 
TestParameter, AutoAnalysis.Marker.Data.StartCondition, 
MetaData, TestRecord.EntryPoint, true
MetaData, TestRecord.RecordTime, 09/05/2020 14:37:28
MetaData, TestRecord.TestTarget, 
MetaData, TestRecord.IterationIndex, 25
MetaData, TestRecord.Preservation, true
MetaData, TestRecord.Flag, 
MetaData, TestRecord.Remarks, 
MetaData, TestRecord.LinkKey, cfa68c19-8ced-4a10-842c-7ab0620962c5
Dimension1, 101, 101, 101
Dimension2, 1, 1, 1
DataName, V1, I1, Ohmic
DataValue, -5, -1.8614999999999998E-09, 1158649635.1455972
DataValue, -4.9, -1.9209E-09, 
DataValue, -4.8, -1.9390999999999996E-09, 
DataValue, -4.7, -1.7709999999999998E-09, 
DataValue, -4.6000000000000005, -1.8757999999999997E-09, 
DataValue, -4.5, -1.8797999999999997E-09, 
DataValue, -4.4, -1.7715999999999998E-09, 
DataValue, -4.3, -1.8510999999999997E-09, 
DataValue, -4.2, -1.8247E-09, 
DataValue, -4.1, -1.8132E-09, 
DataValue, -4, -1.6369999999999998E-09, 
DataValue, -3.9, -1.6017999999999998E-09, 
DataValue, -3.8000000000000003, -1.8473999999999998E-09, 
DataValue, -3.7, -1.9819E-09, 
DataValue, -3.6, -1.9113E-09, 
DataValue, -3.5, -1.4451E-09, 
DataValue, -3.4, -1.2743999999999999E-09, 
DataValue, -3.3000000000000003, -1.7715E-09, 
DataValue, -3.2, -1.6949999999999998E-09, 
DataValue, -3.1, -1.8208999999999998E-09, 
DataValue, -3, -1.4813999999999999E-09, 
DataValue, -2.9, -1.2802999999999998E-09, 
DataValue, -2.8000000000000003, -1.2607999999999998E-09, 
DataValue, -2.7, -1.2575999999999999E-09, 
DataValue, -2.6, -8.1649999999999992E-10, 
DataValue, -2.5, -7.924E-10, 
DataValue, -2.4, -8.6999999999999989E-10, 
DataValue, -2.3000000000000003, -7.8049999999999994E-10, 
DataValue, -2.2, -8.844E-10, 
DataValue, -2.1, -8.9339999999999993E-10, 
DataValue, -2, -8.3469999999999992E-10, 
DataValue, -1.9000000000000001, -7.212E-10, 
DataValue, -1.8, -7.1469999999999992E-10, 
DataValue, -1.7, -7.105999999999999E-10, 
DataValue, -1.6, -6.596999999999999E-10, 
DataValue, -1.5, -7.3749999999999988E-10, 
DataValue, -1.4000000000000001, -1.1263E-09, 
DataValue, -1.3, -1.1069E-09, 
DataValue, -1.2, -1.119E-09, 
DataValue, -1.1, -9.1729999999999992E-10, 
DataValue, -1, -8.7579999999999991E-10, 
DataValue, -0.9, -9.4189999999999982E-10, 
DataValue, -0.8, -8.561999999999999E-10, 
DataValue, -0.70000000000000007, -9.2839999999999992E-10, 
DataValue, -0.6, -8.6099999999999992E-10, 
DataValue, -0.5, -8.1759999999999995E-10, 
DataValue, -0.4, -1.1292999999999998E-09, 
DataValue, -0.3, -1.018E-09, 
DataValue, -0.2, -9.6499999999999987E-10, 
DataValue, -0.1, -9.2089999999999989E-10, 
DataValue, 0, -6.64E-10, 
DataValue, 0.1, -5.797E-10, 
DataValue, 0.2, -2.89E-10, 
DataValue, 0.3, -6.1199999999999993E-11, 
DataValue, 0.4, 3.724E-10, 
DataValue, 0.5, 5.9569999999999992E-10, 
DataValue, 0.6, 8.4739999999999989E-10, 
DataValue, 0.70000000000000007, 1.1307999999999999E-09, 
DataValue, 0.8, 1.4493E-09, 
DataValue, 0.9, 1.7157999999999998E-09, 
DataValue, 1, 2.0687999999999997E-09, 
DataValue, 1.1, 2.4291E-09, 
DataValue, 1.2, 2.6894E-09, 
DataValue, 1.3, 3.0092999999999995E-09, 
DataValue, 1.4000000000000001, 3.6868999999999997E-09, 
DataValue, 1.5, 3.7802E-09, 
DataValue, 1.6, 4.2639E-09, 
DataValue, 1.7, 4.2289E-09, 
DataValue, 1.8, 4.3736E-09, 
DataValue, 1.9000000000000001, 4.5002E-09, 
DataValue, 2, 4.6106999999999994E-09, 
DataValue, 2.1, 4.8303999999999994E-09, 
DataValue, 2.2, 4.9806999999999996E-09, 
DataValue, 2.3000000000000003, 5.1239E-09, 
DataValue, 2.4, 5.2891999999999995E-09, 
DataValue, 2.5, 5.5231999999999993E-09, 
DataValue, 2.6, 5.6063999999999992E-09, 
DataValue, 2.7, 5.6408999999999994E-09, 
DataValue, 2.8000000000000003, 5.6399999999999995E-09, 
DataValue, 2.9, 5.7017E-09, 
DataValue, 3, 5.7136E-09, 
DataValue, 3.1, 5.9707999999999993E-09, 
DataValue, 3.2, 5.8819999999999993E-09, 
DataValue, 3.3000000000000003, 5.9526999999999991E-09, 
DataValue, 3.4, 5.8728999999999994E-09, 
DataValue, 3.5, 6.0018E-09, 
DataValue, 3.6, 6.1258999999999993E-09, 
DataValue, 3.7, 6.1480999999999995E-09, 
DataValue, 3.8000000000000003, 6.2556E-09, 
DataValue, 3.9, 6.2880999999999994E-09, 
DataValue, 4, 6.3317999999999992E-09, 
DataValue, 4.1, 6.3546999999999992E-09, 
DataValue, 4.2, 6.4304E-09, 
DataValue, 4.3, 6.4097999999999991E-09, 
DataValue, 4.4, 6.543099999999999E-09, 
DataValue, 4.5, 6.6127E-09, 
DataValue, 4.6000000000000005, 6.7914999999999991E-09, 
DataValue, 4.7, 6.816E-09, 
DataValue, 4.8, 6.9497999999999993E-09, 
DataValue, 4.9, 6.9231999999999994E-09, 
DataValue, 5, 6.9721999999999996E-09, 