
SetupTitle, WW
PrimitiveTest, I/V Sweep
TestParameter, Context.MainFrame, B1500A
TestParameter, Channel.UnitType, SMU, SMU
TestParameter, Channel.Unit, SMU2:HP, SMU1:HP
TestParameter, Channel.IName, I1, I4
TestParameter, Channel.VName, V1, V4
TestParameter, Channel.Mode, V, COMMON
TestParameter, Channel.Func, VAR1, CONST
TestParameter, Channel.Index, 
TestParameter, Channel.Time, 
TestParameter, Measurement.Port.Unit, SMU2:HP, SMU1:HP
TestParameter, Measurement.Port.SeriesResistor, NONE, NONE
TestParameter, Measurement.Port.Filter, ON, ON
TestParameter, Measurement.Port.OutputVoltageComparison, 0, 0
TestParameter, Measurement.Primary.Locus, Single
TestParameter, Measurement.Primary.Scale, LINEAR
TestParameter, Measurement.Primary.Start, -5
TestParameter, Measurement.Primary.Stop, 5
TestParameter, Measurement.Primary.Step, 0.1
TestParameter, Measurement.Primary.Compliance, 0.1
TestParameter, Measurement.Primary.PowerCompliance, 0
TestParameter, Measurement.Aborting.Condition, CONTINUE AT ANY
TestParameter, Measurement.PostOutput.Value, START
TestParameter, Measurement.PostOutput.Retention, OFF
TestParameter, Measurement.Bias.Source, -5, 0
TestParameter, Measurement.Bias.Compliance, 0.1, 1
TestParameter, Measurement.Monitor.Unit, SMU2:HP, SMU1:HP
TestParameter, Measurement.Monitor.Adc, HR ADC, HR ADC
TestParameter, Measurement.Monitor.Measurement, Compliance Side, Compliance Side
TestParameter, Measurement.Monitor.RangingMode, AUTO, AUTO
TestParameter, Measurement.Monitor.RangeBoundary, , 
TestParameter, Measurement.Monitor.RangeRating, BY FULL RANGE, BY FULL RANGE
TestParameter, Measurement.Monitor.RangeRatingCoeff, 50, 50
TestParameter, Measurement.Timing.Hold, 0
TestParameter, Measurement.Timing.Delay, 0.001
TestParameter, Measurement.Adc.HighSpeed.Mode, AUTO
TestParameter, Measurement.Adc.HighSpeed.Coeff, 1
TestParameter, Measurement.Adc.HighResolution.AutoZero, OFF
TestParameter, Measurement.Adc.HighResolution.Mode, PLC
TestParameter, Measurement.Adc.HighResolution.Coeff, 1
TestParameter, Measurement.WaitTime.Source.Coeff, 1
TestParameter, Measurement.WaitTime.Source.Offset, 0
TestParameter, Measurement.WaitTime.Monitor.Coeff, 1
TestParameter, Measurement.WaitTime.Monitor.Offset, 0
TestParameter, Function.User.Name, Ohmic
TestParameter, Function.User.Unit, ohm
TestParameter, Function.User.Definition, avg(V1/I1)
TestParameter, Output.Graph.Enabled, true
TestParameter, Output.Graph.XAxis.Data, V1
TestParameter, Output.Graph.XAxis.Scale, Linear
TestParameter, Output.Graph.XAxis.Left, -5
TestParameter, Output.Graph.XAxis.Right, 5
TestParameter, Output.Graph.YAxis.Data, I1
TestParameter, Output.Graph.YAxis.Scale, Linear
TestParameter, Output.Graph.YAxis.Bottom, -0.001
TestParameter, Output.Graph.YAxis.Top, 0.001
TestParameter, Output.Graph.YAxis.Group, 
TestParameter, Output.Scalar.Data, Ohmic
TestParameter, AutoAnalysis.Interpolation, false
TestParameter, AutoAnalysis.Line1.Enabled, false
TestParameter, AutoAnalysis.Line1.Type, 1
TestParameter, AutoAnalysis.Line1.Fix, True
TestParameter, AutoAnalysis.Line1.YAxis, 0
TestParameter, AutoAnalysis.Line1.Point1.Type, 0
TestParameter, AutoAnalysis.Line1.Point1.XY.X, 
TestParameter, AutoAnalysis.Line1.Point1.XY.Y, 
TestParameter, AutoAnalysis.Line1.Point1.Data.Var, 
TestParameter, AutoAnalysis.Line1.Point1.Data.Condition, 
TestParameter, AutoAnalysis.Line1.Point1.Data.Start, false
TestParameter, AutoAnalysis.Line1.Point1.Data.StartVar, 
TestParameter, AutoAnalysis.Line1.Point1.Data.StartCondition, 
TestParameter, AutoAnalysis.Line1.Point2.Type, 0
TestParameter, AutoAnalysis.Line1.Point2.XY.X, 
TestParameter, AutoAnalysis.Line1.Point2.XY.Y, 
TestParameter, AutoAnalysis.Line1.Point2.Data.Var, 
TestParameter, AutoAnalysis.Line1.Point2.Data.Condition, 
TestParameter, AutoAnalysis.Line1.Point2.Data.Start, false
TestParameter, AutoAnalysis.Line1.Point2.Data.StartVar, 
TestParameter, AutoAnalysis.Line1.Point2.Data.StartCondition, 
TestParameter, AutoAnalysis.Line1.GradientExpr, 0
TestParameter, AutoAnalysis.Line2.Enabled, false
TestParameter, AutoAnalysis.Line2.Type, 1
TestParameter, AutoAnalysis.Line2.Fix, True
TestParameter, AutoAnalysis.Line2.YAxis, 0
TestParameter, AutoAnalysis.Line2.Point1.Type, 0
TestParameter, AutoAnalysis.Line2.Point1.XY.X, 
TestParameter, AutoAnalysis.Line2.Point1.XY.Y, 
TestParameter, AutoAnalysis.Line2.Point1.Data.Var, 
TestParameter, AutoAnalysis.Line2.Point1.Data.Condition, 
TestParameter, AutoAnalysis.Line2.Point1.Data.Start, false
TestParameter, AutoAnalysis.Line2.Point1.Data.StartVar, 
TestParameter, AutoAnalysis.Line2.Point1.Data.StartCondition, 
TestParameter, AutoAnalysis.Line2.Point2.Type, 0
TestParameter, AutoAnalysis.Line2.Point2.XY.X, 
TestParameter, AutoAnalysis.Line2.Point2.XY.Y, 
TestParameter, AutoAnalysis.Line2.Point2.Data.Var, 
TestParameter, AutoAnalysis.Line2.Point2.Data.Condition, 
TestParameter, AutoAnalysis.Line2.Point2.Data.Start, false
TestParameter, AutoAnalysis.Line2.Point2.Data.StartVar, 
TestParameter, AutoAnalysis.Line2.Point2.Data.StartCondition, 
TestParameter, AutoAnalysis.Line2.GradientExpr, 0
TestParameter, AutoAnalysis.Marker.Enabled, false
TestParameter, AutoAnalysis.Marker.Data.Var, 
TestParameter, AutoAnalysis.Marker.Data.Condition, 
TestParameter, AutoAnalysis.Marker.Data.Start, false
TestParameter, AutoAnalysis.Marker.Data.StartVar, 
TestParameter, AutoAnalysis.Marker.Data.StartCondition, 
MetaData, TestRecord.EntryPoint, true
MetaData, TestRecord.RecordTime, 09/05/2020 14:36:56
MetaData, TestRecord.TestTarget, 
MetaData, TestRecord.IterationIndex, 24
MetaData, TestRecord.Preservation, true
MetaData, TestRecord.Flag, 
MetaData, TestRecord.Remarks, 
MetaData, TestRecord.LinkKey, 7a96e9bb-f7ba-451b-a47a-4f12ce89d618
Dimension1, 101, 101, 101
Dimension2, 1, 1, 1
DataName, V1, I1, Ohmic
DataValue, -5, -2.9396999999999997E-09, 1179554644.8468711
DataValue, -4.9, -2.0095999999999998E-09, 
DataValue, -4.8, -1.9866999999999998E-09, 
DataValue, -4.7, -1.8705999999999997E-09, 
DataValue, -4.6000000000000005, -1.9209E-09, 
DataValue, -4.5, -1.7544999999999999E-09, 
DataValue, -4.4, -1.7256E-09, 
DataValue, -4.3, -1.2391999999999998E-09, 
DataValue, -4.2, -1.1561E-09, 
DataValue, -4.1, -1.0761999999999999E-09, 
DataValue, -4, -1.1085999999999999E-09, 
DataValue, -3.9, -1.1143E-09, 
DataValue, -3.8000000000000003, -1.1143999999999998E-09, 
DataValue, -3.7, -1.1735E-09, 
DataValue, -3.6, -1.4473999999999998E-09, 
DataValue, -3.5, -1.6025999999999998E-09, 
DataValue, -3.4, -1.5167E-09, 
DataValue, -3.3000000000000003, -1.5841E-09, 
DataValue, -3.2, -1.6043999999999998E-09, 
DataValue, -3.1, -1.5005999999999998E-09, 
DataValue, -3, -1.4951E-09, 
DataValue, -2.9, -1.4301999999999999E-09, 
DataValue, -2.8000000000000003, -1.3897999999999999E-09, 
DataValue, -2.7, -1.4185999999999998E-09, 
DataValue, -2.6, -1.4568999999999998E-09, 
DataValue, -2.5, -1.3634999999999999E-09, 
DataValue, -2.4, -1.3923999999999999E-09, 
DataValue, -2.3000000000000003, -1.4148E-09, 
DataValue, -2.2, -1.3966E-09, 
DataValue, -2.1, -1.2593999999999998E-09, 
DataValue, -2, -1.3417999999999999E-09, 
DataValue, -1.9000000000000001, -1.2921E-09, 
DataValue, -1.8, -1.2979999999999999E-09, 
DataValue, -1.7, -1.2423E-09, 
DataValue, -1.6, -1.1745999999999999E-09, 
DataValue, -1.5, -1.2295E-09, 
DataValue, -1.4000000000000001, -1.1687E-09, 
DataValue, -1.3, -1.2103999999999999E-09, 
DataValue, -1.2, -1.1339E-09, 
DataValue, -1.1, -1.1865E-09, 
DataValue, -1, -1.206E-09, 
DataValue, -0.9, -1.2854E-09, 
DataValue, -0.8, -1.2127999999999998E-09, 
DataValue, -0.70000000000000007, -1.2321E-09, 
DataValue, -0.6, -1.1231E-09, 
DataValue, -0.5, -1.0618E-09, 
DataValue, -0.4, -1.0983999999999999E-09, 
DataValue, -0.3, -9.881E-10, 
DataValue, -0.2, -8.8319999999999991E-10, 
DataValue, -0.1, -7.8149999999999994E-10, 
DataValue, 0, -6.138E-10, 
DataValue, 0.1, -5.261999999999999E-10, 
DataValue, 0.2, -2.2399999999999998E-10, 
DataValue, 0.3, 1.5559999999999999E-10, 
DataValue, 0.4, 2.632E-10, 
DataValue, 0.5, 4.7939999999999992E-10, 
DataValue, 0.6, 8.0709999999999993E-10, 
DataValue, 0.70000000000000007, 1.0766999999999998E-09, 
DataValue, 0.8, 1.3688999999999999E-09, 
DataValue, 0.9, 1.6421E-09, 
DataValue, 1, 1.9811999999999997E-09, 
DataValue, 1.1, 2.2476E-09, 
DataValue, 1.2, 2.4792E-09, 
DataValue, 1.3, 2.8489999999999996E-09, 
DataValue, 1.4000000000000001, 3.1238999999999995E-09, 
DataValue, 1.5, 3.3138E-09, 
DataValue, 1.6, 3.5701999999999995E-09, 
DataValue, 1.7, 3.7904E-09, 
DataValue, 1.8, 4.0137999999999995E-09, 
DataValue, 1.9000000000000001, 4.2823999999999992E-09, 
DataValue, 2, 4.6013E-09, 
DataValue, 2.1, 4.9563999999999991E-09, 
DataValue, 2.2, 5.1777999999999992E-09, 
DataValue, 2.3000000000000003, 5.3055999999999995E-09, 
DataValue, 2.4, 5.3961E-09, 
DataValue, 2.5, 5.5209E-09, 
DataValue, 2.6, 5.6110999999999994E-09, 
DataValue, 2.7, 5.5626999999999994E-09, 
DataValue, 2.8000000000000003, 5.6156999999999991E-09, 
DataValue, 2.9, 5.6612999999999991E-09, 
DataValue, 3, 5.7374999999999993E-09, 
DataValue, 3.1, 5.7747999999999995E-09, 
DataValue, 3.2, 5.8687999999999994E-09, 
DataValue, 3.3000000000000003, 5.8395999999999996E-09, 
DataValue, 3.4, 5.841899999999999E-09, 
DataValue, 3.5, 5.8815E-09, 
DataValue, 3.6, 5.9344999999999993E-09, 
DataValue, 3.7, 5.9698E-09, 
DataValue, 3.8000000000000003, 5.9897999999999993E-09, 
DataValue, 3.9, 5.7193999999999991E-09, 
DataValue, 4, 5.7231E-09, 
DataValue, 4.1, 5.7542999999999995E-09, 
DataValue, 4.2, 5.7534999999999992E-09, 
DataValue, 4.3, 5.8274999999999996E-09, 
DataValue, 4.4, 5.7927999999999993E-09, 
DataValue, 4.5, 5.8532E-09, 
DataValue, 4.6000000000000005, 5.9601999999999993E-09, 
DataValue, 4.7, 5.9679999999999992E-09, 
DataValue, 4.8, 5.9755999999999991E-09, 
DataValue, 4.9, 6.0882999999999993E-09, 
DataValue, 5, 6.1085E-09, 