
SetupTitle, WW
PrimitiveTest, I/V Sweep
TestParameter, Context.MainFrame, B1500A
TestParameter, Channel.UnitType, SMU, SMU
TestParameter, Channel.Unit, SMU2:HP, SMU1:HP
TestParameter, Channel.IName, I1, I4
TestParameter, Channel.VName, V1, V4
TestParameter, Channel.Mode, V, COMMON
TestParameter, Channel.Func, VAR1, CONST
TestParameter, Channel.Index, 
TestParameter, Channel.Time, 
TestParameter, Measurement.Port.Unit, SMU2:HP, SMU1:HP
TestParameter, Measurement.Port.SeriesResistor, NONE, NONE
TestParameter, Measurement.Port.Filter, ON, ON
TestParameter, Measurement.Port.OutputVoltageComparison, 0, 0
TestParameter, Measurement.Primary.Locus, Single
TestParameter, Measurement.Primary.Scale, LINEAR
TestParameter, Measurement.Primary.Start, -5
TestParameter, Measurement.Primary.Stop, 5
TestParameter, Measurement.Primary.Step, 0.1
TestParameter, Measurement.Primary.Compliance, 0.1
TestParameter, Measurement.Primary.PowerCompliance, 0
TestParameter, Measurement.Aborting.Condition, CONTINUE AT ANY
TestParameter, Measurement.PostOutput.Value, START
TestParameter, Measurement.PostOutput.Retention, OFF
TestParameter, Measurement.Bias.Source, -5, 0
TestParameter, Measurement.Bias.Compliance, 0.1, 1
TestParameter, Measurement.Monitor.Unit, SMU2:HP, SMU1:HP
TestParameter, Measurement.Monitor.Adc, HR ADC, HR ADC
TestParameter, Measurement.Monitor.Measurement, Compliance Side, Compliance Side
TestParameter, Measurement.Monitor.RangingMode, AUTO, AUTO
TestParameter, Measurement.Monitor.RangeBoundary, , 
TestParameter, Measurement.Monitor.RangeRating, BY FULL RANGE, BY FULL RANGE
TestParameter, Measurement.Monitor.RangeRatingCoeff, 50, 50
TestParameter, Measurement.Timing.Hold, 0
TestParameter, Measurement.Timing.Delay, 0.001
TestParameter, Measurement.Adc.HighSpeed.Mode, AUTO
TestParameter, Measurement.Adc.HighSpeed.Coeff, 1
TestParameter, Measurement.Adc.HighResolution.AutoZero, OFF
TestParameter, Measurement.Adc.HighResolution.Mode, PLC
TestParameter, Measurement.Adc.HighResolution.Coeff, 1
TestParameter, Measurement.WaitTime.Source.Coeff, 1
TestParameter, Measurement.WaitTime.Source.Offset, 0
TestParameter, Measurement.WaitTime.Monitor.Coeff, 1
TestParameter, Measurement.WaitTime.Monitor.Offset, 0
TestParameter, Function.User.Name, Ohmic
TestParameter, Function.User.Unit, ohm
TestParameter, Function.User.Definition, avg(V1/I1)
TestParameter, Output.Graph.Enabled, true
TestParameter, Output.Graph.XAxis.Data, V1
TestParameter, Output.Graph.XAxis.Scale, Linear
TestParameter, Output.Graph.XAxis.Left, -5
TestParameter, Output.Graph.XAxis.Right, 5
TestParameter, Output.Graph.YAxis.Data, I1
TestParameter, Output.Graph.YAxis.Scale, Linear
TestParameter, Output.Graph.YAxis.Bottom, -0.001
TestParameter, Output.Graph.YAxis.Top, 0.001
TestParameter, Output.Graph.YAxis.Group, 
TestParameter, Output.Scalar.Data, Ohmic
TestParameter, AutoAnalysis.Interpolation, false
TestParameter, AutoAnalysis.Line1.Enabled, false
TestParameter, AutoAnalysis.Line1.Type, 1
TestParameter, AutoAnalysis.Line1.Fix, True
TestParameter, AutoAnalysis.Line1.YAxis, 0
TestParameter, AutoAnalysis.Line1.Point1.Type, 0
TestParameter, AutoAnalysis.Line1.Point1.XY.X, 
TestParameter, AutoAnalysis.Line1.Point1.XY.Y, 
TestParameter, AutoAnalysis.Line1.Point1.Data.Var, 
TestParameter, AutoAnalysis.Line1.Point1.Data.Condition, 
TestParameter, AutoAnalysis.Line1.Point1.Data.Start, false
TestParameter, AutoAnalysis.Line1.Point1.Data.StartVar, 
TestParameter, AutoAnalysis.Line1.Point1.Data.StartCondition, 
TestParameter, AutoAnalysis.Line1.Point2.Type, 0
TestParameter, AutoAnalysis.Line1.Point2.XY.X, 
TestParameter, AutoAnalysis.Line1.Point2.XY.Y, 
TestParameter, AutoAnalysis.Line1.Point2.Data.Var, 
TestParameter, AutoAnalysis.Line1.Point2.Data.Condition, 
TestParameter, AutoAnalysis.Line1.Point2.Data.Start, false
TestParameter, AutoAnalysis.Line1.Point2.Data.StartVar, 
TestParameter, AutoAnalysis.Line1.Point2.Data.StartCondition, 
TestParameter, AutoAnalysis.Line1.GradientExpr, 0
TestParameter, AutoAnalysis.Line2.Enabled, false
TestParameter, AutoAnalysis.Line2.Type, 1
TestParameter, AutoAnalysis.Line2.Fix, True
TestParameter, AutoAnalysis.Line2.YAxis, 0
TestParameter, AutoAnalysis.Line2.Point1.Type, 0
TestParameter, AutoAnalysis.Line2.Point1.XY.X, 
TestParameter, AutoAnalysis.Line2.Point1.XY.Y, 
TestParameter, AutoAnalysis.Line2.Point1.Data.Var, 
TestParameter, AutoAnalysis.Line2.Point1.Data.Condition, 
TestParameter, AutoAnalysis.Line2.Point1.Data.Start, false
TestParameter, AutoAnalysis.Line2.Point1.Data.StartVar, 
TestParameter, AutoAnalysis.Line2.Point1.Data.StartCondition, 
TestParameter, AutoAnalysis.Line2.Point2.Type, 0
TestParameter, AutoAnalysis.Line2.Point2.XY.X, 
TestParameter, AutoAnalysis.Line2.Point2.XY.Y, 
TestParameter, AutoAnalysis.Line2.Point2.Data.Var, 
TestParameter, AutoAnalysis.Line2.Point2.Data.Condition, 
TestParameter, AutoAnalysis.Line2.Point2.Data.Start, false
TestParameter, AutoAnalysis.Line2.Point2.Data.StartVar, 
TestParameter, AutoAnalysis.Line2.Point2.Data.StartCondition, 
TestParameter, AutoAnalysis.Line2.GradientExpr, 0
TestParameter, AutoAnalysis.Marker.Enabled, false
TestParameter, AutoAnalysis.Marker.Data.Var, 
TestParameter, AutoAnalysis.Marker.Data.Condition, 
TestParameter, AutoAnalysis.Marker.Data.Start, false
TestParameter, AutoAnalysis.Marker.Data.StartVar, 
TestParameter, AutoAnalysis.Marker.Data.StartCondition, 
MetaData, TestRecord.EntryPoint, true
MetaData, TestRecord.RecordTime, 09/05/2020 14:34:51
MetaData, TestRecord.TestTarget, 
MetaData, TestRecord.IterationIndex, 20
MetaData, TestRecord.Preservation, true
MetaData, TestRecord.Flag, 
MetaData, TestRecord.Remarks, 
MetaData, TestRecord.LinkKey, 433c386e-41f7-42f2-8a33-26daa52f4639
Dimension1, 101, 101, 101
Dimension2, 1, 1, 1
DataName, V1, I1, Ohmic
DataValue, -5, -1.4452E-09, 1686421616.9058106
DataValue, -4.9, -1.4200999999999999E-09, 
DataValue, -4.8, -1.3771E-09, 
DataValue, -4.7, -1.3618999999999998E-09, 
DataValue, -4.6000000000000005, -1.3262999999999999E-09, 
DataValue, -4.5, -1.2871999999999999E-09, 
DataValue, -4.4, -1.2343E-09, 
DataValue, -4.3, -1.2418999999999998E-09, 
DataValue, -4.2, -1.2309999999999998E-09, 
DataValue, -4.1, -1.1977E-09, 
DataValue, -4, -1.2107E-09, 
DataValue, -3.9, -1.1714E-09, 
DataValue, -3.8000000000000003, -1.1546E-09, 
DataValue, -3.7, -1.1389999999999999E-09, 
DataValue, -3.6, -1.1379999999999998E-09, 
DataValue, -3.5, -1.1058999999999999E-09, 
DataValue, -3.4, -1.0792E-09, 
DataValue, -3.3000000000000003, -1.0476E-09, 
DataValue, -3.2, -1.0543E-09, 
DataValue, -3.1, -1.0252E-09, 
DataValue, -3, -9.6619999999999983E-10, 
DataValue, -2.9, -1.0158E-09, 
DataValue, -2.8000000000000003, -9.8309999999999984E-10, 
DataValue, -2.7, -9.645E-10, 
DataValue, -2.6, -9.2849999999999995E-10, 
DataValue, -2.5, -9.4119999999999981E-10, 
DataValue, -2.4, -8.9169999999999993E-10, 
DataValue, -2.3000000000000003, -9.323E-10, 
DataValue, -2.2, -9.314E-10, 
DataValue, -2.1, -8.645E-10, 
DataValue, -2, -8.507E-10, 
DataValue, -1.9000000000000001, -8.7229999999999987E-10, 
DataValue, -1.8, -8.2159999999999993E-10, 
DataValue, -1.7, -7.6859999999999991E-10, 
DataValue, -1.6, -8.2409999999999987E-10, 
DataValue, -1.5, -8.2589999999999991E-10, 
DataValue, -1.4000000000000001, -7.9679999999999987E-10, 
DataValue, -1.3, -8.4969999999999987E-10, 
DataValue, -1.2, -7.4599999999999991E-10, 
DataValue, -1.1, -7.435E-10, 
DataValue, -1, -7.6769999999999994E-10, 
DataValue, -0.9, -7.5789999999999994E-10, 
DataValue, -0.8, -7.415999999999999E-10, 
DataValue, -0.70000000000000007, -7.4939999999999991E-10, 
DataValue, -0.6, -6.788999999999999E-10, 
DataValue, -0.5, -6.714E-10, 
DataValue, -0.4, -6.535E-10, 
DataValue, -0.3, -6.124E-10, 
DataValue, -0.2, -5.8999999999999993E-10, 
DataValue, -0.1, -5.123E-10, 
DataValue, 0, -3.8409999999999995E-10, 
DataValue, 0.1, -2.666E-10, 
DataValue, 0.2, -2.0439999999999999E-10, 
DataValue, 0.3, -5.0999999999999992E-11, 
DataValue, 0.4, 8.8499999999999992E-11, 
DataValue, 0.5, 3.1469999999999996E-10, 
DataValue, 0.6, 4.0659999999999997E-10, 
DataValue, 0.70000000000000007, 5.922E-10, 
DataValue, 0.8, 7.860999999999999E-10, 
DataValue, 0.9, 9.9319999999999984E-10, 
DataValue, 1, 1.1359E-09, 
DataValue, 1.1, 1.3259E-09, 
DataValue, 1.2, 1.4284E-09, 
DataValue, 1.3, 1.6615E-09, 
DataValue, 1.4000000000000001, 1.7212999999999998E-09, 
DataValue, 1.5, 1.8697E-09, 
DataValue, 1.6, 2.0477E-09, 
DataValue, 1.7, 2.10818E-09, 
DataValue, 1.8, 2.18211E-09, 
DataValue, 1.9000000000000001, 2.28433E-09, 
DataValue, 2, 2.36006E-09, 
DataValue, 2.1, 2.37593E-09, 
DataValue, 2.2, 2.48358E-09, 
DataValue, 2.3000000000000003, 2.46627E-09, 
DataValue, 2.4, 2.52081E-09, 
DataValue, 2.5, 2.58344E-09, 
DataValue, 2.6, 2.63092E-09, 
DataValue, 2.7, 2.64502E-09, 
DataValue, 2.8000000000000003, 2.65369E-09, 
DataValue, 2.9, 2.69755E-09, 
DataValue, 3, 2.73122E-09, 
DataValue, 3.1, 2.75507E-09, 
DataValue, 3.2, 2.77516E-09, 
DataValue, 3.3000000000000003, 2.78992E-09, 
DataValue, 3.4, 2.79817E-09, 
DataValue, 3.5, 2.77862E-09, 
DataValue, 3.6, 2.84107E-09, 
DataValue, 3.7, 2.84583E-09, 
DataValue, 3.8000000000000003, 2.86672E-09, 
DataValue, 3.9, 2.90062E-09, 
DataValue, 4, 2.86284E-09, 
DataValue, 4.1, 2.93596E-09, 
DataValue, 4.2, 2.94132E-09, 
DataValue, 4.3, 2.99465E-09, 
DataValue, 4.4, 2.95831E-09, 
DataValue, 4.5, 2.97384E-09, 
DataValue, 4.6000000000000005, 2.97509E-09, 
DataValue, 4.7, 3.08724E-09, 
DataValue, 4.8, 3.11369E-09, 
DataValue, 4.9, 3.10878E-09, 
DataValue, 5, 3.16944E-09, 