
SetupTitle, WW
PrimitiveTest, I/V Sweep
TestParameter, Context.MainFrame, B1500A
TestParameter, Channel.UnitType, SMU, SMU
TestParameter, Channel.Unit, SMU2:HP, SMU1:HP
TestParameter, Channel.IName, I1, I4
TestParameter, Channel.VName, V1, V4
TestParameter, Channel.Mode, V, COMMON
TestParameter, Channel.Func, VAR1, CONST
TestParameter, Channel.Index, 
TestParameter, Channel.Time, 
TestParameter, Measurement.Port.Unit, SMU2:HP, SMU1:HP
TestParameter, Measurement.Port.SeriesResistor, NONE, NONE
TestParameter, Measurement.Port.Filter, ON, ON
TestParameter, Measurement.Port.OutputVoltageComparison, 0, 0
TestParameter, Measurement.Primary.Locus, Single
TestParameter, Measurement.Primary.Scale, LINEAR
TestParameter, Measurement.Primary.Start, -5
TestParameter, Measurement.Primary.Stop, 5
TestParameter, Measurement.Primary.Step, 0.1
TestParameter, Measurement.Primary.Compliance, 0.1
TestParameter, Measurement.Primary.PowerCompliance, 0
TestParameter, Measurement.Aborting.Condition, CONTINUE AT ANY
TestParameter, Measurement.PostOutput.Value, START
TestParameter, Measurement.PostOutput.Retention, OFF
TestParameter, Measurement.Bias.Source, -5, 0
TestParameter, Measurement.Bias.Compliance, 0.1, 1
TestParameter, Measurement.Monitor.Unit, SMU2:HP, SMU1:HP
TestParameter, Measurement.Monitor.Adc, HR ADC, HR ADC
TestParameter, Measurement.Monitor.Measurement, Compliance Side, Compliance Side
TestParameter, Measurement.Monitor.RangingMode, AUTO, AUTO
TestParameter, Measurement.Monitor.RangeBoundary, , 
TestParameter, Measurement.Monitor.RangeRating, BY FULL RANGE, BY FULL RANGE
TestParameter, Measurement.Monitor.RangeRatingCoeff, 50, 50
TestParameter, Measurement.Timing.Hold, 0
TestParameter, Measurement.Timing.Delay, 0.001
TestParameter, Measurement.Adc.HighSpeed.Mode, AUTO
TestParameter, Measurement.Adc.HighSpeed.Coeff, 1
TestParameter, Measurement.Adc.HighResolution.AutoZero, OFF
TestParameter, Measurement.Adc.HighResolution.Mode, PLC
TestParameter, Measurement.Adc.HighResolution.Coeff, 1
TestParameter, Measurement.WaitTime.Source.Coeff, 1
TestParameter, Measurement.WaitTime.Source.Offset, 0
TestParameter, Measurement.WaitTime.Monitor.Coeff, 1
TestParameter, Measurement.WaitTime.Monitor.Offset, 0
TestParameter, Function.User.Name, Ohmic
TestParameter, Function.User.Unit, ohm
TestParameter, Function.User.Definition, avg(V1/I1)
TestParameter, Output.Graph.Enabled, true
TestParameter, Output.Graph.XAxis.Data, V1
TestParameter, Output.Graph.XAxis.Scale, Linear
TestParameter, Output.Graph.XAxis.Left, -5
TestParameter, Output.Graph.XAxis.Right, 5
TestParameter, Output.Graph.YAxis.Data, I1
TestParameter, Output.Graph.YAxis.Scale, Linear
TestParameter, Output.Graph.YAxis.Bottom, -0.001
TestParameter, Output.Graph.YAxis.Top, 0.001
TestParameter, Output.Graph.YAxis.Group, 
TestParameter, Output.Scalar.Data, Ohmic
TestParameter, AutoAnalysis.Interpolation, false
TestParameter, AutoAnalysis.Line1.Enabled, false
TestParameter, AutoAnalysis.Line1.Type, 1
TestParameter, AutoAnalysis.Line1.Fix, True
TestParameter, AutoAnalysis.Line1.YAxis, 0
TestParameter, AutoAnalysis.Line1.Point1.Type, 0
TestParameter, AutoAnalysis.Line1.Point1.XY.X, 
TestParameter, AutoAnalysis.Line1.Point1.XY.Y, 
TestParameter, AutoAnalysis.Line1.Point1.Data.Var, 
TestParameter, AutoAnalysis.Line1.Point1.Data.Condition, 
TestParameter, AutoAnalysis.Line1.Point1.Data.Start, false
TestParameter, AutoAnalysis.Line1.Point1.Data.StartVar, 
TestParameter, AutoAnalysis.Line1.Point1.Data.StartCondition, 
TestParameter, AutoAnalysis.Line1.Point2.Type, 0
TestParameter, AutoAnalysis.Line1.Point2.XY.X, 
TestParameter, AutoAnalysis.Line1.Point2.XY.Y, 
TestParameter, AutoAnalysis.Line1.Point2.Data.Var, 
TestParameter, AutoAnalysis.Line1.Point2.Data.Condition, 
TestParameter, AutoAnalysis.Line1.Point2.Data.Start, false
TestParameter, AutoAnalysis.Line1.Point2.Data.StartVar, 
TestParameter, AutoAnalysis.Line1.Point2.Data.StartCondition, 
TestParameter, AutoAnalysis.Line1.GradientExpr, 0
TestParameter, AutoAnalysis.Line2.Enabled, false
TestParameter, AutoAnalysis.Line2.Type, 1
TestParameter, AutoAnalysis.Line2.Fix, True
TestParameter, AutoAnalysis.Line2.YAxis, 0
TestParameter, AutoAnalysis.Line2.Point1.Type, 0
TestParameter, AutoAnalysis.Line2.Point1.XY.X, 
TestParameter, AutoAnalysis.Line2.Point1.XY.Y, 
TestParameter, AutoAnalysis.Line2.Point1.Data.Var, 
TestParameter, AutoAnalysis.Line2.Point1.Data.Condition, 
TestParameter, AutoAnalysis.Line2.Point1.Data.Start, false
TestParameter, AutoAnalysis.Line2.Point1.Data.StartVar, 
TestParameter, AutoAnalysis.Line2.Point1.Data.StartCondition, 
TestParameter, AutoAnalysis.Line2.Point2.Type, 0
TestParameter, AutoAnalysis.Line2.Point2.XY.X, 
TestParameter, AutoAnalysis.Line2.Point2.XY.Y, 
TestParameter, AutoAnalysis.Line2.Point2.Data.Var, 
TestParameter, AutoAnalysis.Line2.Point2.Data.Condition, 
TestParameter, AutoAnalysis.Line2.Point2.Data.Start, false
TestParameter, AutoAnalysis.Line2.Point2.Data.StartVar, 
TestParameter, AutoAnalysis.Line2.Point2.Data.StartCondition, 
TestParameter, AutoAnalysis.Line2.GradientExpr, 0
TestParameter, AutoAnalysis.Marker.Enabled, false
TestParameter, AutoAnalysis.Marker.Data.Var, 
TestParameter, AutoAnalysis.Marker.Data.Condition, 
TestParameter, AutoAnalysis.Marker.Data.Start, false
TestParameter, AutoAnalysis.Marker.Data.StartVar, 
TestParameter, AutoAnalysis.Marker.Data.StartCondition, 
MetaData, TestRecord.EntryPoint, true
MetaData, TestRecord.RecordTime, 09/05/2020 14:32:07
MetaData, TestRecord.TestTarget, 
MetaData, TestRecord.IterationIndex, 15
MetaData, TestRecord.Preservation, true
MetaData, TestRecord.Flag, 
MetaData, TestRecord.Remarks, 
MetaData, TestRecord.LinkKey, a95338b5-b113-484a-aff1-763f33a4db5f
Dimension1, 101, 101, 101
Dimension2, 1, 1, 1
DataName, V1, I1, Ohmic
DataValue, -5, -8.1949999999999991E-10, 2832865418.1039453
DataValue, -4.9, -7.3289999999999992E-10, 
DataValue, -4.8, -6.923E-10, 
DataValue, -4.7, -6.9519999999999994E-10, 
DataValue, -4.6000000000000005, -6.875E-10, 
DataValue, -4.5, -6.609E-10, 
DataValue, -4.4, -6.1829999999999992E-10, 
DataValue, -4.3, -6.0819999999999993E-10, 
DataValue, -4.2, -6.1399999999999995E-10, 
DataValue, -4.1, -6.192E-10, 
DataValue, -4, -6.229E-10, 
DataValue, -3.9, -6.2639999999999993E-10, 
DataValue, -3.8000000000000003, -6.151999999999999E-10, 
DataValue, -3.7, -6.329E-10, 
DataValue, -3.6, -6.1659999999999992E-10, 
DataValue, -3.5, -6.542999999999999E-10, 
DataValue, -3.4, -6.194E-10, 
DataValue, -3.3000000000000003, -5.507999999999999E-10, 
DataValue, -3.2, -5.905E-10, 
DataValue, -3.1, -5.659E-10, 
DataValue, -3, -5.9369999999999992E-10, 
DataValue, -2.9, -6.326E-10, 
DataValue, -2.8000000000000003, -5.423E-10, 
DataValue, -2.7, -5.6329999999999991E-10, 
DataValue, -2.6, -5.517E-10, 
DataValue, -2.5, -5.018E-10, 
DataValue, -2.4, -5.487E-10, 
DataValue, -2.3000000000000003, -5.21E-10, 
DataValue, -2.2, -5.1989999999999993E-10, 
DataValue, -2.1, -4.837E-10, 
DataValue, -2, -5.11E-10, 
DataValue, -1.9000000000000001, -5.342999999999999E-10, 
DataValue, -1.8, -5.170999999999999E-10, 
DataValue, -1.7, -4.934E-10, 
DataValue, -1.6, -4.7779999999999994E-10, 
DataValue, -1.5, -5.228E-10, 
DataValue, -1.4000000000000001, -4.749E-10, 
DataValue, -1.3, -5.2E-10, 
DataValue, -1.2, -4.667E-10, 
DataValue, -1.1, -5.112E-10, 
DataValue, -1, -5.0329999999999991E-10, 
DataValue, -0.9, -4.0109999999999994E-10, 
DataValue, -0.8, -4.0129999999999995E-10, 
DataValue, -0.70000000000000007, -4.3589999999999996E-10, 
DataValue, -0.6, -4.4439999999999993E-10, 
DataValue, -0.5, -4.3889999999999995E-10, 
DataValue, -0.4, -4.169E-10, 
DataValue, -0.3, -4.228E-10, 
DataValue, -0.2, -3.566E-10, 
DataValue, -0.1, -3.431E-10, 
DataValue, 0, -3.414E-10, 
DataValue, 0.1, -2.3939999999999997E-10, 
DataValue, 0.2, -1.8059999999999998E-10, 
DataValue, 0.3, -1.124E-10, 
DataValue, 0.4, -9.1E-12, 
DataValue, 0.5, 3.527E-11, 
DataValue, 0.6, 1.6381E-10, 
DataValue, 0.70000000000000007, 2.0369E-10, 
DataValue, 0.8, 3.2288E-10, 
DataValue, 0.9, 3.7765E-10, 
DataValue, 1, 4.9016E-10, 
DataValue, 1.1, 5.5547E-10, 
DataValue, 1.2, 6.5456E-10, 
DataValue, 1.3, 7.4938E-10, 
DataValue, 1.4000000000000001, 8.1532E-10, 
DataValue, 1.5, 9.1909E-10, 
DataValue, 1.6, 9.453E-10, 
DataValue, 1.7, 1.01858E-09, 
DataValue, 1.8, 1.03677E-09, 
DataValue, 1.9000000000000001, 1.10861E-09, 
DataValue, 2, 1.17073E-09, 
DataValue, 2.1, 1.20889E-09, 
DataValue, 2.2, 1.26298E-09, 
DataValue, 2.3000000000000003, 1.2663E-09, 
DataValue, 2.4, 1.2884099999999999E-09, 
DataValue, 2.5, 1.31467E-09, 
DataValue, 2.6, 1.32656E-09, 
DataValue, 2.7, 1.32336E-09, 
DataValue, 2.8000000000000003, 1.3563E-09, 
DataValue, 2.9, 1.36622E-09, 
DataValue, 3, 1.37326E-09, 
DataValue, 3.1, 1.39603E-09, 
DataValue, 3.2, 1.40645E-09, 
DataValue, 3.3000000000000003, 1.43403E-09, 
DataValue, 3.4, 1.44191E-09, 
DataValue, 3.5, 1.44403E-09, 
DataValue, 3.6, 1.43527E-09, 
DataValue, 3.7, 1.45048E-09, 
DataValue, 3.8000000000000003, 1.49108E-09, 
DataValue, 3.9, 1.4756E-09, 
DataValue, 4, 1.50785E-09, 
DataValue, 4.1, 1.53193E-09, 
DataValue, 4.2, 1.52447E-09, 
DataValue, 4.3, 1.55729E-09, 
DataValue, 4.4, 1.57843E-09, 
DataValue, 4.5, 1.57771E-09, 
DataValue, 4.6000000000000005, 1.58681E-09, 
DataValue, 4.7, 1.59498E-09, 
DataValue, 4.8, 1.6609E-09, 
DataValue, 4.9, 1.62587E-09, 
DataValue, 5, 1.64548E-09, 