
SetupTitle, WW
PrimitiveTest, I/V Sweep
TestParameter, Context.MainFrame, B1500A
TestParameter, Channel.UnitType, SMU, SMU
TestParameter, Channel.Unit, SMU2:HP, SMU1:HP
TestParameter, Channel.IName, I1, I4
TestParameter, Channel.VName, V1, V4
TestParameter, Channel.Mode, V, COMMON
TestParameter, Channel.Func, VAR1, CONST
TestParameter, Channel.Index, 
TestParameter, Channel.Time, 
TestParameter, Measurement.Port.Unit, SMU2:HP, SMU1:HP
TestParameter, Measurement.Port.SeriesResistor, NONE, NONE
TestParameter, Measurement.Port.Filter, ON, ON
TestParameter, Measurement.Port.OutputVoltageComparison, 0, 0
TestParameter, Measurement.Primary.Locus, Single
TestParameter, Measurement.Primary.Scale, LINEAR
TestParameter, Measurement.Primary.Start, -5
TestParameter, Measurement.Primary.Stop, 5
TestParameter, Measurement.Primary.Step, 0.1
TestParameter, Measurement.Primary.Compliance, 0.1
TestParameter, Measurement.Primary.PowerCompliance, 0
TestParameter, Measurement.Aborting.Condition, CONTINUE AT ANY
TestParameter, Measurement.PostOutput.Value, START
TestParameter, Measurement.PostOutput.Retention, OFF
TestParameter, Measurement.Bias.Source, -5, 0
TestParameter, Measurement.Bias.Compliance, 0.1, 1
TestParameter, Measurement.Monitor.Unit, SMU2:HP, SMU1:HP
TestParameter, Measurement.Monitor.Adc, HR ADC, HR ADC
TestParameter, Measurement.Monitor.Measurement, Compliance Side, Compliance Side
TestParameter, Measurement.Monitor.RangingMode, AUTO, AUTO
TestParameter, Measurement.Monitor.RangeBoundary, , 
TestParameter, Measurement.Monitor.RangeRating, BY FULL RANGE, BY FULL RANGE
TestParameter, Measurement.Monitor.RangeRatingCoeff, 50, 50
TestParameter, Measurement.Timing.Hold, 0
TestParameter, Measurement.Timing.Delay, 0.001
TestParameter, Measurement.Adc.HighSpeed.Mode, AUTO
TestParameter, Measurement.Adc.HighSpeed.Coeff, 1
TestParameter, Measurement.Adc.HighResolution.AutoZero, OFF
TestParameter, Measurement.Adc.HighResolution.Mode, PLC
TestParameter, Measurement.Adc.HighResolution.Coeff, 1
TestParameter, Measurement.WaitTime.Source.Coeff, 1
TestParameter, Measurement.WaitTime.Source.Offset, 0
TestParameter, Measurement.WaitTime.Monitor.Coeff, 1
TestParameter, Measurement.WaitTime.Monitor.Offset, 0
TestParameter, Function.User.Name, Ohmic
TestParameter, Function.User.Unit, ohm
TestParameter, Function.User.Definition, avg(V1/I1)
TestParameter, Output.Graph.Enabled, true
TestParameter, Output.Graph.XAxis.Data, V1
TestParameter, Output.Graph.XAxis.Scale, Linear
TestParameter, Output.Graph.XAxis.Left, -5
TestParameter, Output.Graph.XAxis.Right, 5
TestParameter, Output.Graph.YAxis.Data, I1
TestParameter, Output.Graph.YAxis.Scale, Linear
TestParameter, Output.Graph.YAxis.Bottom, -0.001
TestParameter, Output.Graph.YAxis.Top, 0.001
TestParameter, Output.Graph.YAxis.Group, 
TestParameter, Output.Scalar.Data, Ohmic
TestParameter, AutoAnalysis.Interpolation, false
TestParameter, AutoAnalysis.Line1.Enabled, false
TestParameter, AutoAnalysis.Line1.Type, 1
TestParameter, AutoAnalysis.Line1.Fix, True
TestParameter, AutoAnalysis.Line1.YAxis, 0
TestParameter, AutoAnalysis.Line1.Point1.Type, 0
TestParameter, AutoAnalysis.Line1.Point1.XY.X, 
TestParameter, AutoAnalysis.Line1.Point1.XY.Y, 
TestParameter, AutoAnalysis.Line1.Point1.Data.Var, 
TestParameter, AutoAnalysis.Line1.Point1.Data.Condition, 
TestParameter, AutoAnalysis.Line1.Point1.Data.Start, false
TestParameter, AutoAnalysis.Line1.Point1.Data.StartVar, 
TestParameter, AutoAnalysis.Line1.Point1.Data.StartCondition, 
TestParameter, AutoAnalysis.Line1.Point2.Type, 0
TestParameter, AutoAnalysis.Line1.Point2.XY.X, 
TestParameter, AutoAnalysis.Line1.Point2.XY.Y, 
TestParameter, AutoAnalysis.Line1.Point2.Data.Var, 
TestParameter, AutoAnalysis.Line1.Point2.Data.Condition, 
TestParameter, AutoAnalysis.Line1.Point2.Data.Start, false
TestParameter, AutoAnalysis.Line1.Point2.Data.StartVar, 
TestParameter, AutoAnalysis.Line1.Point2.Data.StartCondition, 
TestParameter, AutoAnalysis.Line1.GradientExpr, 0
TestParameter, AutoAnalysis.Line2.Enabled, false
TestParameter, AutoAnalysis.Line2.Type, 1
TestParameter, AutoAnalysis.Line2.Fix, True
TestParameter, AutoAnalysis.Line2.YAxis, 0
TestParameter, AutoAnalysis.Line2.Point1.Type, 0
TestParameter, AutoAnalysis.Line2.Point1.XY.X, 
TestParameter, AutoAnalysis.Line2.Point1.XY.Y, 
TestParameter, AutoAnalysis.Line2.Point1.Data.Var, 
TestParameter, AutoAnalysis.Line2.Point1.Data.Condition, 
TestParameter, AutoAnalysis.Line2.Point1.Data.Start, false
TestParameter, AutoAnalysis.Line2.Point1.Data.StartVar, 
TestParameter, AutoAnalysis.Line2.Point1.Data.StartCondition, 
TestParameter, AutoAnalysis.Line2.Point2.Type, 0
TestParameter, AutoAnalysis.Line2.Point2.XY.X, 
TestParameter, AutoAnalysis.Line2.Point2.XY.Y, 
TestParameter, AutoAnalysis.Line2.Point2.Data.Var, 
TestParameter, AutoAnalysis.Line2.Point2.Data.Condition, 
TestParameter, AutoAnalysis.Line2.Point2.Data.Start, false
TestParameter, AutoAnalysis.Line2.Point2.Data.StartVar, 
TestParameter, AutoAnalysis.Line2.Point2.Data.StartCondition, 
TestParameter, AutoAnalysis.Line2.GradientExpr, 0
TestParameter, AutoAnalysis.Marker.Enabled, false
TestParameter, AutoAnalysis.Marker.Data.Var, 
TestParameter, AutoAnalysis.Marker.Data.Condition, 
TestParameter, AutoAnalysis.Marker.Data.Start, false
TestParameter, AutoAnalysis.Marker.Data.StartVar, 
TestParameter, AutoAnalysis.Marker.Data.StartCondition, 
MetaData, TestRecord.EntryPoint, true
MetaData, TestRecord.RecordTime, 09/05/2020 14:31:19
MetaData, TestRecord.TestTarget, 
MetaData, TestRecord.IterationIndex, 14
MetaData, TestRecord.Preservation, true
MetaData, TestRecord.Flag, 
MetaData, TestRecord.Remarks, 
MetaData, TestRecord.LinkKey, 6cfe72c8-292f-4ce1-9228-6e6cb3d7feff
Dimension1, 101, 101, 101
Dimension2, 1, 1, 1
DataName, V1, I1, Ohmic
DataValue, -5, -8.1279999999999992E-10, 3128847886.5215049
DataValue, -4.9, -7.297E-10, 
DataValue, -4.8, -6.703E-10, 
DataValue, -4.7, -6.798E-10, 
DataValue, -4.6000000000000005, -6.599E-10, 
DataValue, -4.5, -6.094E-10, 
DataValue, -4.4, -7.004E-10, 
DataValue, -4.3, -7.317E-10, 
DataValue, -4.2, -5.776E-10, 
DataValue, -4.1, -7.017E-10, 
DataValue, -4, -7.1829999999999989E-10, 
DataValue, -3.9, -6.707E-10, 
DataValue, -3.8000000000000003, -6.633E-10, 
DataValue, -3.7, -6.6919999999999992E-10, 
DataValue, -3.6, -6.346E-10, 
DataValue, -3.5, -7.1459999999999989E-10, 
DataValue, -3.4, -7.384E-10, 
DataValue, -3.3000000000000003, -7.108E-10, 
DataValue, -3.2, -6.963E-10, 
DataValue, -3.1, -6.666E-10, 
DataValue, -3, -6.387E-10, 
DataValue, -2.9, -6.7499999999999994E-10, 
DataValue, -2.8000000000000003, -7.2989999999999993E-10, 
DataValue, -2.7, -6.579E-10, 
DataValue, -2.6, -6.8289999999999989E-10, 
DataValue, -2.5, -6.438E-10, 
DataValue, -2.4, -6.1549999999999989E-10, 
DataValue, -2.3000000000000003, -6.275E-10, 
DataValue, -2.2, -6.013E-10, 
DataValue, -2.1, -5.574E-10, 
DataValue, -2, -5.4589999999999994E-10, 
DataValue, -1.9000000000000001, -5.464E-10, 
DataValue, -1.8, -5.5829999999999992E-10, 
DataValue, -1.7, -5.4309999999999991E-10, 
DataValue, -1.6, -5.582E-10, 
DataValue, -1.5, -6.521E-10, 
DataValue, -1.4000000000000001, -6.023999999999999E-10, 
DataValue, -1.3, -5.018E-10, 
DataValue, -1.2, -4.6689999999999991E-10, 
DataValue, -1.1, -4.5149999999999994E-10, 
DataValue, -1, -5.1139999999999991E-10, 
DataValue, -0.9, -4.7139999999999994E-10, 
DataValue, -0.8, -4.6969999999999994E-10, 
DataValue, -0.70000000000000007, -4.664E-10, 
DataValue, -0.6, -4.6289999999999997E-10, 
DataValue, -0.5, -4.383E-10, 
DataValue, -0.4, -4.5629999999999996E-10, 
DataValue, -0.3, -4.1609999999999994E-10, 
DataValue, -0.2, -3.596E-10, 
DataValue, -0.1, -3.5409999999999995E-10, 
DataValue, 0, -2.7069999999999995E-10, 
DataValue, 0.1, -2.3209999999999998E-10, 
DataValue, 0.2, -1.745E-10, 
DataValue, 0.3, -1.1639999999999999E-10, 
DataValue, 0.4, -8.135E-11, 
DataValue, 0.5, 2.538E-11, 
DataValue, 0.6, 1.2098E-10, 
DataValue, 0.70000000000000007, 2.5794E-10, 
DataValue, 0.8, 3.1414E-10, 
DataValue, 0.9, 4.3157E-10, 
DataValue, 1, 4.8229E-10, 
DataValue, 1.1, 5.9425E-10, 
DataValue, 1.2, 6.9429E-10, 
DataValue, 1.3, 7.4255E-10, 
DataValue, 1.4000000000000001, 8.1451E-10, 
DataValue, 1.5, 8.8978E-10, 
DataValue, 1.6, 9.2677E-10, 
DataValue, 1.7, 1.00509E-09, 
DataValue, 1.8, 1.05135E-09, 
DataValue, 1.9000000000000001, 1.08991E-09, 
DataValue, 2, 1.11371E-09, 
DataValue, 2.1, 1.1638E-09, 
DataValue, 2.2, 1.21682E-09, 
DataValue, 2.3000000000000003, 1.2241E-09, 
DataValue, 2.4, 1.27602E-09, 
DataValue, 2.5, 1.2723E-09, 
DataValue, 2.6, 1.30859E-09, 
DataValue, 2.7, 1.28709E-09, 
DataValue, 2.8000000000000003, 1.29896E-09, 
DataValue, 2.9, 1.32491E-09, 
DataValue, 3, 1.33495E-09, 
DataValue, 3.1, 1.36701E-09, 
DataValue, 3.2, 1.39445E-09, 
DataValue, 3.3000000000000003, 1.42177E-09, 
DataValue, 3.4, 1.40124E-09, 
DataValue, 3.5, 1.41399E-09, 
DataValue, 3.6, 1.44768E-09, 
DataValue, 3.7, 1.44105E-09, 
DataValue, 3.8000000000000003, 1.43298E-09, 
DataValue, 3.9, 1.4539E-09, 
DataValue, 4, 1.49305E-09, 
DataValue, 4.1, 1.45686E-09, 
DataValue, 4.2, 1.48363E-09, 
DataValue, 4.3, 1.45525E-09, 
DataValue, 4.4, 1.46586E-09, 
DataValue, 4.5, 1.48131E-09, 
DataValue, 4.6000000000000005, 1.4928E-09, 
DataValue, 4.7, 1.54027E-09, 
DataValue, 4.8, 1.52548E-09, 
DataValue, 4.9, 1.56316E-09, 
DataValue, 5, 1.53048E-09, 