
SetupTitle, WW
PrimitiveTest, I/V Sweep
TestParameter, Context.MainFrame, B1500A
TestParameter, Channel.UnitType, SMU, SMU
TestParameter, Channel.Unit, SMU2:HP, SMU1:HP
TestParameter, Channel.IName, I1, I4
TestParameter, Channel.VName, V1, V4
TestParameter, Channel.Mode, V, COMMON
TestParameter, Channel.Func, VAR1, CONST
TestParameter, Channel.Index, 
TestParameter, Channel.Time, 
TestParameter, Measurement.Port.Unit, SMU2:HP, SMU1:HP
TestParameter, Measurement.Port.SeriesResistor, NONE, NONE
TestParameter, Measurement.Port.Filter, ON, ON
TestParameter, Measurement.Port.OutputVoltageComparison, 0, 0
TestParameter, Measurement.Primary.Locus, Single
TestParameter, Measurement.Primary.Scale, LINEAR
TestParameter, Measurement.Primary.Start, -5
TestParameter, Measurement.Primary.Stop, 5
TestParameter, Measurement.Primary.Step, 0.1
TestParameter, Measurement.Primary.Compliance, 0.1
TestParameter, Measurement.Primary.PowerCompliance, 0
TestParameter, Measurement.Aborting.Condition, CONTINUE AT ANY
TestParameter, Measurement.PostOutput.Value, START
TestParameter, Measurement.PostOutput.Retention, OFF
TestParameter, Measurement.Bias.Source, -5, 0
TestParameter, Measurement.Bias.Compliance, 0.1, 1
TestParameter, Measurement.Monitor.Unit, SMU2:HP, SMU1:HP
TestParameter, Measurement.Monitor.Adc, HR ADC, HR ADC
TestParameter, Measurement.Monitor.Measurement, Compliance Side, Compliance Side
TestParameter, Measurement.Monitor.RangingMode, AUTO, AUTO
TestParameter, Measurement.Monitor.RangeBoundary, , 
TestParameter, Measurement.Monitor.RangeRating, BY FULL RANGE, BY FULL RANGE
TestParameter, Measurement.Monitor.RangeRatingCoeff, 50, 50
TestParameter, Measurement.Timing.Hold, 0
TestParameter, Measurement.Timing.Delay, 0.001
TestParameter, Measurement.Adc.HighSpeed.Mode, AUTO
TestParameter, Measurement.Adc.HighSpeed.Coeff, 1
TestParameter, Measurement.Adc.HighResolution.AutoZero, OFF
TestParameter, Measurement.Adc.HighResolution.Mode, PLC
TestParameter, Measurement.Adc.HighResolution.Coeff, 1
TestParameter, Measurement.WaitTime.Source.Coeff, 1
TestParameter, Measurement.WaitTime.Source.Offset, 0
TestParameter, Measurement.WaitTime.Monitor.Coeff, 1
TestParameter, Measurement.WaitTime.Monitor.Offset, 0
TestParameter, Function.User.Name, Ohmic
TestParameter, Function.User.Unit, ohm
TestParameter, Function.User.Definition, avg(V1/I1)
TestParameter, Output.Graph.Enabled, true
TestParameter, Output.Graph.XAxis.Data, V1
TestParameter, Output.Graph.XAxis.Scale, Linear
TestParameter, Output.Graph.XAxis.Left, -5
TestParameter, Output.Graph.XAxis.Right, 5
TestParameter, Output.Graph.YAxis.Data, I1
TestParameter, Output.Graph.YAxis.Scale, Linear
TestParameter, Output.Graph.YAxis.Bottom, -0.001
TestParameter, Output.Graph.YAxis.Top, 0.001
TestParameter, Output.Graph.YAxis.Group, 
TestParameter, Output.Scalar.Data, Ohmic
TestParameter, AutoAnalysis.Interpolation, false
TestParameter, AutoAnalysis.Line1.Enabled, false
TestParameter, AutoAnalysis.Line1.Type, 1
TestParameter, AutoAnalysis.Line1.Fix, True
TestParameter, AutoAnalysis.Line1.YAxis, 0
TestParameter, AutoAnalysis.Line1.Point1.Type, 0
TestParameter, AutoAnalysis.Line1.Point1.XY.X, 
TestParameter, AutoAnalysis.Line1.Point1.XY.Y, 
TestParameter, AutoAnalysis.Line1.Point1.Data.Var, 
TestParameter, AutoAnalysis.Line1.Point1.Data.Condition, 
TestParameter, AutoAnalysis.Line1.Point1.Data.Start, false
TestParameter, AutoAnalysis.Line1.Point1.Data.StartVar, 
TestParameter, AutoAnalysis.Line1.Point1.Data.StartCondition, 
TestParameter, AutoAnalysis.Line1.Point2.Type, 0
TestParameter, AutoAnalysis.Line1.Point2.XY.X, 
TestParameter, AutoAnalysis.Line1.Point2.XY.Y, 
TestParameter, AutoAnalysis.Line1.Point2.Data.Var, 
TestParameter, AutoAnalysis.Line1.Point2.Data.Condition, 
TestParameter, AutoAnalysis.Line1.Point2.Data.Start, false
TestParameter, AutoAnalysis.Line1.Point2.Data.StartVar, 
TestParameter, AutoAnalysis.Line1.Point2.Data.StartCondition, 
TestParameter, AutoAnalysis.Line1.GradientExpr, 0
TestParameter, AutoAnalysis.Line2.Enabled, false
TestParameter, AutoAnalysis.Line2.Type, 1
TestParameter, AutoAnalysis.Line2.Fix, True
TestParameter, AutoAnalysis.Line2.YAxis, 0
TestParameter, AutoAnalysis.Line2.Point1.Type, 0
TestParameter, AutoAnalysis.Line2.Point1.XY.X, 
TestParameter, AutoAnalysis.Line2.Point1.XY.Y, 
TestParameter, AutoAnalysis.Line2.Point1.Data.Var, 
TestParameter, AutoAnalysis.Line2.Point1.Data.Condition, 
TestParameter, AutoAnalysis.Line2.Point1.Data.Start, false
TestParameter, AutoAnalysis.Line2.Point1.Data.StartVar, 
TestParameter, AutoAnalysis.Line2.Point1.Data.StartCondition, 
TestParameter, AutoAnalysis.Line2.Point2.Type, 0
TestParameter, AutoAnalysis.Line2.Point2.XY.X, 
TestParameter, AutoAnalysis.Line2.Point2.XY.Y, 
TestParameter, AutoAnalysis.Line2.Point2.Data.Var, 
TestParameter, AutoAnalysis.Line2.Point2.Data.Condition, 
TestParameter, AutoAnalysis.Line2.Point2.Data.Start, false
TestParameter, AutoAnalysis.Line2.Point2.Data.StartVar, 
TestParameter, AutoAnalysis.Line2.Point2.Data.StartCondition, 
TestParameter, AutoAnalysis.Line2.GradientExpr, 0
TestParameter, AutoAnalysis.Marker.Enabled, false
TestParameter, AutoAnalysis.Marker.Data.Var, 
TestParameter, AutoAnalysis.Marker.Data.Condition, 
TestParameter, AutoAnalysis.Marker.Data.Start, false
TestParameter, AutoAnalysis.Marker.Data.StartVar, 
TestParameter, AutoAnalysis.Marker.Data.StartCondition, 
MetaData, TestRecord.EntryPoint, true
MetaData, TestRecord.RecordTime, 09/05/2020 14:30:17
MetaData, TestRecord.TestTarget, 
MetaData, TestRecord.IterationIndex, 12
MetaData, TestRecord.Preservation, true
MetaData, TestRecord.Flag, 
MetaData, TestRecord.Remarks, 
MetaData, TestRecord.LinkKey, 8fc49fb7-f7ff-4bc9-8ddb-e9c557db5160
Dimension1, 101, 101, 101
Dimension2, 1, 1, 1
DataName, V1, I1, Ohmic
DataValue, -5, -7.1929999999999988E-10, 4991383467.8909245
DataValue, -4.9, -6.64E-10, 
DataValue, -4.8, -6.4399999999999995E-10, 
DataValue, -4.7, -5.9569999999999992E-10, 
DataValue, -4.6000000000000005, -6.2089999999999989E-10, 
DataValue, -4.5, -5.875E-10, 
DataValue, -4.4, -5.817E-10, 
DataValue, -4.3, -5.9439999999999993E-10, 
DataValue, -4.2, -5.5189999999999992E-10, 
DataValue, -4.1, -5.683E-10, 
DataValue, -4, -5.908E-10, 
DataValue, -3.9, -5.949E-10, 
DataValue, -3.8000000000000003, -5.5389999999999992E-10, 
DataValue, -3.7, -5.615E-10, 
DataValue, -3.6, -6.023999999999999E-10, 
DataValue, -3.5, -5.646E-10, 
DataValue, -3.4, -6.3619999999999993E-10, 
DataValue, -3.3000000000000003, -6.4689999999999991E-10, 
DataValue, -3.2, -6.1799999999999993E-10, 
DataValue, -3.1, -5.942E-10, 
DataValue, -3, -5.275E-10, 
DataValue, -2.9, -5.5999999999999993E-10, 
DataValue, -2.8000000000000003, -5.315999999999999E-10, 
DataValue, -2.7, -5.4449999999999993E-10, 
DataValue, -2.6, -5.241E-10, 
DataValue, -2.5, -5.703E-10, 
DataValue, -2.4, -5.413E-10, 
DataValue, -2.3000000000000003, -5.359E-10, 
DataValue, -2.2, -5.12E-10, 
DataValue, -2.1, -5.464E-10, 
DataValue, -2, -5.5289999999999992E-10, 
DataValue, -1.9000000000000001, -5.635E-10, 
DataValue, -1.8, -5.48E-10, 
DataValue, -1.7, -5.0409999999999994E-10, 
DataValue, -1.6, -4.486E-10, 
DataValue, -1.5, -4.8549999999999993E-10, 
DataValue, -1.4000000000000001, -4.5199999999999994E-10, 
DataValue, -1.3, -4.7569999999999992E-10, 
DataValue, -1.2, -4.0709999999999997E-10, 
DataValue, -1.1, -4.924999999999999E-10, 
DataValue, -1, -4.4329999999999996E-10, 
DataValue, -0.9, -4.4729999999999994E-10, 
DataValue, -0.8, -4.4929999999999994E-10, 
DataValue, -0.70000000000000007, -4.4869999999999996E-10, 
DataValue, -0.6, -4.245E-10, 
DataValue, -0.5, -3.9529999999999997E-10, 
DataValue, -0.4, -3.362E-10, 
DataValue, -0.3, -3.8549999999999996E-10, 
DataValue, -0.2, -2.7809999999999995E-10, 
DataValue, -0.1, -2.888E-10, 
DataValue, 0, -2.4529999999999997E-10, 
DataValue, 0.1, -1.8979999999999998E-10, 
DataValue, 0.2, -1.6039999999999998E-10, 
DataValue, 0.3, -1.199E-10, 
DataValue, 0.4, 2.39E-12, 
DataValue, 0.5, 8.217E-11, 
DataValue, 0.6, 1.4198E-10, 
DataValue, 0.70000000000000007, 2.2258E-10, 
DataValue, 0.8, 3.2409E-10, 
DataValue, 0.9, 4.2638E-10, 
DataValue, 1, 4.8298E-10, 
DataValue, 1.1, 5.8269E-10, 
DataValue, 1.2, 6.3959E-10, 
DataValue, 1.3, 6.8516E-10, 
DataValue, 1.4000000000000001, 7.6323E-10, 
DataValue, 1.5, 8.2982E-10, 
DataValue, 1.6, 8.7557E-10, 
DataValue, 1.7, 9.0208E-10, 
DataValue, 1.8, 9.4495E-10, 
DataValue, 1.9000000000000001, 1.00402E-09, 
DataValue, 2, 1.04954E-09, 
DataValue, 2.1, 1.10942E-09, 
DataValue, 2.2, 1.18785E-09, 
DataValue, 2.3000000000000003, 1.21789E-09, 
DataValue, 2.4, 1.21289E-09, 
DataValue, 2.5, 1.28127E-09, 
DataValue, 2.6, 1.29369E-09, 
DataValue, 2.7, 1.27736E-09, 
DataValue, 2.8000000000000003, 1.30427E-09, 
DataValue, 2.9, 1.33649E-09, 
DataValue, 3, 1.30105E-09, 
DataValue, 3.1, 1.31828E-09, 
DataValue, 3.2, 1.33211E-09, 
DataValue, 3.3000000000000003, 1.35304E-09, 
DataValue, 3.4, 1.41837E-09, 
DataValue, 3.5, 1.43229E-09, 
DataValue, 3.6, 1.43433E-09, 
DataValue, 3.7, 1.45722E-09, 
DataValue, 3.8000000000000003, 1.46459E-09, 
DataValue, 3.9, 1.46302E-09, 
DataValue, 4, 1.46087E-09, 
DataValue, 4.1, 1.45142E-09, 
DataValue, 4.2, 1.45867E-09, 
DataValue, 4.3, 1.44826E-09, 
DataValue, 4.4, 1.45461E-09, 
DataValue, 4.5, 1.48127E-09, 
DataValue, 4.6000000000000005, 1.47857E-09, 
DataValue, 4.7, 1.5049E-09, 
DataValue, 4.8, 1.51241E-09, 
DataValue, 4.9, 1.50384E-09, 
DataValue, 5, 1.50029E-09, 