
SetupTitle, WW
PrimitiveTest, I/V Sweep
TestParameter, Context.MainFrame, B1500A
TestParameter, Channel.UnitType, SMU, SMU
TestParameter, Channel.Unit, SMU2:HP, SMU1:HP
TestParameter, Channel.IName, I1, I4
TestParameter, Channel.VName, V1, V4
TestParameter, Channel.Mode, V, COMMON
TestParameter, Channel.Func, VAR1, CONST
TestParameter, Channel.Index, 
TestParameter, Channel.Time, 
TestParameter, Measurement.Port.Unit, SMU2:HP, SMU1:HP
TestParameter, Measurement.Port.SeriesResistor, NONE, NONE
TestParameter, Measurement.Port.Filter, ON, ON
TestParameter, Measurement.Port.OutputVoltageComparison, 0, 0
TestParameter, Measurement.Primary.Locus, Single
TestParameter, Measurement.Primary.Scale, LINEAR
TestParameter, Measurement.Primary.Start, -5
TestParameter, Measurement.Primary.Stop, 5
TestParameter, Measurement.Primary.Step, 0.1
TestParameter, Measurement.Primary.Compliance, 0.1
TestParameter, Measurement.Primary.PowerCompliance, 0
TestParameter, Measurement.Aborting.Condition, CONTINUE AT ANY
TestParameter, Measurement.PostOutput.Value, START
TestParameter, Measurement.PostOutput.Retention, OFF
TestParameter, Measurement.Bias.Source, -5, 0
TestParameter, Measurement.Bias.Compliance, 0.1, 1
TestParameter, Measurement.Monitor.Unit, SMU2:HP, SMU1:HP
TestParameter, Measurement.Monitor.Adc, HR ADC, HR ADC
TestParameter, Measurement.Monitor.Measurement, Compliance Side, Compliance Side
TestParameter, Measurement.Monitor.RangingMode, AUTO, AUTO
TestParameter, Measurement.Monitor.RangeBoundary, , 
TestParameter, Measurement.Monitor.RangeRating, BY FULL RANGE, BY FULL RANGE
TestParameter, Measurement.Monitor.RangeRatingCoeff, 50, 50
TestParameter, Measurement.Timing.Hold, 0
TestParameter, Measurement.Timing.Delay, 0.001
TestParameter, Measurement.Adc.HighSpeed.Mode, AUTO
TestParameter, Measurement.Adc.HighSpeed.Coeff, 1
TestParameter, Measurement.Adc.HighResolution.AutoZero, OFF
TestParameter, Measurement.Adc.HighResolution.Mode, PLC
TestParameter, Measurement.Adc.HighResolution.Coeff, 1
TestParameter, Measurement.WaitTime.Source.Coeff, 1
TestParameter, Measurement.WaitTime.Source.Offset, 0
TestParameter, Measurement.WaitTime.Monitor.Coeff, 1
TestParameter, Measurement.WaitTime.Monitor.Offset, 0
TestParameter, Function.User.Name, Ohmic
TestParameter, Function.User.Unit, ohm
TestParameter, Function.User.Definition, avg(V1/I1)
TestParameter, Output.Graph.Enabled, true
TestParameter, Output.Graph.XAxis.Data, V1
TestParameter, Output.Graph.XAxis.Scale, Linear
TestParameter, Output.Graph.XAxis.Left, -5
TestParameter, Output.Graph.XAxis.Right, 5
TestParameter, Output.Graph.YAxis.Data, I1
TestParameter, Output.Graph.YAxis.Scale, Linear
TestParameter, Output.Graph.YAxis.Bottom, -0.001
TestParameter, Output.Graph.YAxis.Top, 0.001
TestParameter, Output.Graph.YAxis.Group, 
TestParameter, Output.Scalar.Data, Ohmic
TestParameter, AutoAnalysis.Interpolation, false
TestParameter, AutoAnalysis.Line1.Enabled, false
TestParameter, AutoAnalysis.Line1.Type, 1
TestParameter, AutoAnalysis.Line1.Fix, True
TestParameter, AutoAnalysis.Line1.YAxis, 0
TestParameter, AutoAnalysis.Line1.Point1.Type, 0
TestParameter, AutoAnalysis.Line1.Point1.XY.X, 
TestParameter, AutoAnalysis.Line1.Point1.XY.Y, 
TestParameter, AutoAnalysis.Line1.Point1.Data.Var, 
TestParameter, AutoAnalysis.Line1.Point1.Data.Condition, 
TestParameter, AutoAnalysis.Line1.Point1.Data.Start, false
TestParameter, AutoAnalysis.Line1.Point1.Data.StartVar, 
TestParameter, AutoAnalysis.Line1.Point1.Data.StartCondition, 
TestParameter, AutoAnalysis.Line1.Point2.Type, 0
TestParameter, AutoAnalysis.Line1.Point2.XY.X, 
TestParameter, AutoAnalysis.Line1.Point2.XY.Y, 
TestParameter, AutoAnalysis.Line1.Point2.Data.Var, 
TestParameter, AutoAnalysis.Line1.Point2.Data.Condition, 
TestParameter, AutoAnalysis.Line1.Point2.Data.Start, false
TestParameter, AutoAnalysis.Line1.Point2.Data.StartVar, 
TestParameter, AutoAnalysis.Line1.Point2.Data.StartCondition, 
TestParameter, AutoAnalysis.Line1.GradientExpr, 0
TestParameter, AutoAnalysis.Line2.Enabled, false
TestParameter, AutoAnalysis.Line2.Type, 1
TestParameter, AutoAnalysis.Line2.Fix, True
TestParameter, AutoAnalysis.Line2.YAxis, 0
TestParameter, AutoAnalysis.Line2.Point1.Type, 0
TestParameter, AutoAnalysis.Line2.Point1.XY.X, 
TestParameter, AutoAnalysis.Line2.Point1.XY.Y, 
TestParameter, AutoAnalysis.Line2.Point1.Data.Var, 
TestParameter, AutoAnalysis.Line2.Point1.Data.Condition, 
TestParameter, AutoAnalysis.Line2.Point1.Data.Start, false
TestParameter, AutoAnalysis.Line2.Point1.Data.StartVar, 
TestParameter, AutoAnalysis.Line2.Point1.Data.StartCondition, 
TestParameter, AutoAnalysis.Line2.Point2.Type, 0
TestParameter, AutoAnalysis.Line2.Point2.XY.X, 
TestParameter, AutoAnalysis.Line2.Point2.XY.Y, 
TestParameter, AutoAnalysis.Line2.Point2.Data.Var, 
TestParameter, AutoAnalysis.Line2.Point2.Data.Condition, 
TestParameter, AutoAnalysis.Line2.Point2.Data.Start, false
TestParameter, AutoAnalysis.Line2.Point2.Data.StartVar, 
TestParameter, AutoAnalysis.Line2.Point2.Data.StartCondition, 
TestParameter, AutoAnalysis.Line2.GradientExpr, 0
TestParameter, AutoAnalysis.Marker.Enabled, false
TestParameter, AutoAnalysis.Marker.Data.Var, 
TestParameter, AutoAnalysis.Marker.Data.Condition, 
TestParameter, AutoAnalysis.Marker.Data.Start, false
TestParameter, AutoAnalysis.Marker.Data.StartVar, 
TestParameter, AutoAnalysis.Marker.Data.StartCondition, 
MetaData, TestRecord.EntryPoint, true
MetaData, TestRecord.RecordTime, 09/05/2020 14:29:41
MetaData, TestRecord.TestTarget, 
MetaData, TestRecord.IterationIndex, 11
MetaData, TestRecord.Preservation, true
MetaData, TestRecord.Flag, 
MetaData, TestRecord.Remarks, 
MetaData, TestRecord.LinkKey, c5230248-7afd-450f-8ca4-e4a1b3102e40
Dimension1, 101, 101, 101
Dimension2, 1, 1, 1
DataName, V1, I1, Ohmic
DataValue, -5, -8.3939999999999991E-10, 3330247922.5332327
DataValue, -4.9, -7.5919999999999992E-10, 
DataValue, -4.8, -7.034E-10, 
DataValue, -4.7, -6.6469999999999989E-10, 
DataValue, -4.6000000000000005, -6.6309999999999991E-10, 
DataValue, -4.5, -6.275E-10, 
DataValue, -4.4, -6.1899999999999993E-10, 
DataValue, -4.3, -5.8289999999999992E-10, 
DataValue, -4.2, -6.056E-10, 
DataValue, -4.1, -5.5599999999999994E-10, 
DataValue, -4, -5.9539999999999993E-10, 
DataValue, -3.9, -5.9909999999999993E-10, 
DataValue, -3.8000000000000003, -5.844E-10, 
DataValue, -3.7, -6.4869999999999994E-10, 
DataValue, -3.6, -6.009E-10, 
DataValue, -3.5, -5.8289999999999992E-10, 
DataValue, -3.4, -5.942999999999999E-10, 
DataValue, -3.3000000000000003, -5.339E-10, 
DataValue, -3.2, -5.7519999999999994E-10, 
DataValue, -3.1, -5.894E-10, 
DataValue, -3, -5.878E-10, 
DataValue, -2.9, -6.067E-10, 
DataValue, -2.8000000000000003, -5.646E-10, 
DataValue, -2.7, -5.5119999999999992E-10, 
DataValue, -2.6, -5.545E-10, 
DataValue, -2.5, -6.7389999999999992E-10, 
DataValue, -2.4, -6.35E-10, 
DataValue, -2.3000000000000003, -5.861E-10, 
DataValue, -2.2, -5.612E-10, 
DataValue, -2.1, -5.71E-10, 
DataValue, -2, -5.8179999999999989E-10, 
DataValue, -1.9000000000000001, -5.301E-10, 
DataValue, -1.8, -5.598999999999999E-10, 
DataValue, -1.7, -5.0409999999999994E-10, 
DataValue, -1.6, -5.075E-10, 
DataValue, -1.5, -5.1719999999999993E-10, 
DataValue, -1.4000000000000001, -5.309E-10, 
DataValue, -1.3, -4.3809999999999997E-10, 
DataValue, -1.2, -4.2999999999999996E-10, 
DataValue, -1.1, -4.0929999999999997E-10, 
DataValue, -1, -4.314E-10, 
DataValue, -0.9, -3.9812E-10, 
DataValue, -0.8, -3.6937E-10, 
DataValue, -0.70000000000000007, -3.2879E-10, 
DataValue, -0.6, -2.6914E-10, 
DataValue, -0.5, -2.214E-10, 
DataValue, -0.4, -1.6241E-10, 
DataValue, -0.3, -3.411E-11, 
DataValue, -0.2, 1.072E-10, 
DataValue, -0.1, 2.7232E-10, 
DataValue, 0, 4.061E-10, 
DataValue, 0.1, 5.7172999999999995E-10, 
DataValue, 0.2, 6.6362E-10, 
DataValue, 0.3, 7.8421E-10, 
DataValue, 0.4, 8.202E-10, 
DataValue, 0.5, 8.0515E-10, 
DataValue, 0.6, 8.1115E-10, 
DataValue, 0.70000000000000007, 8.667E-10, 
DataValue, 0.8, 8.648E-10, 
DataValue, 0.9, 8.4125E-10, 
DataValue, 1, 9.0128E-10, 
DataValue, 1.1, 8.9676E-10, 
DataValue, 1.2, 8.9292E-10, 
DataValue, 1.3, 9.0819E-10, 
DataValue, 1.4000000000000001, 9.5215E-10, 
DataValue, 1.5, 9.7002E-10, 
DataValue, 1.6, 1.00863E-09, 
DataValue, 1.7, 1.00538E-09, 
DataValue, 1.8, 1.00361E-09, 
DataValue, 1.9000000000000001, 9.979E-10, 
DataValue, 2, 1.02298E-09, 
DataValue, 2.1, 1.04882E-09, 
DataValue, 2.2, 1.04303E-09, 
DataValue, 2.3000000000000003, 1.09842E-09, 
DataValue, 2.4, 1.07557E-09, 
DataValue, 2.5, 1.10746E-09, 
DataValue, 2.6, 1.12821E-09, 
DataValue, 2.7, 1.12596E-09, 
DataValue, 2.8000000000000003, 1.08955E-09, 
DataValue, 2.9, 1.13826E-09, 
DataValue, 3, 1.15125E-09, 
DataValue, 3.1, 1.15767E-09, 
DataValue, 3.2, 1.12236E-09, 
DataValue, 3.3000000000000003, 1.12566E-09, 
DataValue, 3.4, 1.1692E-09, 
DataValue, 3.5, 1.20807E-09, 
DataValue, 3.6, 1.1942E-09, 
DataValue, 3.7, 1.21346E-09, 
DataValue, 3.8000000000000003, 1.22566E-09, 
DataValue, 3.9, 1.22494E-09, 
DataValue, 4, 1.26011E-09, 
DataValue, 4.1, 1.2655E-09, 
DataValue, 4.2, 1.24871E-09, 
DataValue, 4.3, 1.25629E-09, 
DataValue, 4.4, 1.29598E-09, 
DataValue, 4.5, 1.28969E-09, 
DataValue, 4.6000000000000005, 1.3114E-09, 
DataValue, 4.7, 1.32145E-09, 
DataValue, 4.8, 1.33566E-09, 
DataValue, 4.9, 1.35381E-09, 
DataValue, 5, 1.33134E-09, 