
SetupTitle, WW
PrimitiveTest, I/V Sweep
TestParameter, Context.MainFrame, B1500A
TestParameter, Channel.UnitType, SMU, SMU
TestParameter, Channel.Unit, SMU2:HP, SMU1:HP
TestParameter, Channel.IName, I1, I4
TestParameter, Channel.VName, V1, V4
TestParameter, Channel.Mode, V, COMMON
TestParameter, Channel.Func, VAR1, CONST
TestParameter, Channel.Index, 
TestParameter, Channel.Time, 
TestParameter, Measurement.Port.Unit, SMU2:HP, SMU1:HP
TestParameter, Measurement.Port.SeriesResistor, NONE, NONE
TestParameter, Measurement.Port.Filter, ON, ON
TestParameter, Measurement.Port.OutputVoltageComparison, 0, 0
TestParameter, Measurement.Primary.Locus, Single
TestParameter, Measurement.Primary.Scale, LINEAR
TestParameter, Measurement.Primary.Start, -5
TestParameter, Measurement.Primary.Stop, 5
TestParameter, Measurement.Primary.Step, 0.1
TestParameter, Measurement.Primary.Compliance, 0.1
TestParameter, Measurement.Primary.PowerCompliance, 0
TestParameter, Measurement.Aborting.Condition, CONTINUE AT ANY
TestParameter, Measurement.PostOutput.Value, START
TestParameter, Measurement.PostOutput.Retention, OFF
TestParameter, Measurement.Bias.Source, -5, 0
TestParameter, Measurement.Bias.Compliance, 0.1, 1
TestParameter, Measurement.Monitor.Unit, SMU2:HP, SMU1:HP
TestParameter, Measurement.Monitor.Adc, HR ADC, HR ADC
TestParameter, Measurement.Monitor.Measurement, Compliance Side, Compliance Side
TestParameter, Measurement.Monitor.RangingMode, AUTO, AUTO
TestParameter, Measurement.Monitor.RangeBoundary, , 
TestParameter, Measurement.Monitor.RangeRating, BY FULL RANGE, BY FULL RANGE
TestParameter, Measurement.Monitor.RangeRatingCoeff, 50, 50
TestParameter, Measurement.Timing.Hold, 0
TestParameter, Measurement.Timing.Delay, 0.001
TestParameter, Measurement.Adc.HighSpeed.Mode, AUTO
TestParameter, Measurement.Adc.HighSpeed.Coeff, 1
TestParameter, Measurement.Adc.HighResolution.AutoZero, OFF
TestParameter, Measurement.Adc.HighResolution.Mode, PLC
TestParameter, Measurement.Adc.HighResolution.Coeff, 1
TestParameter, Measurement.WaitTime.Source.Coeff, 1
TestParameter, Measurement.WaitTime.Source.Offset, 0
TestParameter, Measurement.WaitTime.Monitor.Coeff, 1
TestParameter, Measurement.WaitTime.Monitor.Offset, 0
TestParameter, Function.User.Name, Ohmic
TestParameter, Function.User.Unit, ohm
TestParameter, Function.User.Definition, avg(V1/I1)
TestParameter, Output.Graph.Enabled, true
TestParameter, Output.Graph.XAxis.Data, V1
TestParameter, Output.Graph.XAxis.Scale, Linear
TestParameter, Output.Graph.XAxis.Left, -5
TestParameter, Output.Graph.XAxis.Right, 5
TestParameter, Output.Graph.YAxis.Data, I1
TestParameter, Output.Graph.YAxis.Scale, Linear
TestParameter, Output.Graph.YAxis.Bottom, -0.001
TestParameter, Output.Graph.YAxis.Top, 0.001
TestParameter, Output.Graph.YAxis.Group, 
TestParameter, Output.Scalar.Data, Ohmic
TestParameter, AutoAnalysis.Interpolation, false
TestParameter, AutoAnalysis.Line1.Enabled, false
TestParameter, AutoAnalysis.Line1.Type, 1
TestParameter, AutoAnalysis.Line1.Fix, True
TestParameter, AutoAnalysis.Line1.YAxis, 0
TestParameter, AutoAnalysis.Line1.Point1.Type, 0
TestParameter, AutoAnalysis.Line1.Point1.XY.X, 
TestParameter, AutoAnalysis.Line1.Point1.XY.Y, 
TestParameter, AutoAnalysis.Line1.Point1.Data.Var, 
TestParameter, AutoAnalysis.Line1.Point1.Data.Condition, 
TestParameter, AutoAnalysis.Line1.Point1.Data.Start, false
TestParameter, AutoAnalysis.Line1.Point1.Data.StartVar, 
TestParameter, AutoAnalysis.Line1.Point1.Data.StartCondition, 
TestParameter, AutoAnalysis.Line1.Point2.Type, 0
TestParameter, AutoAnalysis.Line1.Point2.XY.X, 
TestParameter, AutoAnalysis.Line1.Point2.XY.Y, 
TestParameter, AutoAnalysis.Line1.Point2.Data.Var, 
TestParameter, AutoAnalysis.Line1.Point2.Data.Condition, 
TestParameter, AutoAnalysis.Line1.Point2.Data.Start, false
TestParameter, AutoAnalysis.Line1.Point2.Data.StartVar, 
TestParameter, AutoAnalysis.Line1.Point2.Data.StartCondition, 
TestParameter, AutoAnalysis.Line1.GradientExpr, 0
TestParameter, AutoAnalysis.Line2.Enabled, false
TestParameter, AutoAnalysis.Line2.Type, 1
TestParameter, AutoAnalysis.Line2.Fix, True
TestParameter, AutoAnalysis.Line2.YAxis, 0
TestParameter, AutoAnalysis.Line2.Point1.Type, 0
TestParameter, AutoAnalysis.Line2.Point1.XY.X, 
TestParameter, AutoAnalysis.Line2.Point1.XY.Y, 
TestParameter, AutoAnalysis.Line2.Point1.Data.Var, 
TestParameter, AutoAnalysis.Line2.Point1.Data.Condition, 
TestParameter, AutoAnalysis.Line2.Point1.Data.Start, false
TestParameter, AutoAnalysis.Line2.Point1.Data.StartVar, 
TestParameter, AutoAnalysis.Line2.Point1.Data.StartCondition, 
TestParameter, AutoAnalysis.Line2.Point2.Type, 0
TestParameter, AutoAnalysis.Line2.Point2.XY.X, 
TestParameter, AutoAnalysis.Line2.Point2.XY.Y, 
TestParameter, AutoAnalysis.Line2.Point2.Data.Var, 
TestParameter, AutoAnalysis.Line2.Point2.Data.Condition, 
TestParameter, AutoAnalysis.Line2.Point2.Data.Start, false
TestParameter, AutoAnalysis.Line2.Point2.Data.StartVar, 
TestParameter, AutoAnalysis.Line2.Point2.Data.StartCondition, 
TestParameter, AutoAnalysis.Line2.GradientExpr, 0
TestParameter, AutoAnalysis.Marker.Enabled, false
TestParameter, AutoAnalysis.Marker.Data.Var, 
TestParameter, AutoAnalysis.Marker.Data.Condition, 
TestParameter, AutoAnalysis.Marker.Data.Start, false
TestParameter, AutoAnalysis.Marker.Data.StartVar, 
TestParameter, AutoAnalysis.Marker.Data.StartCondition, 
MetaData, TestRecord.EntryPoint, true
MetaData, TestRecord.RecordTime, 09/05/2020 14:26:48
MetaData, TestRecord.TestTarget, 
MetaData, TestRecord.IterationIndex, 7
MetaData, TestRecord.Preservation, true
MetaData, TestRecord.Flag, 
MetaData, TestRecord.Remarks, 
MetaData, TestRecord.LinkKey, fd436ed7-a22d-4f1e-a2f8-999712790f71
Dimension1, 101, 101, 101
Dimension2, 1, 1, 1
DataName, V1, I1, Ohmic
DataValue, -5, -8.557E-10, 2913815243.2037807
DataValue, -4.9, -8.0679999999999994E-10, 
DataValue, -4.8, -7.9109999999999988E-10, 
DataValue, -4.7, -7.1559999999999989E-10, 
DataValue, -4.6000000000000005, -7.4639999999999992E-10, 
DataValue, -4.5, -7.1469999999999992E-10, 
DataValue, -4.4, -6.7E-10, 
DataValue, -4.3, -6.407E-10, 
DataValue, -4.2, -6.8609999999999994E-10, 
DataValue, -4.1, -6.1279999999999989E-10, 
DataValue, -4, -6.016999999999999E-10, 
DataValue, -3.9, -6.1279999999999989E-10, 
DataValue, -3.8000000000000003, -6.3639999999999989E-10, 
DataValue, -3.7, -5.6599999999999991E-10, 
DataValue, -3.6, -5.4689999999999994E-10, 
DataValue, -3.5, -5.358E-10, 
DataValue, -3.4, -5.618E-10, 
DataValue, -3.3000000000000003, -5.406999999999999E-10, 
DataValue, -3.2, -5.2599999999999994E-10, 
DataValue, -3.1, -5.5659999999999992E-10, 
DataValue, -3, -4.9729999999999993E-10, 
DataValue, -2.9, -4.994E-10, 
DataValue, -2.8000000000000003, -5.6169999999999993E-10, 
DataValue, -2.7, -5.001E-10, 
DataValue, -2.6, -5.638E-10, 
DataValue, -2.5, -5.797999999999999E-10, 
DataValue, -2.4, -5.076E-10, 
DataValue, -2.3000000000000003, -5.0739999999999992E-10, 
DataValue, -2.2, -4.3849999999999993E-10, 
DataValue, -2.1, -4.4439999999999993E-10, 
DataValue, -2, -4.7059999999999991E-10, 
DataValue, -1.9000000000000001, -4.0819999999999994E-10, 
DataValue, -1.8, -4.533E-10, 
DataValue, -1.7, -4.491E-10, 
DataValue, -1.6, -4.122E-10, 
DataValue, -1.5, -4.3099999999999996E-10, 
DataValue, -1.4000000000000001, -3.812E-10, 
DataValue, -1.3, -3.6659999999999995E-10, 
DataValue, -1.2, -3.7669999999999995E-10, 
DataValue, -1.1, -3.458E-10, 
DataValue, -1, -3.4169999999999997E-10, 
DataValue, -0.9, -3.2599999999999996E-10, 
DataValue, -0.8, -2.9188E-10, 
DataValue, -0.70000000000000007, -2.3847E-10, 
DataValue, -0.6, -1.8047E-10, 
DataValue, -0.5, -1.0791E-10, 
DataValue, -0.4, 1.334E-11, 
DataValue, -0.3, 1.0885E-10, 
DataValue, -0.2, 2.947E-10, 
DataValue, -0.1, 4.526E-10, 
DataValue, 0, 6.3449E-10, 
DataValue, 0.1, 7.5609E-10, 
DataValue, 0.2, 8.3278E-10, 
DataValue, 0.3, 8.7784E-10, 
DataValue, 0.4, 9.0039E-10, 
DataValue, 0.5, 9.1533E-10, 
DataValue, 0.6, 9.4641E-10, 
DataValue, 0.70000000000000007, 9.5716E-10, 
DataValue, 0.8, 9.9042E-10, 
DataValue, 0.9, 9.9102E-10, 
DataValue, 1, 1.00926E-09, 
DataValue, 1.1, 1.00075E-09, 
DataValue, 1.2, 1.03627E-09, 
DataValue, 1.3, 1.09262E-09, 
DataValue, 1.4000000000000001, 1.09697E-09, 
DataValue, 1.5, 1.10897E-09, 
DataValue, 1.6, 1.12838E-09, 
DataValue, 1.7, 1.15352E-09, 
DataValue, 1.8, 1.14239E-09, 
DataValue, 1.9000000000000001, 1.15526E-09, 
DataValue, 2, 1.16653E-09, 
DataValue, 2.1, 1.20498E-09, 
DataValue, 2.2, 1.19591E-09, 
DataValue, 2.3000000000000003, 1.21077E-09, 
DataValue, 2.4, 1.24004E-09, 
DataValue, 2.5, 1.26451E-09, 
DataValue, 2.6, 1.26104E-09, 
DataValue, 2.7, 1.28085E-09, 
DataValue, 2.8000000000000003, 1.30984E-09, 
DataValue, 2.9, 1.30742E-09, 
DataValue, 3, 1.33906E-09, 
DataValue, 3.1, 1.34332E-09, 
DataValue, 3.2, 1.34854E-09, 
DataValue, 3.3000000000000003, 1.35125E-09, 
DataValue, 3.4, 1.36992E-09, 
DataValue, 3.5, 1.37705E-09, 
DataValue, 3.6, 1.40362E-09, 
DataValue, 3.7, 1.41303E-09, 
DataValue, 3.8000000000000003, 1.43891E-09, 
DataValue, 3.9, 1.45059E-09, 
DataValue, 4, 1.45014E-09, 
DataValue, 4.1, 1.47005E-09, 
DataValue, 4.2, 1.49006E-09, 
DataValue, 4.3, 1.48672E-09, 
DataValue, 4.4, 1.4779E-09, 
DataValue, 4.5, 1.5011E-09, 
DataValue, 4.6000000000000005, 1.51071E-09, 
DataValue, 4.7, 1.52004E-09, 
DataValue, 4.8, 1.52513E-09, 
DataValue, 4.9, 1.55402E-09, 
DataValue, 5, 1.59157E-09, 