
SetupTitle, WW
PrimitiveTest, I/V Sweep
TestParameter, Context.MainFrame, B1500A
TestParameter, Channel.UnitType, SMU, SMU
TestParameter, Channel.Unit, SMU2:HP, SMU1:HP
TestParameter, Channel.IName, I1, I4
TestParameter, Channel.VName, V1, V4
TestParameter, Channel.Mode, V, COMMON
TestParameter, Channel.Func, VAR1, CONST
TestParameter, Channel.Index, 
TestParameter, Channel.Time, 
TestParameter, Measurement.Port.Unit, SMU2:HP, SMU1:HP
TestParameter, Measurement.Port.SeriesResistor, NONE, NONE
TestParameter, Measurement.Port.Filter, ON, ON
TestParameter, Measurement.Port.OutputVoltageComparison, 0, 0
TestParameter, Measurement.Primary.Locus, Single
TestParameter, Measurement.Primary.Scale, LINEAR
TestParameter, Measurement.Primary.Start, -5
TestParameter, Measurement.Primary.Stop, 5
TestParameter, Measurement.Primary.Step, 0.1
TestParameter, Measurement.Primary.Compliance, 0.1
TestParameter, Measurement.Primary.PowerCompliance, 0
TestParameter, Measurement.Aborting.Condition, CONTINUE AT ANY
TestParameter, Measurement.PostOutput.Value, START
TestParameter, Measurement.PostOutput.Retention, OFF
TestParameter, Measurement.Bias.Source, -5, 0
TestParameter, Measurement.Bias.Compliance, 0.1, 1
TestParameter, Measurement.Monitor.Unit, SMU2:HP, SMU1:HP
TestParameter, Measurement.Monitor.Adc, HR ADC, HR ADC
TestParameter, Measurement.Monitor.Measurement, Compliance Side, Compliance Side
TestParameter, Measurement.Monitor.RangingMode, AUTO, AUTO
TestParameter, Measurement.Monitor.RangeBoundary, , 
TestParameter, Measurement.Monitor.RangeRating, BY FULL RANGE, BY FULL RANGE
TestParameter, Measurement.Monitor.RangeRatingCoeff, 50, 50
TestParameter, Measurement.Timing.Hold, 0
TestParameter, Measurement.Timing.Delay, 0.001
TestParameter, Measurement.Adc.HighSpeed.Mode, AUTO
TestParameter, Measurement.Adc.HighSpeed.Coeff, 1
TestParameter, Measurement.Adc.HighResolution.AutoZero, OFF
TestParameter, Measurement.Adc.HighResolution.Mode, PLC
TestParameter, Measurement.Adc.HighResolution.Coeff, 1
TestParameter, Measurement.WaitTime.Source.Coeff, 1
TestParameter, Measurement.WaitTime.Source.Offset, 0
TestParameter, Measurement.WaitTime.Monitor.Coeff, 1
TestParameter, Measurement.WaitTime.Monitor.Offset, 0
TestParameter, Function.User.Name, Ohmic
TestParameter, Function.User.Unit, ohm
TestParameter, Function.User.Definition, avg(V1/I1)
TestParameter, Output.Graph.Enabled, true
TestParameter, Output.Graph.XAxis.Data, V1
TestParameter, Output.Graph.XAxis.Scale, Linear
TestParameter, Output.Graph.XAxis.Left, -5
TestParameter, Output.Graph.XAxis.Right, 5
TestParameter, Output.Graph.YAxis.Data, I1
TestParameter, Output.Graph.YAxis.Scale, Linear
TestParameter, Output.Graph.YAxis.Bottom, -0.001
TestParameter, Output.Graph.YAxis.Top, 0.001
TestParameter, Output.Graph.YAxis.Group, 
TestParameter, Output.Scalar.Data, Ohmic
TestParameter, AutoAnalysis.Interpolation, false
TestParameter, AutoAnalysis.Line1.Enabled, false
TestParameter, AutoAnalysis.Line1.Type, 1
TestParameter, AutoAnalysis.Line1.Fix, True
TestParameter, AutoAnalysis.Line1.YAxis, 0
TestParameter, AutoAnalysis.Line1.Point1.Type, 0
TestParameter, AutoAnalysis.Line1.Point1.XY.X, 
TestParameter, AutoAnalysis.Line1.Point1.XY.Y, 
TestParameter, AutoAnalysis.Line1.Point1.Data.Var, 
TestParameter, AutoAnalysis.Line1.Point1.Data.Condition, 
TestParameter, AutoAnalysis.Line1.Point1.Data.Start, false
TestParameter, AutoAnalysis.Line1.Point1.Data.StartVar, 
TestParameter, AutoAnalysis.Line1.Point1.Data.StartCondition, 
TestParameter, AutoAnalysis.Line1.Point2.Type, 0
TestParameter, AutoAnalysis.Line1.Point2.XY.X, 
TestParameter, AutoAnalysis.Line1.Point2.XY.Y, 
TestParameter, AutoAnalysis.Line1.Point2.Data.Var, 
TestParameter, AutoAnalysis.Line1.Point2.Data.Condition, 
TestParameter, AutoAnalysis.Line1.Point2.Data.Start, false
TestParameter, AutoAnalysis.Line1.Point2.Data.StartVar, 
TestParameter, AutoAnalysis.Line1.Point2.Data.StartCondition, 
TestParameter, AutoAnalysis.Line1.GradientExpr, 0
TestParameter, AutoAnalysis.Line2.Enabled, false
TestParameter, AutoAnalysis.Line2.Type, 1
TestParameter, AutoAnalysis.Line2.Fix, True
TestParameter, AutoAnalysis.Line2.YAxis, 0
TestParameter, AutoAnalysis.Line2.Point1.Type, 0
TestParameter, AutoAnalysis.Line2.Point1.XY.X, 
TestParameter, AutoAnalysis.Line2.Point1.XY.Y, 
TestParameter, AutoAnalysis.Line2.Point1.Data.Var, 
TestParameter, AutoAnalysis.Line2.Point1.Data.Condition, 
TestParameter, AutoAnalysis.Line2.Point1.Data.Start, false
TestParameter, AutoAnalysis.Line2.Point1.Data.StartVar, 
TestParameter, AutoAnalysis.Line2.Point1.Data.StartCondition, 
TestParameter, AutoAnalysis.Line2.Point2.Type, 0
TestParameter, AutoAnalysis.Line2.Point2.XY.X, 
TestParameter, AutoAnalysis.Line2.Point2.XY.Y, 
TestParameter, AutoAnalysis.Line2.Point2.Data.Var, 
TestParameter, AutoAnalysis.Line2.Point2.Data.Condition, 
TestParameter, AutoAnalysis.Line2.Point2.Data.Start, false
TestParameter, AutoAnalysis.Line2.Point2.Data.StartVar, 
TestParameter, AutoAnalysis.Line2.Point2.Data.StartCondition, 
TestParameter, AutoAnalysis.Line2.GradientExpr, 0
TestParameter, AutoAnalysis.Marker.Enabled, false
TestParameter, AutoAnalysis.Marker.Data.Var, 
TestParameter, AutoAnalysis.Marker.Data.Condition, 
TestParameter, AutoAnalysis.Marker.Data.Start, false
TestParameter, AutoAnalysis.Marker.Data.StartVar, 
TestParameter, AutoAnalysis.Marker.Data.StartCondition, 
MetaData, TestRecord.EntryPoint, true
MetaData, TestRecord.RecordTime, 09/05/2020 14:25:38
MetaData, TestRecord.TestTarget, 
MetaData, TestRecord.IterationIndex, 6
MetaData, TestRecord.Preservation, true
MetaData, TestRecord.Flag, 
MetaData, TestRecord.Remarks, 
MetaData, TestRecord.LinkKey, ba511696-6889-458d-9fef-ee8eb644fb91
Dimension1, 101, 101, 101
Dimension2, 1, 1, 1
DataName, V1, I1, Ohmic
DataValue, -5, -5.221E-10, 5775549418.4550028
DataValue, -4.9, -5.028E-10, 
DataValue, -4.8, -4.8673E-10, 
DataValue, -4.7, -4.445E-10, 
DataValue, -4.6000000000000005, -4.3268E-10, 
DataValue, -4.5, -4.09E-10, 
DataValue, -4.4, -4.0993E-10, 
DataValue, -4.3, -3.803E-10, 
DataValue, -4.2, -3.9194E-10, 
DataValue, -4.1, -3.5880999999999997E-10, 
DataValue, -4, -3.5819E-10, 
DataValue, -3.9, -3.4578E-10, 
DataValue, -3.8000000000000003, -3.3211E-10, 
DataValue, -3.7, -3.1782E-10, 
DataValue, -3.6, -3.1971E-10, 
DataValue, -3.5, -3.1965E-10, 
DataValue, -3.4, -2.9415E-10, 
DataValue, -3.3000000000000003, -2.9666E-10, 
DataValue, -3.2, -2.9634E-10, 
DataValue, -3.1, -2.7636E-10, 
DataValue, -3, -2.8221E-10, 
DataValue, -2.9, -3.1469E-10, 
DataValue, -2.8000000000000003, -2.7445E-10, 
DataValue, -2.7, -2.7139E-10, 
DataValue, -2.6, -2.8976E-10, 
DataValue, -2.5, -2.6648E-10, 
DataValue, -2.4, -2.684E-10, 
DataValue, -2.3000000000000003, -2.7501E-10, 
DataValue, -2.2, -2.4746E-10, 
DataValue, -2.1, -2.5178E-10, 
DataValue, -2, -2.2956E-10, 
DataValue, -1.9000000000000001, -2.4229E-10, 
DataValue, -1.8, -2.5807E-10, 
DataValue, -1.7, -2.1615E-10, 
DataValue, -1.6, -2.3947E-10, 
DataValue, -1.5, -2.0767E-10, 
DataValue, -1.4000000000000001, -2.2201E-10, 
DataValue, -1.3, -2.1585E-10, 
DataValue, -1.2, -2.0527E-10, 
DataValue, -1.1, -1.7914E-10, 
DataValue, -1, -1.9067E-10, 
DataValue, -0.9, -1.7277E-10, 
DataValue, -0.8, -1.2864E-10, 
DataValue, -0.70000000000000007, -1.2847E-10, 
DataValue, -0.6, -6.535E-11, 
DataValue, -0.5, -1.83E-11, 
DataValue, -0.4, 4.868E-11, 
DataValue, -0.3, 1.2019E-10, 
DataValue, -0.2, 1.9589E-10, 
DataValue, -0.1, 2.8099E-10, 
DataValue, 0, 3.4123E-10, 
DataValue, 0.1, 4.1056E-10, 
DataValue, 0.2, 4.4441E-10, 
DataValue, 0.3, 4.6545E-10, 
DataValue, 0.4, 4.6911E-10, 
DataValue, 0.5, 4.9094E-10, 
DataValue, 0.6, 5.0976E-10, 
DataValue, 0.70000000000000007, 5.2073E-10, 
DataValue, 0.8, 5.3356E-10, 
DataValue, 0.9, 5.6416E-10, 
DataValue, 1, 5.6893E-10, 
DataValue, 1.1, 6.0521E-10, 
DataValue, 1.2, 5.9519E-10, 
DataValue, 1.3, 6.0762E-10, 
DataValue, 1.4000000000000001, 6.2321E-10, 
DataValue, 1.5, 6.2511E-10, 
DataValue, 1.6, 6.5042E-10, 
DataValue, 1.7, 6.5279E-10, 
DataValue, 1.8, 6.6027E-10, 
DataValue, 1.9000000000000001, 6.6341E-10, 
DataValue, 2, 6.8795E-10, 
DataValue, 2.1, 6.9658E-10, 
DataValue, 2.2, 7.1832E-10, 
DataValue, 2.3000000000000003, 7.3405E-10, 
DataValue, 2.4, 7.104E-10, 
DataValue, 2.5, 7.3989E-10, 
DataValue, 2.6, 7.3993E-10, 
DataValue, 2.7, 7.587E-10, 
DataValue, 2.8000000000000003, 7.5649E-10, 
DataValue, 2.9, 7.719E-10, 
DataValue, 3, 7.751E-10, 
DataValue, 3.1, 7.8898E-10, 
DataValue, 3.2, 7.9719E-10, 
DataValue, 3.3000000000000003, 8.3167E-10, 
DataValue, 3.4, 8.4502E-10, 
DataValue, 3.5, 8.712E-10, 
DataValue, 3.6, 8.7131E-10, 
DataValue, 3.7, 8.5177E-10, 
DataValue, 3.8000000000000003, 9.0533E-10, 
DataValue, 3.9, 9.0171E-10, 
DataValue, 4, 9.2620999999999995E-10, 
DataValue, 4.1, 9.3473E-10, 
DataValue, 4.2, 9.2149E-10, 
DataValue, 4.3, 9.4624E-10, 
DataValue, 4.4, 9.5302E-10, 
DataValue, 4.5, 9.698E-10, 
DataValue, 4.6000000000000005, 1.01954E-09, 
DataValue, 4.7, 1.01346E-09, 
DataValue, 4.8, 1.02924E-09, 
DataValue, 4.9, 1.04867E-09, 
DataValue, 5, 1.07551E-09, 