
SetupTitle, WW
PrimitiveTest, I/V Sweep
TestParameter, Context.MainFrame, B1500A
TestParameter, Channel.UnitType, SMU, SMU
TestParameter, Channel.Unit, SMU2:HP, SMU1:HP
TestParameter, Channel.IName, I1, I4
TestParameter, Channel.VName, V1, V4
TestParameter, Channel.Mode, V, COMMON
TestParameter, Channel.Func, VAR1, CONST
TestParameter, Channel.Index, 
TestParameter, Channel.Time, 
TestParameter, Measurement.Port.Unit, SMU2:HP, SMU1:HP
TestParameter, Measurement.Port.SeriesResistor, NONE, NONE
TestParameter, Measurement.Port.Filter, ON, ON
TestParameter, Measurement.Port.OutputVoltageComparison, 0, 0
TestParameter, Measurement.Primary.Locus, Single
TestParameter, Measurement.Primary.Scale, LINEAR
TestParameter, Measurement.Primary.Start, -5
TestParameter, Measurement.Primary.Stop, 5
TestParameter, Measurement.Primary.Step, 0.1
TestParameter, Measurement.Primary.Compliance, 0.1
TestParameter, Measurement.Primary.PowerCompliance, 0
TestParameter, Measurement.Aborting.Condition, CONTINUE AT ANY
TestParameter, Measurement.PostOutput.Value, START
TestParameter, Measurement.PostOutput.Retention, OFF
TestParameter, Measurement.Bias.Source, -5, 0
TestParameter, Measurement.Bias.Compliance, 0.1, 1
TestParameter, Measurement.Monitor.Unit, SMU2:HP, SMU1:HP
TestParameter, Measurement.Monitor.Adc, HR ADC, HR ADC
TestParameter, Measurement.Monitor.Measurement, Compliance Side, Compliance Side
TestParameter, Measurement.Monitor.RangingMode, AUTO, AUTO
TestParameter, Measurement.Monitor.RangeBoundary, , 
TestParameter, Measurement.Monitor.RangeRating, BY FULL RANGE, BY FULL RANGE
TestParameter, Measurement.Monitor.RangeRatingCoeff, 50, 50
TestParameter, Measurement.Timing.Hold, 0
TestParameter, Measurement.Timing.Delay, 0.001
TestParameter, Measurement.Adc.HighSpeed.Mode, AUTO
TestParameter, Measurement.Adc.HighSpeed.Coeff, 1
TestParameter, Measurement.Adc.HighResolution.AutoZero, OFF
TestParameter, Measurement.Adc.HighResolution.Mode, PLC
TestParameter, Measurement.Adc.HighResolution.Coeff, 1
TestParameter, Measurement.WaitTime.Source.Coeff, 1
TestParameter, Measurement.WaitTime.Source.Offset, 0
TestParameter, Measurement.WaitTime.Monitor.Coeff, 1
TestParameter, Measurement.WaitTime.Monitor.Offset, 0
TestParameter, Function.User.Name, Ohmic
TestParameter, Function.User.Unit, ohm
TestParameter, Function.User.Definition, avg(V1/I1)
TestParameter, Output.Graph.Enabled, true
TestParameter, Output.Graph.XAxis.Data, V1
TestParameter, Output.Graph.XAxis.Scale, Linear
TestParameter, Output.Graph.XAxis.Left, -5
TestParameter, Output.Graph.XAxis.Right, 5
TestParameter, Output.Graph.YAxis.Data, I1
TestParameter, Output.Graph.YAxis.Scale, Linear
TestParameter, Output.Graph.YAxis.Bottom, -0.001
TestParameter, Output.Graph.YAxis.Top, 0.001
TestParameter, Output.Graph.YAxis.Group, 
TestParameter, Output.Scalar.Data, Ohmic
TestParameter, AutoAnalysis.Interpolation, false
TestParameter, AutoAnalysis.Line1.Enabled, false
TestParameter, AutoAnalysis.Line1.Type, 1
TestParameter, AutoAnalysis.Line1.Fix, True
TestParameter, AutoAnalysis.Line1.YAxis, 0
TestParameter, AutoAnalysis.Line1.Point1.Type, 0
TestParameter, AutoAnalysis.Line1.Point1.XY.X, 
TestParameter, AutoAnalysis.Line1.Point1.XY.Y, 
TestParameter, AutoAnalysis.Line1.Point1.Data.Var, 
TestParameter, AutoAnalysis.Line1.Point1.Data.Condition, 
TestParameter, AutoAnalysis.Line1.Point1.Data.Start, false
TestParameter, AutoAnalysis.Line1.Point1.Data.StartVar, 
TestParameter, AutoAnalysis.Line1.Point1.Data.StartCondition, 
TestParameter, AutoAnalysis.Line1.Point2.Type, 0
TestParameter, AutoAnalysis.Line1.Point2.XY.X, 
TestParameter, AutoAnalysis.Line1.Point2.XY.Y, 
TestParameter, AutoAnalysis.Line1.Point2.Data.Var, 
TestParameter, AutoAnalysis.Line1.Point2.Data.Condition, 
TestParameter, AutoAnalysis.Line1.Point2.Data.Start, false
TestParameter, AutoAnalysis.Line1.Point2.Data.StartVar, 
TestParameter, AutoAnalysis.Line1.Point2.Data.StartCondition, 
TestParameter, AutoAnalysis.Line1.GradientExpr, 0
TestParameter, AutoAnalysis.Line2.Enabled, false
TestParameter, AutoAnalysis.Line2.Type, 1
TestParameter, AutoAnalysis.Line2.Fix, True
TestParameter, AutoAnalysis.Line2.YAxis, 0
TestParameter, AutoAnalysis.Line2.Point1.Type, 0
TestParameter, AutoAnalysis.Line2.Point1.XY.X, 
TestParameter, AutoAnalysis.Line2.Point1.XY.Y, 
TestParameter, AutoAnalysis.Line2.Point1.Data.Var, 
TestParameter, AutoAnalysis.Line2.Point1.Data.Condition, 
TestParameter, AutoAnalysis.Line2.Point1.Data.Start, false
TestParameter, AutoAnalysis.Line2.Point1.Data.StartVar, 
TestParameter, AutoAnalysis.Line2.Point1.Data.StartCondition, 
TestParameter, AutoAnalysis.Line2.Point2.Type, 0
TestParameter, AutoAnalysis.Line2.Point2.XY.X, 
TestParameter, AutoAnalysis.Line2.Point2.XY.Y, 
TestParameter, AutoAnalysis.Line2.Point2.Data.Var, 
TestParameter, AutoAnalysis.Line2.Point2.Data.Condition, 
TestParameter, AutoAnalysis.Line2.Point2.Data.Start, false
TestParameter, AutoAnalysis.Line2.Point2.Data.StartVar, 
TestParameter, AutoAnalysis.Line2.Point2.Data.StartCondition, 
TestParameter, AutoAnalysis.Line2.GradientExpr, 0
TestParameter, AutoAnalysis.Marker.Enabled, false
TestParameter, AutoAnalysis.Marker.Data.Var, 
TestParameter, AutoAnalysis.Marker.Data.Condition, 
TestParameter, AutoAnalysis.Marker.Data.Start, false
TestParameter, AutoAnalysis.Marker.Data.StartVar, 
TestParameter, AutoAnalysis.Marker.Data.StartCondition, 
MetaData, TestRecord.EntryPoint, true
MetaData, TestRecord.RecordTime, 09/04/2020 10:33:49
MetaData, TestRecord.TestTarget, 
MetaData, TestRecord.IterationIndex, 33
MetaData, TestRecord.Preservation, true
MetaData, TestRecord.Flag, 
MetaData, TestRecord.Remarks, 
MetaData, TestRecord.LinkKey, 5fcc1073-690b-4f16-a6cc-35723491f0bf
Dimension1, 101, 101, 101
Dimension2, 1, 1, 1
DataName, V1, I1, Ohmic
DataValue, -5, -1.4985999999999998E-09, 1170152917.210062
DataValue, -4.9, -1.3883999999999999E-09, 
DataValue, -4.8, -1.3897999999999999E-09, 
DataValue, -4.7, -1.2790999999999999E-09, 
DataValue, -4.6000000000000005, -1.3441E-09, 
DataValue, -4.5, -1.3831E-09, 
DataValue, -4.4, -1.3555E-09, 
DataValue, -4.3, -1.3605999999999998E-09, 
DataValue, -4.2, -1.3178E-09, 
DataValue, -4.1, -1.3011999999999998E-09, 
DataValue, -4, -1.2948E-09, 
DataValue, -3.9, -1.2377999999999998E-09, 
DataValue, -3.8000000000000003, -1.3266999999999998E-09, 
DataValue, -3.7, -1.2228E-09, 
DataValue, -3.6, -1.1952E-09, 
DataValue, -3.5, -1.2458E-09, 
DataValue, -3.4, -1.1769E-09, 
DataValue, -3.3000000000000003, -1.2364999999999998E-09, 
DataValue, -3.2, -1.1952999999999998E-09, 
DataValue, -3.1, -1.1919E-09, 
DataValue, -3, -1.1584999999999999E-09, 
DataValue, -2.9, -1.1978E-09, 
DataValue, -2.8000000000000003, -1.1923E-09, 
DataValue, -2.7, -1.1204E-09, 
DataValue, -2.6, -1.1116999999999998E-09, 
DataValue, -2.5, -1.075E-09, 
DataValue, -2.4, -9.8569999999999981E-10, 
DataValue, -2.3000000000000003, -1.0234E-09, 
DataValue, -2.2, -1.0112999999999998E-09, 
DataValue, -2.1, -9.6949999999999981E-10, 
DataValue, -2, -1.0193999999999998E-09, 
DataValue, -1.9000000000000001, -9.6749999999999981E-10, 
DataValue, -1.8, -1.0235999999999999E-09, 
DataValue, -1.7, -9.4939999999999984E-10, 
DataValue, -1.6, -9.1729999999999992E-10, 
DataValue, -1.5, -9.491E-10, 
DataValue, -1.4000000000000001, -8.7489999999999995E-10, 
DataValue, -1.3, -9.436E-10, 
DataValue, -1.2, -8.8769999999999994E-10, 
DataValue, -1.1, -8.6999999999999989E-10, 
DataValue, -1, -9.134999999999999E-10, 
DataValue, -0.9, -7.539E-10, 
DataValue, -0.8, -6.5909999999999993E-10, 
DataValue, -0.70000000000000007, -4.4409999999999994E-10, 
DataValue, -0.6, -2.056E-10, 
DataValue, -0.5, 2.1989999999999999E-10, 
DataValue, -0.4, 6.923E-10, 
DataValue, -0.3, 1.1595999999999998E-09, 
DataValue, -0.2, 2.4693999999999998E-09, 
DataValue, -0.1, 4.4886999999999992E-09, 
DataValue, 0, 6.0009E-09, 
DataValue, 0.1, 7.1342E-09, 
DataValue, 0.2, 7.9826E-09, 
DataValue, 0.3, 8.5045999999999989E-09, 
DataValue, 0.4, 8.904E-09, 
DataValue, 0.5, 9.2455999999999988E-09, 
DataValue, 0.6, 9.4442E-09, 
DataValue, 0.70000000000000007, 9.5623999999999983E-09, 
DataValue, 0.8, 9.7251E-09, 
DataValue, 0.9, 9.7791999999999987E-09, 
DataValue, 1, 9.8352E-09, 
DataValue, 1.1, 9.8588999999999987E-09, 
DataValue, 1.2, 9.911099999999999E-09, 
DataValue, 1.3, 9.9088999999999991E-09, 
DataValue, 1.4000000000000001, 9.9992999999999988E-09, 
DataValue, 1.5, 1.0022799999999999E-08, 
DataValue, 1.6, 1.00855E-08, 
DataValue, 1.7, 1.0116499999999998E-08, 
DataValue, 1.8, 1.02515E-08, 
DataValue, 1.9000000000000001, 1.0329499999999998E-08, 
DataValue, 2, 1.0406599999999998E-08, 
DataValue, 2.1, 1.04534E-08, 
DataValue, 2.2, 1.0483699999999998E-08, 
DataValue, 2.3000000000000003, 1.0577199999999999E-08, 
DataValue, 2.4, 1.06902E-08, 
DataValue, 2.5, 1.07684E-08, 
DataValue, 2.6, 1.0834899999999999E-08, 
DataValue, 2.7, 1.0904199999999999E-08, 
DataValue, 2.8000000000000003, 1.09244E-08, 
DataValue, 2.9, 1.1006999999999999E-08, 
DataValue, 3, 1.1021399999999998E-08, 
DataValue, 3.1, 1.1147999999999998E-08, 
DataValue, 3.2, 1.1198599999999998E-08, 
DataValue, 3.3000000000000003, 1.12253E-08, 
DataValue, 3.4, 1.1297499999999999E-08, 
DataValue, 3.5, 1.14142E-08, 
DataValue, 3.6, 1.14249E-08, 
DataValue, 3.7, 1.1496999999999999E-08, 
DataValue, 3.8000000000000003, 1.15921E-08, 
DataValue, 3.9, 1.1670499999999999E-08, 
DataValue, 4, 1.1751299999999999E-08, 
DataValue, 4.1, 1.17761E-08, 
DataValue, 4.2, 1.18934E-08, 
DataValue, 4.3, 1.1900399999999999E-08, 
DataValue, 4.4, 1.2022499999999999E-08, 
DataValue, 4.5, 1.2061899999999999E-08, 
DataValue, 4.6000000000000005, 1.2119299999999999E-08, 
DataValue, 4.7, 1.2151599999999998E-08, 
DataValue, 4.8, 1.22479E-08, 
DataValue, 4.9, 1.22695E-08, 
DataValue, 5, 1.2389999999999999E-08, 