
SetupTitle, WW
PrimitiveTest, I/V Sweep
TestParameter, Context.MainFrame, B1500A
TestParameter, Channel.UnitType, SMU, SMU
TestParameter, Channel.Unit, SMU2:HP, SMU1:HP
TestParameter, Channel.IName, I1, I4
TestParameter, Channel.VName, V1, V4
TestParameter, Channel.Mode, V, COMMON
TestParameter, Channel.Func, VAR1, CONST
TestParameter, Channel.Index, 
TestParameter, Channel.Time, 
TestParameter, Measurement.Port.Unit, SMU2:HP, SMU1:HP
TestParameter, Measurement.Port.SeriesResistor, NONE, NONE
TestParameter, Measurement.Port.Filter, ON, ON
TestParameter, Measurement.Port.OutputVoltageComparison, 0, 0
TestParameter, Measurement.Primary.Locus, Single
TestParameter, Measurement.Primary.Scale, LINEAR
TestParameter, Measurement.Primary.Start, -5
TestParameter, Measurement.Primary.Stop, 5
TestParameter, Measurement.Primary.Step, 0.1
TestParameter, Measurement.Primary.Compliance, 0.1
TestParameter, Measurement.Primary.PowerCompliance, 0
TestParameter, Measurement.Aborting.Condition, CONTINUE AT ANY
TestParameter, Measurement.PostOutput.Value, START
TestParameter, Measurement.PostOutput.Retention, OFF
TestParameter, Measurement.Bias.Source, -5, 0
TestParameter, Measurement.Bias.Compliance, 0.1, 1
TestParameter, Measurement.Monitor.Unit, SMU2:HP, SMU1:HP
TestParameter, Measurement.Monitor.Adc, HR ADC, HR ADC
TestParameter, Measurement.Monitor.Measurement, Compliance Side, Compliance Side
TestParameter, Measurement.Monitor.RangingMode, AUTO, AUTO
TestParameter, Measurement.Monitor.RangeBoundary, , 
TestParameter, Measurement.Monitor.RangeRating, BY FULL RANGE, BY FULL RANGE
TestParameter, Measurement.Monitor.RangeRatingCoeff, 50, 50
TestParameter, Measurement.Timing.Hold, 0
TestParameter, Measurement.Timing.Delay, 0.001
TestParameter, Measurement.Adc.HighSpeed.Mode, AUTO
TestParameter, Measurement.Adc.HighSpeed.Coeff, 1
TestParameter, Measurement.Adc.HighResolution.AutoZero, OFF
TestParameter, Measurement.Adc.HighResolution.Mode, PLC
TestParameter, Measurement.Adc.HighResolution.Coeff, 1
TestParameter, Measurement.WaitTime.Source.Coeff, 1
TestParameter, Measurement.WaitTime.Source.Offset, 0
TestParameter, Measurement.WaitTime.Monitor.Coeff, 1
TestParameter, Measurement.WaitTime.Monitor.Offset, 0
TestParameter, Function.User.Name, Ohmic
TestParameter, Function.User.Unit, ohm
TestParameter, Function.User.Definition, avg(V1/I1)
TestParameter, Output.Graph.Enabled, true
TestParameter, Output.Graph.XAxis.Data, V1
TestParameter, Output.Graph.XAxis.Scale, Linear
TestParameter, Output.Graph.XAxis.Left, -5
TestParameter, Output.Graph.XAxis.Right, 5
TestParameter, Output.Graph.YAxis.Data, I1
TestParameter, Output.Graph.YAxis.Scale, Linear
TestParameter, Output.Graph.YAxis.Bottom, -0.001
TestParameter, Output.Graph.YAxis.Top, 0.001
TestParameter, Output.Graph.YAxis.Group, 
TestParameter, Output.Scalar.Data, Ohmic
TestParameter, AutoAnalysis.Interpolation, false
TestParameter, AutoAnalysis.Line1.Enabled, false
TestParameter, AutoAnalysis.Line1.Type, 1
TestParameter, AutoAnalysis.Line1.Fix, True
TestParameter, AutoAnalysis.Line1.YAxis, 0
TestParameter, AutoAnalysis.Line1.Point1.Type, 0
TestParameter, AutoAnalysis.Line1.Point1.XY.X, 
TestParameter, AutoAnalysis.Line1.Point1.XY.Y, 
TestParameter, AutoAnalysis.Line1.Point1.Data.Var, 
TestParameter, AutoAnalysis.Line1.Point1.Data.Condition, 
TestParameter, AutoAnalysis.Line1.Point1.Data.Start, false
TestParameter, AutoAnalysis.Line1.Point1.Data.StartVar, 
TestParameter, AutoAnalysis.Line1.Point1.Data.StartCondition, 
TestParameter, AutoAnalysis.Line1.Point2.Type, 0
TestParameter, AutoAnalysis.Line1.Point2.XY.X, 
TestParameter, AutoAnalysis.Line1.Point2.XY.Y, 
TestParameter, AutoAnalysis.Line1.Point2.Data.Var, 
TestParameter, AutoAnalysis.Line1.Point2.Data.Condition, 
TestParameter, AutoAnalysis.Line1.Point2.Data.Start, false
TestParameter, AutoAnalysis.Line1.Point2.Data.StartVar, 
TestParameter, AutoAnalysis.Line1.Point2.Data.StartCondition, 
TestParameter, AutoAnalysis.Line1.GradientExpr, 0
TestParameter, AutoAnalysis.Line2.Enabled, false
TestParameter, AutoAnalysis.Line2.Type, 1
TestParameter, AutoAnalysis.Line2.Fix, True
TestParameter, AutoAnalysis.Line2.YAxis, 0
TestParameter, AutoAnalysis.Line2.Point1.Type, 0
TestParameter, AutoAnalysis.Line2.Point1.XY.X, 
TestParameter, AutoAnalysis.Line2.Point1.XY.Y, 
TestParameter, AutoAnalysis.Line2.Point1.Data.Var, 
TestParameter, AutoAnalysis.Line2.Point1.Data.Condition, 
TestParameter, AutoAnalysis.Line2.Point1.Data.Start, false
TestParameter, AutoAnalysis.Line2.Point1.Data.StartVar, 
TestParameter, AutoAnalysis.Line2.Point1.Data.StartCondition, 
TestParameter, AutoAnalysis.Line2.Point2.Type, 0
TestParameter, AutoAnalysis.Line2.Point2.XY.X, 
TestParameter, AutoAnalysis.Line2.Point2.XY.Y, 
TestParameter, AutoAnalysis.Line2.Point2.Data.Var, 
TestParameter, AutoAnalysis.Line2.Point2.Data.Condition, 
TestParameter, AutoAnalysis.Line2.Point2.Data.Start, false
TestParameter, AutoAnalysis.Line2.Point2.Data.StartVar, 
TestParameter, AutoAnalysis.Line2.Point2.Data.StartCondition, 
TestParameter, AutoAnalysis.Line2.GradientExpr, 0
TestParameter, AutoAnalysis.Marker.Enabled, false
TestParameter, AutoAnalysis.Marker.Data.Var, 
TestParameter, AutoAnalysis.Marker.Data.Condition, 
TestParameter, AutoAnalysis.Marker.Data.Start, false
TestParameter, AutoAnalysis.Marker.Data.StartVar, 
TestParameter, AutoAnalysis.Marker.Data.StartCondition, 
MetaData, TestRecord.EntryPoint, true
MetaData, TestRecord.RecordTime, 09/04/2020 10:33:20
MetaData, TestRecord.TestTarget, 
MetaData, TestRecord.IterationIndex, 32
MetaData, TestRecord.Preservation, true
MetaData, TestRecord.Flag, 
MetaData, TestRecord.Remarks, 
MetaData, TestRecord.LinkKey, 73674820-86ec-457e-aae5-9b9345c86ead
Dimension1, 101, 101, 101
Dimension2, 1, 1, 1
DataName, V1, I1, Ohmic
DataValue, -5, -1.5683999999999999E-09, 1210604060.3698988
DataValue, -4.9, -1.6504999999999998E-09, 
DataValue, -4.8, -1.5619999999999998E-09, 
DataValue, -4.7, -1.5209999999999998E-09, 
DataValue, -4.6000000000000005, -1.4717999999999998E-09, 
DataValue, -4.5, -1.4904E-09, 
DataValue, -4.4, -1.4695999999999998E-09, 
DataValue, -4.3, -1.4106999999999999E-09, 
DataValue, -4.2, -1.4088E-09, 
DataValue, -4.1, -1.3833E-09, 
DataValue, -4, -1.3683E-09, 
DataValue, -3.9, -1.3549999999999998E-09, 
DataValue, -3.8000000000000003, -1.3417999999999999E-09, 
DataValue, -3.7, -1.3152999999999998E-09, 
DataValue, -3.6, -1.2993999999999999E-09, 
DataValue, -3.5, -1.3004E-09, 
DataValue, -3.4, -1.2964999999999998E-09, 
DataValue, -3.3000000000000003, -1.2914E-09, 
DataValue, -3.2, -1.2493999999999998E-09, 
DataValue, -3.1, -1.1908999999999999E-09, 
DataValue, -3, -1.1738999999999998E-09, 
DataValue, -2.9, -1.1703E-09, 
DataValue, -2.8000000000000003, -1.1360999999999998E-09, 
DataValue, -2.7, -1.1213999999999999E-09, 
DataValue, -2.6, -1.1204999999999998E-09, 
DataValue, -2.5, -1.055E-09, 
DataValue, -2.4, -1.0583E-09, 
DataValue, -2.3000000000000003, -1.0457999999999998E-09, 
DataValue, -2.2, -1.0161999999999999E-09, 
DataValue, -2.1, -1.0161999999999999E-09, 
DataValue, -2, -9.5019999999999988E-10, 
DataValue, -1.9000000000000001, -9.7769999999999984E-10, 
DataValue, -1.8, -9.6149999999999983E-10, 
DataValue, -1.7, -9.0669999999999988E-10, 
DataValue, -1.6, -9.0919999999999992E-10, 
DataValue, -1.5, -9.259999999999999E-10, 
DataValue, -1.4000000000000001, -9.4609999999999987E-10, 
DataValue, -1.3, -8.6849999999999995E-10, 
DataValue, -1.2, -8.2399999999999995E-10, 
DataValue, -1.1, -9.0409999999999991E-10, 
DataValue, -1, -8.2379999999999988E-10, 
DataValue, -0.9, -7.4869999999999991E-10, 
DataValue, -0.8, -5.8259999999999993E-10, 
DataValue, -0.70000000000000007, -4.1249999999999997E-10, 
DataValue, -0.6, -6.0099999999999992E-11, 
DataValue, -0.5, 3.2429999999999996E-10, 
DataValue, -0.4, 7.5249999999999993E-10, 
DataValue, -0.3, 1.3295999999999998E-09, 
DataValue, -0.2, 2.6085E-09, 
DataValue, -0.1, 4.492E-09, 
DataValue, 0, 6.1318999999999995E-09, 
DataValue, 0.1, 7.2379999999999992E-09, 
DataValue, 0.2, 8.0035E-09, 
DataValue, 0.3, 8.5045999999999989E-09, 
DataValue, 0.4, 8.9382E-09, 
DataValue, 0.5, 9.2238E-09, 
DataValue, 0.6, 9.4465999999999984E-09, 
DataValue, 0.70000000000000007, 9.6252E-09, 
DataValue, 0.8, 9.7172E-09, 
DataValue, 0.9, 9.8211E-09, 
DataValue, 1, 9.8576999999999983E-09, 
DataValue, 1.1, 9.908499999999999E-09, 
DataValue, 1.2, 9.9246E-09, 
DataValue, 1.3, 1.0010499999999999E-08, 
DataValue, 1.4000000000000001, 9.9858999999999988E-09, 
DataValue, 1.5, 9.9995999999999984E-09, 
DataValue, 1.6, 1.0105699999999998E-08, 
DataValue, 1.7, 1.0170499999999998E-08, 
DataValue, 1.8, 1.01954E-08, 
DataValue, 1.9000000000000001, 1.0255199999999999E-08, 
DataValue, 2, 1.0351099999999998E-08, 
DataValue, 2.1, 1.03811E-08, 
DataValue, 2.2, 1.0468799999999998E-08, 
DataValue, 2.3000000000000003, 1.05137E-08, 
DataValue, 2.4, 1.0649799999999999E-08, 
DataValue, 2.5, 1.0664399999999999E-08, 
DataValue, 2.6, 1.0702799999999999E-08, 
DataValue, 2.7, 1.07483E-08, 
DataValue, 2.8000000000000003, 1.0852299999999998E-08, 
DataValue, 2.9, 1.0933199999999999E-08, 
DataValue, 3, 1.1037199999999999E-08, 
DataValue, 3.1, 1.1099399999999999E-08, 
DataValue, 3.2, 1.11821E-08, 
DataValue, 3.3000000000000003, 1.1267199999999999E-08, 
DataValue, 3.4, 1.1275699999999998E-08, 
DataValue, 3.5, 1.1393099999999999E-08, 
DataValue, 3.6, 1.14152E-08, 
DataValue, 3.7, 1.14562E-08, 
DataValue, 3.8000000000000003, 1.1503399999999999E-08, 
DataValue, 3.9, 1.1628799999999999E-08, 
DataValue, 4, 1.1700799999999999E-08, 
DataValue, 4.1, 1.1775499999999999E-08, 
DataValue, 4.2, 1.18345E-08, 
DataValue, 4.3, 1.19571E-08, 
DataValue, 4.4, 1.1984699999999998E-08, 
DataValue, 4.5, 1.20613E-08, 
DataValue, 4.6000000000000005, 1.20904E-08, 
DataValue, 4.7, 1.2163299999999999E-08, 
DataValue, 4.8, 1.2222499999999999E-08, 
DataValue, 4.9, 1.22915E-08, 
DataValue, 5, 1.2301199999999998E-08, 