
SetupTitle, WW
PrimitiveTest, I/V Sweep
TestParameter, Context.MainFrame, B1500A
TestParameter, Channel.UnitType, SMU, SMU
TestParameter, Channel.Unit, SMU2:HP, SMU1:HP
TestParameter, Channel.IName, I1, I4
TestParameter, Channel.VName, V1, V4
TestParameter, Channel.Mode, V, COMMON
TestParameter, Channel.Func, VAR1, CONST
TestParameter, Channel.Index, 
TestParameter, Channel.Time, 
TestParameter, Measurement.Port.Unit, SMU2:HP, SMU1:HP
TestParameter, Measurement.Port.SeriesResistor, NONE, NONE
TestParameter, Measurement.Port.Filter, ON, ON
TestParameter, Measurement.Port.OutputVoltageComparison, 0, 0
TestParameter, Measurement.Primary.Locus, Single
TestParameter, Measurement.Primary.Scale, LINEAR
TestParameter, Measurement.Primary.Start, -5
TestParameter, Measurement.Primary.Stop, 5
TestParameter, Measurement.Primary.Step, 0.1
TestParameter, Measurement.Primary.Compliance, 0.1
TestParameter, Measurement.Primary.PowerCompliance, 0
TestParameter, Measurement.Aborting.Condition, CONTINUE AT ANY
TestParameter, Measurement.PostOutput.Value, START
TestParameter, Measurement.PostOutput.Retention, OFF
TestParameter, Measurement.Bias.Source, -5, 0
TestParameter, Measurement.Bias.Compliance, 0.1, 1
TestParameter, Measurement.Monitor.Unit, SMU2:HP, SMU1:HP
TestParameter, Measurement.Monitor.Adc, HR ADC, HR ADC
TestParameter, Measurement.Monitor.Measurement, Compliance Side, Compliance Side
TestParameter, Measurement.Monitor.RangingMode, AUTO, AUTO
TestParameter, Measurement.Monitor.RangeBoundary, , 
TestParameter, Measurement.Monitor.RangeRating, BY FULL RANGE, BY FULL RANGE
TestParameter, Measurement.Monitor.RangeRatingCoeff, 50, 50
TestParameter, Measurement.Timing.Hold, 0
TestParameter, Measurement.Timing.Delay, 0.001
TestParameter, Measurement.Adc.HighSpeed.Mode, AUTO
TestParameter, Measurement.Adc.HighSpeed.Coeff, 1
TestParameter, Measurement.Adc.HighResolution.AutoZero, OFF
TestParameter, Measurement.Adc.HighResolution.Mode, PLC
TestParameter, Measurement.Adc.HighResolution.Coeff, 1
TestParameter, Measurement.WaitTime.Source.Coeff, 1
TestParameter, Measurement.WaitTime.Source.Offset, 0
TestParameter, Measurement.WaitTime.Monitor.Coeff, 1
TestParameter, Measurement.WaitTime.Monitor.Offset, 0
TestParameter, Function.User.Name, Ohmic
TestParameter, Function.User.Unit, ohm
TestParameter, Function.User.Definition, avg(V1/I1)
TestParameter, Output.Graph.Enabled, true
TestParameter, Output.Graph.XAxis.Data, V1
TestParameter, Output.Graph.XAxis.Scale, Linear
TestParameter, Output.Graph.XAxis.Left, -5
TestParameter, Output.Graph.XAxis.Right, 5
TestParameter, Output.Graph.YAxis.Data, I1
TestParameter, Output.Graph.YAxis.Scale, Linear
TestParameter, Output.Graph.YAxis.Bottom, -0.001
TestParameter, Output.Graph.YAxis.Top, 0.001
TestParameter, Output.Graph.YAxis.Group, 
TestParameter, Output.Scalar.Data, Ohmic
TestParameter, AutoAnalysis.Interpolation, false
TestParameter, AutoAnalysis.Line1.Enabled, false
TestParameter, AutoAnalysis.Line1.Type, 1
TestParameter, AutoAnalysis.Line1.Fix, True
TestParameter, AutoAnalysis.Line1.YAxis, 0
TestParameter, AutoAnalysis.Line1.Point1.Type, 0
TestParameter, AutoAnalysis.Line1.Point1.XY.X, 
TestParameter, AutoAnalysis.Line1.Point1.XY.Y, 
TestParameter, AutoAnalysis.Line1.Point1.Data.Var, 
TestParameter, AutoAnalysis.Line1.Point1.Data.Condition, 
TestParameter, AutoAnalysis.Line1.Point1.Data.Start, false
TestParameter, AutoAnalysis.Line1.Point1.Data.StartVar, 
TestParameter, AutoAnalysis.Line1.Point1.Data.StartCondition, 
TestParameter, AutoAnalysis.Line1.Point2.Type, 0
TestParameter, AutoAnalysis.Line1.Point2.XY.X, 
TestParameter, AutoAnalysis.Line1.Point2.XY.Y, 
TestParameter, AutoAnalysis.Line1.Point2.Data.Var, 
TestParameter, AutoAnalysis.Line1.Point2.Data.Condition, 
TestParameter, AutoAnalysis.Line1.Point2.Data.Start, false
TestParameter, AutoAnalysis.Line1.Point2.Data.StartVar, 
TestParameter, AutoAnalysis.Line1.Point2.Data.StartCondition, 
TestParameter, AutoAnalysis.Line1.GradientExpr, 0
TestParameter, AutoAnalysis.Line2.Enabled, false
TestParameter, AutoAnalysis.Line2.Type, 1
TestParameter, AutoAnalysis.Line2.Fix, True
TestParameter, AutoAnalysis.Line2.YAxis, 0
TestParameter, AutoAnalysis.Line2.Point1.Type, 0
TestParameter, AutoAnalysis.Line2.Point1.XY.X, 
TestParameter, AutoAnalysis.Line2.Point1.XY.Y, 
TestParameter, AutoAnalysis.Line2.Point1.Data.Var, 
TestParameter, AutoAnalysis.Line2.Point1.Data.Condition, 
TestParameter, AutoAnalysis.Line2.Point1.Data.Start, false
TestParameter, AutoAnalysis.Line2.Point1.Data.StartVar, 
TestParameter, AutoAnalysis.Line2.Point1.Data.StartCondition, 
TestParameter, AutoAnalysis.Line2.Point2.Type, 0
TestParameter, AutoAnalysis.Line2.Point2.XY.X, 
TestParameter, AutoAnalysis.Line2.Point2.XY.Y, 
TestParameter, AutoAnalysis.Line2.Point2.Data.Var, 
TestParameter, AutoAnalysis.Line2.Point2.Data.Condition, 
TestParameter, AutoAnalysis.Line2.Point2.Data.Start, false
TestParameter, AutoAnalysis.Line2.Point2.Data.StartVar, 
TestParameter, AutoAnalysis.Line2.Point2.Data.StartCondition, 
TestParameter, AutoAnalysis.Line2.GradientExpr, 0
TestParameter, AutoAnalysis.Marker.Enabled, false
TestParameter, AutoAnalysis.Marker.Data.Var, 
TestParameter, AutoAnalysis.Marker.Data.Condition, 
TestParameter, AutoAnalysis.Marker.Data.Start, false
TestParameter, AutoAnalysis.Marker.Data.StartVar, 
TestParameter, AutoAnalysis.Marker.Data.StartCondition, 
MetaData, TestRecord.EntryPoint, true
MetaData, TestRecord.RecordTime, 09/04/2020 10:32:51
MetaData, TestRecord.TestTarget, 
MetaData, TestRecord.IterationIndex, 31
MetaData, TestRecord.Preservation, true
MetaData, TestRecord.Flag, 
MetaData, TestRecord.Remarks, 
MetaData, TestRecord.LinkKey, 78535ab6-7b5d-4f83-886d-1c035e71c969
Dimension1, 101, 101, 101
Dimension2, 1, 1, 1
DataName, V1, I1, Ohmic
DataValue, -5, -1.5201E-09, 1126251781.4102306
DataValue, -4.9, -1.5834999999999998E-09, 
DataValue, -4.8, -1.4887999999999999E-09, 
DataValue, -4.7, -1.4473E-09, 
DataValue, -4.6000000000000005, -1.4382999999999999E-09, 
DataValue, -4.5, -1.4166999999999999E-09, 
DataValue, -4.4, -1.4877E-09, 
DataValue, -4.3, -1.4553E-09, 
DataValue, -4.2, -1.3836999999999999E-09, 
DataValue, -4.1, -1.4227999999999999E-09, 
DataValue, -4, -1.4109999999999998E-09, 
DataValue, -3.9, -1.3935999999999998E-09, 
DataValue, -3.8000000000000003, -1.4119999999999999E-09, 
DataValue, -3.7, -1.3638999999999998E-09, 
DataValue, -3.6, -1.3657E-09, 
DataValue, -3.5, -1.3573999999999999E-09, 
DataValue, -3.4, -1.3289999999999999E-09, 
DataValue, -3.3000000000000003, -1.2581999999999999E-09, 
DataValue, -3.2, -1.2195999999999998E-09, 
DataValue, -3.1, -1.2629999999999999E-09, 
DataValue, -3, -1.2943E-09, 
DataValue, -2.9, -1.2349E-09, 
DataValue, -2.8000000000000003, -1.2099E-09, 
DataValue, -2.7, -1.2011E-09, 
DataValue, -2.6, -1.1202E-09, 
DataValue, -2.5, -1.0768999999999999E-09, 
DataValue, -2.4, -1.1932999999999998E-09, 
DataValue, -2.3000000000000003, -1.0772E-09, 
DataValue, -2.2, -1.0853E-09, 
DataValue, -2.1, -1.0679999999999998E-09, 
DataValue, -2, -1.0379E-09, 
DataValue, -1.9000000000000001, -1.0044E-09, 
DataValue, -1.8, -9.5409999999999984E-10, 
DataValue, -1.7, -9.7699999999999983E-10, 
DataValue, -1.6, -9.7649999999999988E-10, 
DataValue, -1.5, -9.646E-10, 
DataValue, -1.4000000000000001, -9.72E-10, 
DataValue, -1.3, -9.351E-10, 
DataValue, -1.2, -9.184E-10, 
DataValue, -1.1, -9.1359999999999993E-10, 
DataValue, -1, -8.5279999999999989E-10, 
DataValue, -0.9, -8.3129999999999991E-10, 
DataValue, -0.8, -6.7599999999999994E-10, 
DataValue, -0.70000000000000007, -3.8519999999999997E-10, 
DataValue, -0.6, -1.2929999999999998E-10, 
DataValue, -0.5, 2.425E-10, 
DataValue, -0.4, 6.522E-10, 
DataValue, -0.3, 1.1898999999999998E-09, 
DataValue, -0.2, 2.3732999999999997E-09, 
DataValue, -0.1, 4.3265999999999995E-09, 
DataValue, 0, 6.0013999999999996E-09, 
DataValue, 0.1, 7.184899999999999E-09, 
DataValue, 0.2, 7.9593999999999988E-09, 
DataValue, 0.3, 8.5413999999999986E-09, 
DataValue, 0.4, 8.9449999999999984E-09, 
DataValue, 0.5, 9.2756E-09, 
DataValue, 0.6, 9.5128E-09, 
DataValue, 0.70000000000000007, 9.7076E-09, 
DataValue, 0.8, 9.819499999999999E-09, 
DataValue, 0.9, 9.8431999999999984E-09, 
DataValue, 1, 9.8580999999999985E-09, 
DataValue, 1.1, 9.9146E-09, 
DataValue, 1.2, 9.9454E-09, 
DataValue, 1.3, 1.00475E-08, 
DataValue, 1.4000000000000001, 1.0087599999999999E-08, 
DataValue, 1.5, 1.0172099999999999E-08, 
DataValue, 1.6, 1.0173E-08, 
DataValue, 1.7, 1.0197699999999998E-08, 
DataValue, 1.8, 1.0189299999999999E-08, 
DataValue, 1.9000000000000001, 1.0273799999999999E-08, 
DataValue, 2, 1.0393699999999999E-08, 
DataValue, 2.1, 1.04661E-08, 
DataValue, 2.2, 1.0482599999999999E-08, 
DataValue, 2.3000000000000003, 1.0508999999999998E-08, 
DataValue, 2.4, 1.0624499999999999E-08, 
DataValue, 2.5, 1.0738499999999999E-08, 
DataValue, 2.6, 1.0818899999999999E-08, 
DataValue, 2.7, 1.08809E-08, 
DataValue, 2.8000000000000003, 1.09405E-08, 
DataValue, 2.9, 1.10335E-08, 
DataValue, 3, 1.1085899999999999E-08, 
DataValue, 3.1, 1.1115999999999998E-08, 
DataValue, 3.2, 1.1146299999999999E-08, 
DataValue, 3.3000000000000003, 1.1289899999999998E-08, 
DataValue, 3.4, 1.12648E-08, 
DataValue, 3.5, 1.1384199999999999E-08, 
DataValue, 3.6, 1.15046E-08, 
DataValue, 3.7, 1.1549499999999999E-08, 
DataValue, 3.8000000000000003, 1.1599799999999999E-08, 
DataValue, 3.9, 1.16659E-08, 
DataValue, 4, 1.16822E-08, 
DataValue, 4.1, 1.17597E-08, 
DataValue, 4.2, 1.19012E-08, 
DataValue, 4.3, 1.19865E-08, 
DataValue, 4.4, 1.1983999999999998E-08, 
DataValue, 4.5, 1.2096099999999998E-08, 
DataValue, 4.6000000000000005, 1.2126199999999998E-08, 
DataValue, 4.7, 1.22021E-08, 
DataValue, 4.8, 1.2337399999999998E-08, 
DataValue, 4.9, 1.24188E-08, 
DataValue, 5, 1.2419799999999999E-08, 