
SetupTitle, WW
PrimitiveTest, I/V Sweep
TestParameter, Context.MainFrame, B1500A
TestParameter, Channel.UnitType, SMU, SMU
TestParameter, Channel.Unit, SMU2:HP, SMU1:HP
TestParameter, Channel.IName, I1, I4
TestParameter, Channel.VName, V1, V4
TestParameter, Channel.Mode, V, COMMON
TestParameter, Channel.Func, VAR1, CONST
TestParameter, Channel.Index, 
TestParameter, Channel.Time, 
TestParameter, Measurement.Port.Unit, SMU2:HP, SMU1:HP
TestParameter, Measurement.Port.SeriesResistor, NONE, NONE
TestParameter, Measurement.Port.Filter, ON, ON
TestParameter, Measurement.Port.OutputVoltageComparison, 0, 0
TestParameter, Measurement.Primary.Locus, Single
TestParameter, Measurement.Primary.Scale, LINEAR
TestParameter, Measurement.Primary.Start, -5
TestParameter, Measurement.Primary.Stop, 5
TestParameter, Measurement.Primary.Step, 0.1
TestParameter, Measurement.Primary.Compliance, 0.1
TestParameter, Measurement.Primary.PowerCompliance, 0
TestParameter, Measurement.Aborting.Condition, CONTINUE AT ANY
TestParameter, Measurement.PostOutput.Value, START
TestParameter, Measurement.PostOutput.Retention, OFF
TestParameter, Measurement.Bias.Source, -5, 0
TestParameter, Measurement.Bias.Compliance, 0.1, 1
TestParameter, Measurement.Monitor.Unit, SMU2:HP, SMU1:HP
TestParameter, Measurement.Monitor.Adc, HR ADC, HR ADC
TestParameter, Measurement.Monitor.Measurement, Compliance Side, Compliance Side
TestParameter, Measurement.Monitor.RangingMode, AUTO, AUTO
TestParameter, Measurement.Monitor.RangeBoundary, , 
TestParameter, Measurement.Monitor.RangeRating, BY FULL RANGE, BY FULL RANGE
TestParameter, Measurement.Monitor.RangeRatingCoeff, 50, 50
TestParameter, Measurement.Timing.Hold, 0
TestParameter, Measurement.Timing.Delay, 0.001
TestParameter, Measurement.Adc.HighSpeed.Mode, AUTO
TestParameter, Measurement.Adc.HighSpeed.Coeff, 1
TestParameter, Measurement.Adc.HighResolution.AutoZero, OFF
TestParameter, Measurement.Adc.HighResolution.Mode, PLC
TestParameter, Measurement.Adc.HighResolution.Coeff, 1
TestParameter, Measurement.WaitTime.Source.Coeff, 1
TestParameter, Measurement.WaitTime.Source.Offset, 0
TestParameter, Measurement.WaitTime.Monitor.Coeff, 1
TestParameter, Measurement.WaitTime.Monitor.Offset, 0
TestParameter, Function.User.Name, Ohmic
TestParameter, Function.User.Unit, ohm
TestParameter, Function.User.Definition, avg(V1/I1)
TestParameter, Output.Graph.Enabled, true
TestParameter, Output.Graph.XAxis.Data, V1
TestParameter, Output.Graph.XAxis.Scale, Linear
TestParameter, Output.Graph.XAxis.Left, -5
TestParameter, Output.Graph.XAxis.Right, 5
TestParameter, Output.Graph.YAxis.Data, I1
TestParameter, Output.Graph.YAxis.Scale, Linear
TestParameter, Output.Graph.YAxis.Bottom, -0.001
TestParameter, Output.Graph.YAxis.Top, 0.001
TestParameter, Output.Graph.YAxis.Group, 
TestParameter, Output.Scalar.Data, Ohmic
TestParameter, AutoAnalysis.Interpolation, false
TestParameter, AutoAnalysis.Line1.Enabled, false
TestParameter, AutoAnalysis.Line1.Type, 1
TestParameter, AutoAnalysis.Line1.Fix, True
TestParameter, AutoAnalysis.Line1.YAxis, 0
TestParameter, AutoAnalysis.Line1.Point1.Type, 0
TestParameter, AutoAnalysis.Line1.Point1.XY.X, 
TestParameter, AutoAnalysis.Line1.Point1.XY.Y, 
TestParameter, AutoAnalysis.Line1.Point1.Data.Var, 
TestParameter, AutoAnalysis.Line1.Point1.Data.Condition, 
TestParameter, AutoAnalysis.Line1.Point1.Data.Start, false
TestParameter, AutoAnalysis.Line1.Point1.Data.StartVar, 
TestParameter, AutoAnalysis.Line1.Point1.Data.StartCondition, 
TestParameter, AutoAnalysis.Line1.Point2.Type, 0
TestParameter, AutoAnalysis.Line1.Point2.XY.X, 
TestParameter, AutoAnalysis.Line1.Point2.XY.Y, 
TestParameter, AutoAnalysis.Line1.Point2.Data.Var, 
TestParameter, AutoAnalysis.Line1.Point2.Data.Condition, 
TestParameter, AutoAnalysis.Line1.Point2.Data.Start, false
TestParameter, AutoAnalysis.Line1.Point2.Data.StartVar, 
TestParameter, AutoAnalysis.Line1.Point2.Data.StartCondition, 
TestParameter, AutoAnalysis.Line1.GradientExpr, 0
TestParameter, AutoAnalysis.Line2.Enabled, false
TestParameter, AutoAnalysis.Line2.Type, 1
TestParameter, AutoAnalysis.Line2.Fix, True
TestParameter, AutoAnalysis.Line2.YAxis, 0
TestParameter, AutoAnalysis.Line2.Point1.Type, 0
TestParameter, AutoAnalysis.Line2.Point1.XY.X, 
TestParameter, AutoAnalysis.Line2.Point1.XY.Y, 
TestParameter, AutoAnalysis.Line2.Point1.Data.Var, 
TestParameter, AutoAnalysis.Line2.Point1.Data.Condition, 
TestParameter, AutoAnalysis.Line2.Point1.Data.Start, false
TestParameter, AutoAnalysis.Line2.Point1.Data.StartVar, 
TestParameter, AutoAnalysis.Line2.Point1.Data.StartCondition, 
TestParameter, AutoAnalysis.Line2.Point2.Type, 0
TestParameter, AutoAnalysis.Line2.Point2.XY.X, 
TestParameter, AutoAnalysis.Line2.Point2.XY.Y, 
TestParameter, AutoAnalysis.Line2.Point2.Data.Var, 
TestParameter, AutoAnalysis.Line2.Point2.Data.Condition, 
TestParameter, AutoAnalysis.Line2.Point2.Data.Start, false
TestParameter, AutoAnalysis.Line2.Point2.Data.StartVar, 
TestParameter, AutoAnalysis.Line2.Point2.Data.StartCondition, 
TestParameter, AutoAnalysis.Line2.GradientExpr, 0
TestParameter, AutoAnalysis.Marker.Enabled, false
TestParameter, AutoAnalysis.Marker.Data.Var, 
TestParameter, AutoAnalysis.Marker.Data.Condition, 
TestParameter, AutoAnalysis.Marker.Data.Start, false
TestParameter, AutoAnalysis.Marker.Data.StartVar, 
TestParameter, AutoAnalysis.Marker.Data.StartCondition, 
MetaData, TestRecord.EntryPoint, true
MetaData, TestRecord.RecordTime, 09/04/2020 10:32:22
MetaData, TestRecord.TestTarget, 
MetaData, TestRecord.IterationIndex, 30
MetaData, TestRecord.Preservation, true
MetaData, TestRecord.Flag, 
MetaData, TestRecord.Remarks, 
MetaData, TestRecord.LinkKey, 8cc01653-0630-452b-82fa-40c3081914d9
Dimension1, 101, 101, 101
Dimension2, 1, 1, 1
DataName, V1, I1, Ohmic
DataValue, -5, -1.4883E-09, 989170582.25091052
DataValue, -4.9, -1.4982999999999999E-09, 
DataValue, -4.8, -1.5054999999999998E-09, 
DataValue, -4.7, -1.4242E-09, 
DataValue, -4.6000000000000005, -1.5331999999999998E-09, 
DataValue, -4.5, -1.4149E-09, 
DataValue, -4.4, -1.4978999999999998E-09, 
DataValue, -4.3, -1.4371E-09, 
DataValue, -4.2, -1.3922999999999998E-09, 
DataValue, -4.1, -1.4548999999999998E-09, 
DataValue, -4, -1.4024999999999999E-09, 
DataValue, -3.9, -1.4451E-09, 
DataValue, -3.8000000000000003, -1.3768999999999999E-09, 
DataValue, -3.7, -1.4031999999999999E-09, 
DataValue, -3.6, -1.3481E-09, 
DataValue, -3.5, -1.317E-09, 
DataValue, -3.4, -1.3334999999999998E-09, 
DataValue, -3.3000000000000003, -1.2334E-09, 
DataValue, -3.2, -1.2366999999999999E-09, 
DataValue, -3.1, -1.2682999999999999E-09, 
DataValue, -3, -1.2353999999999999E-09, 
DataValue, -2.9, -1.2390999999999998E-09, 
DataValue, -2.8000000000000003, -1.1675E-09, 
DataValue, -2.7, -1.1598999999999999E-09, 
DataValue, -2.6, -1.1723999999999998E-09, 
DataValue, -2.5, -1.117E-09, 
DataValue, -2.4, -1.1321999999999999E-09, 
DataValue, -2.3000000000000003, -1.1138999999999998E-09, 
DataValue, -2.2, -1.1245E-09, 
DataValue, -2.1, -1.1323E-09, 
DataValue, -2, -1.055E-09, 
DataValue, -1.9000000000000001, -1.1234999999999999E-09, 
DataValue, -1.8, -1.0457999999999998E-09, 
DataValue, -1.7, -9.693E-10, 
DataValue, -1.6, -1.0195999999999999E-09, 
DataValue, -1.5, -9.7639999999999985E-10, 
DataValue, -1.4000000000000001, -9.822999999999998E-10, 
DataValue, -1.3, -9.9389999999999985E-10, 
DataValue, -1.2, -1.0023E-09, 
DataValue, -1.1, -9.4009999999999989E-10, 
DataValue, -1, -9.0039999999999991E-10, 
DataValue, -0.9, -9.357E-10, 
DataValue, -0.8, -7.7739999999999992E-10, 
DataValue, -0.70000000000000007, -5.911E-10, 
DataValue, -0.6, -3.5E-10, 
DataValue, -0.5, 4.6799999999999996E-11, 
DataValue, -0.4, 3.8609999999999994E-10, 
DataValue, -0.3, 1.0193999999999998E-09, 
DataValue, -0.2, 2.3155999999999997E-09, 
DataValue, -0.1, 4.2671999999999995E-09, 
DataValue, 0, 6.0018E-09, 
DataValue, 0.1, 7.2896999999999989E-09, 
DataValue, 0.2, 7.9942E-09, 
DataValue, 0.3, 8.5215999999999984E-09, 
DataValue, 0.4, 8.9866999999999983E-09, 
DataValue, 0.5, 9.2898999999999987E-09, 
DataValue, 0.6, 9.4994999999999985E-09, 
DataValue, 0.70000000000000007, 9.7775E-09, 
DataValue, 0.8, 9.8131999999999992E-09, 
DataValue, 0.9, 9.9615E-09, 
DataValue, 1, 9.9776999999999987E-09, 
DataValue, 1.1, 1.00248E-08, 
DataValue, 1.2, 1.00579E-08, 
DataValue, 1.3, 1.0059899999999998E-08, 
DataValue, 1.4000000000000001, 1.0076399999999999E-08, 
DataValue, 1.5, 1.0126199999999998E-08, 
DataValue, 1.6, 1.02244E-08, 
DataValue, 1.7, 1.0291699999999999E-08, 
DataValue, 1.8, 1.0370499999999999E-08, 
DataValue, 1.9000000000000001, 1.03562E-08, 
DataValue, 2, 1.0503199999999999E-08, 
DataValue, 2.1, 1.05148E-08, 
DataValue, 2.2, 1.0554199999999999E-08, 
DataValue, 2.3000000000000003, 1.0647999999999999E-08, 
DataValue, 2.4, 1.06556E-08, 
DataValue, 2.5, 1.0798799999999999E-08, 
DataValue, 2.6, 1.0893099999999999E-08, 
DataValue, 2.7, 1.0927899999999998E-08, 
DataValue, 2.8000000000000003, 1.1018899999999999E-08, 
DataValue, 2.9, 1.10868E-08, 
DataValue, 3, 1.1138099999999999E-08, 
DataValue, 3.1, 1.1229699999999999E-08, 
DataValue, 3.2, 1.1365E-08, 
DataValue, 3.3000000000000003, 1.1408999999999998E-08, 
DataValue, 3.4, 1.14681E-08, 
DataValue, 3.5, 1.1468999999999998E-08, 
DataValue, 3.6, 1.1548299999999998E-08, 
DataValue, 3.7, 1.16056E-08, 
DataValue, 3.8000000000000003, 1.1690999999999999E-08, 
DataValue, 3.9, 1.1801999999999999E-08, 
DataValue, 4, 1.18956E-08, 
DataValue, 4.1, 1.1997199999999999E-08, 
DataValue, 4.2, 1.20017E-08, 
DataValue, 4.3, 1.20956E-08, 
DataValue, 4.4, 1.2193799999999999E-08, 
DataValue, 4.5, 1.2176E-08, 
DataValue, 4.6000000000000005, 1.2284499999999998E-08, 
DataValue, 4.7, 1.23522E-08, 
DataValue, 4.8, 1.2407799999999998E-08, 
DataValue, 4.9, 1.2594099999999999E-08, 
DataValue, 5, 1.2640199999999999E-08, 