
SetupTitle, WW
PrimitiveTest, I/V Sweep
TestParameter, Context.MainFrame, B1500A
TestParameter, Channel.UnitType, SMU, SMU
TestParameter, Channel.Unit, SMU2:HP, SMU1:HP
TestParameter, Channel.IName, I1, I4
TestParameter, Channel.VName, V1, V4
TestParameter, Channel.Mode, V, COMMON
TestParameter, Channel.Func, VAR1, CONST
TestParameter, Channel.Index, 
TestParameter, Channel.Time, 
TestParameter, Measurement.Port.Unit, SMU2:HP, SMU1:HP
TestParameter, Measurement.Port.SeriesResistor, NONE, NONE
TestParameter, Measurement.Port.Filter, ON, ON
TestParameter, Measurement.Port.OutputVoltageComparison, 0, 0
TestParameter, Measurement.Primary.Locus, Single
TestParameter, Measurement.Primary.Scale, LINEAR
TestParameter, Measurement.Primary.Start, -5
TestParameter, Measurement.Primary.Stop, 5
TestParameter, Measurement.Primary.Step, 0.1
TestParameter, Measurement.Primary.Compliance, 0.1
TestParameter, Measurement.Primary.PowerCompliance, 0
TestParameter, Measurement.Aborting.Condition, CONTINUE AT ANY
TestParameter, Measurement.PostOutput.Value, START
TestParameter, Measurement.PostOutput.Retention, OFF
TestParameter, Measurement.Bias.Source, -5, 0
TestParameter, Measurement.Bias.Compliance, 0.1, 1
TestParameter, Measurement.Monitor.Unit, SMU2:HP, SMU1:HP
TestParameter, Measurement.Monitor.Adc, HR ADC, HR ADC
TestParameter, Measurement.Monitor.Measurement, Compliance Side, Compliance Side
TestParameter, Measurement.Monitor.RangingMode, AUTO, AUTO
TestParameter, Measurement.Monitor.RangeBoundary, , 
TestParameter, Measurement.Monitor.RangeRating, BY FULL RANGE, BY FULL RANGE
TestParameter, Measurement.Monitor.RangeRatingCoeff, 50, 50
TestParameter, Measurement.Timing.Hold, 0
TestParameter, Measurement.Timing.Delay, 0.001
TestParameter, Measurement.Adc.HighSpeed.Mode, AUTO
TestParameter, Measurement.Adc.HighSpeed.Coeff, 1
TestParameter, Measurement.Adc.HighResolution.AutoZero, OFF
TestParameter, Measurement.Adc.HighResolution.Mode, PLC
TestParameter, Measurement.Adc.HighResolution.Coeff, 1
TestParameter, Measurement.WaitTime.Source.Coeff, 1
TestParameter, Measurement.WaitTime.Source.Offset, 0
TestParameter, Measurement.WaitTime.Monitor.Coeff, 1
TestParameter, Measurement.WaitTime.Monitor.Offset, 0
TestParameter, Function.User.Name, Ohmic
TestParameter, Function.User.Unit, ohm
TestParameter, Function.User.Definition, avg(V1/I1)
TestParameter, Output.Graph.Enabled, true
TestParameter, Output.Graph.XAxis.Data, V1
TestParameter, Output.Graph.XAxis.Scale, Linear
TestParameter, Output.Graph.XAxis.Left, -5
TestParameter, Output.Graph.XAxis.Right, 5
TestParameter, Output.Graph.YAxis.Data, I1
TestParameter, Output.Graph.YAxis.Scale, Linear
TestParameter, Output.Graph.YAxis.Bottom, -0.001
TestParameter, Output.Graph.YAxis.Top, 0.001
TestParameter, Output.Graph.YAxis.Group, 
TestParameter, Output.Scalar.Data, Ohmic
TestParameter, AutoAnalysis.Interpolation, false
TestParameter, AutoAnalysis.Line1.Enabled, false
TestParameter, AutoAnalysis.Line1.Type, 1
TestParameter, AutoAnalysis.Line1.Fix, True
TestParameter, AutoAnalysis.Line1.YAxis, 0
TestParameter, AutoAnalysis.Line1.Point1.Type, 0
TestParameter, AutoAnalysis.Line1.Point1.XY.X, 
TestParameter, AutoAnalysis.Line1.Point1.XY.Y, 
TestParameter, AutoAnalysis.Line1.Point1.Data.Var, 
TestParameter, AutoAnalysis.Line1.Point1.Data.Condition, 
TestParameter, AutoAnalysis.Line1.Point1.Data.Start, false
TestParameter, AutoAnalysis.Line1.Point1.Data.StartVar, 
TestParameter, AutoAnalysis.Line1.Point1.Data.StartCondition, 
TestParameter, AutoAnalysis.Line1.Point2.Type, 0
TestParameter, AutoAnalysis.Line1.Point2.XY.X, 
TestParameter, AutoAnalysis.Line1.Point2.XY.Y, 
TestParameter, AutoAnalysis.Line1.Point2.Data.Var, 
TestParameter, AutoAnalysis.Line1.Point2.Data.Condition, 
TestParameter, AutoAnalysis.Line1.Point2.Data.Start, false
TestParameter, AutoAnalysis.Line1.Point2.Data.StartVar, 
TestParameter, AutoAnalysis.Line1.Point2.Data.StartCondition, 
TestParameter, AutoAnalysis.Line1.GradientExpr, 0
TestParameter, AutoAnalysis.Line2.Enabled, false
TestParameter, AutoAnalysis.Line2.Type, 1
TestParameter, AutoAnalysis.Line2.Fix, True
TestParameter, AutoAnalysis.Line2.YAxis, 0
TestParameter, AutoAnalysis.Line2.Point1.Type, 0
TestParameter, AutoAnalysis.Line2.Point1.XY.X, 
TestParameter, AutoAnalysis.Line2.Point1.XY.Y, 
TestParameter, AutoAnalysis.Line2.Point1.Data.Var, 
TestParameter, AutoAnalysis.Line2.Point1.Data.Condition, 
TestParameter, AutoAnalysis.Line2.Point1.Data.Start, false
TestParameter, AutoAnalysis.Line2.Point1.Data.StartVar, 
TestParameter, AutoAnalysis.Line2.Point1.Data.StartCondition, 
TestParameter, AutoAnalysis.Line2.Point2.Type, 0
TestParameter, AutoAnalysis.Line2.Point2.XY.X, 
TestParameter, AutoAnalysis.Line2.Point2.XY.Y, 
TestParameter, AutoAnalysis.Line2.Point2.Data.Var, 
TestParameter, AutoAnalysis.Line2.Point2.Data.Condition, 
TestParameter, AutoAnalysis.Line2.Point2.Data.Start, false
TestParameter, AutoAnalysis.Line2.Point2.Data.StartVar, 
TestParameter, AutoAnalysis.Line2.Point2.Data.StartCondition, 
TestParameter, AutoAnalysis.Line2.GradientExpr, 0
TestParameter, AutoAnalysis.Marker.Enabled, false
TestParameter, AutoAnalysis.Marker.Data.Var, 
TestParameter, AutoAnalysis.Marker.Data.Condition, 
TestParameter, AutoAnalysis.Marker.Data.Start, false
TestParameter, AutoAnalysis.Marker.Data.StartVar, 
TestParameter, AutoAnalysis.Marker.Data.StartCondition, 
MetaData, TestRecord.EntryPoint, true
MetaData, TestRecord.RecordTime, 09/04/2020 10:27:36
MetaData, TestRecord.TestTarget, 
MetaData, TestRecord.IterationIndex, 25
MetaData, TestRecord.Preservation, true
MetaData, TestRecord.Flag, 
MetaData, TestRecord.Remarks, 
MetaData, TestRecord.LinkKey, f2383ced-e61d-468b-9d4f-a125e39f5eff
Dimension1, 101, 101, 101
Dimension2, 1, 1, 1
DataName, V1, I1, Ohmic
DataValue, -5, -2.2607E-09, 799245259.63240337
DataValue, -4.9, -2.1914999999999997E-09, 
DataValue, -4.8, -2.1648E-09, 
DataValue, -4.7, -2.2034999999999997E-09, 
DataValue, -4.6000000000000005, -2.2379E-09, 
DataValue, -4.5, -2.1802999999999996E-09, 
DataValue, -4.4, -2.1372999999999996E-09, 
DataValue, -4.3, -2.1906E-09, 
DataValue, -4.2, -2.1293999999999997E-09, 
DataValue, -4.1, -2.0022E-09, 
DataValue, -4, -2.0335999999999997E-09, 
DataValue, -3.9, -2.0372E-09, 
DataValue, -3.8000000000000003, -1.9446999999999997E-09, 
DataValue, -3.7, -1.8783999999999996E-09, 
DataValue, -3.6, -1.9356E-09, 
DataValue, -3.5, -1.8402999999999997E-09, 
DataValue, -3.4, -1.8026999999999998E-09, 
DataValue, -3.3000000000000003, -1.7937999999999997E-09, 
DataValue, -3.2, -1.7571999999999999E-09, 
DataValue, -3.1, -1.7135E-09, 
DataValue, -3, -1.7158999999999998E-09, 
DataValue, -2.9, -1.7101999999999997E-09, 
DataValue, -2.8000000000000003, -1.6782999999999999E-09, 
DataValue, -2.7, -1.6226999999999998E-09, 
DataValue, -2.6, -1.5236999999999998E-09, 
DataValue, -2.5, -1.5288999999999998E-09, 
DataValue, -2.4, -1.5438999999999998E-09, 
DataValue, -2.3000000000000003, -1.4931E-09, 
DataValue, -2.2, -1.4515999999999998E-09, 
DataValue, -2.1, -1.4758999999999998E-09, 
DataValue, -2, -1.4441999999999998E-09, 
DataValue, -1.9000000000000001, -1.3868999999999998E-09, 
DataValue, -1.8, -1.3661999999999999E-09, 
DataValue, -1.7, -1.3324999999999999E-09, 
DataValue, -1.6, -1.3301999999999998E-09, 
DataValue, -1.5, -1.2922E-09, 
DataValue, -1.4000000000000001, -1.2825999999999999E-09, 
DataValue, -1.3, -1.2442E-09, 
DataValue, -1.2, -1.1887999999999999E-09, 
DataValue, -1.1, -1.2407999999999999E-09, 
DataValue, -1, -1.175E-09, 
DataValue, -0.9, -1.218E-09, 
DataValue, -0.8, -1.1681E-09, 
DataValue, -0.70000000000000007, -1.1953999999999998E-09, 
DataValue, -0.6, -1.1055E-09, 
DataValue, -0.5, -8.4769999999999987E-10, 
DataValue, -0.4, -4.3979999999999997E-10, 
DataValue, -0.3, 1.515E-10, 
DataValue, -0.2, 1.3069E-09, 
DataValue, -0.1, 3.6875999999999995E-09, 
DataValue, 0, 6.0826999999999993E-09, 
DataValue, 0.1, 7.8788999999999985E-09, 
DataValue, 0.2, 8.8840999999999991E-09, 
DataValue, 0.3, 9.4871999999999984E-09, 
DataValue, 0.4, 9.923399999999999E-09, 
DataValue, 0.5, 1.0147399999999998E-08, 
DataValue, 0.6, 1.0280699999999998E-08, 
DataValue, 0.70000000000000007, 1.03033E-08, 
DataValue, 0.8, 1.0389599999999999E-08, 
DataValue, 0.9, 1.0414199999999999E-08, 
DataValue, 1, 1.04079E-08, 
DataValue, 1.1, 1.0577599999999999E-08, 
DataValue, 1.2, 1.06005E-08, 
DataValue, 1.3, 1.0666499999999998E-08, 
DataValue, 1.4000000000000001, 1.0712799999999999E-08, 
DataValue, 1.5, 1.07803E-08, 
DataValue, 1.6, 1.0919799999999999E-08, 
DataValue, 1.7, 1.0980399999999998E-08, 
DataValue, 1.8, 1.1070699999999999E-08, 
DataValue, 1.9000000000000001, 1.1149999999999999E-08, 
DataValue, 2, 1.1282799999999998E-08, 
DataValue, 2.1, 1.13248E-08, 
DataValue, 2.2, 1.1498099999999999E-08, 
DataValue, 2.3000000000000003, 1.1510299999999998E-08, 
DataValue, 2.4, 1.1631299999999998E-08, 
DataValue, 2.5, 1.1769599999999999E-08, 
DataValue, 2.6, 1.1898799999999999E-08, 
DataValue, 2.7, 1.19559E-08, 
DataValue, 2.8000000000000003, 1.2038899999999999E-08, 
DataValue, 2.9, 1.2145699999999999E-08, 
DataValue, 3, 1.2323699999999999E-08, 
DataValue, 3.1, 1.2401099999999999E-08, 
DataValue, 3.2, 1.2500099999999998E-08, 
DataValue, 3.3000000000000003, 1.25305E-08, 
DataValue, 3.4, 1.2620899999999999E-08, 
DataValue, 3.5, 1.2651399999999999E-08, 
DataValue, 3.6, 1.2785899999999999E-08, 
DataValue, 3.7, 1.2862099999999998E-08, 
DataValue, 3.8000000000000003, 1.30057E-08, 
DataValue, 3.9, 1.3094199999999999E-08, 
DataValue, 4, 1.32492E-08, 
DataValue, 4.1, 1.3335299999999998E-08, 
DataValue, 4.2, 1.3433099999999999E-08, 
DataValue, 4.3, 1.35155E-08, 
DataValue, 4.4, 1.3643099999999999E-08, 
DataValue, 4.5, 1.3672699999999998E-08, 
DataValue, 4.6000000000000005, 1.3792099999999999E-08, 
DataValue, 4.7, 1.3835399999999998E-08, 
DataValue, 4.8, 1.4012699999999998E-08, 
DataValue, 4.9, 1.4004899999999998E-08, 
DataValue, 5, 1.4078799999999999E-08, 