
SetupTitle, WW
PrimitiveTest, I/V Sweep
TestParameter, Context.MainFrame, B1500A
TestParameter, Channel.UnitType, SMU, SMU
TestParameter, Channel.Unit, SMU2:HP, SMU1:HP
TestParameter, Channel.IName, I1, I4
TestParameter, Channel.VName, V1, V4
TestParameter, Channel.Mode, V, COMMON
TestParameter, Channel.Func, VAR1, CONST
TestParameter, Channel.Index, 
TestParameter, Channel.Time, 
TestParameter, Measurement.Port.Unit, SMU2:HP, SMU1:HP
TestParameter, Measurement.Port.SeriesResistor, NONE, NONE
TestParameter, Measurement.Port.Filter, ON, ON
TestParameter, Measurement.Port.OutputVoltageComparison, 0, 0
TestParameter, Measurement.Primary.Locus, Single
TestParameter, Measurement.Primary.Scale, LINEAR
TestParameter, Measurement.Primary.Start, -5
TestParameter, Measurement.Primary.Stop, 5
TestParameter, Measurement.Primary.Step, 0.1
TestParameter, Measurement.Primary.Compliance, 0.1
TestParameter, Measurement.Primary.PowerCompliance, 0
TestParameter, Measurement.Aborting.Condition, CONTINUE AT ANY
TestParameter, Measurement.PostOutput.Value, START
TestParameter, Measurement.PostOutput.Retention, OFF
TestParameter, Measurement.Bias.Source, -5, 0
TestParameter, Measurement.Bias.Compliance, 0.1, 1
TestParameter, Measurement.Monitor.Unit, SMU2:HP, SMU1:HP
TestParameter, Measurement.Monitor.Adc, HR ADC, HR ADC
TestParameter, Measurement.Monitor.Measurement, Compliance Side, Compliance Side
TestParameter, Measurement.Monitor.RangingMode, AUTO, AUTO
TestParameter, Measurement.Monitor.RangeBoundary, , 
TestParameter, Measurement.Monitor.RangeRating, BY FULL RANGE, BY FULL RANGE
TestParameter, Measurement.Monitor.RangeRatingCoeff, 50, 50
TestParameter, Measurement.Timing.Hold, 0
TestParameter, Measurement.Timing.Delay, 0.001
TestParameter, Measurement.Adc.HighSpeed.Mode, AUTO
TestParameter, Measurement.Adc.HighSpeed.Coeff, 1
TestParameter, Measurement.Adc.HighResolution.AutoZero, OFF
TestParameter, Measurement.Adc.HighResolution.Mode, PLC
TestParameter, Measurement.Adc.HighResolution.Coeff, 1
TestParameter, Measurement.WaitTime.Source.Coeff, 1
TestParameter, Measurement.WaitTime.Source.Offset, 0
TestParameter, Measurement.WaitTime.Monitor.Coeff, 1
TestParameter, Measurement.WaitTime.Monitor.Offset, 0
TestParameter, Function.User.Name, Ohmic
TestParameter, Function.User.Unit, ohm
TestParameter, Function.User.Definition, avg(V1/I1)
TestParameter, Output.Graph.Enabled, true
TestParameter, Output.Graph.XAxis.Data, V1
TestParameter, Output.Graph.XAxis.Scale, Linear
TestParameter, Output.Graph.XAxis.Left, -5
TestParameter, Output.Graph.XAxis.Right, 5
TestParameter, Output.Graph.YAxis.Data, I1
TestParameter, Output.Graph.YAxis.Scale, Linear
TestParameter, Output.Graph.YAxis.Bottom, -0.001
TestParameter, Output.Graph.YAxis.Top, 0.001
TestParameter, Output.Graph.YAxis.Group, 
TestParameter, Output.Scalar.Data, Ohmic
TestParameter, AutoAnalysis.Interpolation, false
TestParameter, AutoAnalysis.Line1.Enabled, false
TestParameter, AutoAnalysis.Line1.Type, 1
TestParameter, AutoAnalysis.Line1.Fix, True
TestParameter, AutoAnalysis.Line1.YAxis, 0
TestParameter, AutoAnalysis.Line1.Point1.Type, 0
TestParameter, AutoAnalysis.Line1.Point1.XY.X, 
TestParameter, AutoAnalysis.Line1.Point1.XY.Y, 
TestParameter, AutoAnalysis.Line1.Point1.Data.Var, 
TestParameter, AutoAnalysis.Line1.Point1.Data.Condition, 
TestParameter, AutoAnalysis.Line1.Point1.Data.Start, false
TestParameter, AutoAnalysis.Line1.Point1.Data.StartVar, 
TestParameter, AutoAnalysis.Line1.Point1.Data.StartCondition, 
TestParameter, AutoAnalysis.Line1.Point2.Type, 0
TestParameter, AutoAnalysis.Line1.Point2.XY.X, 
TestParameter, AutoAnalysis.Line1.Point2.XY.Y, 
TestParameter, AutoAnalysis.Line1.Point2.Data.Var, 
TestParameter, AutoAnalysis.Line1.Point2.Data.Condition, 
TestParameter, AutoAnalysis.Line1.Point2.Data.Start, false
TestParameter, AutoAnalysis.Line1.Point2.Data.StartVar, 
TestParameter, AutoAnalysis.Line1.Point2.Data.StartCondition, 
TestParameter, AutoAnalysis.Line1.GradientExpr, 0
TestParameter, AutoAnalysis.Line2.Enabled, false
TestParameter, AutoAnalysis.Line2.Type, 1
TestParameter, AutoAnalysis.Line2.Fix, True
TestParameter, AutoAnalysis.Line2.YAxis, 0
TestParameter, AutoAnalysis.Line2.Point1.Type, 0
TestParameter, AutoAnalysis.Line2.Point1.XY.X, 
TestParameter, AutoAnalysis.Line2.Point1.XY.Y, 
TestParameter, AutoAnalysis.Line2.Point1.Data.Var, 
TestParameter, AutoAnalysis.Line2.Point1.Data.Condition, 
TestParameter, AutoAnalysis.Line2.Point1.Data.Start, false
TestParameter, AutoAnalysis.Line2.Point1.Data.StartVar, 
TestParameter, AutoAnalysis.Line2.Point1.Data.StartCondition, 
TestParameter, AutoAnalysis.Line2.Point2.Type, 0
TestParameter, AutoAnalysis.Line2.Point2.XY.X, 
TestParameter, AutoAnalysis.Line2.Point2.XY.Y, 
TestParameter, AutoAnalysis.Line2.Point2.Data.Var, 
TestParameter, AutoAnalysis.Line2.Point2.Data.Condition, 
TestParameter, AutoAnalysis.Line2.Point2.Data.Start, false
TestParameter, AutoAnalysis.Line2.Point2.Data.StartVar, 
TestParameter, AutoAnalysis.Line2.Point2.Data.StartCondition, 
TestParameter, AutoAnalysis.Line2.GradientExpr, 0
TestParameter, AutoAnalysis.Marker.Enabled, false
TestParameter, AutoAnalysis.Marker.Data.Var, 
TestParameter, AutoAnalysis.Marker.Data.Condition, 
TestParameter, AutoAnalysis.Marker.Data.Start, false
TestParameter, AutoAnalysis.Marker.Data.StartVar, 
TestParameter, AutoAnalysis.Marker.Data.StartCondition, 
MetaData, TestRecord.EntryPoint, true
MetaData, TestRecord.RecordTime, 09/04/2020 10:26:36
MetaData, TestRecord.TestTarget, 
MetaData, TestRecord.IterationIndex, 23
MetaData, TestRecord.Preservation, true
MetaData, TestRecord.Flag, 
MetaData, TestRecord.Remarks, 
MetaData, TestRecord.LinkKey, 205f9c79-c031-46a5-8b35-a6288c611fe3
Dimension1, 101, 101, 101
Dimension2, 1, 1, 1
DataName, V1, I1, Ohmic
DataValue, -5, -2.0046E-09, 931375384.66354358
DataValue, -4.9, -1.9700999999999996E-09, 
DataValue, -4.8, -1.9106999999999996E-09, 
DataValue, -4.7, -1.9798999999999997E-09, 
DataValue, -4.6000000000000005, -1.8805E-09, 
DataValue, -4.5, -1.8604999999999997E-09, 
DataValue, -4.4, -1.8382E-09, 
DataValue, -4.3, -1.7519E-09, 
DataValue, -4.2, -1.7710999999999998E-09, 
DataValue, -4.1, -1.6643E-09, 
DataValue, -4, -1.6845999999999998E-09, 
DataValue, -3.9, -1.6704E-09, 
DataValue, -3.8000000000000003, -1.644E-09, 
DataValue, -3.7, -1.5976E-09, 
DataValue, -3.6, -1.5592E-09, 
DataValue, -3.5, -1.5599999999999998E-09, 
DataValue, -3.4, -1.5169999999999998E-09, 
DataValue, -3.3000000000000003, -1.5176999999999998E-09, 
DataValue, -3.2, -1.4532E-09, 
DataValue, -3.1, -1.4583999999999998E-09, 
DataValue, -3, -1.4792999999999998E-09, 
DataValue, -2.9, -1.5001999999999998E-09, 
DataValue, -2.8000000000000003, -1.3688999999999999E-09, 
DataValue, -2.7, -1.3185E-09, 
DataValue, -2.6, -1.3825E-09, 
DataValue, -2.5, -1.2909E-09, 
DataValue, -2.4, -1.2397E-09, 
DataValue, -2.3000000000000003, -1.2324999999999998E-09, 
DataValue, -2.2, -1.2096999999999999E-09, 
DataValue, -2.1, -1.2985999999999998E-09, 
DataValue, -2, -1.3032999999999998E-09, 
DataValue, -1.9000000000000001, -1.2606E-09, 
DataValue, -1.8, -1.2046E-09, 
DataValue, -1.7, -1.1784E-09, 
DataValue, -1.6, -1.1123999999999998E-09, 
DataValue, -1.5, -1.1367999999999998E-09, 
DataValue, -1.4000000000000001, -1.0982999999999998E-09, 
DataValue, -1.3, -1.1358E-09, 
DataValue, -1.2, -1.1265E-09, 
DataValue, -1.1, -1.1056E-09, 
DataValue, -1, -1.0741999999999999E-09, 
DataValue, -0.9, -1.0406E-09, 
DataValue, -0.8, -1.0235999999999999E-09, 
DataValue, -0.70000000000000007, -9.895E-10, 
DataValue, -0.6, -9.221E-10, 
DataValue, -0.5, -7.1939999999999991E-10, 
DataValue, -0.4, -3.2E-10, 
DataValue, -0.3, 3.055E-10, 
DataValue, -0.2, 1.4904E-09, 
DataValue, -0.1, 3.8217E-09, 
DataValue, 0, 6.250399999999999E-09, 
DataValue, 0.1, 8.0171999999999992E-09, 
DataValue, 0.2, 9.042699999999999E-09, 
DataValue, 0.3, 9.6492999999999989E-09, 
DataValue, 0.4, 1.00858E-08, 
DataValue, 0.5, 1.0312099999999999E-08, 
DataValue, 0.6, 1.0410499999999999E-08, 
DataValue, 0.70000000000000007, 1.05782E-08, 
DataValue, 0.8, 1.06213E-08, 
DataValue, 0.9, 1.0659999999999999E-08, 
DataValue, 1, 1.0672899999999999E-08, 
DataValue, 1.1, 1.0696099999999999E-08, 
DataValue, 1.2, 1.0809299999999999E-08, 
DataValue, 1.3, 1.0850799999999998E-08, 
DataValue, 1.4000000000000001, 1.0935499999999999E-08, 
DataValue, 1.5, 1.1043499999999999E-08, 
DataValue, 1.6, 1.1210699999999999E-08, 
DataValue, 1.7, 1.1246299999999998E-08, 
DataValue, 1.8, 1.13218E-08, 
DataValue, 1.9000000000000001, 1.1444899999999999E-08, 
DataValue, 2, 1.1506299999999999E-08, 
DataValue, 2.1, 1.15974E-08, 
DataValue, 2.2, 1.1746599999999999E-08, 
DataValue, 2.3000000000000003, 1.1850299999999998E-08, 
DataValue, 2.4, 1.1936399999999999E-08, 
DataValue, 2.5, 1.1955699999999998E-08, 
DataValue, 2.6, 1.2095799999999999E-08, 
DataValue, 2.7, 1.2257699999999998E-08, 
DataValue, 2.8000000000000003, 1.2331499999999999E-08, 
DataValue, 2.9, 1.2494299999999999E-08, 
DataValue, 3, 1.2545899999999998E-08, 
DataValue, 3.1, 1.2637599999999999E-08, 
DataValue, 3.2, 1.2713E-08, 
DataValue, 3.3000000000000003, 1.2828599999999999E-08, 
DataValue, 3.4, 1.2931499999999999E-08, 
DataValue, 3.5, 1.30023E-08, 
DataValue, 3.6, 1.3101699999999999E-08, 
DataValue, 3.7, 1.3231499999999998E-08, 
DataValue, 3.8000000000000003, 1.3349299999999999E-08, 
DataValue, 3.9, 1.3437799999999998E-08, 
DataValue, 4, 1.3521699999999999E-08, 
DataValue, 4.1, 1.3721099999999998E-08, 
DataValue, 4.2, 1.3782699999999999E-08, 
DataValue, 4.3, 1.3890899999999998E-08, 
DataValue, 4.4, 1.4066899999999999E-08, 
DataValue, 4.5, 1.41232E-08, 
DataValue, 4.6000000000000005, 1.4197199999999999E-08, 
DataValue, 4.7, 1.4200599999999999E-08, 
DataValue, 4.8, 1.4335199999999998E-08, 
DataValue, 4.9, 1.4406899999999999E-08, 
DataValue, 5, 1.4520599999999998E-08, 