
SetupTitle, WW
PrimitiveTest, I/V Sweep
TestParameter, Context.MainFrame, B1500A
TestParameter, Channel.UnitType, SMU, SMU
TestParameter, Channel.Unit, SMU2:HP, SMU1:HP
TestParameter, Channel.IName, I1, I4
TestParameter, Channel.VName, V1, V4
TestParameter, Channel.Mode, V, COMMON
TestParameter, Channel.Func, VAR1, CONST
TestParameter, Channel.Index, 
TestParameter, Channel.Time, 
TestParameter, Measurement.Port.Unit, SMU2:HP, SMU1:HP
TestParameter, Measurement.Port.SeriesResistor, NONE, NONE
TestParameter, Measurement.Port.Filter, ON, ON
TestParameter, Measurement.Port.OutputVoltageComparison, 0, 0
TestParameter, Measurement.Primary.Locus, Single
TestParameter, Measurement.Primary.Scale, LINEAR
TestParameter, Measurement.Primary.Start, -5
TestParameter, Measurement.Primary.Stop, 5
TestParameter, Measurement.Primary.Step, 0.1
TestParameter, Measurement.Primary.Compliance, 0.1
TestParameter, Measurement.Primary.PowerCompliance, 0
TestParameter, Measurement.Aborting.Condition, CONTINUE AT ANY
TestParameter, Measurement.PostOutput.Value, START
TestParameter, Measurement.PostOutput.Retention, OFF
TestParameter, Measurement.Bias.Source, -5, 0
TestParameter, Measurement.Bias.Compliance, 0.1, 1
TestParameter, Measurement.Monitor.Unit, SMU2:HP, SMU1:HP
TestParameter, Measurement.Monitor.Adc, HR ADC, HR ADC
TestParameter, Measurement.Monitor.Measurement, Compliance Side, Compliance Side
TestParameter, Measurement.Monitor.RangingMode, AUTO, AUTO
TestParameter, Measurement.Monitor.RangeBoundary, , 
TestParameter, Measurement.Monitor.RangeRating, BY FULL RANGE, BY FULL RANGE
TestParameter, Measurement.Monitor.RangeRatingCoeff, 50, 50
TestParameter, Measurement.Timing.Hold, 0
TestParameter, Measurement.Timing.Delay, 0.001
TestParameter, Measurement.Adc.HighSpeed.Mode, AUTO
TestParameter, Measurement.Adc.HighSpeed.Coeff, 1
TestParameter, Measurement.Adc.HighResolution.AutoZero, OFF
TestParameter, Measurement.Adc.HighResolution.Mode, PLC
TestParameter, Measurement.Adc.HighResolution.Coeff, 1
TestParameter, Measurement.WaitTime.Source.Coeff, 1
TestParameter, Measurement.WaitTime.Source.Offset, 0
TestParameter, Measurement.WaitTime.Monitor.Coeff, 1
TestParameter, Measurement.WaitTime.Monitor.Offset, 0
TestParameter, Function.User.Name, Ohmic
TestParameter, Function.User.Unit, ohm
TestParameter, Function.User.Definition, avg(V1/I1)
TestParameter, Output.Graph.Enabled, true
TestParameter, Output.Graph.XAxis.Data, V1
TestParameter, Output.Graph.XAxis.Scale, Linear
TestParameter, Output.Graph.XAxis.Left, -5
TestParameter, Output.Graph.XAxis.Right, 5
TestParameter, Output.Graph.YAxis.Data, I1
TestParameter, Output.Graph.YAxis.Scale, Linear
TestParameter, Output.Graph.YAxis.Bottom, -0.001
TestParameter, Output.Graph.YAxis.Top, 0.001
TestParameter, Output.Graph.YAxis.Group, 
TestParameter, Output.Scalar.Data, Ohmic
TestParameter, AutoAnalysis.Interpolation, false
TestParameter, AutoAnalysis.Line1.Enabled, false
TestParameter, AutoAnalysis.Line1.Type, 1
TestParameter, AutoAnalysis.Line1.Fix, True
TestParameter, AutoAnalysis.Line1.YAxis, 0
TestParameter, AutoAnalysis.Line1.Point1.Type, 0
TestParameter, AutoAnalysis.Line1.Point1.XY.X, 
TestParameter, AutoAnalysis.Line1.Point1.XY.Y, 
TestParameter, AutoAnalysis.Line1.Point1.Data.Var, 
TestParameter, AutoAnalysis.Line1.Point1.Data.Condition, 
TestParameter, AutoAnalysis.Line1.Point1.Data.Start, false
TestParameter, AutoAnalysis.Line1.Point1.Data.StartVar, 
TestParameter, AutoAnalysis.Line1.Point1.Data.StartCondition, 
TestParameter, AutoAnalysis.Line1.Point2.Type, 0
TestParameter, AutoAnalysis.Line1.Point2.XY.X, 
TestParameter, AutoAnalysis.Line1.Point2.XY.Y, 
TestParameter, AutoAnalysis.Line1.Point2.Data.Var, 
TestParameter, AutoAnalysis.Line1.Point2.Data.Condition, 
TestParameter, AutoAnalysis.Line1.Point2.Data.Start, false
TestParameter, AutoAnalysis.Line1.Point2.Data.StartVar, 
TestParameter, AutoAnalysis.Line1.Point2.Data.StartCondition, 
TestParameter, AutoAnalysis.Line1.GradientExpr, 0
TestParameter, AutoAnalysis.Line2.Enabled, false
TestParameter, AutoAnalysis.Line2.Type, 1
TestParameter, AutoAnalysis.Line2.Fix, True
TestParameter, AutoAnalysis.Line2.YAxis, 0
TestParameter, AutoAnalysis.Line2.Point1.Type, 0
TestParameter, AutoAnalysis.Line2.Point1.XY.X, 
TestParameter, AutoAnalysis.Line2.Point1.XY.Y, 
TestParameter, AutoAnalysis.Line2.Point1.Data.Var, 
TestParameter, AutoAnalysis.Line2.Point1.Data.Condition, 
TestParameter, AutoAnalysis.Line2.Point1.Data.Start, false
TestParameter, AutoAnalysis.Line2.Point1.Data.StartVar, 
TestParameter, AutoAnalysis.Line2.Point1.Data.StartCondition, 
TestParameter, AutoAnalysis.Line2.Point2.Type, 0
TestParameter, AutoAnalysis.Line2.Point2.XY.X, 
TestParameter, AutoAnalysis.Line2.Point2.XY.Y, 
TestParameter, AutoAnalysis.Line2.Point2.Data.Var, 
TestParameter, AutoAnalysis.Line2.Point2.Data.Condition, 
TestParameter, AutoAnalysis.Line2.Point2.Data.Start, false
TestParameter, AutoAnalysis.Line2.Point2.Data.StartVar, 
TestParameter, AutoAnalysis.Line2.Point2.Data.StartCondition, 
TestParameter, AutoAnalysis.Line2.GradientExpr, 0
TestParameter, AutoAnalysis.Marker.Enabled, false
TestParameter, AutoAnalysis.Marker.Data.Var, 
TestParameter, AutoAnalysis.Marker.Data.Condition, 
TestParameter, AutoAnalysis.Marker.Data.Start, false
TestParameter, AutoAnalysis.Marker.Data.StartVar, 
TestParameter, AutoAnalysis.Marker.Data.StartCondition, 
MetaData, TestRecord.EntryPoint, true
MetaData, TestRecord.RecordTime, 09/04/2020 10:25:36
MetaData, TestRecord.TestTarget, 
MetaData, TestRecord.IterationIndex, 21
MetaData, TestRecord.Preservation, true
MetaData, TestRecord.Flag, 
MetaData, TestRecord.Remarks, 
MetaData, TestRecord.LinkKey, 89172518-7a07-4ca7-a5a2-642a6af426c7
Dimension1, 101, 101, 101
Dimension2, 1, 1, 1
DataName, V1, I1, Ohmic
DataValue, -5, -1.9798999999999997E-09, 878977579.88223445
DataValue, -4.9, -1.9883E-09, 
DataValue, -4.8, -1.8987999999999997E-09, 
DataValue, -4.7, -1.933E-09, 
DataValue, -4.6000000000000005, -1.9232999999999998E-09, 
DataValue, -4.5, -1.9412E-09, 
DataValue, -4.4, -1.9461999999999998E-09, 
DataValue, -4.3, -1.9408999999999998E-09, 
DataValue, -4.2, -1.9264E-09, 
DataValue, -4.1, -1.8106999999999998E-09, 
DataValue, -4, -1.8498999999999998E-09, 
DataValue, -3.9, -1.8389E-09, 
DataValue, -3.8000000000000003, -1.7955999999999999E-09, 
DataValue, -3.7, -1.7858999999999998E-09, 
DataValue, -3.6, -1.7556999999999998E-09, 
DataValue, -3.5, -1.7393999999999998E-09, 
DataValue, -3.4, -1.7043999999999998E-09, 
DataValue, -3.3000000000000003, -1.6552999999999999E-09, 
DataValue, -3.2, -1.6779999999999998E-09, 
DataValue, -3.1, -1.6180999999999998E-09, 
DataValue, -3, -1.6221999999999998E-09, 
DataValue, -2.9, -1.5353999999999999E-09, 
DataValue, -2.8000000000000003, -1.5690999999999999E-09, 
DataValue, -2.7, -1.5729999999999998E-09, 
DataValue, -2.6, -1.5009999999999999E-09, 
DataValue, -2.5, -1.5427999999999999E-09, 
DataValue, -2.4, -1.4771999999999998E-09, 
DataValue, -2.3000000000000003, -1.4737999999999998E-09, 
DataValue, -2.2, -1.3966E-09, 
DataValue, -2.1, -1.3071999999999998E-09, 
DataValue, -2, -1.3167999999999998E-09, 
DataValue, -1.9000000000000001, -1.2961E-09, 
DataValue, -1.8, -1.2767E-09, 
DataValue, -1.7, -1.3144E-09, 
DataValue, -1.6, -1.2869999999999998E-09, 
DataValue, -1.5, -1.2262999999999998E-09, 
DataValue, -1.4000000000000001, -1.2174E-09, 
DataValue, -1.3, -1.1782E-09, 
DataValue, -1.2, -1.1762E-09, 
DataValue, -1.1, -1.1158999999999998E-09, 
DataValue, -1, -1.1122E-09, 
DataValue, -0.9, -1.1217E-09, 
DataValue, -0.8, -1.0593999999999999E-09, 
DataValue, -0.70000000000000007, -1.1125999999999999E-09, 
DataValue, -0.6, -9.517E-10, 
DataValue, -0.5, -6.791E-10, 
DataValue, -0.4, -1.9129999999999998E-10, 
DataValue, -0.3, 3.298E-10, 
DataValue, -0.2, 1.6117E-09, 
DataValue, -0.1, 3.9295E-09, 
DataValue, 0, 6.2235999999999991E-09, 
DataValue, 0.1, 7.8597E-09, 
DataValue, 0.2, 8.8562E-09, 
DataValue, 0.3, 9.5559E-09, 
DataValue, 0.4, 9.9812E-09, 
DataValue, 0.5, 1.02791E-08, 
DataValue, 0.6, 1.04709E-08, 
DataValue, 0.70000000000000007, 1.06214E-08, 
DataValue, 0.8, 1.0637999999999999E-08, 
DataValue, 0.9, 1.0656599999999999E-08, 
DataValue, 1, 1.0720999999999999E-08, 
DataValue, 1.1, 1.07896E-08, 
DataValue, 1.2, 1.0832299999999999E-08, 
DataValue, 1.3, 1.0951099999999999E-08, 
DataValue, 1.4000000000000001, 1.0949999999999999E-08, 
DataValue, 1.5, 1.1072099999999999E-08, 
DataValue, 1.6, 1.1174899999999999E-08, 
DataValue, 1.7, 1.12306E-08, 
DataValue, 1.8, 1.13285E-08, 
DataValue, 1.9000000000000001, 1.1419599999999999E-08, 
DataValue, 2, 1.1539399999999998E-08, 
DataValue, 2.1, 1.15623E-08, 
DataValue, 2.2, 1.1673599999999999E-08, 
DataValue, 2.3000000000000003, 1.1795599999999998E-08, 
DataValue, 2.4, 1.1892899999999999E-08, 
DataValue, 2.5, 1.2052E-08, 
DataValue, 2.6, 1.20863E-08, 
DataValue, 2.7, 1.2247399999999999E-08, 
DataValue, 2.8000000000000003, 1.2340799999999999E-08, 
DataValue, 2.9, 1.24188E-08, 
DataValue, 3, 1.24553E-08, 
DataValue, 3.1, 1.2572399999999999E-08, 
DataValue, 3.2, 1.2684899999999999E-08, 
DataValue, 3.3000000000000003, 1.2845299999999998E-08, 
DataValue, 3.4, 1.28847E-08, 
DataValue, 3.5, 1.2887099999999999E-08, 
DataValue, 3.6, 1.3067599999999998E-08, 
DataValue, 3.7, 1.3193299999999999E-08, 
DataValue, 3.8000000000000003, 1.3250599999999999E-08, 
DataValue, 3.9, 1.33889E-08, 
DataValue, 4, 1.3453199999999999E-08, 
DataValue, 4.1, 1.3545499999999999E-08, 
DataValue, 4.2, 1.3673799999999998E-08, 
DataValue, 4.3, 1.3843699999999998E-08, 
DataValue, 4.4, 1.3934099999999998E-08, 
DataValue, 4.5, 1.3933199999999999E-08, 
DataValue, 4.6000000000000005, 1.4027399999999999E-08, 
DataValue, 4.7, 1.4140599999999999E-08, 
DataValue, 4.8, 1.4247799999999999E-08, 
DataValue, 4.9, 1.4368799999999999E-08, 
DataValue, 5, 1.4514999999999998E-08, 