
SetupTitle, WW
PrimitiveTest, I/V Sweep
TestParameter, Context.MainFrame, B1500A
TestParameter, Channel.UnitType, SMU, SMU
TestParameter, Channel.Unit, SMU2:HP, SMU1:HP
TestParameter, Channel.IName, I1, I4
TestParameter, Channel.VName, V1, V4
TestParameter, Channel.Mode, V, COMMON
TestParameter, Channel.Func, VAR1, CONST
TestParameter, Channel.Index, 
TestParameter, Channel.Time, 
TestParameter, Measurement.Port.Unit, SMU2:HP, SMU1:HP
TestParameter, Measurement.Port.SeriesResistor, NONE, NONE
TestParameter, Measurement.Port.Filter, ON, ON
TestParameter, Measurement.Port.OutputVoltageComparison, 0, 0
TestParameter, Measurement.Primary.Locus, Single
TestParameter, Measurement.Primary.Scale, LINEAR
TestParameter, Measurement.Primary.Start, -5
TestParameter, Measurement.Primary.Stop, 5
TestParameter, Measurement.Primary.Step, 0.1
TestParameter, Measurement.Primary.Compliance, 0.1
TestParameter, Measurement.Primary.PowerCompliance, 0
TestParameter, Measurement.Aborting.Condition, CONTINUE AT ANY
TestParameter, Measurement.PostOutput.Value, START
TestParameter, Measurement.PostOutput.Retention, OFF
TestParameter, Measurement.Bias.Source, -5, 0
TestParameter, Measurement.Bias.Compliance, 0.1, 1
TestParameter, Measurement.Monitor.Unit, SMU2:HP, SMU1:HP
TestParameter, Measurement.Monitor.Adc, HR ADC, HR ADC
TestParameter, Measurement.Monitor.Measurement, Compliance Side, Compliance Side
TestParameter, Measurement.Monitor.RangingMode, AUTO, AUTO
TestParameter, Measurement.Monitor.RangeBoundary, , 
TestParameter, Measurement.Monitor.RangeRating, BY FULL RANGE, BY FULL RANGE
TestParameter, Measurement.Monitor.RangeRatingCoeff, 50, 50
TestParameter, Measurement.Timing.Hold, 0
TestParameter, Measurement.Timing.Delay, 0.001
TestParameter, Measurement.Adc.HighSpeed.Mode, AUTO
TestParameter, Measurement.Adc.HighSpeed.Coeff, 1
TestParameter, Measurement.Adc.HighResolution.AutoZero, OFF
TestParameter, Measurement.Adc.HighResolution.Mode, PLC
TestParameter, Measurement.Adc.HighResolution.Coeff, 1
TestParameter, Measurement.WaitTime.Source.Coeff, 1
TestParameter, Measurement.WaitTime.Source.Offset, 0
TestParameter, Measurement.WaitTime.Monitor.Coeff, 1
TestParameter, Measurement.WaitTime.Monitor.Offset, 0
TestParameter, Function.User.Name, Ohmic
TestParameter, Function.User.Unit, ohm
TestParameter, Function.User.Definition, avg(V1/I1)
TestParameter, Output.Graph.Enabled, true
TestParameter, Output.Graph.XAxis.Data, V1
TestParameter, Output.Graph.XAxis.Scale, Linear
TestParameter, Output.Graph.XAxis.Left, -5
TestParameter, Output.Graph.XAxis.Right, 5
TestParameter, Output.Graph.YAxis.Data, I1
TestParameter, Output.Graph.YAxis.Scale, Linear
TestParameter, Output.Graph.YAxis.Bottom, -0.001
TestParameter, Output.Graph.YAxis.Top, 0.001
TestParameter, Output.Graph.YAxis.Group, 
TestParameter, Output.Scalar.Data, Ohmic
TestParameter, AutoAnalysis.Interpolation, false
TestParameter, AutoAnalysis.Line1.Enabled, false
TestParameter, AutoAnalysis.Line1.Type, 1
TestParameter, AutoAnalysis.Line1.Fix, True
TestParameter, AutoAnalysis.Line1.YAxis, 0
TestParameter, AutoAnalysis.Line1.Point1.Type, 0
TestParameter, AutoAnalysis.Line1.Point1.XY.X, 
TestParameter, AutoAnalysis.Line1.Point1.XY.Y, 
TestParameter, AutoAnalysis.Line1.Point1.Data.Var, 
TestParameter, AutoAnalysis.Line1.Point1.Data.Condition, 
TestParameter, AutoAnalysis.Line1.Point1.Data.Start, false
TestParameter, AutoAnalysis.Line1.Point1.Data.StartVar, 
TestParameter, AutoAnalysis.Line1.Point1.Data.StartCondition, 
TestParameter, AutoAnalysis.Line1.Point2.Type, 0
TestParameter, AutoAnalysis.Line1.Point2.XY.X, 
TestParameter, AutoAnalysis.Line1.Point2.XY.Y, 
TestParameter, AutoAnalysis.Line1.Point2.Data.Var, 
TestParameter, AutoAnalysis.Line1.Point2.Data.Condition, 
TestParameter, AutoAnalysis.Line1.Point2.Data.Start, false
TestParameter, AutoAnalysis.Line1.Point2.Data.StartVar, 
TestParameter, AutoAnalysis.Line1.Point2.Data.StartCondition, 
TestParameter, AutoAnalysis.Line1.GradientExpr, 0
TestParameter, AutoAnalysis.Line2.Enabled, false
TestParameter, AutoAnalysis.Line2.Type, 1
TestParameter, AutoAnalysis.Line2.Fix, True
TestParameter, AutoAnalysis.Line2.YAxis, 0
TestParameter, AutoAnalysis.Line2.Point1.Type, 0
TestParameter, AutoAnalysis.Line2.Point1.XY.X, 
TestParameter, AutoAnalysis.Line2.Point1.XY.Y, 
TestParameter, AutoAnalysis.Line2.Point1.Data.Var, 
TestParameter, AutoAnalysis.Line2.Point1.Data.Condition, 
TestParameter, AutoAnalysis.Line2.Point1.Data.Start, false
TestParameter, AutoAnalysis.Line2.Point1.Data.StartVar, 
TestParameter, AutoAnalysis.Line2.Point1.Data.StartCondition, 
TestParameter, AutoAnalysis.Line2.Point2.Type, 0
TestParameter, AutoAnalysis.Line2.Point2.XY.X, 
TestParameter, AutoAnalysis.Line2.Point2.XY.Y, 
TestParameter, AutoAnalysis.Line2.Point2.Data.Var, 
TestParameter, AutoAnalysis.Line2.Point2.Data.Condition, 
TestParameter, AutoAnalysis.Line2.Point2.Data.Start, false
TestParameter, AutoAnalysis.Line2.Point2.Data.StartVar, 
TestParameter, AutoAnalysis.Line2.Point2.Data.StartCondition, 
TestParameter, AutoAnalysis.Line2.GradientExpr, 0
TestParameter, AutoAnalysis.Marker.Enabled, false
TestParameter, AutoAnalysis.Marker.Data.Var, 
TestParameter, AutoAnalysis.Marker.Data.Condition, 
TestParameter, AutoAnalysis.Marker.Data.Start, false
TestParameter, AutoAnalysis.Marker.Data.StartVar, 
TestParameter, AutoAnalysis.Marker.Data.StartCondition, 
MetaData, TestRecord.EntryPoint, true
MetaData, TestRecord.RecordTime, 09/04/2020 10:25:06
MetaData, TestRecord.TestTarget, 
MetaData, TestRecord.IterationIndex, 20
MetaData, TestRecord.Preservation, true
MetaData, TestRecord.Flag, 
MetaData, TestRecord.Remarks, 
MetaData, TestRecord.LinkKey, 148a10cc-bfbb-4d46-be68-e3706fa6359e
Dimension1, 101, 101, 101
Dimension2, 1, 1, 1
DataName, V1, I1, Ohmic
DataValue, -5, -1.9089E-09, 982640960.42575252
DataValue, -4.9, -1.8065E-09, 
DataValue, -4.8, -1.7861999999999999E-09, 
DataValue, -4.7, -1.7682999999999998E-09, 
DataValue, -4.6000000000000005, -1.8265999999999999E-09, 
DataValue, -4.5, -1.7460999999999998E-09, 
DataValue, -4.4, -1.6920999999999998E-09, 
DataValue, -4.3, -1.7286999999999998E-09, 
DataValue, -4.2, -1.6549E-09, 
DataValue, -4.1, -1.6430999999999998E-09, 
DataValue, -4, -1.6451999999999999E-09, 
DataValue, -3.9, -1.6003999999999998E-09, 
DataValue, -3.8000000000000003, -1.5872999999999999E-09, 
DataValue, -3.7, -1.5864999999999999E-09, 
DataValue, -3.6, -1.6704999999999998E-09, 
DataValue, -3.5, -1.7307999999999999E-09, 
DataValue, -3.4, -1.5856999999999998E-09, 
DataValue, -3.3000000000000003, -1.5196999999999998E-09, 
DataValue, -3.2, -1.4381999999999999E-09, 
DataValue, -3.1, -1.4914999999999999E-09, 
DataValue, -3, -1.4211999999999998E-09, 
DataValue, -2.9, -1.4238999999999998E-09, 
DataValue, -2.8000000000000003, -1.4313999999999998E-09, 
DataValue, -2.7, -1.386E-09, 
DataValue, -2.6, -1.3220999999999998E-09, 
DataValue, -2.5, -1.3246999999999998E-09, 
DataValue, -2.4, -1.3356999999999998E-09, 
DataValue, -2.3000000000000003, -1.2709999999999999E-09, 
DataValue, -2.2, -1.2363999999999998E-09, 
DataValue, -2.1, -1.2238999999999999E-09, 
DataValue, -2, -1.1986999999999998E-09, 
DataValue, -1.9000000000000001, -1.1914999999999999E-09, 
DataValue, -1.8, -1.1163E-09, 
DataValue, -1.7, -1.1770999999999998E-09, 
DataValue, -1.6, -1.1820999999999999E-09, 
DataValue, -1.5, -1.1300999999999999E-09, 
DataValue, -1.4000000000000001, -1.0517E-09, 
DataValue, -1.3, -1.0463999999999998E-09, 
DataValue, -1.2, -9.868E-10, 
DataValue, -1.1, -9.928E-10, 
DataValue, -1, -1.0248999999999998E-09, 
DataValue, -0.9, -1.0166999999999998E-09, 
DataValue, -0.8, -9.908E-10, 
DataValue, -0.70000000000000007, -9.225999999999999E-10, 
DataValue, -0.6, -8.0959999999999987E-10, 
DataValue, -0.5, -5.2149999999999991E-10, 
DataValue, -0.4, -1.1359999999999999E-10, 
DataValue, -0.3, 5.6869999999999991E-10, 
DataValue, -0.2, 1.7772999999999999E-09, 
DataValue, -0.1, 3.9815999999999996E-09, 
DataValue, 0, 6.2353E-09, 
DataValue, 0.1, 7.7973999999999987E-09, 
DataValue, 0.2, 8.803E-09, 
DataValue, 0.3, 9.4252E-09, 
DataValue, 0.4, 9.9175E-09, 
DataValue, 0.5, 1.02679E-08, 
DataValue, 0.6, 1.0465799999999998E-08, 
DataValue, 0.70000000000000007, 1.0599499999999998E-08, 
DataValue, 0.8, 1.0636899999999999E-08, 
DataValue, 0.9, 1.0649499999999999E-08, 
DataValue, 1, 1.07357E-08, 
DataValue, 1.1, 1.0776499999999999E-08, 
DataValue, 1.2, 1.0760399999999999E-08, 
DataValue, 1.3, 1.0756699999999999E-08, 
DataValue, 1.4000000000000001, 1.0899299999999999E-08, 
DataValue, 1.5, 1.0966299999999998E-08, 
DataValue, 1.6, 1.1047599999999999E-08, 
DataValue, 1.7, 1.1137999999999999E-08, 
DataValue, 1.8, 1.1235299999999999E-08, 
DataValue, 1.9000000000000001, 1.1314E-08, 
DataValue, 2, 1.1471999999999998E-08, 
DataValue, 2.1, 1.15392E-08, 
DataValue, 2.2, 1.16454E-08, 
DataValue, 2.3000000000000003, 1.17608E-08, 
DataValue, 2.4, 1.1773299999999999E-08, 
DataValue, 2.5, 1.1913199999999998E-08, 
DataValue, 2.6, 1.20241E-08, 
DataValue, 2.7, 1.21254E-08, 
DataValue, 2.8000000000000003, 1.2194099999999999E-08, 
DataValue, 2.9, 1.2262599999999999E-08, 
DataValue, 3, 1.2336399999999999E-08, 
DataValue, 3.1, 1.2389299999999999E-08, 
DataValue, 3.2, 1.2513599999999999E-08, 
DataValue, 3.3000000000000003, 1.2765199999999998E-08, 
DataValue, 3.4, 1.28053E-08, 
DataValue, 3.5, 1.2901499999999998E-08, 
DataValue, 3.6, 1.3007399999999999E-08, 
DataValue, 3.7, 1.31006E-08, 
DataValue, 3.8000000000000003, 1.3195299999999998E-08, 
DataValue, 3.9, 1.3323199999999999E-08, 
DataValue, 4, 1.33959E-08, 
DataValue, 4.1, 1.3542599999999999E-08, 
DataValue, 4.2, 1.3602299999999998E-08, 
DataValue, 4.3, 1.3699099999999998E-08, 
DataValue, 4.4, 1.3820999999999999E-08, 
DataValue, 4.5, 1.37728E-08, 
DataValue, 4.6000000000000005, 1.3884599999999998E-08, 
DataValue, 4.7, 1.39843E-08, 
DataValue, 4.8, 1.41053E-08, 
DataValue, 4.9, 1.4117499999999999E-08, 
DataValue, 5, 1.4336399999999999E-08, 