
SetupTitle, WW
PrimitiveTest, I/V Sweep
TestParameter, Context.MainFrame, B1500A
TestParameter, Channel.UnitType, SMU, SMU
TestParameter, Channel.Unit, SMU2:HP, SMU1:HP
TestParameter, Channel.IName, I1, I4
TestParameter, Channel.VName, V1, V4
TestParameter, Channel.Mode, V, COMMON
TestParameter, Channel.Func, VAR1, CONST
TestParameter, Channel.Index, 
TestParameter, Channel.Time, 
TestParameter, Measurement.Port.Unit, SMU2:HP, SMU1:HP
TestParameter, Measurement.Port.SeriesResistor, NONE, NONE
TestParameter, Measurement.Port.Filter, ON, ON
TestParameter, Measurement.Port.OutputVoltageComparison, 0, 0
TestParameter, Measurement.Primary.Locus, Single
TestParameter, Measurement.Primary.Scale, LINEAR
TestParameter, Measurement.Primary.Start, -5
TestParameter, Measurement.Primary.Stop, 5
TestParameter, Measurement.Primary.Step, 0.1
TestParameter, Measurement.Primary.Compliance, 0.1
TestParameter, Measurement.Primary.PowerCompliance, 0
TestParameter, Measurement.Aborting.Condition, CONTINUE AT ANY
TestParameter, Measurement.PostOutput.Value, START
TestParameter, Measurement.PostOutput.Retention, OFF
TestParameter, Measurement.Bias.Source, -5, 0
TestParameter, Measurement.Bias.Compliance, 0.1, 1
TestParameter, Measurement.Monitor.Unit, SMU2:HP, SMU1:HP
TestParameter, Measurement.Monitor.Adc, HR ADC, HR ADC
TestParameter, Measurement.Monitor.Measurement, Compliance Side, Compliance Side
TestParameter, Measurement.Monitor.RangingMode, AUTO, AUTO
TestParameter, Measurement.Monitor.RangeBoundary, , 
TestParameter, Measurement.Monitor.RangeRating, BY FULL RANGE, BY FULL RANGE
TestParameter, Measurement.Monitor.RangeRatingCoeff, 50, 50
TestParameter, Measurement.Timing.Hold, 0
TestParameter, Measurement.Timing.Delay, 0.001
TestParameter, Measurement.Adc.HighSpeed.Mode, AUTO
TestParameter, Measurement.Adc.HighSpeed.Coeff, 1
TestParameter, Measurement.Adc.HighResolution.AutoZero, OFF
TestParameter, Measurement.Adc.HighResolution.Mode, PLC
TestParameter, Measurement.Adc.HighResolution.Coeff, 1
TestParameter, Measurement.WaitTime.Source.Coeff, 1
TestParameter, Measurement.WaitTime.Source.Offset, 0
TestParameter, Measurement.WaitTime.Monitor.Coeff, 1
TestParameter, Measurement.WaitTime.Monitor.Offset, 0
TestParameter, Function.User.Name, Ohmic
TestParameter, Function.User.Unit, ohm
TestParameter, Function.User.Definition, avg(V1/I1)
TestParameter, Output.Graph.Enabled, true
TestParameter, Output.Graph.XAxis.Data, V1
TestParameter, Output.Graph.XAxis.Scale, Linear
TestParameter, Output.Graph.XAxis.Left, -5
TestParameter, Output.Graph.XAxis.Right, 5
TestParameter, Output.Graph.YAxis.Data, I1
TestParameter, Output.Graph.YAxis.Scale, Linear
TestParameter, Output.Graph.YAxis.Bottom, -0.001
TestParameter, Output.Graph.YAxis.Top, 0.001
TestParameter, Output.Graph.YAxis.Group, 
TestParameter, Output.Scalar.Data, Ohmic
TestParameter, AutoAnalysis.Interpolation, false
TestParameter, AutoAnalysis.Line1.Enabled, false
TestParameter, AutoAnalysis.Line1.Type, 1
TestParameter, AutoAnalysis.Line1.Fix, True
TestParameter, AutoAnalysis.Line1.YAxis, 0
TestParameter, AutoAnalysis.Line1.Point1.Type, 0
TestParameter, AutoAnalysis.Line1.Point1.XY.X, 
TestParameter, AutoAnalysis.Line1.Point1.XY.Y, 
TestParameter, AutoAnalysis.Line1.Point1.Data.Var, 
TestParameter, AutoAnalysis.Line1.Point1.Data.Condition, 
TestParameter, AutoAnalysis.Line1.Point1.Data.Start, false
TestParameter, AutoAnalysis.Line1.Point1.Data.StartVar, 
TestParameter, AutoAnalysis.Line1.Point1.Data.StartCondition, 
TestParameter, AutoAnalysis.Line1.Point2.Type, 0
TestParameter, AutoAnalysis.Line1.Point2.XY.X, 
TestParameter, AutoAnalysis.Line1.Point2.XY.Y, 
TestParameter, AutoAnalysis.Line1.Point2.Data.Var, 
TestParameter, AutoAnalysis.Line1.Point2.Data.Condition, 
TestParameter, AutoAnalysis.Line1.Point2.Data.Start, false
TestParameter, AutoAnalysis.Line1.Point2.Data.StartVar, 
TestParameter, AutoAnalysis.Line1.Point2.Data.StartCondition, 
TestParameter, AutoAnalysis.Line1.GradientExpr, 0
TestParameter, AutoAnalysis.Line2.Enabled, false
TestParameter, AutoAnalysis.Line2.Type, 1
TestParameter, AutoAnalysis.Line2.Fix, True
TestParameter, AutoAnalysis.Line2.YAxis, 0
TestParameter, AutoAnalysis.Line2.Point1.Type, 0
TestParameter, AutoAnalysis.Line2.Point1.XY.X, 
TestParameter, AutoAnalysis.Line2.Point1.XY.Y, 
TestParameter, AutoAnalysis.Line2.Point1.Data.Var, 
TestParameter, AutoAnalysis.Line2.Point1.Data.Condition, 
TestParameter, AutoAnalysis.Line2.Point1.Data.Start, false
TestParameter, AutoAnalysis.Line2.Point1.Data.StartVar, 
TestParameter, AutoAnalysis.Line2.Point1.Data.StartCondition, 
TestParameter, AutoAnalysis.Line2.Point2.Type, 0
TestParameter, AutoAnalysis.Line2.Point2.XY.X, 
TestParameter, AutoAnalysis.Line2.Point2.XY.Y, 
TestParameter, AutoAnalysis.Line2.Point2.Data.Var, 
TestParameter, AutoAnalysis.Line2.Point2.Data.Condition, 
TestParameter, AutoAnalysis.Line2.Point2.Data.Start, false
TestParameter, AutoAnalysis.Line2.Point2.Data.StartVar, 
TestParameter, AutoAnalysis.Line2.Point2.Data.StartCondition, 
TestParameter, AutoAnalysis.Line2.GradientExpr, 0
TestParameter, AutoAnalysis.Marker.Enabled, false
TestParameter, AutoAnalysis.Marker.Data.Var, 
TestParameter, AutoAnalysis.Marker.Data.Condition, 
TestParameter, AutoAnalysis.Marker.Data.Start, false
TestParameter, AutoAnalysis.Marker.Data.StartVar, 
TestParameter, AutoAnalysis.Marker.Data.StartCondition, 
MetaData, TestRecord.EntryPoint, true
MetaData, TestRecord.RecordTime, 09/04/2020 10:24:32
MetaData, TestRecord.TestTarget, 
MetaData, TestRecord.IterationIndex, 19
MetaData, TestRecord.Preservation, true
MetaData, TestRecord.Flag, 
MetaData, TestRecord.Remarks, 
MetaData, TestRecord.LinkKey, 7fffef92-c2b4-43b1-9c66-e98fe382ccf9
Dimension1, 101, 101, 101
Dimension2, 1, 1, 1
DataName, V1, I1, Ohmic
DataValue, -5, -1.7710999999999998E-09, 425937576.3710714
DataValue, -4.9, -1.8386999999999999E-09, 
DataValue, -4.8, -1.8190999999999999E-09, 
DataValue, -4.7, -1.696E-09, 
DataValue, -4.6000000000000005, -1.7541999999999998E-09, 
DataValue, -4.5, -1.6625999999999998E-09, 
DataValue, -4.4, -1.6188999999999999E-09, 
DataValue, -4.3, -1.5666999999999998E-09, 
DataValue, -4.2, -1.6350999999999999E-09, 
DataValue, -4.1, -1.6114999999999999E-09, 
DataValue, -4, -1.5621999999999998E-09, 
DataValue, -3.9, -1.6108999999999999E-09, 
DataValue, -3.8000000000000003, -1.5167999999999998E-09, 
DataValue, -3.7, -1.4933999999999998E-09, 
DataValue, -3.6, -1.5213E-09, 
DataValue, -3.5, -1.4177999999999998E-09, 
DataValue, -3.4, -1.5309E-09, 
DataValue, -3.3000000000000003, -1.5127999999999998E-09, 
DataValue, -3.2, -1.3577999999999998E-09, 
DataValue, -3.1, -1.2985999999999998E-09, 
DataValue, -3, -1.3179999999999998E-09, 
DataValue, -2.9, -1.2755999999999998E-09, 
DataValue, -2.8000000000000003, -1.3019999999999999E-09, 
DataValue, -2.7, -1.3713999999999998E-09, 
DataValue, -2.6, -1.2265999999999999E-09, 
DataValue, -2.5, -1.3496999999999998E-09, 
DataValue, -2.4, -1.2107E-09, 
DataValue, -2.3000000000000003, -1.1615999999999998E-09, 
DataValue, -2.2, -1.1723999999999998E-09, 
DataValue, -2.1, -1.1597999999999999E-09, 
DataValue, -2, -1.1222E-09, 
DataValue, -1.9000000000000001, -1.1574E-09, 
DataValue, -1.8, -1.1110999999999998E-09, 
DataValue, -1.7, -1.0755999999999999E-09, 
DataValue, -1.6, -1.069E-09, 
DataValue, -1.5, -9.5819999999999986E-10, 
DataValue, -1.4000000000000001, -1.1195E-09, 
DataValue, -1.3, -1.0771E-09, 
DataValue, -1.2, -1.0773E-09, 
DataValue, -1.1, -1.0947E-09, 
DataValue, -1, -1.0598E-09, 
DataValue, -0.9, -9.951E-10, 
DataValue, -0.8, -9.8659999999999988E-10, 
DataValue, -0.70000000000000007, -9.1849999999999988E-10, 
DataValue, -0.6, -8.0509999999999994E-10, 
DataValue, -0.5, -4.6729999999999993E-10, 
DataValue, -0.4, 6.9999999999999993E-12, 
DataValue, -0.3, 7.3E-10, 
DataValue, -0.2, 1.9241E-09, 
DataValue, -0.1, 4.0731999999999995E-09, 
DataValue, 0, 6.1701999999999992E-09, 
DataValue, 0.1, 7.6372999999999988E-09, 
DataValue, 0.2, 8.5942E-09, 
DataValue, 0.3, 9.2574999999999987E-09, 
DataValue, 0.4, 9.8808999999999988E-09, 
DataValue, 0.5, 1.0202999999999999E-08, 
DataValue, 0.6, 1.0465899999999999E-08, 
DataValue, 0.70000000000000007, 1.0570199999999999E-08, 
DataValue, 0.8, 1.0628699999999999E-08, 
DataValue, 0.9, 1.06173E-08, 
DataValue, 1, 1.0684799999999999E-08, 
DataValue, 1.1, 1.0760499999999999E-08, 
DataValue, 1.2, 1.0848399999999999E-08, 
DataValue, 1.3, 1.0873699999999999E-08, 
DataValue, 1.4000000000000001, 1.0928099999999999E-08, 
DataValue, 1.5, 1.0967899999999999E-08, 
DataValue, 1.6, 1.10153E-08, 
DataValue, 1.7, 1.1092599999999999E-08, 
DataValue, 1.8, 1.1140199999999998E-08, 
DataValue, 1.9000000000000001, 1.1367699999999998E-08, 
DataValue, 2, 1.1403799999999998E-08, 
DataValue, 2.1, 1.1465799999999999E-08, 
DataValue, 2.2, 1.1628099999999999E-08, 
DataValue, 2.3000000000000003, 1.1778499999999999E-08, 
DataValue, 2.4, 1.1834799999999999E-08, 
DataValue, 2.5, 1.19299E-08, 
DataValue, 2.6, 1.1986299999999999E-08, 
DataValue, 2.7, 1.1983599999999998E-08, 
DataValue, 2.8000000000000003, 1.21883E-08, 
DataValue, 2.9, 1.2316099999999998E-08, 
DataValue, 3, 1.2423499999999999E-08, 
DataValue, 3.1, 1.2407899999999999E-08, 
DataValue, 3.2, 1.2480099999999999E-08, 
DataValue, 3.3000000000000003, 1.26475E-08, 
DataValue, 3.4, 1.2728699999999998E-08, 
DataValue, 3.5, 1.2785799999999999E-08, 
DataValue, 3.6, 1.2832699999999999E-08, 
DataValue, 3.7, 1.2973799999999998E-08, 
DataValue, 3.8000000000000003, 1.3028599999999999E-08, 
DataValue, 3.9, 1.3098099999999998E-08, 
DataValue, 4, 1.3195899999999999E-08, 
DataValue, 4.1, 1.3233899999999999E-08, 
DataValue, 4.2, 1.3316699999999998E-08, 
DataValue, 4.3, 1.3407599999999998E-08, 
DataValue, 4.4, 1.3567699999999998E-08, 
DataValue, 4.5, 1.37087E-08, 
DataValue, 4.6000000000000005, 1.38026E-08, 
DataValue, 4.7, 1.37255E-08, 
DataValue, 4.8, 1.3824299999999998E-08, 
DataValue, 4.9, 1.3879199999999999E-08, 
DataValue, 5, 1.3889999999999999E-08, 