
SetupTitle, WW
PrimitiveTest, I/V Sweep
TestParameter, Context.MainFrame, B1500A
TestParameter, Channel.UnitType, SMU, SMU
TestParameter, Channel.Unit, SMU2:HP, SMU1:HP
TestParameter, Channel.IName, I1, I4
TestParameter, Channel.VName, V1, V4
TestParameter, Channel.Mode, V, COMMON
TestParameter, Channel.Func, VAR1, CONST
TestParameter, Channel.Index, 
TestParameter, Channel.Time, 
TestParameter, Measurement.Port.Unit, SMU2:HP, SMU1:HP
TestParameter, Measurement.Port.SeriesResistor, NONE, NONE
TestParameter, Measurement.Port.Filter, ON, ON
TestParameter, Measurement.Port.OutputVoltageComparison, 0, 0
TestParameter, Measurement.Primary.Locus, Single
TestParameter, Measurement.Primary.Scale, LINEAR
TestParameter, Measurement.Primary.Start, -5
TestParameter, Measurement.Primary.Stop, 5
TestParameter, Measurement.Primary.Step, 0.1
TestParameter, Measurement.Primary.Compliance, 0.1
TestParameter, Measurement.Primary.PowerCompliance, 0
TestParameter, Measurement.Aborting.Condition, CONTINUE AT ANY
TestParameter, Measurement.PostOutput.Value, START
TestParameter, Measurement.PostOutput.Retention, OFF
TestParameter, Measurement.Bias.Source, -5, 0
TestParameter, Measurement.Bias.Compliance, 0.1, 1
TestParameter, Measurement.Monitor.Unit, SMU2:HP, SMU1:HP
TestParameter, Measurement.Monitor.Adc, HR ADC, HR ADC
TestParameter, Measurement.Monitor.Measurement, Compliance Side, Compliance Side
TestParameter, Measurement.Monitor.RangingMode, AUTO, AUTO
TestParameter, Measurement.Monitor.RangeBoundary, , 
TestParameter, Measurement.Monitor.RangeRating, BY FULL RANGE, BY FULL RANGE
TestParameter, Measurement.Monitor.RangeRatingCoeff, 50, 50
TestParameter, Measurement.Timing.Hold, 0
TestParameter, Measurement.Timing.Delay, 0.001
TestParameter, Measurement.Adc.HighSpeed.Mode, AUTO
TestParameter, Measurement.Adc.HighSpeed.Coeff, 1
TestParameter, Measurement.Adc.HighResolution.AutoZero, OFF
TestParameter, Measurement.Adc.HighResolution.Mode, PLC
TestParameter, Measurement.Adc.HighResolution.Coeff, 1
TestParameter, Measurement.WaitTime.Source.Coeff, 1
TestParameter, Measurement.WaitTime.Source.Offset, 0
TestParameter, Measurement.WaitTime.Monitor.Coeff, 1
TestParameter, Measurement.WaitTime.Monitor.Offset, 0
TestParameter, Function.User.Name, Ohmic
TestParameter, Function.User.Unit, ohm
TestParameter, Function.User.Definition, avg(V1/I1)
TestParameter, Output.Graph.Enabled, true
TestParameter, Output.Graph.XAxis.Data, V1
TestParameter, Output.Graph.XAxis.Scale, Linear
TestParameter, Output.Graph.XAxis.Left, -5
TestParameter, Output.Graph.XAxis.Right, 5
TestParameter, Output.Graph.YAxis.Data, I1
TestParameter, Output.Graph.YAxis.Scale, Linear
TestParameter, Output.Graph.YAxis.Bottom, -0.001
TestParameter, Output.Graph.YAxis.Top, 0.001
TestParameter, Output.Graph.YAxis.Group, 
TestParameter, Output.Scalar.Data, Ohmic
TestParameter, AutoAnalysis.Interpolation, false
TestParameter, AutoAnalysis.Line1.Enabled, false
TestParameter, AutoAnalysis.Line1.Type, 1
TestParameter, AutoAnalysis.Line1.Fix, True
TestParameter, AutoAnalysis.Line1.YAxis, 0
TestParameter, AutoAnalysis.Line1.Point1.Type, 0
TestParameter, AutoAnalysis.Line1.Point1.XY.X, 
TestParameter, AutoAnalysis.Line1.Point1.XY.Y, 
TestParameter, AutoAnalysis.Line1.Point1.Data.Var, 
TestParameter, AutoAnalysis.Line1.Point1.Data.Condition, 
TestParameter, AutoAnalysis.Line1.Point1.Data.Start, false
TestParameter, AutoAnalysis.Line1.Point1.Data.StartVar, 
TestParameter, AutoAnalysis.Line1.Point1.Data.StartCondition, 
TestParameter, AutoAnalysis.Line1.Point2.Type, 0
TestParameter, AutoAnalysis.Line1.Point2.XY.X, 
TestParameter, AutoAnalysis.Line1.Point2.XY.Y, 
TestParameter, AutoAnalysis.Line1.Point2.Data.Var, 
TestParameter, AutoAnalysis.Line1.Point2.Data.Condition, 
TestParameter, AutoAnalysis.Line1.Point2.Data.Start, false
TestParameter, AutoAnalysis.Line1.Point2.Data.StartVar, 
TestParameter, AutoAnalysis.Line1.Point2.Data.StartCondition, 
TestParameter, AutoAnalysis.Line1.GradientExpr, 0
TestParameter, AutoAnalysis.Line2.Enabled, false
TestParameter, AutoAnalysis.Line2.Type, 1
TestParameter, AutoAnalysis.Line2.Fix, True
TestParameter, AutoAnalysis.Line2.YAxis, 0
TestParameter, AutoAnalysis.Line2.Point1.Type, 0
TestParameter, AutoAnalysis.Line2.Point1.XY.X, 
TestParameter, AutoAnalysis.Line2.Point1.XY.Y, 
TestParameter, AutoAnalysis.Line2.Point1.Data.Var, 
TestParameter, AutoAnalysis.Line2.Point1.Data.Condition, 
TestParameter, AutoAnalysis.Line2.Point1.Data.Start, false
TestParameter, AutoAnalysis.Line2.Point1.Data.StartVar, 
TestParameter, AutoAnalysis.Line2.Point1.Data.StartCondition, 
TestParameter, AutoAnalysis.Line2.Point2.Type, 0
TestParameter, AutoAnalysis.Line2.Point2.XY.X, 
TestParameter, AutoAnalysis.Line2.Point2.XY.Y, 
TestParameter, AutoAnalysis.Line2.Point2.Data.Var, 
TestParameter, AutoAnalysis.Line2.Point2.Data.Condition, 
TestParameter, AutoAnalysis.Line2.Point2.Data.Start, false
TestParameter, AutoAnalysis.Line2.Point2.Data.StartVar, 
TestParameter, AutoAnalysis.Line2.Point2.Data.StartCondition, 
TestParameter, AutoAnalysis.Line2.GradientExpr, 0
TestParameter, AutoAnalysis.Marker.Enabled, false
TestParameter, AutoAnalysis.Marker.Data.Var, 
TestParameter, AutoAnalysis.Marker.Data.Condition, 
TestParameter, AutoAnalysis.Marker.Data.Start, false
TestParameter, AutoAnalysis.Marker.Data.StartVar, 
TestParameter, AutoAnalysis.Marker.Data.StartCondition, 
MetaData, TestRecord.EntryPoint, true
MetaData, TestRecord.RecordTime, 09/04/2020 10:21:59
MetaData, TestRecord.TestTarget, 
MetaData, TestRecord.IterationIndex, 14
MetaData, TestRecord.Preservation, true
MetaData, TestRecord.Flag, 
MetaData, TestRecord.Remarks, 
MetaData, TestRecord.LinkKey, 375b663d-0db2-40b9-a873-5d681598414d
Dimension1, 101, 101, 101
Dimension2, 1, 1, 1
DataName, V1, I1, Ohmic
DataValue, -5, -8.81E-10, 2081123352.2922621
DataValue, -4.9, -8.2179999999999989E-10, 
DataValue, -4.8, -7.8769999999999988E-10, 
DataValue, -4.7, -8.3979999999999993E-10, 
DataValue, -4.6000000000000005, -8.0909999999999993E-10, 
DataValue, -4.5, -8.079999999999999E-10, 
DataValue, -4.4, -7.9579999999999988E-10, 
DataValue, -4.3, -8.5799999999999993E-10, 
DataValue, -4.2, -7.769E-10, 
DataValue, -4.1, -7.607E-10, 
DataValue, -4, -7.624999999999999E-10, 
DataValue, -3.9, -7.5739999999999989E-10, 
DataValue, -3.8000000000000003, -8.3659999999999988E-10, 
DataValue, -3.7, -6.94E-10, 
DataValue, -3.6, -6.8569999999999992E-10, 
DataValue, -3.5, -6.7659999999999992E-10, 
DataValue, -3.4, -6.73E-10, 
DataValue, -3.3000000000000003, -6.289E-10, 
DataValue, -3.2, -5.945E-10, 
DataValue, -3.1, -6.11E-10, 
DataValue, -3, -6.38E-10, 
DataValue, -2.9, -5.9099999999999992E-10, 
DataValue, -2.8000000000000003, -5.3609999999999994E-10, 
DataValue, -2.7, -5.8869999999999994E-10, 
DataValue, -2.6, -5.8159999999999994E-10, 
DataValue, -2.5, -5.534E-10, 
DataValue, -2.4, -5.555E-10, 
DataValue, -2.3000000000000003, -5.5489999999999991E-10, 
DataValue, -2.2, -5.419E-10, 
DataValue, -2.1, -5.514E-10, 
DataValue, -2, -5.0229999999999991E-10, 
DataValue, -1.9000000000000001, -4.8519999999999994E-10, 
DataValue, -1.8, -4.4499999999999996E-10, 
DataValue, -1.7, -4.641E-10, 
DataValue, -1.6, -4.373E-10, 
DataValue, -1.5, -4.6759999999999992E-10, 
DataValue, -1.4000000000000001, -4.3589999999999996E-10, 
DataValue, -1.3, -3.406E-10, 
DataValue, -1.2, -4.0479999999999994E-10, 
DataValue, -1.1, -3.78E-10, 
DataValue, -1, -2.178E-10, 
DataValue, -0.9, -7.2099999999999989E-11, 
DataValue, -0.8, 2.4209999999999997E-10, 
DataValue, -0.70000000000000007, 5.153E-10, 
DataValue, -0.6, 8.7589999999999994E-10, 
DataValue, -0.5, 1.2123999999999999E-09, 
DataValue, -0.4, 1.5976999999999998E-09, 
DataValue, -0.3, 2.1091999999999997E-09, 
DataValue, -0.2, 2.8225999999999997E-09, 
DataValue, -0.1, 4.1634999999999995E-09, 
DataValue, 0, 5.1751999999999993E-09, 
DataValue, 0.1, 5.8992E-09, 
DataValue, 0.2, 6.4991E-09, 
DataValue, 0.3, 7.0385999999999992E-09, 
DataValue, 0.4, 7.5165999999999986E-09, 
DataValue, 0.5, 7.9995999999999987E-09, 
DataValue, 0.6, 8.4076E-09, 
DataValue, 0.70000000000000007, 8.8037E-09, 
DataValue, 0.8, 9.0547E-09, 
DataValue, 0.9, 9.2831999999999987E-09, 
DataValue, 1, 9.4515999999999991E-09, 
DataValue, 1.1, 9.581E-09, 
DataValue, 1.2, 9.6059E-09, 
DataValue, 1.3, 9.6797999999999988E-09, 
DataValue, 1.4000000000000001, 9.7699999999999991E-09, 
DataValue, 1.5, 9.7777999999999991E-09, 
DataValue, 1.6, 9.7559E-09, 
DataValue, 1.7, 9.8026999999999988E-09, 
DataValue, 1.8, 9.9310999999999985E-09, 
DataValue, 1.9000000000000001, 9.9257E-09, 
DataValue, 2, 9.9638E-09, 
DataValue, 2.1, 1.0052499999999999E-08, 
DataValue, 2.2, 1.01167E-08, 
DataValue, 2.3000000000000003, 1.0146699999999999E-08, 
DataValue, 2.4, 1.0234899999999998E-08, 
DataValue, 2.5, 1.0266199999999998E-08, 
DataValue, 2.6, 1.03387E-08, 
DataValue, 2.7, 1.0363099999999999E-08, 
DataValue, 2.8000000000000003, 1.04746E-08, 
DataValue, 2.9, 1.0461099999999999E-08, 
DataValue, 3, 1.0545299999999999E-08, 
DataValue, 3.1, 1.0660199999999998E-08, 
DataValue, 3.2, 1.06981E-08, 
DataValue, 3.3000000000000003, 1.0815099999999998E-08, 
DataValue, 3.4, 1.0807399999999999E-08, 
DataValue, 3.5, 1.0852399999999999E-08, 
DataValue, 3.6, 1.09498E-08, 
DataValue, 3.7, 1.1077699999999999E-08, 
DataValue, 3.8000000000000003, 1.1035699999999999E-08, 
DataValue, 3.9, 1.11062E-08, 
DataValue, 4, 1.11892E-08, 
DataValue, 4.1, 1.1282399999999998E-08, 
DataValue, 4.2, 1.13546E-08, 
DataValue, 4.3, 1.1397899999999999E-08, 
DataValue, 4.4, 1.1426599999999999E-08, 
DataValue, 4.5, 1.15318E-08, 
DataValue, 4.6000000000000005, 1.1604E-08, 
DataValue, 4.7, 1.1639699999999999E-08, 
DataValue, 4.8, 1.17295E-08, 
DataValue, 4.9, 1.18111E-08, 
DataValue, 5, 1.1750099999999998E-08, 