
SetupTitle, WW
PrimitiveTest, I/V Sweep
TestParameter, Context.MainFrame, B1500A
TestParameter, Channel.UnitType, SMU, SMU
TestParameter, Channel.Unit, SMU2:HP, SMU1:HP
TestParameter, Channel.IName, I1, I4
TestParameter, Channel.VName, V1, V4
TestParameter, Channel.Mode, V, COMMON
TestParameter, Channel.Func, VAR1, CONST
TestParameter, Channel.Index, 
TestParameter, Channel.Time, 
TestParameter, Measurement.Port.Unit, SMU2:HP, SMU1:HP
TestParameter, Measurement.Port.SeriesResistor, NONE, NONE
TestParameter, Measurement.Port.Filter, ON, ON
TestParameter, Measurement.Port.OutputVoltageComparison, 0, 0
TestParameter, Measurement.Primary.Locus, Single
TestParameter, Measurement.Primary.Scale, LINEAR
TestParameter, Measurement.Primary.Start, -5
TestParameter, Measurement.Primary.Stop, 5
TestParameter, Measurement.Primary.Step, 0.1
TestParameter, Measurement.Primary.Compliance, 0.1
TestParameter, Measurement.Primary.PowerCompliance, 0
TestParameter, Measurement.Aborting.Condition, CONTINUE AT ANY
TestParameter, Measurement.PostOutput.Value, START
TestParameter, Measurement.PostOutput.Retention, OFF
TestParameter, Measurement.Bias.Source, -5, 0
TestParameter, Measurement.Bias.Compliance, 0.1, 1
TestParameter, Measurement.Monitor.Unit, SMU2:HP, SMU1:HP
TestParameter, Measurement.Monitor.Adc, HR ADC, HR ADC
TestParameter, Measurement.Monitor.Measurement, Compliance Side, Compliance Side
TestParameter, Measurement.Monitor.RangingMode, AUTO, AUTO
TestParameter, Measurement.Monitor.RangeBoundary, , 
TestParameter, Measurement.Monitor.RangeRating, BY FULL RANGE, BY FULL RANGE
TestParameter, Measurement.Monitor.RangeRatingCoeff, 50, 50
TestParameter, Measurement.Timing.Hold, 0
TestParameter, Measurement.Timing.Delay, 0.001
TestParameter, Measurement.Adc.HighSpeed.Mode, AUTO
TestParameter, Measurement.Adc.HighSpeed.Coeff, 1
TestParameter, Measurement.Adc.HighResolution.AutoZero, OFF
TestParameter, Measurement.Adc.HighResolution.Mode, PLC
TestParameter, Measurement.Adc.HighResolution.Coeff, 1
TestParameter, Measurement.WaitTime.Source.Coeff, 1
TestParameter, Measurement.WaitTime.Source.Offset, 0
TestParameter, Measurement.WaitTime.Monitor.Coeff, 1
TestParameter, Measurement.WaitTime.Monitor.Offset, 0
TestParameter, Function.User.Name, Ohmic
TestParameter, Function.User.Unit, ohm
TestParameter, Function.User.Definition, avg(V1/I1)
TestParameter, Output.Graph.Enabled, true
TestParameter, Output.Graph.XAxis.Data, V1
TestParameter, Output.Graph.XAxis.Scale, Linear
TestParameter, Output.Graph.XAxis.Left, -5
TestParameter, Output.Graph.XAxis.Right, 5
TestParameter, Output.Graph.YAxis.Data, I1
TestParameter, Output.Graph.YAxis.Scale, Linear
TestParameter, Output.Graph.YAxis.Bottom, -0.001
TestParameter, Output.Graph.YAxis.Top, 0.001
TestParameter, Output.Graph.YAxis.Group, 
TestParameter, Output.Scalar.Data, Ohmic
TestParameter, AutoAnalysis.Interpolation, false
TestParameter, AutoAnalysis.Line1.Enabled, false
TestParameter, AutoAnalysis.Line1.Type, 1
TestParameter, AutoAnalysis.Line1.Fix, True
TestParameter, AutoAnalysis.Line1.YAxis, 0
TestParameter, AutoAnalysis.Line1.Point1.Type, 0
TestParameter, AutoAnalysis.Line1.Point1.XY.X, 
TestParameter, AutoAnalysis.Line1.Point1.XY.Y, 
TestParameter, AutoAnalysis.Line1.Point1.Data.Var, 
TestParameter, AutoAnalysis.Line1.Point1.Data.Condition, 
TestParameter, AutoAnalysis.Line1.Point1.Data.Start, false
TestParameter, AutoAnalysis.Line1.Point1.Data.StartVar, 
TestParameter, AutoAnalysis.Line1.Point1.Data.StartCondition, 
TestParameter, AutoAnalysis.Line1.Point2.Type, 0
TestParameter, AutoAnalysis.Line1.Point2.XY.X, 
TestParameter, AutoAnalysis.Line1.Point2.XY.Y, 
TestParameter, AutoAnalysis.Line1.Point2.Data.Var, 
TestParameter, AutoAnalysis.Line1.Point2.Data.Condition, 
TestParameter, AutoAnalysis.Line1.Point2.Data.Start, false
TestParameter, AutoAnalysis.Line1.Point2.Data.StartVar, 
TestParameter, AutoAnalysis.Line1.Point2.Data.StartCondition, 
TestParameter, AutoAnalysis.Line1.GradientExpr, 0
TestParameter, AutoAnalysis.Line2.Enabled, false
TestParameter, AutoAnalysis.Line2.Type, 1
TestParameter, AutoAnalysis.Line2.Fix, True
TestParameter, AutoAnalysis.Line2.YAxis, 0
TestParameter, AutoAnalysis.Line2.Point1.Type, 0
TestParameter, AutoAnalysis.Line2.Point1.XY.X, 
TestParameter, AutoAnalysis.Line2.Point1.XY.Y, 
TestParameter, AutoAnalysis.Line2.Point1.Data.Var, 
TestParameter, AutoAnalysis.Line2.Point1.Data.Condition, 
TestParameter, AutoAnalysis.Line2.Point1.Data.Start, false
TestParameter, AutoAnalysis.Line2.Point1.Data.StartVar, 
TestParameter, AutoAnalysis.Line2.Point1.Data.StartCondition, 
TestParameter, AutoAnalysis.Line2.Point2.Type, 0
TestParameter, AutoAnalysis.Line2.Point2.XY.X, 
TestParameter, AutoAnalysis.Line2.Point2.XY.Y, 
TestParameter, AutoAnalysis.Line2.Point2.Data.Var, 
TestParameter, AutoAnalysis.Line2.Point2.Data.Condition, 
TestParameter, AutoAnalysis.Line2.Point2.Data.Start, false
TestParameter, AutoAnalysis.Line2.Point2.Data.StartVar, 
TestParameter, AutoAnalysis.Line2.Point2.Data.StartCondition, 
TestParameter, AutoAnalysis.Line2.GradientExpr, 0
TestParameter, AutoAnalysis.Marker.Enabled, false
TestParameter, AutoAnalysis.Marker.Data.Var, 
TestParameter, AutoAnalysis.Marker.Data.Condition, 
TestParameter, AutoAnalysis.Marker.Data.Start, false
TestParameter, AutoAnalysis.Marker.Data.StartVar, 
TestParameter, AutoAnalysis.Marker.Data.StartCondition, 
MetaData, TestRecord.EntryPoint, true
MetaData, TestRecord.RecordTime, 09/04/2020 10:21:27
MetaData, TestRecord.TestTarget, 
MetaData, TestRecord.IterationIndex, 13
MetaData, TestRecord.Preservation, true
MetaData, TestRecord.Flag, 
MetaData, TestRecord.Remarks, 
MetaData, TestRecord.LinkKey, 80313eaa-a07c-4876-9ec6-68cb981baaaa
Dimension1, 101, 101, 101
Dimension2, 1, 1, 1
DataName, V1, I1, Ohmic
DataValue, -5, -1.5878999999999999E-09, 1162850378.0571041
DataValue, -4.9, -1.3882999999999999E-09, 
DataValue, -4.8, -1.5018E-09, 
DataValue, -4.7, -1.2616999999999999E-09, 
DataValue, -4.6000000000000005, -1.2652E-09, 
DataValue, -4.5, -1.4122E-09, 
DataValue, -4.4, -1.4901999999999999E-09, 
DataValue, -4.3, -1.6072999999999998E-09, 
DataValue, -4.2, -1.5222999999999998E-09, 
DataValue, -4.1, -1.4372999999999998E-09, 
DataValue, -4, -1.5874E-09, 
DataValue, -3.9, -1.4203999999999998E-09, 
DataValue, -3.8000000000000003, -1.4097999999999998E-09, 
DataValue, -3.7, -1.4345E-09, 
DataValue, -3.6, -1.4606E-09, 
DataValue, -3.5, -1.2321E-09, 
DataValue, -3.4, -1.1803E-09, 
DataValue, -3.3000000000000003, -1.1541E-09, 
DataValue, -3.2, -1.0276999999999999E-09, 
DataValue, -3.1, -1.1090999999999998E-09, 
DataValue, -3, -1.1547E-09, 
DataValue, -2.9, -1.2629999999999999E-09, 
DataValue, -2.8000000000000003, -1.2317999999999998E-09, 
DataValue, -2.7, -1.14E-09, 
DataValue, -2.6, -1.1734E-09, 
DataValue, -2.5, -1.0724E-09, 
DataValue, -2.4, -9.7E-10, 
DataValue, -2.3000000000000003, -9.566E-10, 
DataValue, -2.2, -8.9489999999999988E-10, 
DataValue, -2.1, -8.9589999999999987E-10, 
DataValue, -2, -8.605999999999999E-10, 
DataValue, -1.9000000000000001, -9.2629999999999989E-10, 
DataValue, -1.8, -8.6739999999999992E-10, 
DataValue, -1.7, -9.424E-10, 
DataValue, -1.6, -9.0669999999999988E-10, 
DataValue, -1.5, -8.3559999999999989E-10, 
DataValue, -1.4000000000000001, -9.1479999999999988E-10, 
DataValue, -1.3, -8.9519999999999987E-10, 
DataValue, -1.2, -7.6719999999999989E-10, 
DataValue, -1.1, -6.704E-10, 
DataValue, -1, -5.3329999999999991E-10, 
DataValue, -0.9, -3.5969999999999996E-10, 
DataValue, -0.8, -1.35E-10, 
DataValue, -0.70000000000000007, 1.8769999999999998E-10, 
DataValue, -0.6, 5.228E-10, 
DataValue, -0.5, 8.648E-10, 
DataValue, -0.4, 1.241E-09, 
DataValue, -0.3, 1.7594999999999998E-09, 
DataValue, -0.2, 2.4412E-09, 
DataValue, -0.1, 3.6153999999999997E-09, 
DataValue, 0, 4.6281999999999994E-09, 
DataValue, 0.1, 5.3211999999999994E-09, 
DataValue, 0.2, 6.0065999999999995E-09, 
DataValue, 0.3, 6.5217999999999995E-09, 
DataValue, 0.4, 6.9663999999999994E-09, 
DataValue, 0.5, 7.3510999999999996E-09, 
DataValue, 0.6, 7.7809E-09, 
DataValue, 0.70000000000000007, 8.0457999999999988E-09, 
DataValue, 0.8, 8.3659E-09, 
DataValue, 0.9, 8.5204999999999984E-09, 
DataValue, 1, 8.913499999999999E-09, 
DataValue, 1.1, 9.116799999999999E-09, 
DataValue, 1.2, 9.1993999999999987E-09, 
DataValue, 1.3, 9.2939E-09, 
DataValue, 1.4000000000000001, 9.4079999999999989E-09, 
DataValue, 1.5, 9.354399999999999E-09, 
DataValue, 1.6, 9.4983E-09, 
DataValue, 1.7, 9.5258999999999983E-09, 
DataValue, 1.8, 9.5415E-09, 
DataValue, 1.9000000000000001, 9.6044E-09, 
DataValue, 2, 9.6267E-09, 
DataValue, 2.1, 9.619899999999999E-09, 
DataValue, 2.2, 9.800499999999999E-09, 
DataValue, 2.3000000000000003, 9.7515999999999985E-09, 
DataValue, 2.4, 9.8738999999999992E-09, 
DataValue, 2.5, 1.00184E-08, 
DataValue, 2.6, 9.9962999999999987E-09, 
DataValue, 2.7, 1.0046299999999999E-08, 
DataValue, 2.8000000000000003, 1.0195499999999999E-08, 
DataValue, 2.9, 1.0269899999999998E-08, 
DataValue, 3, 1.0297E-08, 
DataValue, 3.1, 1.0307E-08, 
DataValue, 3.2, 1.04802E-08, 
DataValue, 3.3000000000000003, 1.03812E-08, 
DataValue, 3.4, 1.0471799999999999E-08, 
DataValue, 3.5, 1.0501E-08, 
DataValue, 3.6, 1.0685899999999998E-08, 
DataValue, 3.7, 1.07144E-08, 
DataValue, 3.8000000000000003, 1.08236E-08, 
DataValue, 3.9, 1.0883799999999999E-08, 
DataValue, 4, 1.0901199999999999E-08, 
DataValue, 4.1, 1.0974199999999999E-08, 
DataValue, 4.2, 1.1103299999999998E-08, 
DataValue, 4.3, 1.10875E-08, 
DataValue, 4.4, 1.1117899999999999E-08, 
DataValue, 4.5, 1.1166599999999998E-08, 
DataValue, 4.6000000000000005, 1.1214099999999999E-08, 
DataValue, 4.7, 1.1297799999999999E-08, 
DataValue, 4.8, 1.1368499999999999E-08, 
DataValue, 4.9, 1.1461699999999999E-08, 
DataValue, 5, 1.1478399999999999E-08, 