
SetupTitle, WW
PrimitiveTest, I/V Sweep
TestParameter, Context.MainFrame, B1500A
TestParameter, Channel.UnitType, SMU, SMU
TestParameter, Channel.Unit, SMU2:HP, SMU1:HP
TestParameter, Channel.IName, I1, I4
TestParameter, Channel.VName, V1, V4
TestParameter, Channel.Mode, V, COMMON
TestParameter, Channel.Func, VAR1, CONST
TestParameter, Channel.Index, 
TestParameter, Channel.Time, 
TestParameter, Measurement.Port.Unit, SMU2:HP, SMU1:HP
TestParameter, Measurement.Port.SeriesResistor, NONE, NONE
TestParameter, Measurement.Port.Filter, ON, ON
TestParameter, Measurement.Port.OutputVoltageComparison, 0, 0
TestParameter, Measurement.Primary.Locus, Single
TestParameter, Measurement.Primary.Scale, LINEAR
TestParameter, Measurement.Primary.Start, -5
TestParameter, Measurement.Primary.Stop, 5
TestParameter, Measurement.Primary.Step, 0.1
TestParameter, Measurement.Primary.Compliance, 0.1
TestParameter, Measurement.Primary.PowerCompliance, 0
TestParameter, Measurement.Aborting.Condition, CONTINUE AT ANY
TestParameter, Measurement.PostOutput.Value, START
TestParameter, Measurement.PostOutput.Retention, OFF
TestParameter, Measurement.Bias.Source, -5, 0
TestParameter, Measurement.Bias.Compliance, 0.1, 1
TestParameter, Measurement.Monitor.Unit, SMU2:HP, SMU1:HP
TestParameter, Measurement.Monitor.Adc, HR ADC, HR ADC
TestParameter, Measurement.Monitor.Measurement, Compliance Side, Compliance Side
TestParameter, Measurement.Monitor.RangingMode, AUTO, AUTO
TestParameter, Measurement.Monitor.RangeBoundary, , 
TestParameter, Measurement.Monitor.RangeRating, BY FULL RANGE, BY FULL RANGE
TestParameter, Measurement.Monitor.RangeRatingCoeff, 50, 50
TestParameter, Measurement.Timing.Hold, 0
TestParameter, Measurement.Timing.Delay, 0.001
TestParameter, Measurement.Adc.HighSpeed.Mode, AUTO
TestParameter, Measurement.Adc.HighSpeed.Coeff, 1
TestParameter, Measurement.Adc.HighResolution.AutoZero, OFF
TestParameter, Measurement.Adc.HighResolution.Mode, PLC
TestParameter, Measurement.Adc.HighResolution.Coeff, 1
TestParameter, Measurement.WaitTime.Source.Coeff, 1
TestParameter, Measurement.WaitTime.Source.Offset, 0
TestParameter, Measurement.WaitTime.Monitor.Coeff, 1
TestParameter, Measurement.WaitTime.Monitor.Offset, 0
TestParameter, Function.User.Name, Ohmic
TestParameter, Function.User.Unit, ohm
TestParameter, Function.User.Definition, avg(V1/I1)
TestParameter, Output.Graph.Enabled, true
TestParameter, Output.Graph.XAxis.Data, V1
TestParameter, Output.Graph.XAxis.Scale, Linear
TestParameter, Output.Graph.XAxis.Left, -5
TestParameter, Output.Graph.XAxis.Right, 5
TestParameter, Output.Graph.YAxis.Data, I1
TestParameter, Output.Graph.YAxis.Scale, Linear
TestParameter, Output.Graph.YAxis.Bottom, -0.001
TestParameter, Output.Graph.YAxis.Top, 0.001
TestParameter, Output.Graph.YAxis.Group, 
TestParameter, Output.Scalar.Data, Ohmic
TestParameter, AutoAnalysis.Interpolation, false
TestParameter, AutoAnalysis.Line1.Enabled, false
TestParameter, AutoAnalysis.Line1.Type, 1
TestParameter, AutoAnalysis.Line1.Fix, True
TestParameter, AutoAnalysis.Line1.YAxis, 0
TestParameter, AutoAnalysis.Line1.Point1.Type, 0
TestParameter, AutoAnalysis.Line1.Point1.XY.X, 
TestParameter, AutoAnalysis.Line1.Point1.XY.Y, 
TestParameter, AutoAnalysis.Line1.Point1.Data.Var, 
TestParameter, AutoAnalysis.Line1.Point1.Data.Condition, 
TestParameter, AutoAnalysis.Line1.Point1.Data.Start, false
TestParameter, AutoAnalysis.Line1.Point1.Data.StartVar, 
TestParameter, AutoAnalysis.Line1.Point1.Data.StartCondition, 
TestParameter, AutoAnalysis.Line1.Point2.Type, 0
TestParameter, AutoAnalysis.Line1.Point2.XY.X, 
TestParameter, AutoAnalysis.Line1.Point2.XY.Y, 
TestParameter, AutoAnalysis.Line1.Point2.Data.Var, 
TestParameter, AutoAnalysis.Line1.Point2.Data.Condition, 
TestParameter, AutoAnalysis.Line1.Point2.Data.Start, false
TestParameter, AutoAnalysis.Line1.Point2.Data.StartVar, 
TestParameter, AutoAnalysis.Line1.Point2.Data.StartCondition, 
TestParameter, AutoAnalysis.Line1.GradientExpr, 0
TestParameter, AutoAnalysis.Line2.Enabled, false
TestParameter, AutoAnalysis.Line2.Type, 1
TestParameter, AutoAnalysis.Line2.Fix, True
TestParameter, AutoAnalysis.Line2.YAxis, 0
TestParameter, AutoAnalysis.Line2.Point1.Type, 0
TestParameter, AutoAnalysis.Line2.Point1.XY.X, 
TestParameter, AutoAnalysis.Line2.Point1.XY.Y, 
TestParameter, AutoAnalysis.Line2.Point1.Data.Var, 
TestParameter, AutoAnalysis.Line2.Point1.Data.Condition, 
TestParameter, AutoAnalysis.Line2.Point1.Data.Start, false
TestParameter, AutoAnalysis.Line2.Point1.Data.StartVar, 
TestParameter, AutoAnalysis.Line2.Point1.Data.StartCondition, 
TestParameter, AutoAnalysis.Line2.Point2.Type, 0
TestParameter, AutoAnalysis.Line2.Point2.XY.X, 
TestParameter, AutoAnalysis.Line2.Point2.XY.Y, 
TestParameter, AutoAnalysis.Line2.Point2.Data.Var, 
TestParameter, AutoAnalysis.Line2.Point2.Data.Condition, 
TestParameter, AutoAnalysis.Line2.Point2.Data.Start, false
TestParameter, AutoAnalysis.Line2.Point2.Data.StartVar, 
TestParameter, AutoAnalysis.Line2.Point2.Data.StartCondition, 
TestParameter, AutoAnalysis.Line2.GradientExpr, 0
TestParameter, AutoAnalysis.Marker.Enabled, false
TestParameter, AutoAnalysis.Marker.Data.Var, 
TestParameter, AutoAnalysis.Marker.Data.Condition, 
TestParameter, AutoAnalysis.Marker.Data.Start, false
TestParameter, AutoAnalysis.Marker.Data.StartVar, 
TestParameter, AutoAnalysis.Marker.Data.StartCondition, 
MetaData, TestRecord.EntryPoint, true
MetaData, TestRecord.RecordTime, 09/04/2020 10:19:26
MetaData, TestRecord.TestTarget, 
MetaData, TestRecord.IterationIndex, 12
MetaData, TestRecord.Preservation, true
MetaData, TestRecord.Flag, 
MetaData, TestRecord.Remarks, 
MetaData, TestRecord.LinkKey, c86ecabd-299c-4af1-a773-aaba366fb84f
Dimension1, 101, 101, 101
Dimension2, 1, 1, 1
DataName, V1, I1, Ohmic
DataValue, -5, -5.7689999999999994E-10, 2691613556.4882298
DataValue, -4.9, -5.1989999999999993E-10, 
DataValue, -4.8, -5.1049999999999994E-10, 
DataValue, -4.7, -4.5189999999999996E-10, 
DataValue, -4.6000000000000005, -4.5439999999999995E-10, 
DataValue, -4.5, -4.4299999999999997E-10, 
DataValue, -4.4, -4.1279999999999996E-10, 
DataValue, -4.3, -4.533E-10, 
DataValue, -4.2, -3.9579999999999997E-10, 
DataValue, -4.1, -4.1549999999999996E-10, 
DataValue, -4, -4.0549999999999994E-10, 
DataValue, -3.9, -3.827E-10, 
DataValue, -3.8000000000000003, -4.1619999999999997E-10, 
DataValue, -3.7, -4.122E-10, 
DataValue, -3.6, -3.404E-10, 
DataValue, -3.5, -4.026E-10, 
DataValue, -3.4, -3.4599999999999994E-10, 
DataValue, -3.3000000000000003, -3.763E-10, 
DataValue, -3.2, -3.232E-10, 
DataValue, -3.1, -3.448E-10, 
DataValue, -3, -3.7449999999999995E-10, 
DataValue, -2.9, -3.4199999999999996E-10, 
DataValue, -2.8000000000000003, -3.4499999999999995E-10, 
DataValue, -2.7, -2.617E-10, 
DataValue, -2.6, -3.3529999999999997E-10, 
DataValue, -2.5, -3.3139999999999996E-10, 
DataValue, -2.4, -2.8489999999999997E-10, 
DataValue, -2.3000000000000003, -3.2789999999999997E-10, 
DataValue, -2.2, -2.4069999999999995E-10, 
DataValue, -2.1, -3.0949999999999997E-10, 
DataValue, -2, -3.1519999999999996E-10, 
DataValue, -1.9000000000000001, -2.9249999999999997E-10, 
DataValue, -1.8, -3.0999999999999996E-10, 
DataValue, -1.7, -3.3749999999999997E-10, 
DataValue, -1.6, -2.819E-10, 
DataValue, -1.5, -2.676E-10, 
DataValue, -1.4000000000000001, -2.1159999999999997E-10, 
DataValue, -1.3, -2.3919999999999996E-10, 
DataValue, -1.2, -2.013E-10, 
DataValue, -1.1, -7.0999999999999987E-11, 
DataValue, -1, 1.3099999999999999E-11, 
DataValue, -0.9, 2.4209999999999997E-10, 
DataValue, -0.8, 3.972E-10, 
DataValue, -0.70000000000000007, 5.4919999999999992E-10, 
DataValue, -0.6, 9.252999999999999E-10, 
DataValue, -0.5, 1.2692E-09, 
DataValue, -0.4, 1.6475999999999998E-09, 
DataValue, -0.3, 2.0758E-09, 
DataValue, -0.2, 2.8521999999999997E-09, 
DataValue, -0.1, 3.9949999999999995E-09, 
DataValue, 0, 4.9066999999999992E-09, 
DataValue, 0.1, 5.6032999999999995E-09, 
DataValue, 0.2, 6.1805999999999991E-09, 
DataValue, 0.3, 6.6646999999999991E-09, 
DataValue, 0.4, 7.1844999999999989E-09, 
DataValue, 0.5, 7.5284E-09, 
DataValue, 0.6, 7.9031999999999989E-09, 
DataValue, 0.70000000000000007, 8.2777999999999989E-09, 
DataValue, 0.8, 8.4438999999999989E-09, 
DataValue, 0.9, 8.6783E-09, 
DataValue, 1, 8.843099999999999E-09, 
DataValue, 1.1, 8.9643999999999985E-09, 
DataValue, 1.2, 8.8789E-09, 
DataValue, 1.3, 9.0778E-09, 
DataValue, 1.4000000000000001, 9.1453999999999986E-09, 
DataValue, 1.5, 9.1103E-09, 
DataValue, 1.6, 9.2294E-09, 
DataValue, 1.7, 9.2271E-09, 
DataValue, 1.8, 9.200599999999999E-09, 
DataValue, 1.9000000000000001, 9.2250999999999987E-09, 
DataValue, 2, 9.2776999999999991E-09, 
DataValue, 2.1, 9.3481E-09, 
DataValue, 2.2, 9.3348999999999984E-09, 
DataValue, 2.3000000000000003, 9.4294E-09, 
DataValue, 2.4, 9.4134999999999986E-09, 
DataValue, 2.5, 9.4684E-09, 
DataValue, 2.6, 9.4841E-09, 
DataValue, 2.7, 9.4956E-09, 
DataValue, 2.8000000000000003, 9.5657999999999985E-09, 
DataValue, 2.9, 9.6315E-09, 
DataValue, 3, 9.6837E-09, 
DataValue, 3.1, 9.7247E-09, 
DataValue, 3.2, 9.8253999999999988E-09, 
DataValue, 3.3000000000000003, 9.8632999999999984E-09, 
DataValue, 3.4, 9.8625999999999986E-09, 
DataValue, 3.5, 9.9801E-09, 
DataValue, 3.6, 1.0014499999999999E-08, 
DataValue, 3.7, 1.0148899999999998E-08, 
DataValue, 3.8000000000000003, 1.0143499999999999E-08, 
DataValue, 3.9, 1.0120599999999998E-08, 
DataValue, 4, 1.02385E-08, 
DataValue, 4.1, 1.0233199999999999E-08, 
DataValue, 4.2, 1.0277499999999999E-08, 
DataValue, 4.3, 1.0359099999999999E-08, 
DataValue, 4.4, 1.0412999999999999E-08, 
DataValue, 4.5, 1.0489399999999999E-08, 
DataValue, 4.6000000000000005, 1.0555999999999999E-08, 
DataValue, 4.7, 1.05796E-08, 
DataValue, 4.8, 1.06548E-08, 
DataValue, 4.9, 1.0686599999999998E-08, 
DataValue, 5, 1.08012E-08, 