
SetupTitle, WW
PrimitiveTest, I/V Sweep
TestParameter, Context.MainFrame, B1500A
TestParameter, Channel.UnitType, SMU, SMU
TestParameter, Channel.Unit, SMU2:HP, SMU1:HP
TestParameter, Channel.IName, I1, I4
TestParameter, Channel.VName, V1, V4
TestParameter, Channel.Mode, V, COMMON
TestParameter, Channel.Func, VAR1, CONST
TestParameter, Channel.Index, 
TestParameter, Channel.Time, 
TestParameter, Measurement.Port.Unit, SMU2:HP, SMU1:HP
TestParameter, Measurement.Port.SeriesResistor, NONE, NONE
TestParameter, Measurement.Port.Filter, ON, ON
TestParameter, Measurement.Port.OutputVoltageComparison, 0, 0
TestParameter, Measurement.Primary.Locus, Single
TestParameter, Measurement.Primary.Scale, LINEAR
TestParameter, Measurement.Primary.Start, -5
TestParameter, Measurement.Primary.Stop, 5
TestParameter, Measurement.Primary.Step, 0.1
TestParameter, Measurement.Primary.Compliance, 0.1
TestParameter, Measurement.Primary.PowerCompliance, 0
TestParameter, Measurement.Aborting.Condition, CONTINUE AT ANY
TestParameter, Measurement.PostOutput.Value, START
TestParameter, Measurement.PostOutput.Retention, OFF
TestParameter, Measurement.Bias.Source, -5, 0
TestParameter, Measurement.Bias.Compliance, 0.1, 1
TestParameter, Measurement.Monitor.Unit, SMU2:HP, SMU1:HP
TestParameter, Measurement.Monitor.Adc, HR ADC, HR ADC
TestParameter, Measurement.Monitor.Measurement, Compliance Side, Compliance Side
TestParameter, Measurement.Monitor.RangingMode, AUTO, AUTO
TestParameter, Measurement.Monitor.RangeBoundary, , 
TestParameter, Measurement.Monitor.RangeRating, BY FULL RANGE, BY FULL RANGE
TestParameter, Measurement.Monitor.RangeRatingCoeff, 50, 50
TestParameter, Measurement.Timing.Hold, 0
TestParameter, Measurement.Timing.Delay, 0.001
TestParameter, Measurement.Adc.HighSpeed.Mode, AUTO
TestParameter, Measurement.Adc.HighSpeed.Coeff, 1
TestParameter, Measurement.Adc.HighResolution.AutoZero, OFF
TestParameter, Measurement.Adc.HighResolution.Mode, PLC
TestParameter, Measurement.Adc.HighResolution.Coeff, 1
TestParameter, Measurement.WaitTime.Source.Coeff, 1
TestParameter, Measurement.WaitTime.Source.Offset, 0
TestParameter, Measurement.WaitTime.Monitor.Coeff, 1
TestParameter, Measurement.WaitTime.Monitor.Offset, 0
TestParameter, Function.User.Name, Ohmic
TestParameter, Function.User.Unit, ohm
TestParameter, Function.User.Definition, avg(V1/I1)
TestParameter, Output.Graph.Enabled, true
TestParameter, Output.Graph.XAxis.Data, V1
TestParameter, Output.Graph.XAxis.Scale, Linear
TestParameter, Output.Graph.XAxis.Left, -5
TestParameter, Output.Graph.XAxis.Right, 5
TestParameter, Output.Graph.YAxis.Data, I1
TestParameter, Output.Graph.YAxis.Scale, Linear
TestParameter, Output.Graph.YAxis.Bottom, -0.001
TestParameter, Output.Graph.YAxis.Top, 0.001
TestParameter, Output.Graph.YAxis.Group, 
TestParameter, Output.Scalar.Data, Ohmic
TestParameter, AutoAnalysis.Interpolation, false
TestParameter, AutoAnalysis.Line1.Enabled, false
TestParameter, AutoAnalysis.Line1.Type, 1
TestParameter, AutoAnalysis.Line1.Fix, True
TestParameter, AutoAnalysis.Line1.YAxis, 0
TestParameter, AutoAnalysis.Line1.Point1.Type, 0
TestParameter, AutoAnalysis.Line1.Point1.XY.X, 
TestParameter, AutoAnalysis.Line1.Point1.XY.Y, 
TestParameter, AutoAnalysis.Line1.Point1.Data.Var, 
TestParameter, AutoAnalysis.Line1.Point1.Data.Condition, 
TestParameter, AutoAnalysis.Line1.Point1.Data.Start, false
TestParameter, AutoAnalysis.Line1.Point1.Data.StartVar, 
TestParameter, AutoAnalysis.Line1.Point1.Data.StartCondition, 
TestParameter, AutoAnalysis.Line1.Point2.Type, 0
TestParameter, AutoAnalysis.Line1.Point2.XY.X, 
TestParameter, AutoAnalysis.Line1.Point2.XY.Y, 
TestParameter, AutoAnalysis.Line1.Point2.Data.Var, 
TestParameter, AutoAnalysis.Line1.Point2.Data.Condition, 
TestParameter, AutoAnalysis.Line1.Point2.Data.Start, false
TestParameter, AutoAnalysis.Line1.Point2.Data.StartVar, 
TestParameter, AutoAnalysis.Line1.Point2.Data.StartCondition, 
TestParameter, AutoAnalysis.Line1.GradientExpr, 0
TestParameter, AutoAnalysis.Line2.Enabled, false
TestParameter, AutoAnalysis.Line2.Type, 1
TestParameter, AutoAnalysis.Line2.Fix, True
TestParameter, AutoAnalysis.Line2.YAxis, 0
TestParameter, AutoAnalysis.Line2.Point1.Type, 0
TestParameter, AutoAnalysis.Line2.Point1.XY.X, 
TestParameter, AutoAnalysis.Line2.Point1.XY.Y, 
TestParameter, AutoAnalysis.Line2.Point1.Data.Var, 
TestParameter, AutoAnalysis.Line2.Point1.Data.Condition, 
TestParameter, AutoAnalysis.Line2.Point1.Data.Start, false
TestParameter, AutoAnalysis.Line2.Point1.Data.StartVar, 
TestParameter, AutoAnalysis.Line2.Point1.Data.StartCondition, 
TestParameter, AutoAnalysis.Line2.Point2.Type, 0
TestParameter, AutoAnalysis.Line2.Point2.XY.X, 
TestParameter, AutoAnalysis.Line2.Point2.XY.Y, 
TestParameter, AutoAnalysis.Line2.Point2.Data.Var, 
TestParameter, AutoAnalysis.Line2.Point2.Data.Condition, 
TestParameter, AutoAnalysis.Line2.Point2.Data.Start, false
TestParameter, AutoAnalysis.Line2.Point2.Data.StartVar, 
TestParameter, AutoAnalysis.Line2.Point2.Data.StartCondition, 
TestParameter, AutoAnalysis.Line2.GradientExpr, 0
TestParameter, AutoAnalysis.Marker.Enabled, false
TestParameter, AutoAnalysis.Marker.Data.Var, 
TestParameter, AutoAnalysis.Marker.Data.Condition, 
TestParameter, AutoAnalysis.Marker.Data.Start, false
TestParameter, AutoAnalysis.Marker.Data.StartVar, 
TestParameter, AutoAnalysis.Marker.Data.StartCondition, 
MetaData, TestRecord.EntryPoint, true
MetaData, TestRecord.RecordTime, 09/04/2020 10:17:13
MetaData, TestRecord.TestTarget, 
MetaData, TestRecord.IterationIndex, 9
MetaData, TestRecord.Preservation, true
MetaData, TestRecord.Flag, 
MetaData, TestRecord.Remarks, 
MetaData, TestRecord.LinkKey, 6d5e868c-55e0-4f35-b5b7-eff5614b44a2
Dimension1, 101, 101, 101
Dimension2, 1, 1, 1
DataName, V1, I1, Ohmic
DataValue, -5, -5.261999999999999E-10, 3578941981.5842762
DataValue, -4.9, -4.951999999999999E-10, 
DataValue, -4.8, -4.6109999999999994E-10, 
DataValue, -4.7, -4.6149999999999996E-10, 
DataValue, -4.6000000000000005, -4.8519999999999994E-10, 
DataValue, -4.5, -4.6799999999999993E-10, 
DataValue, -4.4, -5.022E-10, 
DataValue, -4.3, -3.9529999999999997E-10, 
DataValue, -4.2, -4.383E-10, 
DataValue, -4.1, -3.928E-10, 
DataValue, -4, -4.3649999999999994E-10, 
DataValue, -3.9, -4.7039999999999995E-10, 
DataValue, -3.8000000000000003, -3.8479999999999995E-10, 
DataValue, -3.7, -4.309E-10, 
DataValue, -3.6, -3.6639999999999994E-10, 
DataValue, -3.5, -4.0589999999999996E-10, 
DataValue, -3.4, -3.2229999999999996E-10, 
DataValue, -3.3000000000000003, -3.5079999999999997E-10, 
DataValue, -3.2, -3.8259999999999995E-10, 
DataValue, -3.1, -3.2699999999999996E-10, 
DataValue, -3, -3.2789999999999997E-10, 
DataValue, -2.9, -3.5229999999999996E-10, 
DataValue, -2.8000000000000003, -3.1859999999999996E-10, 
DataValue, -2.7, -2.9479999999999995E-10, 
DataValue, -2.6, -2.738E-10, 
DataValue, -2.5, -2.772E-10, 
DataValue, -2.4, -2.619E-10, 
DataValue, -2.3000000000000003, -2.4729999999999996E-10, 
DataValue, -2.2, -2.551E-10, 
DataValue, -2.1, -2.2609999999999997E-10, 
DataValue, -2, -2.2759999999999997E-10, 
DataValue, -1.9000000000000001, -2.91E-10, 
DataValue, -1.8, -2.4359999999999997E-10, 
DataValue, -1.7, -2.487E-10, 
DataValue, -1.6, -2.012E-10, 
DataValue, -1.5, -1.97E-10, 
DataValue, -1.4000000000000001, -1.451E-10, 
DataValue, -1.3, -1.0669999999999999E-10, 
DataValue, -1.2, -4.5799999999999993E-11, 
DataValue, -1.1, 6.8E-11, 
DataValue, -1, 2.0779999999999997E-10, 
DataValue, -0.9, 3.8499999999999996E-10, 
DataValue, -0.8, 6.201E-10, 
DataValue, -0.70000000000000007, 8.723999999999999E-10, 
DataValue, -0.6, 1.1284E-09, 
DataValue, -0.5, 1.4493E-09, 
DataValue, -0.4, 1.8321E-09, 
DataValue, -0.3, 2.1640999999999996E-09, 
DataValue, -0.2, 2.8198999999999997E-09, 
DataValue, -0.1, 3.8074E-09, 
DataValue, 0, 4.6199999999999993E-09, 
DataValue, 0.1, 5.1418999999999994E-09, 
DataValue, 0.2, 5.6682999999999995E-09, 
DataValue, 0.3, 6.1126E-09, 
DataValue, 0.4, 6.4876999999999994E-09, 
DataValue, 0.5, 6.8406999999999993E-09, 
DataValue, 0.6, 7.1109999999999991E-09, 
DataValue, 0.70000000000000007, 7.4036999999999992E-09, 
DataValue, 0.8, 7.6904E-09, 
DataValue, 0.9, 7.8892E-09, 
DataValue, 1, 8.073399999999999E-09, 
DataValue, 1.1, 8.2274E-09, 
DataValue, 1.2, 8.3317999999999989E-09, 
DataValue, 1.3, 8.4057999999999984E-09, 
DataValue, 1.4000000000000001, 8.4769E-09, 
DataValue, 1.5, 8.5264E-09, 
DataValue, 1.6, 8.5131999999999991E-09, 
DataValue, 1.7, 8.5275999999999986E-09, 
DataValue, 1.8, 8.5721E-09, 
DataValue, 1.9000000000000001, 8.5968999999999987E-09, 
DataValue, 2, 8.6887999999999984E-09, 
DataValue, 2.1, 8.6222999999999991E-09, 
DataValue, 2.2, 8.752999999999999E-09, 
DataValue, 2.3000000000000003, 8.7539999999999985E-09, 
DataValue, 2.4, 8.8398E-09, 
DataValue, 2.5, 8.8221E-09, 
DataValue, 2.6, 8.8708999999999984E-09, 
DataValue, 2.7, 8.9237999999999985E-09, 
DataValue, 2.8000000000000003, 8.977899999999999E-09, 
DataValue, 2.9, 8.9635E-09, 
DataValue, 3, 9.0593999999999987E-09, 
DataValue, 3.1, 9.1541E-09, 
DataValue, 3.2, 9.1449E-09, 
DataValue, 3.3000000000000003, 9.1631E-09, 
DataValue, 3.4, 9.2305E-09, 
DataValue, 3.5, 9.2637E-09, 
DataValue, 3.6, 9.3624999999999986E-09, 
DataValue, 3.7, 9.3824E-09, 
DataValue, 3.8000000000000003, 9.412099999999999E-09, 
DataValue, 3.9, 9.4272E-09, 
DataValue, 4, 9.4712999999999989E-09, 
DataValue, 4.1, 9.4682999999999988E-09, 
DataValue, 4.2, 9.5296E-09, 
DataValue, 4.3, 9.5691999999999988E-09, 
DataValue, 4.4, 9.6551E-09, 
DataValue, 4.5, 9.7124999999999985E-09, 
DataValue, 4.6000000000000005, 9.7079999999999983E-09, 
DataValue, 4.7, 9.803099999999999E-09, 
DataValue, 4.8, 9.8327999999999986E-09, 
DataValue, 4.9, 9.885399999999999E-09, 
DataValue, 5, 9.9481E-09, 