
SetupTitle, WW
PrimitiveTest, I/V Sweep
TestParameter, Context.MainFrame, B1500A
TestParameter, Channel.UnitType, SMU, SMU
TestParameter, Channel.Unit, SMU2:HP, SMU1:HP
TestParameter, Channel.IName, I1, I4
TestParameter, Channel.VName, V1, V4
TestParameter, Channel.Mode, V, COMMON
TestParameter, Channel.Func, VAR1, CONST
TestParameter, Channel.Index, 
TestParameter, Channel.Time, 
TestParameter, Measurement.Port.Unit, SMU2:HP, SMU1:HP
TestParameter, Measurement.Port.SeriesResistor, NONE, NONE
TestParameter, Measurement.Port.Filter, ON, ON
TestParameter, Measurement.Port.OutputVoltageComparison, 0, 0
TestParameter, Measurement.Primary.Locus, Single
TestParameter, Measurement.Primary.Scale, LINEAR
TestParameter, Measurement.Primary.Start, -5
TestParameter, Measurement.Primary.Stop, 5
TestParameter, Measurement.Primary.Step, 0.1
TestParameter, Measurement.Primary.Compliance, 0.1
TestParameter, Measurement.Primary.PowerCompliance, 0
TestParameter, Measurement.Aborting.Condition, CONTINUE AT ANY
TestParameter, Measurement.PostOutput.Value, START
TestParameter, Measurement.PostOutput.Retention, OFF
TestParameter, Measurement.Bias.Source, -5, 0
TestParameter, Measurement.Bias.Compliance, 0.1, 1
TestParameter, Measurement.Monitor.Unit, SMU2:HP, SMU1:HP
TestParameter, Measurement.Monitor.Adc, HR ADC, HR ADC
TestParameter, Measurement.Monitor.Measurement, Compliance Side, Compliance Side
TestParameter, Measurement.Monitor.RangingMode, AUTO, AUTO
TestParameter, Measurement.Monitor.RangeBoundary, , 
TestParameter, Measurement.Monitor.RangeRating, BY FULL RANGE, BY FULL RANGE
TestParameter, Measurement.Monitor.RangeRatingCoeff, 50, 50
TestParameter, Measurement.Timing.Hold, 0
TestParameter, Measurement.Timing.Delay, 0.001
TestParameter, Measurement.Adc.HighSpeed.Mode, AUTO
TestParameter, Measurement.Adc.HighSpeed.Coeff, 1
TestParameter, Measurement.Adc.HighResolution.AutoZero, OFF
TestParameter, Measurement.Adc.HighResolution.Mode, PLC
TestParameter, Measurement.Adc.HighResolution.Coeff, 1
TestParameter, Measurement.WaitTime.Source.Coeff, 1
TestParameter, Measurement.WaitTime.Source.Offset, 0
TestParameter, Measurement.WaitTime.Monitor.Coeff, 1
TestParameter, Measurement.WaitTime.Monitor.Offset, 0
TestParameter, Function.User.Name, Ohmic
TestParameter, Function.User.Unit, ohm
TestParameter, Function.User.Definition, avg(V1/I1)
TestParameter, Output.Graph.Enabled, true
TestParameter, Output.Graph.XAxis.Data, V1
TestParameter, Output.Graph.XAxis.Scale, Linear
TestParameter, Output.Graph.XAxis.Left, -5
TestParameter, Output.Graph.XAxis.Right, 5
TestParameter, Output.Graph.YAxis.Data, I1
TestParameter, Output.Graph.YAxis.Scale, Linear
TestParameter, Output.Graph.YAxis.Bottom, -0.001
TestParameter, Output.Graph.YAxis.Top, 0.001
TestParameter, Output.Graph.YAxis.Group, 
TestParameter, Output.Scalar.Data, Ohmic
TestParameter, AutoAnalysis.Interpolation, false
TestParameter, AutoAnalysis.Line1.Enabled, false
TestParameter, AutoAnalysis.Line1.Type, 1
TestParameter, AutoAnalysis.Line1.Fix, True
TestParameter, AutoAnalysis.Line1.YAxis, 0
TestParameter, AutoAnalysis.Line1.Point1.Type, 0
TestParameter, AutoAnalysis.Line1.Point1.XY.X, 
TestParameter, AutoAnalysis.Line1.Point1.XY.Y, 
TestParameter, AutoAnalysis.Line1.Point1.Data.Var, 
TestParameter, AutoAnalysis.Line1.Point1.Data.Condition, 
TestParameter, AutoAnalysis.Line1.Point1.Data.Start, false
TestParameter, AutoAnalysis.Line1.Point1.Data.StartVar, 
TestParameter, AutoAnalysis.Line1.Point1.Data.StartCondition, 
TestParameter, AutoAnalysis.Line1.Point2.Type, 0
TestParameter, AutoAnalysis.Line1.Point2.XY.X, 
TestParameter, AutoAnalysis.Line1.Point2.XY.Y, 
TestParameter, AutoAnalysis.Line1.Point2.Data.Var, 
TestParameter, AutoAnalysis.Line1.Point2.Data.Condition, 
TestParameter, AutoAnalysis.Line1.Point2.Data.Start, false
TestParameter, AutoAnalysis.Line1.Point2.Data.StartVar, 
TestParameter, AutoAnalysis.Line1.Point2.Data.StartCondition, 
TestParameter, AutoAnalysis.Line1.GradientExpr, 0
TestParameter, AutoAnalysis.Line2.Enabled, false
TestParameter, AutoAnalysis.Line2.Type, 1
TestParameter, AutoAnalysis.Line2.Fix, True
TestParameter, AutoAnalysis.Line2.YAxis, 0
TestParameter, AutoAnalysis.Line2.Point1.Type, 0
TestParameter, AutoAnalysis.Line2.Point1.XY.X, 
TestParameter, AutoAnalysis.Line2.Point1.XY.Y, 
TestParameter, AutoAnalysis.Line2.Point1.Data.Var, 
TestParameter, AutoAnalysis.Line2.Point1.Data.Condition, 
TestParameter, AutoAnalysis.Line2.Point1.Data.Start, false
TestParameter, AutoAnalysis.Line2.Point1.Data.StartVar, 
TestParameter, AutoAnalysis.Line2.Point1.Data.StartCondition, 
TestParameter, AutoAnalysis.Line2.Point2.Type, 0
TestParameter, AutoAnalysis.Line2.Point2.XY.X, 
TestParameter, AutoAnalysis.Line2.Point2.XY.Y, 
TestParameter, AutoAnalysis.Line2.Point2.Data.Var, 
TestParameter, AutoAnalysis.Line2.Point2.Data.Condition, 
TestParameter, AutoAnalysis.Line2.Point2.Data.Start, false
TestParameter, AutoAnalysis.Line2.Point2.Data.StartVar, 
TestParameter, AutoAnalysis.Line2.Point2.Data.StartCondition, 
TestParameter, AutoAnalysis.Line2.GradientExpr, 0
TestParameter, AutoAnalysis.Marker.Enabled, false
TestParameter, AutoAnalysis.Marker.Data.Var, 
TestParameter, AutoAnalysis.Marker.Data.Condition, 
TestParameter, AutoAnalysis.Marker.Data.Start, false
TestParameter, AutoAnalysis.Marker.Data.StartVar, 
TestParameter, AutoAnalysis.Marker.Data.StartCondition, 
MetaData, TestRecord.EntryPoint, true
MetaData, TestRecord.RecordTime, 09/04/2020 10:16:43
MetaData, TestRecord.TestTarget, 
MetaData, TestRecord.IterationIndex, 8
MetaData, TestRecord.Preservation, true
MetaData, TestRecord.Flag, 
MetaData, TestRecord.Remarks, 
MetaData, TestRecord.LinkKey, d17ab5c9-3705-4125-b67e-de5d478cf16a
Dimension1, 101, 101, 101
Dimension2, 1, 1, 1
DataName, V1, I1, Ohmic
DataValue, -5, -5.129E-10, 3537411790.3081741
DataValue, -4.9, -5.0809999999999993E-10, 
DataValue, -4.8, -4.7269999999999993E-10, 
DataValue, -4.7, -4.2359999999999996E-10, 
DataValue, -4.6000000000000005, -4.5879999999999996E-10, 
DataValue, -4.5, -4.2849999999999997E-10, 
DataValue, -4.4, -4.3279999999999994E-10, 
DataValue, -4.3, -4.3849999999999993E-10, 
DataValue, -4.2, -3.5819999999999996E-10, 
DataValue, -4.1, -3.7769999999999995E-10, 
DataValue, -4, -4.1469999999999997E-10, 
DataValue, -3.9, -4.1929999999999994E-10, 
DataValue, -3.8000000000000003, -3.5409999999999995E-10, 
DataValue, -3.7, -3.1179999999999995E-10, 
DataValue, -3.6, -3.62E-10, 
DataValue, -3.5, -2.863E-10, 
DataValue, -3.4, -3.345E-10, 
DataValue, -3.3000000000000003, -3.052E-10, 
DataValue, -3.2, -3.16E-10, 
DataValue, -3.1, -3.3389999999999995E-10, 
DataValue, -3, -2.8219999999999997E-10, 
DataValue, -2.9, -3.7639999999999996E-10, 
DataValue, -2.8000000000000003, -3.328E-10, 
DataValue, -2.7, -2.433E-10, 
DataValue, -2.6, -3.409E-10, 
DataValue, -2.5, -2.951E-10, 
DataValue, -2.4, -3.042E-10, 
DataValue, -2.3000000000000003, -2.7109999999999997E-10, 
DataValue, -2.2, -2.8519999999999996E-10, 
DataValue, -2.1, -3.01E-10, 
DataValue, -2, -2.2449999999999997E-10, 
DataValue, -1.9000000000000001, -2.5669999999999995E-10, 
DataValue, -1.8, -2.2849999999999999E-10, 
DataValue, -1.7, -2.5299999999999995E-10, 
DataValue, -1.6, -2.2889999999999998E-10, 
DataValue, -1.5, -1.541E-10, 
DataValue, -1.4000000000000001, -1.472E-10, 
DataValue, -1.3, -5.7999999999999994E-11, 
DataValue, -1.2, 7.23E-11, 
DataValue, -1.1, 1.9669999999999998E-10, 
DataValue, -1, 4.292E-10, 
DataValue, -0.9, 5.375E-10, 
DataValue, -0.8, 7.9729999999999992E-10, 
DataValue, -0.70000000000000007, 1.0301E-09, 
DataValue, -0.6, 1.3092999999999998E-09, 
DataValue, -0.5, 1.6057E-09, 
DataValue, -0.4, 1.9406999999999997E-09, 
DataValue, -0.3, 2.3668999999999998E-09, 
DataValue, -0.2, 2.8979999999999997E-09, 
DataValue, -0.1, 3.8979E-09, 
DataValue, 0, 4.6981999999999993E-09, 
DataValue, 0.1, 5.2084999999999991E-09, 
DataValue, 0.2, 5.6149999999999993E-09, 
DataValue, 0.3, 6.0992999999999994E-09, 
DataValue, 0.4, 6.3662E-09, 
DataValue, 0.5, 6.7661999999999992E-09, 
DataValue, 0.6, 7.0733999999999992E-09, 
DataValue, 0.70000000000000007, 7.330299999999999E-09, 
DataValue, 0.8, 7.5873E-09, 
DataValue, 0.9, 7.8133E-09, 
DataValue, 1, 8.0110999999999985E-09, 
DataValue, 1.1, 8.1261E-09, 
DataValue, 1.2, 8.3156999999999985E-09, 
DataValue, 1.3, 8.3911E-09, 
DataValue, 1.4000000000000001, 8.3863E-09, 
DataValue, 1.5, 8.5148E-09, 
DataValue, 1.6, 8.5429999999999991E-09, 
DataValue, 1.7, 8.533E-09, 
DataValue, 1.8, 8.6106999999999988E-09, 
DataValue, 1.9000000000000001, 8.6232999999999985E-09, 
DataValue, 2, 8.6947999999999986E-09, 
DataValue, 2.1, 8.6992999999999987E-09, 
DataValue, 2.2, 8.7469999999999988E-09, 
DataValue, 2.3000000000000003, 8.7976999999999991E-09, 
DataValue, 2.4, 8.9085999999999988E-09, 
DataValue, 2.5, 8.8366999999999987E-09, 
DataValue, 2.6, 8.8414E-09, 
DataValue, 2.7, 8.8861E-09, 
DataValue, 2.8000000000000003, 8.9233E-09, 
DataValue, 2.9, 8.9542E-09, 
DataValue, 3, 8.9982999999999986E-09, 
DataValue, 3.1, 9.0962999999999989E-09, 
DataValue, 3.2, 9.0879E-09, 
DataValue, 3.3000000000000003, 9.185699999999999E-09, 
DataValue, 3.4, 9.2108E-09, 
DataValue, 3.5, 9.2410999999999986E-09, 
DataValue, 3.6, 9.3266E-09, 
DataValue, 3.7, 9.3318E-09, 
DataValue, 3.8000000000000003, 9.3975999999999991E-09, 
DataValue, 3.9, 9.4342E-09, 
DataValue, 4, 9.4774E-09, 
DataValue, 4.1, 9.4854999999999991E-09, 
DataValue, 4.2, 9.5981E-09, 
DataValue, 4.3, 9.5929999999999986E-09, 
DataValue, 4.4, 9.6338999999999983E-09, 
DataValue, 4.5, 9.7241999999999992E-09, 
DataValue, 4.6000000000000005, 9.763999999999999E-09, 
DataValue, 4.7, 9.7943E-09, 
DataValue, 4.8, 9.8663999999999989E-09, 
DataValue, 4.9, 9.9109E-09, 
DataValue, 5, 9.8916999999999988E-09, 