
SetupTitle, WW
PrimitiveTest, I/V Sweep
TestParameter, Context.MainFrame, B1500A
TestParameter, Channel.UnitType, SMU, SMU
TestParameter, Channel.Unit, SMU2:HP, SMU1:HP
TestParameter, Channel.IName, I1, I4
TestParameter, Channel.VName, V1, V4
TestParameter, Channel.Mode, V, COMMON
TestParameter, Channel.Func, VAR1, CONST
TestParameter, Channel.Index, 
TestParameter, Channel.Time, 
TestParameter, Measurement.Port.Unit, SMU2:HP, SMU1:HP
TestParameter, Measurement.Port.SeriesResistor, NONE, NONE
TestParameter, Measurement.Port.Filter, ON, ON
TestParameter, Measurement.Port.OutputVoltageComparison, 0, 0
TestParameter, Measurement.Primary.Locus, Single
TestParameter, Measurement.Primary.Scale, LINEAR
TestParameter, Measurement.Primary.Start, -5
TestParameter, Measurement.Primary.Stop, 5
TestParameter, Measurement.Primary.Step, 0.1
TestParameter, Measurement.Primary.Compliance, 0.1
TestParameter, Measurement.Primary.PowerCompliance, 0
TestParameter, Measurement.Aborting.Condition, CONTINUE AT ANY
TestParameter, Measurement.PostOutput.Value, START
TestParameter, Measurement.PostOutput.Retention, OFF
TestParameter, Measurement.Bias.Source, -5, 0
TestParameter, Measurement.Bias.Compliance, 0.1, 1
TestParameter, Measurement.Monitor.Unit, SMU2:HP, SMU1:HP
TestParameter, Measurement.Monitor.Adc, HR ADC, HR ADC
TestParameter, Measurement.Monitor.Measurement, Compliance Side, Compliance Side
TestParameter, Measurement.Monitor.RangingMode, AUTO, AUTO
TestParameter, Measurement.Monitor.RangeBoundary, , 
TestParameter, Measurement.Monitor.RangeRating, BY FULL RANGE, BY FULL RANGE
TestParameter, Measurement.Monitor.RangeRatingCoeff, 50, 50
TestParameter, Measurement.Timing.Hold, 0
TestParameter, Measurement.Timing.Delay, 0.001
TestParameter, Measurement.Adc.HighSpeed.Mode, AUTO
TestParameter, Measurement.Adc.HighSpeed.Coeff, 1
TestParameter, Measurement.Adc.HighResolution.AutoZero, OFF
TestParameter, Measurement.Adc.HighResolution.Mode, PLC
TestParameter, Measurement.Adc.HighResolution.Coeff, 1
TestParameter, Measurement.WaitTime.Source.Coeff, 1
TestParameter, Measurement.WaitTime.Source.Offset, 0
TestParameter, Measurement.WaitTime.Monitor.Coeff, 1
TestParameter, Measurement.WaitTime.Monitor.Offset, 0
TestParameter, Function.User.Name, Ohmic
TestParameter, Function.User.Unit, ohm
TestParameter, Function.User.Definition, avg(V1/I1)
TestParameter, Output.Graph.Enabled, true
TestParameter, Output.Graph.XAxis.Data, V1
TestParameter, Output.Graph.XAxis.Scale, Linear
TestParameter, Output.Graph.XAxis.Left, -5
TestParameter, Output.Graph.XAxis.Right, 5
TestParameter, Output.Graph.YAxis.Data, I1
TestParameter, Output.Graph.YAxis.Scale, Linear
TestParameter, Output.Graph.YAxis.Bottom, -0.001
TestParameter, Output.Graph.YAxis.Top, 0.001
TestParameter, Output.Graph.YAxis.Group, 
TestParameter, Output.Scalar.Data, Ohmic
TestParameter, AutoAnalysis.Interpolation, false
TestParameter, AutoAnalysis.Line1.Enabled, false
TestParameter, AutoAnalysis.Line1.Type, 1
TestParameter, AutoAnalysis.Line1.Fix, True
TestParameter, AutoAnalysis.Line1.YAxis, 0
TestParameter, AutoAnalysis.Line1.Point1.Type, 0
TestParameter, AutoAnalysis.Line1.Point1.XY.X, 
TestParameter, AutoAnalysis.Line1.Point1.XY.Y, 
TestParameter, AutoAnalysis.Line1.Point1.Data.Var, 
TestParameter, AutoAnalysis.Line1.Point1.Data.Condition, 
TestParameter, AutoAnalysis.Line1.Point1.Data.Start, false
TestParameter, AutoAnalysis.Line1.Point1.Data.StartVar, 
TestParameter, AutoAnalysis.Line1.Point1.Data.StartCondition, 
TestParameter, AutoAnalysis.Line1.Point2.Type, 0
TestParameter, AutoAnalysis.Line1.Point2.XY.X, 
TestParameter, AutoAnalysis.Line1.Point2.XY.Y, 
TestParameter, AutoAnalysis.Line1.Point2.Data.Var, 
TestParameter, AutoAnalysis.Line1.Point2.Data.Condition, 
TestParameter, AutoAnalysis.Line1.Point2.Data.Start, false
TestParameter, AutoAnalysis.Line1.Point2.Data.StartVar, 
TestParameter, AutoAnalysis.Line1.Point2.Data.StartCondition, 
TestParameter, AutoAnalysis.Line1.GradientExpr, 0
TestParameter, AutoAnalysis.Line2.Enabled, false
TestParameter, AutoAnalysis.Line2.Type, 1
TestParameter, AutoAnalysis.Line2.Fix, True
TestParameter, AutoAnalysis.Line2.YAxis, 0
TestParameter, AutoAnalysis.Line2.Point1.Type, 0
TestParameter, AutoAnalysis.Line2.Point1.XY.X, 
TestParameter, AutoAnalysis.Line2.Point1.XY.Y, 
TestParameter, AutoAnalysis.Line2.Point1.Data.Var, 
TestParameter, AutoAnalysis.Line2.Point1.Data.Condition, 
TestParameter, AutoAnalysis.Line2.Point1.Data.Start, false
TestParameter, AutoAnalysis.Line2.Point1.Data.StartVar, 
TestParameter, AutoAnalysis.Line2.Point1.Data.StartCondition, 
TestParameter, AutoAnalysis.Line2.Point2.Type, 0
TestParameter, AutoAnalysis.Line2.Point2.XY.X, 
TestParameter, AutoAnalysis.Line2.Point2.XY.Y, 
TestParameter, AutoAnalysis.Line2.Point2.Data.Var, 
TestParameter, AutoAnalysis.Line2.Point2.Data.Condition, 
TestParameter, AutoAnalysis.Line2.Point2.Data.Start, false
TestParameter, AutoAnalysis.Line2.Point2.Data.StartVar, 
TestParameter, AutoAnalysis.Line2.Point2.Data.StartCondition, 
TestParameter, AutoAnalysis.Line2.GradientExpr, 0
TestParameter, AutoAnalysis.Marker.Enabled, false
TestParameter, AutoAnalysis.Marker.Data.Var, 
TestParameter, AutoAnalysis.Marker.Data.Condition, 
TestParameter, AutoAnalysis.Marker.Data.Start, false
TestParameter, AutoAnalysis.Marker.Data.StartVar, 
TestParameter, AutoAnalysis.Marker.Data.StartCondition, 
MetaData, TestRecord.EntryPoint, true
MetaData, TestRecord.RecordTime, 09/04/2020 10:16:10
MetaData, TestRecord.TestTarget, 
MetaData, TestRecord.IterationIndex, 7
MetaData, TestRecord.Preservation, true
MetaData, TestRecord.Flag, 
MetaData, TestRecord.Remarks, 
MetaData, TestRecord.LinkKey, e56526dd-4507-476b-be96-ffbbc9498f1b
Dimension1, 101, 101, 101
Dimension2, 1, 1, 1
DataName, V1, I1, Ohmic
DataValue, -5, -3.7369999999999996E-10, 5227543466.6986389
DataValue, -4.9, -3.3899999999999997E-10, 
DataValue, -4.8, -3.6269999999999995E-10, 
DataValue, -4.7, -3.4859999999999996E-10, 
DataValue, -4.6000000000000005, -3.2949999999999995E-10, 
DataValue, -4.5, -3.7519999999999996E-10, 
DataValue, -4.4, -2.969E-10, 
DataValue, -4.3, -2.688E-10, 
DataValue, -4.2, -2.504E-10, 
DataValue, -4.1, -2.3399999999999997E-10, 
DataValue, -4, -2.5169999999999997E-10, 
DataValue, -3.9, -2.7759999999999995E-10, 
DataValue, -3.8000000000000003, -2.6349999999999997E-10, 
DataValue, -3.7, -2.6059999999999996E-10, 
DataValue, -3.6, -2.487E-10, 
DataValue, -3.5, -2.563E-10, 
DataValue, -3.4, -1.7169999999999999E-10, 
DataValue, -3.3000000000000003, -2.0629999999999998E-10, 
DataValue, -3.2, -1.8399999999999999E-10, 
DataValue, -3.1, -1.809E-10, 
DataValue, -3, -1.9199999999999998E-10, 
DataValue, -2.9, -2.0519999999999997E-10, 
DataValue, -2.8000000000000003, -2.237E-10, 
DataValue, -2.7, -1.874E-10, 
DataValue, -2.6, -1.8989999999999999E-10, 
DataValue, -2.5, -1.316E-10, 
DataValue, -2.4, -1.6569999999999998E-10, 
DataValue, -2.3000000000000003, -1.82E-10, 
DataValue, -2.2, -1.493E-10, 
DataValue, -2.1, -1.8819999999999998E-10, 
DataValue, -2, -1.2079999999999999E-10, 
DataValue, -1.9000000000000001, -1.8709999999999998E-10, 
DataValue, -1.8, -1.316E-10, 
DataValue, -1.7, -1.1439999999999999E-10, 
DataValue, -1.6, -1.0539999999999999E-10, 
DataValue, -1.5, -1.8E-11, 
DataValue, -1.4000000000000001, 2.57E-11, 
DataValue, -1.3, 7.09E-11, 
DataValue, -1.2, 2.838E-10, 
DataValue, -1.1, 4.3469999999999996E-10, 
DataValue, -1, 6.3009999999999992E-10, 
DataValue, -0.9, 7.8079999999999993E-10, 
DataValue, -0.8, 1.0066999999999998E-09, 
DataValue, -0.70000000000000007, 1.2504E-09, 
DataValue, -0.6, 1.5101999999999998E-09, 
DataValue, -0.5, 1.7947999999999998E-09, 
DataValue, -0.4, 2.0794999999999997E-09, 
DataValue, -0.3, 2.4194999999999998E-09, 
DataValue, -0.2, 2.9909999999999997E-09, 
DataValue, -0.1, 3.9252E-09, 
DataValue, 0, 4.5797E-09, 
DataValue, 0.1, 5.0811999999999994E-09, 
DataValue, 0.2, 5.552E-09, 
DataValue, 0.3, 5.8895999999999992E-09, 
DataValue, 0.4, 6.2708999999999991E-09, 
DataValue, 0.5, 6.5891999999999995E-09, 
DataValue, 0.6, 6.8313999999999994E-09, 
DataValue, 0.70000000000000007, 7.1342E-09, 
DataValue, 0.8, 7.432899999999999E-09, 
DataValue, 0.9, 7.6610999999999987E-09, 
DataValue, 1, 7.8569E-09, 
DataValue, 1.1, 8.0277E-09, 
DataValue, 1.2, 8.148E-09, 
DataValue, 1.3, 8.3022999999999985E-09, 
DataValue, 1.4000000000000001, 8.4273E-09, 
DataValue, 1.5, 8.4714999999999991E-09, 
DataValue, 1.6, 8.5149999999999988E-09, 
DataValue, 1.7, 8.5436999999999989E-09, 
DataValue, 1.8, 8.558599999999999E-09, 
DataValue, 1.9000000000000001, 8.5445E-09, 
DataValue, 2, 8.6079E-09, 
DataValue, 2.1, 8.6619999999999984E-09, 
DataValue, 2.2, 8.6794E-09, 
DataValue, 2.3000000000000003, 8.7126999999999987E-09, 
DataValue, 2.4, 8.8131E-09, 
DataValue, 2.5, 8.8414E-09, 
DataValue, 2.6, 8.8604999999999985E-09, 
DataValue, 2.7, 8.9844999999999985E-09, 
DataValue, 2.8000000000000003, 8.9951E-09, 
DataValue, 2.9, 9.010299999999999E-09, 
DataValue, 3, 9.0634999999999987E-09, 
DataValue, 3.1, 9.1114E-09, 
DataValue, 3.2, 9.124999999999999E-09, 
DataValue, 3.3000000000000003, 9.2094999999999989E-09, 
DataValue, 3.4, 9.1844E-09, 
DataValue, 3.5, 9.2621E-09, 
DataValue, 3.6, 9.3589E-09, 
DataValue, 3.7, 9.4137E-09, 
DataValue, 3.8000000000000003, 9.4386E-09, 
DataValue, 3.9, 9.4591E-09, 
DataValue, 4, 9.4879E-09, 
DataValue, 4.1, 9.5586E-09, 
DataValue, 4.2, 9.6058E-09, 
DataValue, 4.3, 9.6796E-09, 
DataValue, 4.4, 9.7422999999999985E-09, 
DataValue, 4.5, 9.7764E-09, 
DataValue, 4.6000000000000005, 9.8442E-09, 
DataValue, 4.7, 9.8890999999999989E-09, 
DataValue, 4.8, 9.9269999999999985E-09, 
DataValue, 4.9, 9.9287E-09, 
DataValue, 5, 9.9795999999999989E-09, 