
SetupTitle, WW
PrimitiveTest, I/V Sweep
TestParameter, Context.MainFrame, B1500A
TestParameter, Channel.UnitType, SMU, SMU
TestParameter, Channel.Unit, SMU2:HP, SMU1:HP
TestParameter, Channel.IName, I1, I4
TestParameter, Channel.VName, V1, V4
TestParameter, Channel.Mode, V, COMMON
TestParameter, Channel.Func, VAR1, CONST
TestParameter, Channel.Index, 
TestParameter, Channel.Time, 
TestParameter, Measurement.Port.Unit, SMU2:HP, SMU1:HP
TestParameter, Measurement.Port.SeriesResistor, NONE, NONE
TestParameter, Measurement.Port.Filter, ON, ON
TestParameter, Measurement.Port.OutputVoltageComparison, 0, 0
TestParameter, Measurement.Primary.Locus, Single
TestParameter, Measurement.Primary.Scale, LINEAR
TestParameter, Measurement.Primary.Start, -5
TestParameter, Measurement.Primary.Stop, 5
TestParameter, Measurement.Primary.Step, 0.1
TestParameter, Measurement.Primary.Compliance, 0.1
TestParameter, Measurement.Primary.PowerCompliance, 0
TestParameter, Measurement.Aborting.Condition, CONTINUE AT ANY
TestParameter, Measurement.PostOutput.Value, START
TestParameter, Measurement.PostOutput.Retention, OFF
TestParameter, Measurement.Bias.Source, -5, 0
TestParameter, Measurement.Bias.Compliance, 0.1, 1
TestParameter, Measurement.Monitor.Unit, SMU2:HP, SMU1:HP
TestParameter, Measurement.Monitor.Adc, HR ADC, HR ADC
TestParameter, Measurement.Monitor.Measurement, Compliance Side, Compliance Side
TestParameter, Measurement.Monitor.RangingMode, AUTO, AUTO
TestParameter, Measurement.Monitor.RangeBoundary, , 
TestParameter, Measurement.Monitor.RangeRating, BY FULL RANGE, BY FULL RANGE
TestParameter, Measurement.Monitor.RangeRatingCoeff, 50, 50
TestParameter, Measurement.Timing.Hold, 0
TestParameter, Measurement.Timing.Delay, 0.001
TestParameter, Measurement.Adc.HighSpeed.Mode, AUTO
TestParameter, Measurement.Adc.HighSpeed.Coeff, 1
TestParameter, Measurement.Adc.HighResolution.AutoZero, OFF
TestParameter, Measurement.Adc.HighResolution.Mode, PLC
TestParameter, Measurement.Adc.HighResolution.Coeff, 1
TestParameter, Measurement.WaitTime.Source.Coeff, 1
TestParameter, Measurement.WaitTime.Source.Offset, 0
TestParameter, Measurement.WaitTime.Monitor.Coeff, 1
TestParameter, Measurement.WaitTime.Monitor.Offset, 0
TestParameter, Function.User.Name, Ohmic
TestParameter, Function.User.Unit, ohm
TestParameter, Function.User.Definition, avg(V1/I1)
TestParameter, Output.Graph.Enabled, true
TestParameter, Output.Graph.XAxis.Data, V1
TestParameter, Output.Graph.XAxis.Scale, Linear
TestParameter, Output.Graph.XAxis.Left, -5
TestParameter, Output.Graph.XAxis.Right, 5
TestParameter, Output.Graph.YAxis.Data, I1
TestParameter, Output.Graph.YAxis.Scale, Linear
TestParameter, Output.Graph.YAxis.Bottom, -0.001
TestParameter, Output.Graph.YAxis.Top, 0.001
TestParameter, Output.Graph.YAxis.Group, 
TestParameter, Output.Scalar.Data, Ohmic
TestParameter, AutoAnalysis.Interpolation, false
TestParameter, AutoAnalysis.Line1.Enabled, false
TestParameter, AutoAnalysis.Line1.Type, 1
TestParameter, AutoAnalysis.Line1.Fix, True
TestParameter, AutoAnalysis.Line1.YAxis, 0
TestParameter, AutoAnalysis.Line1.Point1.Type, 0
TestParameter, AutoAnalysis.Line1.Point1.XY.X, 
TestParameter, AutoAnalysis.Line1.Point1.XY.Y, 
TestParameter, AutoAnalysis.Line1.Point1.Data.Var, 
TestParameter, AutoAnalysis.Line1.Point1.Data.Condition, 
TestParameter, AutoAnalysis.Line1.Point1.Data.Start, false
TestParameter, AutoAnalysis.Line1.Point1.Data.StartVar, 
TestParameter, AutoAnalysis.Line1.Point1.Data.StartCondition, 
TestParameter, AutoAnalysis.Line1.Point2.Type, 0
TestParameter, AutoAnalysis.Line1.Point2.XY.X, 
TestParameter, AutoAnalysis.Line1.Point2.XY.Y, 
TestParameter, AutoAnalysis.Line1.Point2.Data.Var, 
TestParameter, AutoAnalysis.Line1.Point2.Data.Condition, 
TestParameter, AutoAnalysis.Line1.Point2.Data.Start, false
TestParameter, AutoAnalysis.Line1.Point2.Data.StartVar, 
TestParameter, AutoAnalysis.Line1.Point2.Data.StartCondition, 
TestParameter, AutoAnalysis.Line1.GradientExpr, 0
TestParameter, AutoAnalysis.Line2.Enabled, false
TestParameter, AutoAnalysis.Line2.Type, 1
TestParameter, AutoAnalysis.Line2.Fix, True
TestParameter, AutoAnalysis.Line2.YAxis, 0
TestParameter, AutoAnalysis.Line2.Point1.Type, 0
TestParameter, AutoAnalysis.Line2.Point1.XY.X, 
TestParameter, AutoAnalysis.Line2.Point1.XY.Y, 
TestParameter, AutoAnalysis.Line2.Point1.Data.Var, 
TestParameter, AutoAnalysis.Line2.Point1.Data.Condition, 
TestParameter, AutoAnalysis.Line2.Point1.Data.Start, false
TestParameter, AutoAnalysis.Line2.Point1.Data.StartVar, 
TestParameter, AutoAnalysis.Line2.Point1.Data.StartCondition, 
TestParameter, AutoAnalysis.Line2.Point2.Type, 0
TestParameter, AutoAnalysis.Line2.Point2.XY.X, 
TestParameter, AutoAnalysis.Line2.Point2.XY.Y, 
TestParameter, AutoAnalysis.Line2.Point2.Data.Var, 
TestParameter, AutoAnalysis.Line2.Point2.Data.Condition, 
TestParameter, AutoAnalysis.Line2.Point2.Data.Start, false
TestParameter, AutoAnalysis.Line2.Point2.Data.StartVar, 
TestParameter, AutoAnalysis.Line2.Point2.Data.StartCondition, 
TestParameter, AutoAnalysis.Line2.GradientExpr, 0
TestParameter, AutoAnalysis.Marker.Enabled, false
TestParameter, AutoAnalysis.Marker.Data.Var, 
TestParameter, AutoAnalysis.Marker.Data.Condition, 
TestParameter, AutoAnalysis.Marker.Data.Start, false
TestParameter, AutoAnalysis.Marker.Data.StartVar, 
TestParameter, AutoAnalysis.Marker.Data.StartCondition, 
MetaData, TestRecord.EntryPoint, true
MetaData, TestRecord.RecordTime, 09/04/2020 10:15:39
MetaData, TestRecord.TestTarget, 
MetaData, TestRecord.IterationIndex, 6
MetaData, TestRecord.Preservation, true
MetaData, TestRecord.Flag, 
MetaData, TestRecord.Remarks, 
MetaData, TestRecord.LinkKey, deb75905-6f07-4530-b253-c9b19e597ebe
Dimension1, 101, 101, 101
Dimension2, 1, 1, 1
DataName, V1, I1, Ohmic
DataValue, -5, -3.8289999999999994E-10, -13703429049.567381
DataValue, -4.9, -3.6149999999999994E-10, 
DataValue, -4.8, -3.529E-10, 
DataValue, -4.7, -3.689E-10, 
DataValue, -4.6000000000000005, -3.005E-10, 
DataValue, -4.5, -2.9059999999999996E-10, 
DataValue, -4.4, -2.804E-10, 
DataValue, -4.3, -2.55E-10, 
DataValue, -4.2, -3.3109999999999997E-10, 
DataValue, -4.1, -2.674E-10, 
DataValue, -4, -2.4289999999999996E-10, 
DataValue, -3.9, -2.4409999999999996E-10, 
DataValue, -3.8000000000000003, -2.715E-10, 
DataValue, -3.7, -2.536E-10, 
DataValue, -3.6, -2.7699999999999997E-10, 
DataValue, -3.5, -2.4709999999999995E-10, 
DataValue, -3.4, -1.9389999999999997E-10, 
DataValue, -3.3000000000000003, -1.986E-10, 
DataValue, -3.2, -2.3619999999999997E-10, 
DataValue, -3.1, -2.4829999999999996E-10, 
DataValue, -3, -1.874E-10, 
DataValue, -2.9, -1.7599999999999999E-10, 
DataValue, -2.8000000000000003, -1.755E-10, 
DataValue, -2.7, -2.2929999999999997E-10, 
DataValue, -2.6, -1.6939999999999998E-10, 
DataValue, -2.5, -1.7529999999999998E-10, 
DataValue, -2.4, -1.8269999999999997E-10, 
DataValue, -2.3000000000000003, -1.949E-10, 
DataValue, -2.2, -1.8599999999999998E-10, 
DataValue, -2.1, -1.5019999999999998E-10, 
DataValue, -2, -1.51E-10, 
DataValue, -1.9000000000000001, -1.5229999999999998E-10, 
DataValue, -1.8, -1.295E-10, 
DataValue, -1.7, -1.006E-10, 
DataValue, -1.6, -5.2299999999999996E-11, 
DataValue, -1.5, 7.9999999999999992E-13, 
DataValue, -1.4000000000000001, 5.5E-11, 
DataValue, -1.3, 1.621E-10, 
DataValue, -1.2, 3.7439999999999997E-10, 
DataValue, -1.1, 4.8689999999999994E-10, 
DataValue, -1, 6.1799999999999993E-10, 
DataValue, -0.9, 8.8139999999999987E-10, 
DataValue, -0.8, 1.0856999999999999E-09, 
DataValue, -0.70000000000000007, 1.3555E-09, 
DataValue, -0.6, 1.5604E-09, 
DataValue, -0.5, 1.8520999999999998E-09, 
DataValue, -0.4, 2.1659999999999998E-09, 
DataValue, -0.3, 2.4821999999999996E-09, 
DataValue, -0.2, 3.0375E-09, 
DataValue, -0.1, 3.8798E-09, 
DataValue, 0, 4.5506999999999992E-09, 
DataValue, 0.1, 5.0234999999999995E-09, 
DataValue, 0.2, 5.4429E-09, 
DataValue, 0.3, 5.7963999999999995E-09, 
DataValue, 0.4, 6.0865999999999992E-09, 
DataValue, 0.5, 6.3840999999999991E-09, 
DataValue, 0.6, 6.5755999999999995E-09, 
DataValue, 0.70000000000000007, 6.8494999999999996E-09, 
DataValue, 0.8, 7.0670999999999993E-09, 
DataValue, 0.9, 7.3223999999999994E-09, 
DataValue, 1, 7.5645999999999985E-09, 
DataValue, 1.1, 7.6971999999999986E-09, 
DataValue, 1.2, 7.8900999999999986E-09, 
DataValue, 1.3, 8.0248E-09, 
DataValue, 1.4000000000000001, 8.1562999999999984E-09, 
DataValue, 1.5, 8.1790999999999988E-09, 
DataValue, 1.6, 8.2427999999999989E-09, 
DataValue, 1.7, 8.3541999999999991E-09, 
DataValue, 1.8, 8.4061999999999985E-09, 
DataValue, 1.9000000000000001, 8.4318999999999986E-09, 
DataValue, 2, 8.4522E-09, 
DataValue, 2.1, 8.4627999999999985E-09, 
DataValue, 2.2, 8.4531999999999989E-09, 
DataValue, 2.3000000000000003, 8.4836E-09, 
DataValue, 2.4, 8.523599999999999E-09, 
DataValue, 2.5, 8.5971E-09, 
DataValue, 2.6, 8.603E-09, 
DataValue, 2.7, 8.6294E-09, 
DataValue, 2.8000000000000003, 8.6590999999999988E-09, 
DataValue, 2.9, 8.7415E-09, 
DataValue, 3, 8.7815999999999987E-09, 
DataValue, 3.1, 8.7576E-09, 
DataValue, 3.2, 8.8335E-09, 
DataValue, 3.3000000000000003, 8.9095E-09, 
DataValue, 3.4, 8.9163999999999987E-09, 
DataValue, 3.5, 8.951099999999999E-09, 
DataValue, 3.6, 8.9878999999999987E-09, 
DataValue, 3.7, 9.0845E-09, 
DataValue, 3.8000000000000003, 9.0652999999999985E-09, 
DataValue, 3.9, 9.1092E-09, 
DataValue, 4, 9.1985E-09, 
DataValue, 4.1, 9.2562999999999983E-09, 
DataValue, 4.2, 9.2398E-09, 
DataValue, 4.3, 9.2093E-09, 
DataValue, 4.4, 9.2674E-09, 
DataValue, 4.5, 9.3727E-09, 
DataValue, 4.6000000000000005, 9.4025E-09, 
DataValue, 4.7, 9.4219E-09, 
DataValue, 4.8, 9.5430999999999986E-09, 
DataValue, 4.9, 9.552499999999999E-09, 
DataValue, 5, 9.582E-09, 