
SetupTitle, WW
PrimitiveTest, I/V Sweep
TestParameter, Context.MainFrame, B1500A
TestParameter, Channel.UnitType, SMU, SMU
TestParameter, Channel.Unit, SMU2:HP, SMU1:HP
TestParameter, Channel.IName, I1, I4
TestParameter, Channel.VName, V1, V4
TestParameter, Channel.Mode, V, COMMON
TestParameter, Channel.Func, VAR1, CONST
TestParameter, Channel.Index, 
TestParameter, Channel.Time, 
TestParameter, Measurement.Port.Unit, SMU2:HP, SMU1:HP
TestParameter, Measurement.Port.SeriesResistor, NONE, NONE
TestParameter, Measurement.Port.Filter, ON, ON
TestParameter, Measurement.Port.OutputVoltageComparison, 0, 0
TestParameter, Measurement.Primary.Locus, Single
TestParameter, Measurement.Primary.Scale, LINEAR
TestParameter, Measurement.Primary.Start, -5
TestParameter, Measurement.Primary.Stop, 5
TestParameter, Measurement.Primary.Step, 0.1
TestParameter, Measurement.Primary.Compliance, 0.1
TestParameter, Measurement.Primary.PowerCompliance, 0
TestParameter, Measurement.Aborting.Condition, CONTINUE AT ANY
TestParameter, Measurement.PostOutput.Value, START
TestParameter, Measurement.PostOutput.Retention, OFF
TestParameter, Measurement.Bias.Source, -5, 0
TestParameter, Measurement.Bias.Compliance, 0.1, 1
TestParameter, Measurement.Monitor.Unit, SMU2:HP, SMU1:HP
TestParameter, Measurement.Monitor.Adc, HR ADC, HR ADC
TestParameter, Measurement.Monitor.Measurement, Compliance Side, Compliance Side
TestParameter, Measurement.Monitor.RangingMode, AUTO, AUTO
TestParameter, Measurement.Monitor.RangeBoundary, , 
TestParameter, Measurement.Monitor.RangeRating, BY FULL RANGE, BY FULL RANGE
TestParameter, Measurement.Monitor.RangeRatingCoeff, 50, 50
TestParameter, Measurement.Timing.Hold, 0
TestParameter, Measurement.Timing.Delay, 0.001
TestParameter, Measurement.Adc.HighSpeed.Mode, AUTO
TestParameter, Measurement.Adc.HighSpeed.Coeff, 1
TestParameter, Measurement.Adc.HighResolution.AutoZero, OFF
TestParameter, Measurement.Adc.HighResolution.Mode, PLC
TestParameter, Measurement.Adc.HighResolution.Coeff, 1
TestParameter, Measurement.WaitTime.Source.Coeff, 1
TestParameter, Measurement.WaitTime.Source.Offset, 0
TestParameter, Measurement.WaitTime.Monitor.Coeff, 1
TestParameter, Measurement.WaitTime.Monitor.Offset, 0
TestParameter, Function.User.Name, Ohmic
TestParameter, Function.User.Unit, ohm
TestParameter, Function.User.Definition, avg(V1/I1)
TestParameter, Output.Graph.Enabled, true
TestParameter, Output.Graph.XAxis.Data, V1
TestParameter, Output.Graph.XAxis.Scale, Linear
TestParameter, Output.Graph.XAxis.Left, -5
TestParameter, Output.Graph.XAxis.Right, 5
TestParameter, Output.Graph.YAxis.Data, I1
TestParameter, Output.Graph.YAxis.Scale, Linear
TestParameter, Output.Graph.YAxis.Bottom, -0.001
TestParameter, Output.Graph.YAxis.Top, 0.001
TestParameter, Output.Graph.YAxis.Group, 
TestParameter, Output.Scalar.Data, Ohmic
TestParameter, AutoAnalysis.Interpolation, false
TestParameter, AutoAnalysis.Line1.Enabled, false
TestParameter, AutoAnalysis.Line1.Type, 1
TestParameter, AutoAnalysis.Line1.Fix, True
TestParameter, AutoAnalysis.Line1.YAxis, 0
TestParameter, AutoAnalysis.Line1.Point1.Type, 0
TestParameter, AutoAnalysis.Line1.Point1.XY.X, 
TestParameter, AutoAnalysis.Line1.Point1.XY.Y, 
TestParameter, AutoAnalysis.Line1.Point1.Data.Var, 
TestParameter, AutoAnalysis.Line1.Point1.Data.Condition, 
TestParameter, AutoAnalysis.Line1.Point1.Data.Start, false
TestParameter, AutoAnalysis.Line1.Point1.Data.StartVar, 
TestParameter, AutoAnalysis.Line1.Point1.Data.StartCondition, 
TestParameter, AutoAnalysis.Line1.Point2.Type, 0
TestParameter, AutoAnalysis.Line1.Point2.XY.X, 
TestParameter, AutoAnalysis.Line1.Point2.XY.Y, 
TestParameter, AutoAnalysis.Line1.Point2.Data.Var, 
TestParameter, AutoAnalysis.Line1.Point2.Data.Condition, 
TestParameter, AutoAnalysis.Line1.Point2.Data.Start, false
TestParameter, AutoAnalysis.Line1.Point2.Data.StartVar, 
TestParameter, AutoAnalysis.Line1.Point2.Data.StartCondition, 
TestParameter, AutoAnalysis.Line1.GradientExpr, 0
TestParameter, AutoAnalysis.Line2.Enabled, false
TestParameter, AutoAnalysis.Line2.Type, 1
TestParameter, AutoAnalysis.Line2.Fix, True
TestParameter, AutoAnalysis.Line2.YAxis, 0
TestParameter, AutoAnalysis.Line2.Point1.Type, 0
TestParameter, AutoAnalysis.Line2.Point1.XY.X, 
TestParameter, AutoAnalysis.Line2.Point1.XY.Y, 
TestParameter, AutoAnalysis.Line2.Point1.Data.Var, 
TestParameter, AutoAnalysis.Line2.Point1.Data.Condition, 
TestParameter, AutoAnalysis.Line2.Point1.Data.Start, false
TestParameter, AutoAnalysis.Line2.Point1.Data.StartVar, 
TestParameter, AutoAnalysis.Line2.Point1.Data.StartCondition, 
TestParameter, AutoAnalysis.Line2.Point2.Type, 0
TestParameter, AutoAnalysis.Line2.Point2.XY.X, 
TestParameter, AutoAnalysis.Line2.Point2.XY.Y, 
TestParameter, AutoAnalysis.Line2.Point2.Data.Var, 
TestParameter, AutoAnalysis.Line2.Point2.Data.Condition, 
TestParameter, AutoAnalysis.Line2.Point2.Data.Start, false
TestParameter, AutoAnalysis.Line2.Point2.Data.StartVar, 
TestParameter, AutoAnalysis.Line2.Point2.Data.StartCondition, 
TestParameter, AutoAnalysis.Line2.GradientExpr, 0
TestParameter, AutoAnalysis.Marker.Enabled, false
TestParameter, AutoAnalysis.Marker.Data.Var, 
TestParameter, AutoAnalysis.Marker.Data.Condition, 
TestParameter, AutoAnalysis.Marker.Data.Start, false
TestParameter, AutoAnalysis.Marker.Data.StartVar, 
TestParameter, AutoAnalysis.Marker.Data.StartCondition, 
MetaData, TestRecord.EntryPoint, true
MetaData, TestRecord.RecordTime, 09/04/2020 10:14:34
MetaData, TestRecord.TestTarget, 
MetaData, TestRecord.IterationIndex, 4
MetaData, TestRecord.Preservation, true
MetaData, TestRecord.Flag, 
MetaData, TestRecord.Remarks, 
MetaData, TestRecord.LinkKey, 72e365a5-04b4-4839-bef7-ff84bcd257d0
Dimension1, 101, 101, 101
Dimension2, 1, 1, 1
DataName, V1, I1, Ohmic
DataValue, -5, -4.674E-10, 2188185415.7696786
DataValue, -4.9, -5.201E-10, 
DataValue, -4.8, -4.5119999999999995E-10, 
DataValue, -4.7, -4.4299999999999997E-10, 
DataValue, -4.6000000000000005, -4.7499999999999991E-10, 
DataValue, -4.5, -4.624E-10, 
DataValue, -4.4, -4.5939999999999993E-10, 
DataValue, -4.3, -4.8789999999999994E-10, 
DataValue, -4.2, -4.2169999999999995E-10, 
DataValue, -4.1, -4.6479999999999994E-10, 
DataValue, -4, -4.1549999999999996E-10, 
DataValue, -3.9, -4.4089999999999995E-10, 
DataValue, -3.8000000000000003, -4.2619999999999993E-10, 
DataValue, -3.7, -4.6079999999999995E-10, 
DataValue, -3.6, -4.3439999999999997E-10, 
DataValue, -3.5, -3.7649999999999994E-10, 
DataValue, -3.4, -3.7279999999999994E-10, 
DataValue, -3.3000000000000003, -4.4489999999999993E-10, 
DataValue, -3.2, -4.9759999999999992E-10, 
DataValue, -3.1, -5.015999999999999E-10, 
DataValue, -3, -3.815E-10, 
DataValue, -2.9, -3.6789999999999994E-10, 
DataValue, -2.8000000000000003, -3.2E-10, 
DataValue, -2.7, -2.6649999999999996E-10, 
DataValue, -2.6, -2.9499999999999996E-10, 
DataValue, -2.5, -3.0529999999999997E-10, 
DataValue, -2.4, -3.3979999999999995E-10, 
DataValue, -2.3000000000000003, -2.6579999999999995E-10, 
DataValue, -2.2, -1.964E-10, 
DataValue, -2.1, -2.1629999999999997E-10, 
DataValue, -2, -1.6929999999999997E-10, 
DataValue, -1.9000000000000001, -2.0649999999999999E-10, 
DataValue, -1.8, -1.198E-10, 
DataValue, -1.7, -3.87E-11, 
DataValue, -1.6, 1.4299999999999998E-11, 
DataValue, -1.5, 1.1259999999999999E-10, 
DataValue, -1.4000000000000001, 2.2919999999999997E-10, 
DataValue, -1.3, 4.4329999999999996E-10, 
DataValue, -1.2, 5.83E-10, 
DataValue, -1.1, 6.939E-10, 
DataValue, -1, 9.1659999999999992E-10, 
DataValue, -0.9, 1.0523E-09, 
DataValue, -0.8, 1.2849999999999998E-09, 
DataValue, -0.70000000000000007, 1.5535999999999999E-09, 
DataValue, -0.6, 1.7915999999999999E-09, 
DataValue, -0.5, 2.0465E-09, 
DataValue, -0.4, 2.3202E-09, 
DataValue, -0.3, 2.6333999999999996E-09, 
DataValue, -0.2, 3.0818E-09, 
DataValue, -0.1, 3.8396E-09, 
DataValue, 0, 4.3995999999999996E-09, 
DataValue, 0.1, 4.8478999999999994E-09, 
DataValue, 0.2, 5.1919E-09, 
DataValue, 0.3, 5.5516999999999993E-09, 
DataValue, 0.4, 5.8216E-09, 
DataValue, 0.5, 6.1565999999999992E-09, 
DataValue, 0.6, 6.3989999999999991E-09, 
DataValue, 0.70000000000000007, 6.6205999999999992E-09, 
DataValue, 0.8, 6.8445E-09, 
DataValue, 0.9, 7.0891999999999991E-09, 
DataValue, 1, 7.2937999999999989E-09, 
DataValue, 1.1, 7.4767E-09, 
DataValue, 1.2, 7.6319999999999985E-09, 
DataValue, 1.3, 7.7398E-09, 
DataValue, 1.4000000000000001, 7.922E-09, 
DataValue, 1.5, 8.1019999999999987E-09, 
DataValue, 1.6, 8.2386999999999989E-09, 
DataValue, 1.7, 8.3171999999999985E-09, 
DataValue, 1.8, 8.3454999999999985E-09, 
DataValue, 1.9000000000000001, 8.4049E-09, 
DataValue, 2, 8.4214999999999987E-09, 
DataValue, 2.1, 8.4903E-09, 
DataValue, 2.2, 8.5294E-09, 
DataValue, 2.3000000000000003, 8.496799999999999E-09, 
DataValue, 2.4, 8.5171999999999987E-09, 
DataValue, 2.5, 8.507E-09, 
DataValue, 2.6, 8.5837E-09, 
DataValue, 2.7, 8.586899999999999E-09, 
DataValue, 2.8000000000000003, 8.6661999999999989E-09, 
DataValue, 2.9, 8.749E-09, 
DataValue, 3, 8.7245999999999986E-09, 
DataValue, 3.1, 8.8023E-09, 
DataValue, 3.2, 8.8887E-09, 
DataValue, 3.3000000000000003, 8.8573E-09, 
DataValue, 3.4, 8.8943E-09, 
DataValue, 3.5, 8.94E-09, 
DataValue, 3.6, 9.0455999999999986E-09, 
DataValue, 3.7, 9.1058999999999985E-09, 
DataValue, 3.8000000000000003, 9.1206E-09, 
DataValue, 3.9, 9.0864999999999983E-09, 
DataValue, 4, 9.105E-09, 
DataValue, 4.1, 9.153E-09, 
DataValue, 4.2, 9.1870999999999986E-09, 
DataValue, 4.3, 9.2965E-09, 
DataValue, 4.4, 9.2667E-09, 
DataValue, 4.5, 9.2966999999999991E-09, 
DataValue, 4.6000000000000005, 9.3722999999999992E-09, 
DataValue, 4.7, 9.3273E-09, 
DataValue, 4.8, 9.3989E-09, 
DataValue, 4.9, 9.4544999999999987E-09, 
DataValue, 5, 9.4744E-09, 