
SetupTitle, WW
PrimitiveTest, I/V Sweep
TestParameter, Context.MainFrame, B1500A
TestParameter, Channel.UnitType, SMU, SMU
TestParameter, Channel.Unit, SMU2:HP, SMU1:HP
TestParameter, Channel.IName, I1, I4
TestParameter, Channel.VName, V1, V4
TestParameter, Channel.Mode, V, COMMON
TestParameter, Channel.Func, VAR1, CONST
TestParameter, Channel.Index, 
TestParameter, Channel.Time, 
TestParameter, Measurement.Port.Unit, SMU2:HP, SMU1:HP
TestParameter, Measurement.Port.SeriesResistor, NONE, NONE
TestParameter, Measurement.Port.Filter, ON, ON
TestParameter, Measurement.Port.OutputVoltageComparison, 0, 0
TestParameter, Measurement.Primary.Locus, Single
TestParameter, Measurement.Primary.Scale, LINEAR
TestParameter, Measurement.Primary.Start, -5
TestParameter, Measurement.Primary.Stop, 5
TestParameter, Measurement.Primary.Step, 0.1
TestParameter, Measurement.Primary.Compliance, 0.1
TestParameter, Measurement.Primary.PowerCompliance, 0
TestParameter, Measurement.Aborting.Condition, CONTINUE AT ANY
TestParameter, Measurement.PostOutput.Value, START
TestParameter, Measurement.PostOutput.Retention, OFF
TestParameter, Measurement.Bias.Source, -5, 0
TestParameter, Measurement.Bias.Compliance, 0.1, 1
TestParameter, Measurement.Monitor.Unit, SMU2:HP, SMU1:HP
TestParameter, Measurement.Monitor.Adc, HR ADC, HR ADC
TestParameter, Measurement.Monitor.Measurement, Compliance Side, Compliance Side
TestParameter, Measurement.Monitor.RangingMode, AUTO, AUTO
TestParameter, Measurement.Monitor.RangeBoundary, , 
TestParameter, Measurement.Monitor.RangeRating, BY FULL RANGE, BY FULL RANGE
TestParameter, Measurement.Monitor.RangeRatingCoeff, 50, 50
TestParameter, Measurement.Timing.Hold, 0
TestParameter, Measurement.Timing.Delay, 0.001
TestParameter, Measurement.Adc.HighSpeed.Mode, AUTO
TestParameter, Measurement.Adc.HighSpeed.Coeff, 1
TestParameter, Measurement.Adc.HighResolution.AutoZero, OFF
TestParameter, Measurement.Adc.HighResolution.Mode, PLC
TestParameter, Measurement.Adc.HighResolution.Coeff, 1
TestParameter, Measurement.WaitTime.Source.Coeff, 1
TestParameter, Measurement.WaitTime.Source.Offset, 0
TestParameter, Measurement.WaitTime.Monitor.Coeff, 1
TestParameter, Measurement.WaitTime.Monitor.Offset, 0
TestParameter, Function.User.Name, Ohmic
TestParameter, Function.User.Unit, ohm
TestParameter, Function.User.Definition, avg(V1/I1)
TestParameter, Output.Graph.Enabled, true
TestParameter, Output.Graph.XAxis.Data, V1
TestParameter, Output.Graph.XAxis.Scale, Linear
TestParameter, Output.Graph.XAxis.Left, -5
TestParameter, Output.Graph.XAxis.Right, 5
TestParameter, Output.Graph.YAxis.Data, I1
TestParameter, Output.Graph.YAxis.Scale, Linear
TestParameter, Output.Graph.YAxis.Bottom, -0.001
TestParameter, Output.Graph.YAxis.Top, 0.001
TestParameter, Output.Graph.YAxis.Group, 
TestParameter, Output.Scalar.Data, Ohmic
TestParameter, AutoAnalysis.Interpolation, false
TestParameter, AutoAnalysis.Line1.Enabled, false
TestParameter, AutoAnalysis.Line1.Type, 1
TestParameter, AutoAnalysis.Line1.Fix, True
TestParameter, AutoAnalysis.Line1.YAxis, 0
TestParameter, AutoAnalysis.Line1.Point1.Type, 0
TestParameter, AutoAnalysis.Line1.Point1.XY.X, 
TestParameter, AutoAnalysis.Line1.Point1.XY.Y, 
TestParameter, AutoAnalysis.Line1.Point1.Data.Var, 
TestParameter, AutoAnalysis.Line1.Point1.Data.Condition, 
TestParameter, AutoAnalysis.Line1.Point1.Data.Start, false
TestParameter, AutoAnalysis.Line1.Point1.Data.StartVar, 
TestParameter, AutoAnalysis.Line1.Point1.Data.StartCondition, 
TestParameter, AutoAnalysis.Line1.Point2.Type, 0
TestParameter, AutoAnalysis.Line1.Point2.XY.X, 
TestParameter, AutoAnalysis.Line1.Point2.XY.Y, 
TestParameter, AutoAnalysis.Line1.Point2.Data.Var, 
TestParameter, AutoAnalysis.Line1.Point2.Data.Condition, 
TestParameter, AutoAnalysis.Line1.Point2.Data.Start, false
TestParameter, AutoAnalysis.Line1.Point2.Data.StartVar, 
TestParameter, AutoAnalysis.Line1.Point2.Data.StartCondition, 
TestParameter, AutoAnalysis.Line1.GradientExpr, 0
TestParameter, AutoAnalysis.Line2.Enabled, false
TestParameter, AutoAnalysis.Line2.Type, 1
TestParameter, AutoAnalysis.Line2.Fix, True
TestParameter, AutoAnalysis.Line2.YAxis, 0
TestParameter, AutoAnalysis.Line2.Point1.Type, 0
TestParameter, AutoAnalysis.Line2.Point1.XY.X, 
TestParameter, AutoAnalysis.Line2.Point1.XY.Y, 
TestParameter, AutoAnalysis.Line2.Point1.Data.Var, 
TestParameter, AutoAnalysis.Line2.Point1.Data.Condition, 
TestParameter, AutoAnalysis.Line2.Point1.Data.Start, false
TestParameter, AutoAnalysis.Line2.Point1.Data.StartVar, 
TestParameter, AutoAnalysis.Line2.Point1.Data.StartCondition, 
TestParameter, AutoAnalysis.Line2.Point2.Type, 0
TestParameter, AutoAnalysis.Line2.Point2.XY.X, 
TestParameter, AutoAnalysis.Line2.Point2.XY.Y, 
TestParameter, AutoAnalysis.Line2.Point2.Data.Var, 
TestParameter, AutoAnalysis.Line2.Point2.Data.Condition, 
TestParameter, AutoAnalysis.Line2.Point2.Data.Start, false
TestParameter, AutoAnalysis.Line2.Point2.Data.StartVar, 
TestParameter, AutoAnalysis.Line2.Point2.Data.StartCondition, 
TestParameter, AutoAnalysis.Line2.GradientExpr, 0
TestParameter, AutoAnalysis.Marker.Enabled, false
TestParameter, AutoAnalysis.Marker.Data.Var, 
TestParameter, AutoAnalysis.Marker.Data.Condition, 
TestParameter, AutoAnalysis.Marker.Data.Start, false
TestParameter, AutoAnalysis.Marker.Data.StartVar, 
TestParameter, AutoAnalysis.Marker.Data.StartCondition, 
MetaData, TestRecord.EntryPoint, true
MetaData, TestRecord.RecordTime, 09/04/2020 10:12:53
MetaData, TestRecord.TestTarget, 
MetaData, TestRecord.IterationIndex, 2
MetaData, TestRecord.Preservation, true
MetaData, TestRecord.Flag, 
MetaData, TestRecord.Remarks, 
MetaData, TestRecord.LinkKey, 96806fde-3843-4408-bf95-0a9c55c775d4
Dimension1, 101, 101, 101
Dimension2, 1, 1, 1
DataName, V1, I1, Ohmic
DataValue, -5, -4.2899999999999997E-10, 3587801.0065854872
DataValue, -4.9, -3.8499999999999996E-10, 
DataValue, -4.8, -3.6529999999999997E-10, 
DataValue, -4.7, -3.96E-10, 
DataValue, -4.6000000000000005, -3.5139999999999994E-10, 
DataValue, -4.5, -3.8129999999999997E-10, 
DataValue, -4.4, -3.588E-10, 
DataValue, -4.3, -3.3339999999999996E-10, 
DataValue, -4.2, -3.7719999999999995E-10, 
DataValue, -4.1, -3.2999999999999995E-10, 
DataValue, -4, -3.1609999999999997E-10, 
DataValue, -3.9, -2.6259999999999995E-10, 
DataValue, -3.8000000000000003, -2.6349999999999997E-10, 
DataValue, -3.7, -2.7189999999999996E-10, 
DataValue, -3.6, -2.1649999999999998E-10, 
DataValue, -3.5, -2.6849999999999995E-10, 
DataValue, -3.4, -2.2279999999999997E-10, 
DataValue, -3.3000000000000003, -2.1539999999999998E-10, 
DataValue, -3.2, -2.3429999999999996E-10, 
DataValue, -3.1, -2.3529999999999995E-10, 
DataValue, -3, -2.2359999999999998E-10, 
DataValue, -2.9, -1.884E-10, 
DataValue, -2.8000000000000003, -1.0479999999999999E-10, 
DataValue, -2.7, -1.386E-10, 
DataValue, -2.6, -5.84E-11, 
DataValue, -2.5, -8.3599999999999988E-11, 
DataValue, -2.4, 6.9999999999999993E-12, 
DataValue, -2.3000000000000003, 8.8799999999999993E-11, 
DataValue, -2.2, 1.036E-10, 
DataValue, -2.1, 2.0899999999999998E-10, 
DataValue, -2, 2.619E-10, 
DataValue, -1.9000000000000001, 3.704E-10, 
DataValue, -1.8, 5.191E-10, 
DataValue, -1.7, 5.864E-10, 
DataValue, -1.6, 7.395E-10, 
DataValue, -1.5, 8.0339999999999993E-10, 
DataValue, -1.4000000000000001, 9.593E-10, 
DataValue, -1.3, 1.1173999999999999E-09, 
DataValue, -1.2, 1.2461999999999999E-09, 
DataValue, -1.1, 1.3751E-09, 
DataValue, -1, 1.4965E-09, 
DataValue, -0.9, 1.6679999999999998E-09, 
DataValue, -0.8, 1.8978E-09, 
DataValue, -0.70000000000000007, 1.9918999999999997E-09, 
DataValue, -0.6, 2.2245E-09, 
DataValue, -0.5, 2.3862E-09, 
DataValue, -0.4, 2.6211999999999996E-09, 
DataValue, -0.3, 2.9179999999999996E-09, 
DataValue, -0.2, 3.2228999999999997E-09, 
DataValue, -0.1, 3.6262999999999998E-09, 
DataValue, 0, 4.0448E-09, 
DataValue, 0.1, 4.3086E-09, 
DataValue, 0.2, 4.5637999999999995E-09, 
DataValue, 0.3, 4.8072E-09, 
DataValue, 0.4, 5.0587999999999991E-09, 
DataValue, 0.5, 5.2902E-09, 
DataValue, 0.6, 5.4989999999999993E-09, 
DataValue, 0.70000000000000007, 5.6901E-09, 
DataValue, 0.8, 5.8694E-09, 
DataValue, 0.9, 6.1081999999999992E-09, 
DataValue, 1, 6.2595999999999994E-09, 
DataValue, 1.1, 6.4267E-09, 
DataValue, 1.2, 6.594099999999999E-09, 
DataValue, 1.3, 6.765399999999999E-09, 
DataValue, 1.4000000000000001, 6.8697999999999996E-09, 
DataValue, 1.5, 7.0420999999999991E-09, 
DataValue, 1.6, 7.2163999999999992E-09, 
DataValue, 1.7, 7.3189E-09, 
DataValue, 1.8, 7.4641999999999991E-09, 
DataValue, 1.9000000000000001, 7.5824999999999986E-09, 
DataValue, 2, 7.7392E-09, 
DataValue, 2.1, 7.8139E-09, 
DataValue, 2.2, 7.817E-09, 
DataValue, 2.3000000000000003, 7.9667E-09, 
DataValue, 2.4, 7.9904E-09, 
DataValue, 2.5, 8.0668E-09, 
DataValue, 2.6, 8.1283E-09, 
DataValue, 2.7, 8.1491E-09, 
DataValue, 2.8000000000000003, 8.1857E-09, 
DataValue, 2.9, 8.2359999999999984E-09, 
DataValue, 3, 8.2576999999999989E-09, 
DataValue, 3.1, 8.288999999999999E-09, 
DataValue, 3.2, 8.3446E-09, 
DataValue, 3.3000000000000003, 8.4136999999999988E-09, 
DataValue, 3.4, 8.3474999999999991E-09, 
DataValue, 3.5, 8.4023E-09, 
DataValue, 3.6, 8.4431999999999991E-09, 
DataValue, 3.7, 8.4981E-09, 
DataValue, 3.8000000000000003, 8.5499999999999988E-09, 
DataValue, 3.9, 8.5037E-09, 
DataValue, 4, 8.547799999999999E-09, 
DataValue, 4.1, 8.5603999999999987E-09, 
DataValue, 4.2, 8.6019E-09, 
DataValue, 4.3, 8.6295E-09, 
DataValue, 4.4, 8.7034999999999992E-09, 
DataValue, 4.5, 8.7606E-09, 
DataValue, 4.6000000000000005, 8.7739E-09, 
DataValue, 4.7, 8.768999999999999E-09, 
DataValue, 4.8, 8.8004E-09, 
DataValue, 4.9, 8.844E-09, 
DataValue, 5, 8.9616E-09, 