
SetupTitle, WW
PrimitiveTest, I/V Sweep
TestParameter, Context.MainFrame, B1500A
TestParameter, Channel.UnitType, SMU, SMU
TestParameter, Channel.Unit, SMU2:HP, SMU1:HP
TestParameter, Channel.IName, I1, I4
TestParameter, Channel.VName, V1, V4
TestParameter, Channel.Mode, V, COMMON
TestParameter, Channel.Func, VAR1, CONST
TestParameter, Channel.Index, 
TestParameter, Channel.Time, 
TestParameter, Measurement.Port.Unit, SMU2:HP, SMU1:HP
TestParameter, Measurement.Port.SeriesResistor, NONE, NONE
TestParameter, Measurement.Port.Filter, ON, ON
TestParameter, Measurement.Port.OutputVoltageComparison, 0, 0
TestParameter, Measurement.Primary.Locus, Single
TestParameter, Measurement.Primary.Scale, LINEAR
TestParameter, Measurement.Primary.Start, -1
TestParameter, Measurement.Primary.Stop, 1
TestParameter, Measurement.Primary.Step, 0.02
TestParameter, Measurement.Primary.Compliance, 0.01
TestParameter, Measurement.Primary.PowerCompliance, 0
TestParameter, Measurement.Aborting.Condition, CONTINUE AT ANY
TestParameter, Measurement.PostOutput.Value, START
TestParameter, Measurement.PostOutput.Retention, OFF
TestParameter, Measurement.Bias.Source, -1, 0
TestParameter, Measurement.Bias.Compliance, 0.01, 1
TestParameter, Measurement.Monitor.Unit, SMU2:HP, SMU1:HP
TestParameter, Measurement.Monitor.Adc, HR ADC, HR ADC
TestParameter, Measurement.Monitor.Measurement, Compliance Side, Compliance Side
TestParameter, Measurement.Monitor.RangingMode, AUTO, AUTO
TestParameter, Measurement.Monitor.RangeBoundary, , 
TestParameter, Measurement.Monitor.RangeRating, BY FULL RANGE, BY FULL RANGE
TestParameter, Measurement.Monitor.RangeRatingCoeff, 50, 50
TestParameter, Measurement.Timing.Hold, 0
TestParameter, Measurement.Timing.Delay, 0.001
TestParameter, Measurement.Adc.HighSpeed.Mode, AUTO
TestParameter, Measurement.Adc.HighSpeed.Coeff, 1
TestParameter, Measurement.Adc.HighResolution.AutoZero, OFF
TestParameter, Measurement.Adc.HighResolution.Mode, PLC
TestParameter, Measurement.Adc.HighResolution.Coeff, 1
TestParameter, Measurement.WaitTime.Source.Coeff, 1
TestParameter, Measurement.WaitTime.Source.Offset, 0
TestParameter, Measurement.WaitTime.Monitor.Coeff, 1
TestParameter, Measurement.WaitTime.Monitor.Offset, 0
TestParameter, Function.User.Name, Ohmic
TestParameter, Function.User.Unit, ohm
TestParameter, Function.User.Definition, avg(V1/I1)
TestParameter, Output.Graph.Enabled, true
TestParameter, Output.Graph.XAxis.Data, V1
TestParameter, Output.Graph.XAxis.Scale, Linear
TestParameter, Output.Graph.XAxis.Left, -5
TestParameter, Output.Graph.XAxis.Right, 5
TestParameter, Output.Graph.YAxis.Data, I1
TestParameter, Output.Graph.YAxis.Scale, Linear
TestParameter, Output.Graph.YAxis.Bottom, -0.001
TestParameter, Output.Graph.YAxis.Top, 0.001
TestParameter, Output.Graph.YAxis.Group, 
TestParameter, Output.Scalar.Data, Ohmic
TestParameter, AutoAnalysis.Interpolation, false
TestParameter, AutoAnalysis.Line1.Enabled, false
TestParameter, AutoAnalysis.Line1.Type, 1
TestParameter, AutoAnalysis.Line1.Fix, True
TestParameter, AutoAnalysis.Line1.YAxis, 0
TestParameter, AutoAnalysis.Line1.Point1.Type, 0
TestParameter, AutoAnalysis.Line1.Point1.XY.X, 
TestParameter, AutoAnalysis.Line1.Point1.XY.Y, 
TestParameter, AutoAnalysis.Line1.Point1.Data.Var, 
TestParameter, AutoAnalysis.Line1.Point1.Data.Condition, 
TestParameter, AutoAnalysis.Line1.Point1.Data.Start, false
TestParameter, AutoAnalysis.Line1.Point1.Data.StartVar, 
TestParameter, AutoAnalysis.Line1.Point1.Data.StartCondition, 
TestParameter, AutoAnalysis.Line1.Point2.Type, 0
TestParameter, AutoAnalysis.Line1.Point2.XY.X, 
TestParameter, AutoAnalysis.Line1.Point2.XY.Y, 
TestParameter, AutoAnalysis.Line1.Point2.Data.Var, 
TestParameter, AutoAnalysis.Line1.Point2.Data.Condition, 
TestParameter, AutoAnalysis.Line1.Point2.Data.Start, false
TestParameter, AutoAnalysis.Line1.Point2.Data.StartVar, 
TestParameter, AutoAnalysis.Line1.Point2.Data.StartCondition, 
TestParameter, AutoAnalysis.Line1.GradientExpr, 0
TestParameter, AutoAnalysis.Line2.Enabled, false
TestParameter, AutoAnalysis.Line2.Type, 1
TestParameter, AutoAnalysis.Line2.Fix, True
TestParameter, AutoAnalysis.Line2.YAxis, 0
TestParameter, AutoAnalysis.Line2.Point1.Type, 0
TestParameter, AutoAnalysis.Line2.Point1.XY.X, 
TestParameter, AutoAnalysis.Line2.Point1.XY.Y, 
TestParameter, AutoAnalysis.Line2.Point1.Data.Var, 
TestParameter, AutoAnalysis.Line2.Point1.Data.Condition, 
TestParameter, AutoAnalysis.Line2.Point1.Data.Start, false
TestParameter, AutoAnalysis.Line2.Point1.Data.StartVar, 
TestParameter, AutoAnalysis.Line2.Point1.Data.StartCondition, 
TestParameter, AutoAnalysis.Line2.Point2.Type, 0
TestParameter, AutoAnalysis.Line2.Point2.XY.X, 
TestParameter, AutoAnalysis.Line2.Point2.XY.Y, 
TestParameter, AutoAnalysis.Line2.Point2.Data.Var, 
TestParameter, AutoAnalysis.Line2.Point2.Data.Condition, 
TestParameter, AutoAnalysis.Line2.Point2.Data.Start, false
TestParameter, AutoAnalysis.Line2.Point2.Data.StartVar, 
TestParameter, AutoAnalysis.Line2.Point2.Data.StartCondition, 
TestParameter, AutoAnalysis.Line2.GradientExpr, 0
TestParameter, AutoAnalysis.Marker.Enabled, false
TestParameter, AutoAnalysis.Marker.Data.Var, 
TestParameter, AutoAnalysis.Marker.Data.Condition, 
TestParameter, AutoAnalysis.Marker.Data.Start, false
TestParameter, AutoAnalysis.Marker.Data.StartVar, 
TestParameter, AutoAnalysis.Marker.Data.StartCondition, 
MetaData, TestRecord.EntryPoint, true
MetaData, TestRecord.RecordTime, 01/18/2020 20:49:35
MetaData, TestRecord.TestTarget, 
MetaData, TestRecord.IterationIndex, 68
MetaData, TestRecord.Preservation, true
MetaData, TestRecord.Flag, 
MetaData, TestRecord.Remarks, 
MetaData, TestRecord.LinkKey, 3d5ec216-8be2-414e-ab93-82356dee0e11
Dimension1, 101, 101, 101
Dimension2, 1, 1, 1
DataName, V1, I1, Ohmic
DataValue, -1, -2.9298E-10, 2838661581.3353362
DataValue, -0.98000000000000009, -2.7802E-10, 
DataValue, -0.96000000000000008, -2.7158E-10, 
DataValue, -0.94000000000000006, -2.6255E-10, 
DataValue, -0.92, -2.5785E-10, 
DataValue, -0.9, -2.48E-10, 
DataValue, -0.88, -2.4578E-10, 
DataValue, -0.86, -2.4111E-10, 
DataValue, -0.84000000000000008, -2.3646E-10, 
DataValue, -0.82000000000000006, -2.2963E-10, 
DataValue, -0.8, -2.2578E-10, 
DataValue, -0.78, -2.2242E-10, 
DataValue, -0.76, -2.1627E-10, 
DataValue, -0.74, -2.1568E-10, 
DataValue, -0.72000000000000008, -2.0309E-10, 
DataValue, -0.70000000000000007, -1.9776E-10, 
DataValue, -0.68, -1.8876E-10, 
DataValue, -0.66, -1.8504E-10, 
DataValue, -0.64, -1.8173E-10, 
DataValue, -0.62, -1.759E-10, 
DataValue, -0.6, -1.7051E-10, 
DataValue, -0.58000000000000007, -1.6353E-10, 
DataValue, -0.56, -1.5966E-10, 
DataValue, -0.54, -1.5931E-10, 
DataValue, -0.52, -1.5304E-10, 
DataValue, -0.5, -1.456E-10, 
DataValue, -0.48000000000000004, -1.4405E-10, 
DataValue, -0.46, -1.3588E-10, 
DataValue, -0.44, -1.3304E-10, 
DataValue, -0.42000000000000004, -1.246E-10, 
DataValue, -0.4, -1.2054E-10, 
DataValue, -0.38, -1.142E-10, 
DataValue, -0.36000000000000004, -1.1158E-10, 
DataValue, -0.34, -1.0499E-10, 
DataValue, -0.32, -1.0097E-10, 
DataValue, -0.3, -9.451E-11, 
DataValue, -0.28, -9.2E-11, 
DataValue, -0.26, -8.495E-11, 
DataValue, -0.24000000000000002, -8.289E-11, 
DataValue, -0.22, -7.728E-11, 
DataValue, -0.2, -7.355E-11, 
DataValue, -0.18000000000000002, -6.733E-11, 
DataValue, -0.16, -6.453E-11, 
DataValue, -0.14, -5.73E-11, 
DataValue, -0.12000000000000001, -5.321E-11, 
DataValue, -0.1, -4.235E-11, 
DataValue, -0.08, -3.53E-11, 
DataValue, -0.060000000000000005, -2.164E-11, 
DataValue, -0.04, -7.28E-12, 
DataValue, -0.02, 9.1E-12, 
DataValue, 0, 2.455E-11, 
DataValue, 0.02, 4.048E-11, 
DataValue, 0.04, 5.139E-11, 
DataValue, 0.060000000000000005, 6.299E-11, 
DataValue, 0.08, 6.654E-11, 
DataValue, 0.1, 7.417E-11, 
DataValue, 0.12000000000000001, 7.984E-11, 
DataValue, 0.14, 8.554E-11, 
DataValue, 0.16, 9.131E-11, 
DataValue, 0.18000000000000002, 9.616E-11, 
DataValue, 0.2, 9.803E-11, 
DataValue, 0.22, 1.0459E-10, 
DataValue, 0.24000000000000002, 1.0712E-10, 
DataValue, 0.26, 1.126E-10, 
DataValue, 0.28, 1.1796E-10, 
DataValue, 0.3, 1.2485E-10, 
DataValue, 0.32, 1.2775E-10, 
DataValue, 0.34, 1.3535E-10, 
DataValue, 0.36000000000000004, 1.4037E-10, 
DataValue, 0.38, 1.491E-10, 
DataValue, 0.4, 1.5268E-10, 
DataValue, 0.42000000000000004, 1.6111E-10, 
DataValue, 0.44, 1.6698E-10, 
DataValue, 0.46, 1.7501E-10, 
DataValue, 0.48000000000000004, 1.7757E-10, 
DataValue, 0.5, 1.8289E-10, 
DataValue, 0.52, 1.8472E-10, 
DataValue, 0.54, 1.9235E-10, 
DataValue, 0.56, 1.908E-10, 
DataValue, 0.58000000000000007, 1.9935E-10, 
DataValue, 0.6, 2.0254E-10, 
DataValue, 0.62, 2.0717E-10, 
DataValue, 0.64, 2.1393E-10, 
DataValue, 0.66, 2.1633E-10, 
DataValue, 0.68, 2.2421E-10, 
DataValue, 0.70000000000000007, 2.2845E-10, 
DataValue, 0.72000000000000008, 2.3578E-10, 
DataValue, 0.74, 2.4559E-10, 
DataValue, 0.76, 2.4773E-10, 
DataValue, 0.78, 2.5366E-10, 
DataValue, 0.8, 2.5743E-10, 
DataValue, 0.82000000000000006, 2.6652E-10, 
DataValue, 0.84000000000000008, 2.6825E-10, 
DataValue, 0.86, 2.8071E-10, 
DataValue, 0.88, 2.8752E-10, 
DataValue, 0.9, 2.8441E-10, 
DataValue, 0.92, 2.9127E-10, 
DataValue, 0.94000000000000006, 3.028E-10, 
DataValue, 0.96000000000000008, 3.1183E-10, 
DataValue, 0.98000000000000009, 3.0965E-10, 
DataValue, 1, 3.1434E-10, 