
SetupTitle, WW
PrimitiveTest, I/V Sweep
TestParameter, Context.MainFrame, B1500A
TestParameter, Channel.UnitType, SMU, SMU
TestParameter, Channel.Unit, SMU2:HP, SMU1:HP
TestParameter, Channel.IName, I1, I4
TestParameter, Channel.VName, V1, V4
TestParameter, Channel.Mode, V, COMMON
TestParameter, Channel.Func, VAR1, CONST
TestParameter, Channel.Index, 
TestParameter, Channel.Time, 
TestParameter, Measurement.Port.Unit, SMU2:HP, SMU1:HP
TestParameter, Measurement.Port.SeriesResistor, NONE, NONE
TestParameter, Measurement.Port.Filter, ON, ON
TestParameter, Measurement.Port.OutputVoltageComparison, 0, 0
TestParameter, Measurement.Primary.Locus, Single
TestParameter, Measurement.Primary.Scale, LINEAR
TestParameter, Measurement.Primary.Start, -1
TestParameter, Measurement.Primary.Stop, 1
TestParameter, Measurement.Primary.Step, 0.02
TestParameter, Measurement.Primary.Compliance, 0.01
TestParameter, Measurement.Primary.PowerCompliance, 0
TestParameter, Measurement.Aborting.Condition, CONTINUE AT ANY
TestParameter, Measurement.PostOutput.Value, START
TestParameter, Measurement.PostOutput.Retention, OFF
TestParameter, Measurement.Bias.Source, -1, 0
TestParameter, Measurement.Bias.Compliance, 0.01, 1
TestParameter, Measurement.Monitor.Unit, SMU2:HP, SMU1:HP
TestParameter, Measurement.Monitor.Adc, HR ADC, HR ADC
TestParameter, Measurement.Monitor.Measurement, Compliance Side, Compliance Side
TestParameter, Measurement.Monitor.RangingMode, AUTO, AUTO
TestParameter, Measurement.Monitor.RangeBoundary, , 
TestParameter, Measurement.Monitor.RangeRating, BY FULL RANGE, BY FULL RANGE
TestParameter, Measurement.Monitor.RangeRatingCoeff, 50, 50
TestParameter, Measurement.Timing.Hold, 0
TestParameter, Measurement.Timing.Delay, 0.001
TestParameter, Measurement.Adc.HighSpeed.Mode, AUTO
TestParameter, Measurement.Adc.HighSpeed.Coeff, 1
TestParameter, Measurement.Adc.HighResolution.AutoZero, OFF
TestParameter, Measurement.Adc.HighResolution.Mode, PLC
TestParameter, Measurement.Adc.HighResolution.Coeff, 1
TestParameter, Measurement.WaitTime.Source.Coeff, 1
TestParameter, Measurement.WaitTime.Source.Offset, 0
TestParameter, Measurement.WaitTime.Monitor.Coeff, 1
TestParameter, Measurement.WaitTime.Monitor.Offset, 0
TestParameter, Function.User.Name, Ohmic
TestParameter, Function.User.Unit, ohm
TestParameter, Function.User.Definition, avg(V1/I1)
TestParameter, Output.Graph.Enabled, true
TestParameter, Output.Graph.XAxis.Data, V1
TestParameter, Output.Graph.XAxis.Scale, Linear
TestParameter, Output.Graph.XAxis.Left, -5
TestParameter, Output.Graph.XAxis.Right, 5
TestParameter, Output.Graph.YAxis.Data, I1
TestParameter, Output.Graph.YAxis.Scale, Linear
TestParameter, Output.Graph.YAxis.Bottom, -0.001
TestParameter, Output.Graph.YAxis.Top, 0.001
TestParameter, Output.Graph.YAxis.Group, 
TestParameter, Output.Scalar.Data, Ohmic
TestParameter, AutoAnalysis.Interpolation, false
TestParameter, AutoAnalysis.Line1.Enabled, false
TestParameter, AutoAnalysis.Line1.Type, 1
TestParameter, AutoAnalysis.Line1.Fix, True
TestParameter, AutoAnalysis.Line1.YAxis, 0
TestParameter, AutoAnalysis.Line1.Point1.Type, 0
TestParameter, AutoAnalysis.Line1.Point1.XY.X, 
TestParameter, AutoAnalysis.Line1.Point1.XY.Y, 
TestParameter, AutoAnalysis.Line1.Point1.Data.Var, 
TestParameter, AutoAnalysis.Line1.Point1.Data.Condition, 
TestParameter, AutoAnalysis.Line1.Point1.Data.Start, false
TestParameter, AutoAnalysis.Line1.Point1.Data.StartVar, 
TestParameter, AutoAnalysis.Line1.Point1.Data.StartCondition, 
TestParameter, AutoAnalysis.Line1.Point2.Type, 0
TestParameter, AutoAnalysis.Line1.Point2.XY.X, 
TestParameter, AutoAnalysis.Line1.Point2.XY.Y, 
TestParameter, AutoAnalysis.Line1.Point2.Data.Var, 
TestParameter, AutoAnalysis.Line1.Point2.Data.Condition, 
TestParameter, AutoAnalysis.Line1.Point2.Data.Start, false
TestParameter, AutoAnalysis.Line1.Point2.Data.StartVar, 
TestParameter, AutoAnalysis.Line1.Point2.Data.StartCondition, 
TestParameter, AutoAnalysis.Line1.GradientExpr, 0
TestParameter, AutoAnalysis.Line2.Enabled, false
TestParameter, AutoAnalysis.Line2.Type, 1
TestParameter, AutoAnalysis.Line2.Fix, True
TestParameter, AutoAnalysis.Line2.YAxis, 0
TestParameter, AutoAnalysis.Line2.Point1.Type, 0
TestParameter, AutoAnalysis.Line2.Point1.XY.X, 
TestParameter, AutoAnalysis.Line2.Point1.XY.Y, 
TestParameter, AutoAnalysis.Line2.Point1.Data.Var, 
TestParameter, AutoAnalysis.Line2.Point1.Data.Condition, 
TestParameter, AutoAnalysis.Line2.Point1.Data.Start, false
TestParameter, AutoAnalysis.Line2.Point1.Data.StartVar, 
TestParameter, AutoAnalysis.Line2.Point1.Data.StartCondition, 
TestParameter, AutoAnalysis.Line2.Point2.Type, 0
TestParameter, AutoAnalysis.Line2.Point2.XY.X, 
TestParameter, AutoAnalysis.Line2.Point2.XY.Y, 
TestParameter, AutoAnalysis.Line2.Point2.Data.Var, 
TestParameter, AutoAnalysis.Line2.Point2.Data.Condition, 
TestParameter, AutoAnalysis.Line2.Point2.Data.Start, false
TestParameter, AutoAnalysis.Line2.Point2.Data.StartVar, 
TestParameter, AutoAnalysis.Line2.Point2.Data.StartCondition, 
TestParameter, AutoAnalysis.Line2.GradientExpr, 0
TestParameter, AutoAnalysis.Marker.Enabled, false
TestParameter, AutoAnalysis.Marker.Data.Var, 
TestParameter, AutoAnalysis.Marker.Data.Condition, 
TestParameter, AutoAnalysis.Marker.Data.Start, false
TestParameter, AutoAnalysis.Marker.Data.StartVar, 
TestParameter, AutoAnalysis.Marker.Data.StartCondition, 
MetaData, TestRecord.EntryPoint, true
MetaData, TestRecord.RecordTime, 01/18/2020 20:49:04
MetaData, TestRecord.TestTarget, 
MetaData, TestRecord.IterationIndex, 67
MetaData, TestRecord.Preservation, true
MetaData, TestRecord.Flag, 
MetaData, TestRecord.Remarks, 
MetaData, TestRecord.LinkKey, 60b7dcf4-d3fa-401c-80e7-c7c25c977c5d
Dimension1, 101, 101, 101
Dimension2, 1, 1, 1
DataName, V1, I1, Ohmic
DataValue, -1, -2.708E-10, 2970832268.9449329
DataValue, -0.98000000000000009, -2.6293E-10, 
DataValue, -0.96000000000000008, -2.6069E-10, 
DataValue, -0.94000000000000006, -2.4908E-10, 
DataValue, -0.92, -2.4609E-10, 
DataValue, -0.9, -2.3915E-10, 
DataValue, -0.88, -2.3447E-10, 
DataValue, -0.86, -2.2779E-10, 
DataValue, -0.84000000000000008, -2.2339E-10, 
DataValue, -0.82000000000000006, -2.1862E-10, 
DataValue, -0.8, -2.1217E-10, 
DataValue, -0.78, -2.0482E-10, 
DataValue, -0.76, -2.0529E-10, 
DataValue, -0.74, -1.9359E-10, 
DataValue, -0.72000000000000008, -1.9437E-10, 
DataValue, -0.70000000000000007, -1.8367E-10, 
DataValue, -0.68, -1.822E-10, 
DataValue, -0.66, -1.7717E-10, 
DataValue, -0.64, -1.7275E-10, 
DataValue, -0.62, -1.68E-10, 
DataValue, -0.6, -1.6188E-10, 
DataValue, -0.58000000000000007, -1.562E-10, 
DataValue, -0.56, -1.5371E-10, 
DataValue, -0.54, -1.4578E-10, 
DataValue, -0.52, -1.4446E-10, 
DataValue, -0.5, -1.3522E-10, 
DataValue, -0.48000000000000004, -1.3294E-10, 
DataValue, -0.46, -1.2872E-10, 
DataValue, -0.44, -1.2534E-10, 
DataValue, -0.42000000000000004, -1.2019E-10, 
DataValue, -0.4, -1.144E-10, 
DataValue, -0.38, -1.079E-10, 
DataValue, -0.36000000000000004, -1.072E-10, 
DataValue, -0.34, -9.985E-11, 
DataValue, -0.32, -9.705E-11, 
DataValue, -0.3, -8.949E-11, 
DataValue, -0.28, -8.804E-11, 
DataValue, -0.26, -8.13E-11, 
DataValue, -0.24000000000000002, -7.992E-11, 
DataValue, -0.22, -7.358E-11, 
DataValue, -0.2, -7.017E-11, 
DataValue, -0.18000000000000002, -6.34E-11, 
DataValue, -0.16, -6.07E-11, 
DataValue, -0.14, -5.506E-11, 
DataValue, -0.12000000000000001, -5.111E-11, 
DataValue, -0.1, -4.065E-11, 
DataValue, -0.08, -3.34E-11, 
DataValue, -0.060000000000000005, -2.019E-11, 
DataValue, -0.04, -7.19E-12, 
DataValue, -0.02, 1.072E-11, 
DataValue, 0, 2.474E-11, 
DataValue, 0.02, 3.911E-11, 
DataValue, 0.04, 4.805E-11, 
DataValue, 0.060000000000000005, 5.885E-11, 
DataValue, 0.08, 6.098E-11, 
DataValue, 0.1, 6.675E-11, 
DataValue, 0.12000000000000001, 7.221E-11, 
DataValue, 0.14, 7.668E-11, 
DataValue, 0.16, 8.111E-11, 
DataValue, 0.18000000000000002, 8.861E-11, 
DataValue, 0.2, 9.239E-11, 
DataValue, 0.22, 9.908E-11, 
DataValue, 0.24000000000000002, 9.807E-11, 
DataValue, 0.26, 1.0729E-10, 
DataValue, 0.28, 1.1179E-10, 
DataValue, 0.3, 1.1871E-10, 
DataValue, 0.32, 1.2323E-10, 
DataValue, 0.34, 1.2829E-10, 
DataValue, 0.36000000000000004, 1.3238E-10, 
DataValue, 0.38, 1.4129E-10, 
DataValue, 0.4, 1.4616E-10, 
DataValue, 0.42000000000000004, 1.5222E-10, 
DataValue, 0.44, 1.564E-10, 
DataValue, 0.46, 1.5853E-10, 
DataValue, 0.48000000000000004, 1.6492E-10, 
DataValue, 0.5, 1.7617E-10, 
DataValue, 0.52, 1.7802E-10, 
DataValue, 0.54, 1.8655E-10, 
DataValue, 0.56, 1.8743E-10, 
DataValue, 0.58000000000000007, 1.9308E-10, 
DataValue, 0.6, 1.9911E-10, 
DataValue, 0.62, 2.0818E-10, 
DataValue, 0.64, 2.134E-10, 
DataValue, 0.66, 2.1541E-10, 
DataValue, 0.68, 2.1912E-10, 
DataValue, 0.70000000000000007, 2.2966E-10, 
DataValue, 0.72000000000000008, 2.2943E-10, 
DataValue, 0.74, 2.3646E-10, 
DataValue, 0.76, 2.4466E-10, 
DataValue, 0.78, 2.5457E-10, 
DataValue, 0.8, 2.5737E-10, 
DataValue, 0.82000000000000006, 2.6413E-10, 
DataValue, 0.84000000000000008, 2.6577E-10, 
DataValue, 0.86, 2.8048E-10, 
DataValue, 0.88, 2.7999E-10, 
DataValue, 0.9, 2.9319E-10, 
DataValue, 0.92, 2.9985E-10, 
DataValue, 0.94000000000000006, 3.0085E-10, 
DataValue, 0.96000000000000008, 3.048E-10, 
DataValue, 0.98000000000000009, 3.1423E-10, 
DataValue, 1, 3.0908E-10, 