
SetupTitle, WW
PrimitiveTest, I/V Sweep
TestParameter, Context.MainFrame, B1500A
TestParameter, Channel.UnitType, SMU, SMU
TestParameter, Channel.Unit, SMU2:HP, SMU1:HP
TestParameter, Channel.IName, I1, I4
TestParameter, Channel.VName, V1, V4
TestParameter, Channel.Mode, V, COMMON
TestParameter, Channel.Func, VAR1, CONST
TestParameter, Channel.Index, 
TestParameter, Channel.Time, 
TestParameter, Measurement.Port.Unit, SMU2:HP, SMU1:HP
TestParameter, Measurement.Port.SeriesResistor, NONE, NONE
TestParameter, Measurement.Port.Filter, ON, ON
TestParameter, Measurement.Port.OutputVoltageComparison, 0, 0
TestParameter, Measurement.Primary.Locus, Single
TestParameter, Measurement.Primary.Scale, LINEAR
TestParameter, Measurement.Primary.Start, -1
TestParameter, Measurement.Primary.Stop, 1
TestParameter, Measurement.Primary.Step, 0.02
TestParameter, Measurement.Primary.Compliance, 0.01
TestParameter, Measurement.Primary.PowerCompliance, 0
TestParameter, Measurement.Aborting.Condition, CONTINUE AT ANY
TestParameter, Measurement.PostOutput.Value, START
TestParameter, Measurement.PostOutput.Retention, OFF
TestParameter, Measurement.Bias.Source, -1, 0
TestParameter, Measurement.Bias.Compliance, 0.01, 1
TestParameter, Measurement.Monitor.Unit, SMU2:HP, SMU1:HP
TestParameter, Measurement.Monitor.Adc, HR ADC, HR ADC
TestParameter, Measurement.Monitor.Measurement, Compliance Side, Compliance Side
TestParameter, Measurement.Monitor.RangingMode, AUTO, AUTO
TestParameter, Measurement.Monitor.RangeBoundary, , 
TestParameter, Measurement.Monitor.RangeRating, BY FULL RANGE, BY FULL RANGE
TestParameter, Measurement.Monitor.RangeRatingCoeff, 50, 50
TestParameter, Measurement.Timing.Hold, 0
TestParameter, Measurement.Timing.Delay, 0.001
TestParameter, Measurement.Adc.HighSpeed.Mode, AUTO
TestParameter, Measurement.Adc.HighSpeed.Coeff, 1
TestParameter, Measurement.Adc.HighResolution.AutoZero, OFF
TestParameter, Measurement.Adc.HighResolution.Mode, PLC
TestParameter, Measurement.Adc.HighResolution.Coeff, 1
TestParameter, Measurement.WaitTime.Source.Coeff, 1
TestParameter, Measurement.WaitTime.Source.Offset, 0
TestParameter, Measurement.WaitTime.Monitor.Coeff, 1
TestParameter, Measurement.WaitTime.Monitor.Offset, 0
TestParameter, Function.User.Name, Ohmic
TestParameter, Function.User.Unit, ohm
TestParameter, Function.User.Definition, avg(V1/I1)
TestParameter, Output.Graph.Enabled, true
TestParameter, Output.Graph.XAxis.Data, V1
TestParameter, Output.Graph.XAxis.Scale, Linear
TestParameter, Output.Graph.XAxis.Left, -5
TestParameter, Output.Graph.XAxis.Right, 5
TestParameter, Output.Graph.YAxis.Data, I1
TestParameter, Output.Graph.YAxis.Scale, Linear
TestParameter, Output.Graph.YAxis.Bottom, -0.001
TestParameter, Output.Graph.YAxis.Top, 0.001
TestParameter, Output.Graph.YAxis.Group, 
TestParameter, Output.Scalar.Data, Ohmic
TestParameter, AutoAnalysis.Interpolation, false
TestParameter, AutoAnalysis.Line1.Enabled, false
TestParameter, AutoAnalysis.Line1.Type, 1
TestParameter, AutoAnalysis.Line1.Fix, True
TestParameter, AutoAnalysis.Line1.YAxis, 0
TestParameter, AutoAnalysis.Line1.Point1.Type, 0
TestParameter, AutoAnalysis.Line1.Point1.XY.X, 
TestParameter, AutoAnalysis.Line1.Point1.XY.Y, 
TestParameter, AutoAnalysis.Line1.Point1.Data.Var, 
TestParameter, AutoAnalysis.Line1.Point1.Data.Condition, 
TestParameter, AutoAnalysis.Line1.Point1.Data.Start, false
TestParameter, AutoAnalysis.Line1.Point1.Data.StartVar, 
TestParameter, AutoAnalysis.Line1.Point1.Data.StartCondition, 
TestParameter, AutoAnalysis.Line1.Point2.Type, 0
TestParameter, AutoAnalysis.Line1.Point2.XY.X, 
TestParameter, AutoAnalysis.Line1.Point2.XY.Y, 
TestParameter, AutoAnalysis.Line1.Point2.Data.Var, 
TestParameter, AutoAnalysis.Line1.Point2.Data.Condition, 
TestParameter, AutoAnalysis.Line1.Point2.Data.Start, false
TestParameter, AutoAnalysis.Line1.Point2.Data.StartVar, 
TestParameter, AutoAnalysis.Line1.Point2.Data.StartCondition, 
TestParameter, AutoAnalysis.Line1.GradientExpr, 0
TestParameter, AutoAnalysis.Line2.Enabled, false
TestParameter, AutoAnalysis.Line2.Type, 1
TestParameter, AutoAnalysis.Line2.Fix, True
TestParameter, AutoAnalysis.Line2.YAxis, 0
TestParameter, AutoAnalysis.Line2.Point1.Type, 0
TestParameter, AutoAnalysis.Line2.Point1.XY.X, 
TestParameter, AutoAnalysis.Line2.Point1.XY.Y, 
TestParameter, AutoAnalysis.Line2.Point1.Data.Var, 
TestParameter, AutoAnalysis.Line2.Point1.Data.Condition, 
TestParameter, AutoAnalysis.Line2.Point1.Data.Start, false
TestParameter, AutoAnalysis.Line2.Point1.Data.StartVar, 
TestParameter, AutoAnalysis.Line2.Point1.Data.StartCondition, 
TestParameter, AutoAnalysis.Line2.Point2.Type, 0
TestParameter, AutoAnalysis.Line2.Point2.XY.X, 
TestParameter, AutoAnalysis.Line2.Point2.XY.Y, 
TestParameter, AutoAnalysis.Line2.Point2.Data.Var, 
TestParameter, AutoAnalysis.Line2.Point2.Data.Condition, 
TestParameter, AutoAnalysis.Line2.Point2.Data.Start, false
TestParameter, AutoAnalysis.Line2.Point2.Data.StartVar, 
TestParameter, AutoAnalysis.Line2.Point2.Data.StartCondition, 
TestParameter, AutoAnalysis.Line2.GradientExpr, 0
TestParameter, AutoAnalysis.Marker.Enabled, false
TestParameter, AutoAnalysis.Marker.Data.Var, 
TestParameter, AutoAnalysis.Marker.Data.Condition, 
TestParameter, AutoAnalysis.Marker.Data.Start, false
TestParameter, AutoAnalysis.Marker.Data.StartVar, 
TestParameter, AutoAnalysis.Marker.Data.StartCondition, 
MetaData, TestRecord.EntryPoint, true
MetaData, TestRecord.RecordTime, 01/18/2020 20:48:30
MetaData, TestRecord.TestTarget, 
MetaData, TestRecord.IterationIndex, 66
MetaData, TestRecord.Preservation, true
MetaData, TestRecord.Flag, 
MetaData, TestRecord.Remarks, 
MetaData, TestRecord.LinkKey, 6372afcf-f5b5-434c-b433-be4449d23921
Dimension1, 101, 101, 101
Dimension2, 1, 1, 1
DataName, V1, I1, Ohmic
DataValue, -1, -2.6148E-10, 3172275898.3718934
DataValue, -0.98000000000000009, -2.5797E-10, 
DataValue, -0.96000000000000008, -2.4858E-10, 
DataValue, -0.94000000000000006, -2.4314E-10, 
DataValue, -0.92, -2.3169E-10, 
DataValue, -0.9, -2.3011E-10, 
DataValue, -0.88, -2.2051E-10, 
DataValue, -0.86, -2.1503E-10, 
DataValue, -0.84000000000000008, -2.0835E-10, 
DataValue, -0.82000000000000006, -2.0545E-10, 
DataValue, -0.8, -1.9609E-10, 
DataValue, -0.78, -1.96E-10, 
DataValue, -0.76, -1.8736E-10, 
DataValue, -0.74, -1.8602E-10, 
DataValue, -0.72000000000000008, -1.778E-10, 
DataValue, -0.70000000000000007, -1.7527E-10, 
DataValue, -0.68, -1.6699E-10, 
DataValue, -0.66, -1.6576E-10, 
DataValue, -0.64, -1.5833E-10, 
DataValue, -0.62, -1.5615E-10, 
DataValue, -0.6, -1.4879E-10, 
DataValue, -0.58000000000000007, -1.4779E-10, 
DataValue, -0.56, -1.4198E-10, 
DataValue, -0.54, -1.408E-10, 
DataValue, -0.52, -1.3501E-10, 
DataValue, -0.5, -1.2893E-10, 
DataValue, -0.48000000000000004, -1.2376E-10, 
DataValue, -0.46, -1.2189E-10, 
DataValue, -0.44, -1.1496E-10, 
DataValue, -0.42000000000000004, -1.148E-10, 
DataValue, -0.4, -1.0789E-10, 
DataValue, -0.38, -1.0363E-10, 
DataValue, -0.36000000000000004, -9.739E-11, 
DataValue, -0.34, -9.763E-11, 
DataValue, -0.32, -8.941E-11, 
DataValue, -0.3, -8.651E-11, 
DataValue, -0.28, -8.015E-11, 
DataValue, -0.26, -7.886E-11, 
DataValue, -0.24000000000000002, -7.377E-11, 
DataValue, -0.22, -7.152E-11, 
DataValue, -0.2, -6.167E-11, 
DataValue, -0.18000000000000002, -6.183E-11, 
DataValue, -0.16, -5.234E-11, 
DataValue, -0.14, -5.248E-11, 
DataValue, -0.12000000000000001, -4.283E-11, 
DataValue, -0.1, -4.018E-11, 
DataValue, -0.08, -2.996E-11, 
DataValue, -0.060000000000000005, -2.191E-11, 
DataValue, -0.04, -7.03E-12, 
DataValue, -0.02, 6.7E-12, 
DataValue, 0, 2.178E-11, 
DataValue, 0.02, 3.276E-11, 
DataValue, 0.04, 4.277E-11, 
DataValue, 0.060000000000000005, 4.901E-11, 
DataValue, 0.08, 5.831E-11, 
DataValue, 0.1, 6.071E-11, 
DataValue, 0.12000000000000001, 6.73E-11, 
DataValue, 0.14, 6.849E-11, 
DataValue, 0.16, 7.623E-11, 
DataValue, 0.18000000000000002, 7.832E-11, 
DataValue, 0.2, 8.752E-11, 
DataValue, 0.22, 8.801E-11, 
DataValue, 0.24000000000000002, 9.668E-11, 
DataValue, 0.26, 9.868E-11, 
DataValue, 0.28, 1.0376E-10, 
DataValue, 0.3, 1.0646E-10, 
DataValue, 0.32, 1.1064E-10, 
DataValue, 0.34, 1.144E-10, 
DataValue, 0.36000000000000004, 1.2249E-10, 
DataValue, 0.38, 1.2713999999999999E-10, 
DataValue, 0.4, 1.3324E-10, 
DataValue, 0.42000000000000004, 1.3722E-10, 
DataValue, 0.44, 1.4554E-10, 
DataValue, 0.46, 1.4713E-10, 
DataValue, 0.48000000000000004, 1.517E-10, 
DataValue, 0.5, 1.5723E-10, 
DataValue, 0.52, 1.6261E-10, 
DataValue, 0.54, 1.6643E-10, 
DataValue, 0.56, 1.7768E-10, 
DataValue, 0.58000000000000007, 1.8066E-10, 
DataValue, 0.6, 1.8894E-10, 
DataValue, 0.62, 1.9597E-10, 
DataValue, 0.64, 2.0246E-10, 
DataValue, 0.66, 2.0809E-10, 
DataValue, 0.68, 2.1057E-10, 
DataValue, 0.70000000000000007, 2.1634E-10, 
DataValue, 0.72000000000000008, 2.2388E-10, 
DataValue, 0.74, 2.2917E-10, 
DataValue, 0.76, 2.3364E-10, 
DataValue, 0.78, 2.3677E-10, 
DataValue, 0.8, 2.4066E-10, 
DataValue, 0.82000000000000006, 2.4109E-10, 
DataValue, 0.84000000000000008, 2.4945E-10, 
DataValue, 0.86, 2.5061E-10, 
DataValue, 0.88, 2.5857E-10, 
DataValue, 0.9, 2.6377E-10, 
DataValue, 0.92, 2.7067E-10, 
DataValue, 0.94000000000000006, 2.6932E-10, 
DataValue, 0.96000000000000008, 2.7681E-10, 
DataValue, 0.98000000000000009, 2.8383E-10, 
DataValue, 1, 2.8757E-10, 