
SetupTitle, WW
PrimitiveTest, I/V Sweep
TestParameter, Context.MainFrame, B1500A
TestParameter, Channel.UnitType, SMU, SMU
TestParameter, Channel.Unit, SMU2:HP, SMU1:HP
TestParameter, Channel.IName, I1, I4
TestParameter, Channel.VName, V1, V4
TestParameter, Channel.Mode, V, COMMON
TestParameter, Channel.Func, VAR1, CONST
TestParameter, Channel.Index, 
TestParameter, Channel.Time, 
TestParameter, Measurement.Port.Unit, SMU2:HP, SMU1:HP
TestParameter, Measurement.Port.SeriesResistor, NONE, NONE
TestParameter, Measurement.Port.Filter, ON, ON
TestParameter, Measurement.Port.OutputVoltageComparison, 0, 0
TestParameter, Measurement.Primary.Locus, Single
TestParameter, Measurement.Primary.Scale, LINEAR
TestParameter, Measurement.Primary.Start, -1
TestParameter, Measurement.Primary.Stop, 1
TestParameter, Measurement.Primary.Step, 0.02
TestParameter, Measurement.Primary.Compliance, 0.01
TestParameter, Measurement.Primary.PowerCompliance, 0
TestParameter, Measurement.Aborting.Condition, CONTINUE AT ANY
TestParameter, Measurement.PostOutput.Value, START
TestParameter, Measurement.PostOutput.Retention, OFF
TestParameter, Measurement.Bias.Source, -1, 0
TestParameter, Measurement.Bias.Compliance, 0.01, 1
TestParameter, Measurement.Monitor.Unit, SMU2:HP, SMU1:HP
TestParameter, Measurement.Monitor.Adc, HR ADC, HR ADC
TestParameter, Measurement.Monitor.Measurement, Compliance Side, Compliance Side
TestParameter, Measurement.Monitor.RangingMode, AUTO, AUTO
TestParameter, Measurement.Monitor.RangeBoundary, , 
TestParameter, Measurement.Monitor.RangeRating, BY FULL RANGE, BY FULL RANGE
TestParameter, Measurement.Monitor.RangeRatingCoeff, 50, 50
TestParameter, Measurement.Timing.Hold, 0
TestParameter, Measurement.Timing.Delay, 0.001
TestParameter, Measurement.Adc.HighSpeed.Mode, AUTO
TestParameter, Measurement.Adc.HighSpeed.Coeff, 1
TestParameter, Measurement.Adc.HighResolution.AutoZero, OFF
TestParameter, Measurement.Adc.HighResolution.Mode, PLC
TestParameter, Measurement.Adc.HighResolution.Coeff, 1
TestParameter, Measurement.WaitTime.Source.Coeff, 1
TestParameter, Measurement.WaitTime.Source.Offset, 0
TestParameter, Measurement.WaitTime.Monitor.Coeff, 1
TestParameter, Measurement.WaitTime.Monitor.Offset, 0
TestParameter, Function.User.Name, Ohmic
TestParameter, Function.User.Unit, ohm
TestParameter, Function.User.Definition, avg(V1/I1)
TestParameter, Output.Graph.Enabled, true
TestParameter, Output.Graph.XAxis.Data, V1
TestParameter, Output.Graph.XAxis.Scale, Linear
TestParameter, Output.Graph.XAxis.Left, -5
TestParameter, Output.Graph.XAxis.Right, 5
TestParameter, Output.Graph.YAxis.Data, I1
TestParameter, Output.Graph.YAxis.Scale, Linear
TestParameter, Output.Graph.YAxis.Bottom, -0.001
TestParameter, Output.Graph.YAxis.Top, 0.001
TestParameter, Output.Graph.YAxis.Group, 
TestParameter, Output.Scalar.Data, Ohmic
TestParameter, AutoAnalysis.Interpolation, false
TestParameter, AutoAnalysis.Line1.Enabled, false
TestParameter, AutoAnalysis.Line1.Type, 1
TestParameter, AutoAnalysis.Line1.Fix, True
TestParameter, AutoAnalysis.Line1.YAxis, 0
TestParameter, AutoAnalysis.Line1.Point1.Type, 0
TestParameter, AutoAnalysis.Line1.Point1.XY.X, 
TestParameter, AutoAnalysis.Line1.Point1.XY.Y, 
TestParameter, AutoAnalysis.Line1.Point1.Data.Var, 
TestParameter, AutoAnalysis.Line1.Point1.Data.Condition, 
TestParameter, AutoAnalysis.Line1.Point1.Data.Start, false
TestParameter, AutoAnalysis.Line1.Point1.Data.StartVar, 
TestParameter, AutoAnalysis.Line1.Point1.Data.StartCondition, 
TestParameter, AutoAnalysis.Line1.Point2.Type, 0
TestParameter, AutoAnalysis.Line1.Point2.XY.X, 
TestParameter, AutoAnalysis.Line1.Point2.XY.Y, 
TestParameter, AutoAnalysis.Line1.Point2.Data.Var, 
TestParameter, AutoAnalysis.Line1.Point2.Data.Condition, 
TestParameter, AutoAnalysis.Line1.Point2.Data.Start, false
TestParameter, AutoAnalysis.Line1.Point2.Data.StartVar, 
TestParameter, AutoAnalysis.Line1.Point2.Data.StartCondition, 
TestParameter, AutoAnalysis.Line1.GradientExpr, 0
TestParameter, AutoAnalysis.Line2.Enabled, false
TestParameter, AutoAnalysis.Line2.Type, 1
TestParameter, AutoAnalysis.Line2.Fix, True
TestParameter, AutoAnalysis.Line2.YAxis, 0
TestParameter, AutoAnalysis.Line2.Point1.Type, 0
TestParameter, AutoAnalysis.Line2.Point1.XY.X, 
TestParameter, AutoAnalysis.Line2.Point1.XY.Y, 
TestParameter, AutoAnalysis.Line2.Point1.Data.Var, 
TestParameter, AutoAnalysis.Line2.Point1.Data.Condition, 
TestParameter, AutoAnalysis.Line2.Point1.Data.Start, false
TestParameter, AutoAnalysis.Line2.Point1.Data.StartVar, 
TestParameter, AutoAnalysis.Line2.Point1.Data.StartCondition, 
TestParameter, AutoAnalysis.Line2.Point2.Type, 0
TestParameter, AutoAnalysis.Line2.Point2.XY.X, 
TestParameter, AutoAnalysis.Line2.Point2.XY.Y, 
TestParameter, AutoAnalysis.Line2.Point2.Data.Var, 
TestParameter, AutoAnalysis.Line2.Point2.Data.Condition, 
TestParameter, AutoAnalysis.Line2.Point2.Data.Start, false
TestParameter, AutoAnalysis.Line2.Point2.Data.StartVar, 
TestParameter, AutoAnalysis.Line2.Point2.Data.StartCondition, 
TestParameter, AutoAnalysis.Line2.GradientExpr, 0
TestParameter, AutoAnalysis.Marker.Enabled, false
TestParameter, AutoAnalysis.Marker.Data.Var, 
TestParameter, AutoAnalysis.Marker.Data.Condition, 
TestParameter, AutoAnalysis.Marker.Data.Start, false
TestParameter, AutoAnalysis.Marker.Data.StartVar, 
TestParameter, AutoAnalysis.Marker.Data.StartCondition, 
MetaData, TestRecord.EntryPoint, true
MetaData, TestRecord.RecordTime, 01/18/2020 20:48:08
MetaData, TestRecord.TestTarget, 
MetaData, TestRecord.IterationIndex, 65
MetaData, TestRecord.Preservation, true
MetaData, TestRecord.Flag, 
MetaData, TestRecord.Remarks, 
MetaData, TestRecord.LinkKey, a48092e3-94a9-4de4-a608-fa2225df2a78
Dimension1, 101, 101, 101
Dimension2, 1, 1, 1
DataName, V1, I1, Ohmic
DataValue, -1, -2.7199E-10, 3204481775.3555393
DataValue, -0.98000000000000009, -2.6225E-10, 
DataValue, -0.96000000000000008, -2.558E-10, 
DataValue, -0.94000000000000006, -2.4977E-10, 
DataValue, -0.92, -2.4124E-10, 
DataValue, -0.9, -2.3532E-10, 
DataValue, -0.88, -2.3279999999999999E-10, 
DataValue, -0.86, -2.253E-10, 
DataValue, -0.84000000000000008, -2.2151E-10, 
DataValue, -0.82000000000000006, -2.1658E-10, 
DataValue, -0.8, -2.0977E-10, 
DataValue, -0.78, -2.0998E-10, 
DataValue, -0.76, -2.0029E-10, 
DataValue, -0.74, -1.9427E-10, 
DataValue, -0.72000000000000008, -1.9125E-10, 
DataValue, -0.70000000000000007, -1.8218E-10, 
DataValue, -0.68, -1.7402E-10, 
DataValue, -0.66, -1.7572E-10, 
DataValue, -0.64, -1.7246E-10, 
DataValue, -0.62, -1.6691E-10, 
DataValue, -0.6, -1.6041E-10, 
DataValue, -0.58000000000000007, -1.5747E-10, 
DataValue, -0.56, -1.4978E-10, 
DataValue, -0.54, -1.4296E-10, 
DataValue, -0.52, -1.3621E-10, 
DataValue, -0.5, -1.3502E-10, 
DataValue, -0.48000000000000004, -1.2657E-10, 
DataValue, -0.46, -1.25E-10, 
DataValue, -0.44, -1.1737E-10, 
DataValue, -0.42000000000000004, -1.1413E-10, 
DataValue, -0.4, -1.1104E-10, 
DataValue, -0.38, -1.0604E-10, 
DataValue, -0.36000000000000004, -1.0177E-10, 
DataValue, -0.34, -1.0042E-10, 
DataValue, -0.32, -9.572E-11, 
DataValue, -0.3, -8.834E-11, 
DataValue, -0.28, -8.543E-11, 
DataValue, -0.26, -8.064E-11, 
DataValue, -0.24000000000000002, -7.538E-11, 
DataValue, -0.22, -6.923E-11, 
DataValue, -0.2, -6.827E-11, 
DataValue, -0.18000000000000002, -6.205E-11, 
DataValue, -0.16, -6.118E-11, 
DataValue, -0.14, -5.586E-11, 
DataValue, -0.12000000000000001, -4.909E-11, 
DataValue, -0.1, -4.371E-11, 
DataValue, -0.08, -3.092E-11, 
DataValue, -0.060000000000000005, -2.227E-11, 
DataValue, -0.04, -7.86E-12, 
DataValue, -0.02, 6.34E-12, 
DataValue, 0, 2.283E-11, 
DataValue, 0.02, 3.395E-11, 
DataValue, 0.04, 4.236E-11, 
DataValue, 0.060000000000000005, 4.929E-11, 
DataValue, 0.08, 5.547E-11, 
DataValue, 0.1, 5.919E-11, 
DataValue, 0.12000000000000001, 6.37E-11, 
DataValue, 0.14, 7.053E-11, 
DataValue, 0.16, 6.992E-11, 
DataValue, 0.18000000000000002, 8.068E-11, 
DataValue, 0.2, 8.253E-11, 
DataValue, 0.22, 8.592E-11, 
DataValue, 0.24000000000000002, 9.105E-11, 
DataValue, 0.26, 9.731E-11, 
DataValue, 0.28, 1.0465E-10, 
DataValue, 0.3, 1.0905E-10, 
DataValue, 0.32, 1.1551E-10, 
DataValue, 0.34, 1.1524E-10, 
DataValue, 0.36000000000000004, 1.1965E-10, 
DataValue, 0.38, 1.2535E-10, 
DataValue, 0.4, 1.3077E-10, 
DataValue, 0.42000000000000004, 1.3504E-10, 
DataValue, 0.44, 1.3901E-10, 
DataValue, 0.46, 1.3344E-10, 
DataValue, 0.48000000000000004, 1.3947E-10, 
DataValue, 0.5, 1.5174E-10, 
DataValue, 0.52, 1.4951E-10, 
DataValue, 0.54, 1.5545E-10, 
DataValue, 0.56, 1.5635E-10, 
DataValue, 0.58000000000000007, 1.6712E-10, 
DataValue, 0.6, 1.6639E-10, 
DataValue, 0.62, 1.705E-10, 
DataValue, 0.64, 1.7698E-10, 
DataValue, 0.66, 1.8345E-10, 
DataValue, 0.68, 1.825E-10, 
DataValue, 0.70000000000000007, 1.8786E-10, 
DataValue, 0.72000000000000008, 1.9037E-10, 
DataValue, 0.74, 1.9668E-10, 
DataValue, 0.76, 2.0281E-10, 
DataValue, 0.78, 2.0205E-10, 
DataValue, 0.8, 2.0887E-10, 
DataValue, 0.82000000000000006, 2.1356E-10, 
DataValue, 0.84000000000000008, 2.1747E-10, 
DataValue, 0.86, 2.2694E-10, 
DataValue, 0.88, 2.3259E-10, 
DataValue, 0.9, 2.3808E-10, 
DataValue, 0.92, 2.4356E-10, 
DataValue, 0.94000000000000006, 2.4903E-10, 
DataValue, 0.96000000000000008, 2.5144E-10, 
DataValue, 0.98000000000000009, 2.6105E-10, 
DataValue, 1, 2.6562E-10, 