
SetupTitle, WW
PrimitiveTest, I/V Sweep
TestParameter, Context.MainFrame, B1500A
TestParameter, Channel.UnitType, SMU, SMU
TestParameter, Channel.Unit, SMU2:HP, SMU1:HP
TestParameter, Channel.IName, I1, I4
TestParameter, Channel.VName, V1, V4
TestParameter, Channel.Mode, V, COMMON
TestParameter, Channel.Func, VAR1, CONST
TestParameter, Channel.Index, 
TestParameter, Channel.Time, 
TestParameter, Measurement.Port.Unit, SMU2:HP, SMU1:HP
TestParameter, Measurement.Port.SeriesResistor, NONE, NONE
TestParameter, Measurement.Port.Filter, ON, ON
TestParameter, Measurement.Port.OutputVoltageComparison, 0, 0
TestParameter, Measurement.Primary.Locus, Single
TestParameter, Measurement.Primary.Scale, LINEAR
TestParameter, Measurement.Primary.Start, -1
TestParameter, Measurement.Primary.Stop, 1
TestParameter, Measurement.Primary.Step, 0.02
TestParameter, Measurement.Primary.Compliance, 0.01
TestParameter, Measurement.Primary.PowerCompliance, 0
TestParameter, Measurement.Aborting.Condition, CONTINUE AT ANY
TestParameter, Measurement.PostOutput.Value, START
TestParameter, Measurement.PostOutput.Retention, OFF
TestParameter, Measurement.Bias.Source, -1, 0
TestParameter, Measurement.Bias.Compliance, 0.01, 1
TestParameter, Measurement.Monitor.Unit, SMU2:HP, SMU1:HP
TestParameter, Measurement.Monitor.Adc, HR ADC, HR ADC
TestParameter, Measurement.Monitor.Measurement, Compliance Side, Compliance Side
TestParameter, Measurement.Monitor.RangingMode, AUTO, AUTO
TestParameter, Measurement.Monitor.RangeBoundary, , 
TestParameter, Measurement.Monitor.RangeRating, BY FULL RANGE, BY FULL RANGE
TestParameter, Measurement.Monitor.RangeRatingCoeff, 50, 50
TestParameter, Measurement.Timing.Hold, 0
TestParameter, Measurement.Timing.Delay, 0.001
TestParameter, Measurement.Adc.HighSpeed.Mode, AUTO
TestParameter, Measurement.Adc.HighSpeed.Coeff, 1
TestParameter, Measurement.Adc.HighResolution.AutoZero, OFF
TestParameter, Measurement.Adc.HighResolution.Mode, PLC
TestParameter, Measurement.Adc.HighResolution.Coeff, 1
TestParameter, Measurement.WaitTime.Source.Coeff, 1
TestParameter, Measurement.WaitTime.Source.Offset, 0
TestParameter, Measurement.WaitTime.Monitor.Coeff, 1
TestParameter, Measurement.WaitTime.Monitor.Offset, 0
TestParameter, Function.User.Name, Ohmic
TestParameter, Function.User.Unit, ohm
TestParameter, Function.User.Definition, avg(V1/I1)
TestParameter, Output.Graph.Enabled, true
TestParameter, Output.Graph.XAxis.Data, V1
TestParameter, Output.Graph.XAxis.Scale, Linear
TestParameter, Output.Graph.XAxis.Left, -5
TestParameter, Output.Graph.XAxis.Right, 5
TestParameter, Output.Graph.YAxis.Data, I1
TestParameter, Output.Graph.YAxis.Scale, Linear
TestParameter, Output.Graph.YAxis.Bottom, -0.001
TestParameter, Output.Graph.YAxis.Top, 0.001
TestParameter, Output.Graph.YAxis.Group, 
TestParameter, Output.Scalar.Data, Ohmic
TestParameter, AutoAnalysis.Interpolation, false
TestParameter, AutoAnalysis.Line1.Enabled, false
TestParameter, AutoAnalysis.Line1.Type, 1
TestParameter, AutoAnalysis.Line1.Fix, True
TestParameter, AutoAnalysis.Line1.YAxis, 0
TestParameter, AutoAnalysis.Line1.Point1.Type, 0
TestParameter, AutoAnalysis.Line1.Point1.XY.X, 
TestParameter, AutoAnalysis.Line1.Point1.XY.Y, 
TestParameter, AutoAnalysis.Line1.Point1.Data.Var, 
TestParameter, AutoAnalysis.Line1.Point1.Data.Condition, 
TestParameter, AutoAnalysis.Line1.Point1.Data.Start, false
TestParameter, AutoAnalysis.Line1.Point1.Data.StartVar, 
TestParameter, AutoAnalysis.Line1.Point1.Data.StartCondition, 
TestParameter, AutoAnalysis.Line1.Point2.Type, 0
TestParameter, AutoAnalysis.Line1.Point2.XY.X, 
TestParameter, AutoAnalysis.Line1.Point2.XY.Y, 
TestParameter, AutoAnalysis.Line1.Point2.Data.Var, 
TestParameter, AutoAnalysis.Line1.Point2.Data.Condition, 
TestParameter, AutoAnalysis.Line1.Point2.Data.Start, false
TestParameter, AutoAnalysis.Line1.Point2.Data.StartVar, 
TestParameter, AutoAnalysis.Line1.Point2.Data.StartCondition, 
TestParameter, AutoAnalysis.Line1.GradientExpr, 0
TestParameter, AutoAnalysis.Line2.Enabled, false
TestParameter, AutoAnalysis.Line2.Type, 1
TestParameter, AutoAnalysis.Line2.Fix, True
TestParameter, AutoAnalysis.Line2.YAxis, 0
TestParameter, AutoAnalysis.Line2.Point1.Type, 0
TestParameter, AutoAnalysis.Line2.Point1.XY.X, 
TestParameter, AutoAnalysis.Line2.Point1.XY.Y, 
TestParameter, AutoAnalysis.Line2.Point1.Data.Var, 
TestParameter, AutoAnalysis.Line2.Point1.Data.Condition, 
TestParameter, AutoAnalysis.Line2.Point1.Data.Start, false
TestParameter, AutoAnalysis.Line2.Point1.Data.StartVar, 
TestParameter, AutoAnalysis.Line2.Point1.Data.StartCondition, 
TestParameter, AutoAnalysis.Line2.Point2.Type, 0
TestParameter, AutoAnalysis.Line2.Point2.XY.X, 
TestParameter, AutoAnalysis.Line2.Point2.XY.Y, 
TestParameter, AutoAnalysis.Line2.Point2.Data.Var, 
TestParameter, AutoAnalysis.Line2.Point2.Data.Condition, 
TestParameter, AutoAnalysis.Line2.Point2.Data.Start, false
TestParameter, AutoAnalysis.Line2.Point2.Data.StartVar, 
TestParameter, AutoAnalysis.Line2.Point2.Data.StartCondition, 
TestParameter, AutoAnalysis.Line2.GradientExpr, 0
TestParameter, AutoAnalysis.Marker.Enabled, false
TestParameter, AutoAnalysis.Marker.Data.Var, 
TestParameter, AutoAnalysis.Marker.Data.Condition, 
TestParameter, AutoAnalysis.Marker.Data.Start, false
TestParameter, AutoAnalysis.Marker.Data.StartVar, 
TestParameter, AutoAnalysis.Marker.Data.StartCondition, 
MetaData, TestRecord.EntryPoint, true
MetaData, TestRecord.RecordTime, 01/18/2020 20:47:37
MetaData, TestRecord.TestTarget, 
MetaData, TestRecord.IterationIndex, 64
MetaData, TestRecord.Preservation, true
MetaData, TestRecord.Flag, 
MetaData, TestRecord.Remarks, 
MetaData, TestRecord.LinkKey, 8ddb543a-5cf8-4ff6-bce1-8cad5028aeb9
Dimension1, 101, 101, 101
Dimension2, 1, 1, 1
DataName, V1, I1, Ohmic
DataValue, -1, -2.4902E-10, 3329259713.9860249
DataValue, -0.98000000000000009, -2.3639E-10, 
DataValue, -0.96000000000000008, -2.3185E-10, 
DataValue, -0.94000000000000006, -2.2111E-10, 
DataValue, -0.92, -2.1541E-10, 
DataValue, -0.9, -2.0763E-10, 
DataValue, -0.88, -2.0468E-10, 
DataValue, -0.86, -1.9735E-10, 
DataValue, -0.84000000000000008, -2.0088E-10, 
DataValue, -0.82000000000000006, -1.9327E-10, 
DataValue, -0.8, -1.9183E-10, 
DataValue, -0.78, -1.8021E-10, 
DataValue, -0.76, -1.8312E-10, 
DataValue, -0.74, -1.7474E-10, 
DataValue, -0.72000000000000008, -1.6987E-10, 
DataValue, -0.70000000000000007, -1.6875E-10, 
DataValue, -0.68, -1.5968E-10, 
DataValue, -0.66, -1.5706E-10, 
DataValue, -0.64, -1.5203E-10, 
DataValue, -0.62, -1.5022E-10, 
DataValue, -0.6, -1.4155E-10, 
DataValue, -0.58000000000000007, -1.424E-10, 
DataValue, -0.56, -1.3985E-10, 
DataValue, -0.54, -1.3325E-10, 
DataValue, -0.52, -1.2606E-10, 
DataValue, -0.5, -1.2206E-10, 
DataValue, -0.48000000000000004, -1.1993E-10, 
DataValue, -0.46, -1.1496E-10, 
DataValue, -0.44, -1.1209E-10, 
DataValue, -0.42000000000000004, -1.049E-10, 
DataValue, -0.4, -1.0439E-10, 
DataValue, -0.38, -9.606E-11, 
DataValue, -0.36000000000000004, -9.269E-11, 
DataValue, -0.34, -8.862E-11, 
DataValue, -0.32, -8.262E-11, 
DataValue, -0.3, -7.951E-11, 
DataValue, -0.28, -7.802E-11, 
DataValue, -0.26, -7.018E-11, 
DataValue, -0.24000000000000002, -7.256E-11, 
DataValue, -0.22, -6.541E-11, 
DataValue, -0.2, -6.202E-11, 
DataValue, -0.18000000000000002, -5.704E-11, 
DataValue, -0.16, -5.517E-11, 
DataValue, -0.14, -4.789E-11, 
DataValue, -0.12000000000000001, -4.216E-11, 
DataValue, -0.1, -3.639E-11, 
DataValue, -0.08, -2.921E-11, 
DataValue, -0.060000000000000005, -1.86E-11, 
DataValue, -0.04, -7.28E-12, 
DataValue, -0.02, 8.91E-12, 
DataValue, 0, 2.109E-11, 
DataValue, 0.02, 3.575E-11, 
DataValue, 0.04, 3.899E-11, 
DataValue, 0.060000000000000005, 5.271E-11, 
DataValue, 0.08, 5.926E-11, 
DataValue, 0.1, 6.246E-11, 
DataValue, 0.12000000000000001, 6.561E-11, 
DataValue, 0.14, 7.401E-11, 
DataValue, 0.16, 7.426E-11, 
DataValue, 0.18000000000000002, 7.365E-11, 
DataValue, 0.2, 7.837E-11, 
DataValue, 0.22, 8.738E-11, 
DataValue, 0.24000000000000002, 9.341E-11, 
DataValue, 0.26, 9.236E-11, 
DataValue, 0.28, 9.954E-11, 
DataValue, 0.3, 1.0384E-10, 
DataValue, 0.32, 1.0926E-10, 
DataValue, 0.34, 1.1743E-10, 
DataValue, 0.36000000000000004, 1.2185E-10, 
DataValue, 0.38, 1.2428E-10, 
DataValue, 0.4, 1.3005E-10, 
DataValue, 0.42000000000000004, 1.3486E-10, 
DataValue, 0.44, 1.3449E-10, 
DataValue, 0.46, 1.4221E-10, 
DataValue, 0.48000000000000004, 1.477E-10, 
DataValue, 0.5, 1.5862E-10, 
DataValue, 0.52, 1.648E-10, 
DataValue, 0.54, 1.6696E-10, 
DataValue, 0.56, 1.6844E-10, 
DataValue, 0.58000000000000007, 1.7958E-10, 
DataValue, 0.6, 1.7665E-10, 
DataValue, 0.62, 1.8879E-10, 
DataValue, 0.64, 1.9264E-10, 
DataValue, 0.66, 1.9382E-10, 
DataValue, 0.68, 2.0001E-10, 
DataValue, 0.70000000000000007, 2.0283E-10, 
DataValue, 0.72000000000000008, 2.0689E-10, 
DataValue, 0.74, 2.1945E-10, 
DataValue, 0.76, 2.1761E-10, 
DataValue, 0.78, 2.2398E-10, 
DataValue, 0.8, 2.2935E-10, 
DataValue, 0.82000000000000006, 2.3197E-10, 
DataValue, 0.84000000000000008, 2.3329E-10, 
DataValue, 0.86, 2.3941E-10, 
DataValue, 0.88, 2.4632E-10, 
DataValue, 0.9, 2.6117E-10, 
DataValue, 0.92, 2.6057E-10, 
DataValue, 0.94000000000000006, 2.7051E-10, 
DataValue, 0.96000000000000008, 2.6537E-10, 
DataValue, 0.98000000000000009, 2.6898E-10, 
DataValue, 1, 2.7203E-10, 