
SetupTitle, WW
PrimitiveTest, I/V Sweep
TestParameter, Context.MainFrame, B1500A
TestParameter, Channel.UnitType, SMU, SMU
TestParameter, Channel.Unit, SMU2:HP, SMU1:HP
TestParameter, Channel.IName, I1, I4
TestParameter, Channel.VName, V1, V4
TestParameter, Channel.Mode, V, COMMON
TestParameter, Channel.Func, VAR1, CONST
TestParameter, Channel.Index, 
TestParameter, Channel.Time, 
TestParameter, Measurement.Port.Unit, SMU2:HP, SMU1:HP
TestParameter, Measurement.Port.SeriesResistor, NONE, NONE
TestParameter, Measurement.Port.Filter, ON, ON
TestParameter, Measurement.Port.OutputVoltageComparison, 0, 0
TestParameter, Measurement.Primary.Locus, Single
TestParameter, Measurement.Primary.Scale, LINEAR
TestParameter, Measurement.Primary.Start, -1
TestParameter, Measurement.Primary.Stop, 1
TestParameter, Measurement.Primary.Step, 0.02
TestParameter, Measurement.Primary.Compliance, 0.01
TestParameter, Measurement.Primary.PowerCompliance, 0
TestParameter, Measurement.Aborting.Condition, CONTINUE AT ANY
TestParameter, Measurement.PostOutput.Value, START
TestParameter, Measurement.PostOutput.Retention, OFF
TestParameter, Measurement.Bias.Source, -1, 0
TestParameter, Measurement.Bias.Compliance, 0.01, 1
TestParameter, Measurement.Monitor.Unit, SMU2:HP, SMU1:HP
TestParameter, Measurement.Monitor.Adc, HR ADC, HR ADC
TestParameter, Measurement.Monitor.Measurement, Compliance Side, Compliance Side
TestParameter, Measurement.Monitor.RangingMode, AUTO, AUTO
TestParameter, Measurement.Monitor.RangeBoundary, , 
TestParameter, Measurement.Monitor.RangeRating, BY FULL RANGE, BY FULL RANGE
TestParameter, Measurement.Monitor.RangeRatingCoeff, 50, 50
TestParameter, Measurement.Timing.Hold, 0
TestParameter, Measurement.Timing.Delay, 0.001
TestParameter, Measurement.Adc.HighSpeed.Mode, AUTO
TestParameter, Measurement.Adc.HighSpeed.Coeff, 1
TestParameter, Measurement.Adc.HighResolution.AutoZero, OFF
TestParameter, Measurement.Adc.HighResolution.Mode, PLC
TestParameter, Measurement.Adc.HighResolution.Coeff, 1
TestParameter, Measurement.WaitTime.Source.Coeff, 1
TestParameter, Measurement.WaitTime.Source.Offset, 0
TestParameter, Measurement.WaitTime.Monitor.Coeff, 1
TestParameter, Measurement.WaitTime.Monitor.Offset, 0
TestParameter, Function.User.Name, Ohmic
TestParameter, Function.User.Unit, ohm
TestParameter, Function.User.Definition, avg(V1/I1)
TestParameter, Output.Graph.Enabled, true
TestParameter, Output.Graph.XAxis.Data, V1
TestParameter, Output.Graph.XAxis.Scale, Linear
TestParameter, Output.Graph.XAxis.Left, -5
TestParameter, Output.Graph.XAxis.Right, 5
TestParameter, Output.Graph.YAxis.Data, I1
TestParameter, Output.Graph.YAxis.Scale, Linear
TestParameter, Output.Graph.YAxis.Bottom, -0.001
TestParameter, Output.Graph.YAxis.Top, 0.001
TestParameter, Output.Graph.YAxis.Group, 
TestParameter, Output.Scalar.Data, Ohmic
TestParameter, AutoAnalysis.Interpolation, false
TestParameter, AutoAnalysis.Line1.Enabled, false
TestParameter, AutoAnalysis.Line1.Type, 1
TestParameter, AutoAnalysis.Line1.Fix, True
TestParameter, AutoAnalysis.Line1.YAxis, 0
TestParameter, AutoAnalysis.Line1.Point1.Type, 0
TestParameter, AutoAnalysis.Line1.Point1.XY.X, 
TestParameter, AutoAnalysis.Line1.Point1.XY.Y, 
TestParameter, AutoAnalysis.Line1.Point1.Data.Var, 
TestParameter, AutoAnalysis.Line1.Point1.Data.Condition, 
TestParameter, AutoAnalysis.Line1.Point1.Data.Start, false
TestParameter, AutoAnalysis.Line1.Point1.Data.StartVar, 
TestParameter, AutoAnalysis.Line1.Point1.Data.StartCondition, 
TestParameter, AutoAnalysis.Line1.Point2.Type, 0
TestParameter, AutoAnalysis.Line1.Point2.XY.X, 
TestParameter, AutoAnalysis.Line1.Point2.XY.Y, 
TestParameter, AutoAnalysis.Line1.Point2.Data.Var, 
TestParameter, AutoAnalysis.Line1.Point2.Data.Condition, 
TestParameter, AutoAnalysis.Line1.Point2.Data.Start, false
TestParameter, AutoAnalysis.Line1.Point2.Data.StartVar, 
TestParameter, AutoAnalysis.Line1.Point2.Data.StartCondition, 
TestParameter, AutoAnalysis.Line1.GradientExpr, 0
TestParameter, AutoAnalysis.Line2.Enabled, false
TestParameter, AutoAnalysis.Line2.Type, 1
TestParameter, AutoAnalysis.Line2.Fix, True
TestParameter, AutoAnalysis.Line2.YAxis, 0
TestParameter, AutoAnalysis.Line2.Point1.Type, 0
TestParameter, AutoAnalysis.Line2.Point1.XY.X, 
TestParameter, AutoAnalysis.Line2.Point1.XY.Y, 
TestParameter, AutoAnalysis.Line2.Point1.Data.Var, 
TestParameter, AutoAnalysis.Line2.Point1.Data.Condition, 
TestParameter, AutoAnalysis.Line2.Point1.Data.Start, false
TestParameter, AutoAnalysis.Line2.Point1.Data.StartVar, 
TestParameter, AutoAnalysis.Line2.Point1.Data.StartCondition, 
TestParameter, AutoAnalysis.Line2.Point2.Type, 0
TestParameter, AutoAnalysis.Line2.Point2.XY.X, 
TestParameter, AutoAnalysis.Line2.Point2.XY.Y, 
TestParameter, AutoAnalysis.Line2.Point2.Data.Var, 
TestParameter, AutoAnalysis.Line2.Point2.Data.Condition, 
TestParameter, AutoAnalysis.Line2.Point2.Data.Start, false
TestParameter, AutoAnalysis.Line2.Point2.Data.StartVar, 
TestParameter, AutoAnalysis.Line2.Point2.Data.StartCondition, 
TestParameter, AutoAnalysis.Line2.GradientExpr, 0
TestParameter, AutoAnalysis.Marker.Enabled, false
TestParameter, AutoAnalysis.Marker.Data.Var, 
TestParameter, AutoAnalysis.Marker.Data.Condition, 
TestParameter, AutoAnalysis.Marker.Data.Start, false
TestParameter, AutoAnalysis.Marker.Data.StartVar, 
TestParameter, AutoAnalysis.Marker.Data.StartCondition, 
MetaData, TestRecord.EntryPoint, true
MetaData, TestRecord.RecordTime, 01/18/2020 20:47:05
MetaData, TestRecord.TestTarget, 
MetaData, TestRecord.IterationIndex, 63
MetaData, TestRecord.Preservation, true
MetaData, TestRecord.Flag, 
MetaData, TestRecord.Remarks, 
MetaData, TestRecord.LinkKey, 1e7e1393-8f57-44b0-ab4a-5abba0177eb2
Dimension1, 101, 101, 101
Dimension2, 1, 1, 1
DataName, V1, I1, Ohmic
DataValue, -1, -2.2513E-10, 3772543630.7386017
DataValue, -0.98000000000000009, -2.216E-10, 
DataValue, -0.96000000000000008, -2.1563E-10, 
DataValue, -0.94000000000000006, -2.0821E-10, 
DataValue, -0.92, -1.9962E-10, 
DataValue, -0.9, -2.0142E-10, 
DataValue, -0.88, -1.9206E-10, 
DataValue, -0.86, -1.8909E-10, 
DataValue, -0.84000000000000008, -1.8125E-10, 
DataValue, -0.82000000000000006, -1.7905E-10, 
DataValue, -0.8, -1.705E-10, 
DataValue, -0.78, -1.6879E-10, 
DataValue, -0.76, -1.6301E-10, 
DataValue, -0.74, -1.6409E-10, 
DataValue, -0.72000000000000008, -1.5508E-10, 
DataValue, -0.70000000000000007, -1.5069E-10, 
DataValue, -0.68, -1.4722E-10, 
DataValue, -0.66, -1.4722E-10, 
DataValue, -0.64, -1.3828E-10, 
DataValue, -0.62, -1.3549E-10, 
DataValue, -0.6, -1.3035E-10, 
DataValue, -0.58000000000000007, -1.2813E-10, 
DataValue, -0.56, -1.2081E-10, 
DataValue, -0.54, -1.2171E-10, 
DataValue, -0.52, -1.1305E-10, 
DataValue, -0.5, -1.124E-10, 
DataValue, -0.48000000000000004, -1.071E-10, 
DataValue, -0.46, -1.0319E-10, 
DataValue, -0.44, -9.642E-11, 
DataValue, -0.42000000000000004, -9.747E-11, 
DataValue, -0.4, -9.08E-11, 
DataValue, -0.38, -8.82E-11, 
DataValue, -0.36000000000000004, -8.29E-11, 
DataValue, -0.34, -8.045E-11, 
DataValue, -0.32, -7.455E-11, 
DataValue, -0.3, -7.487E-11, 
DataValue, -0.28, -6.628E-11, 
DataValue, -0.26, -6.827E-11, 
DataValue, -0.24000000000000002, -6.283E-11, 
DataValue, -0.22, -6.261E-11, 
DataValue, -0.2, -5.449E-11, 
DataValue, -0.18000000000000002, -5.389E-11, 
DataValue, -0.16, -4.672E-11, 
DataValue, -0.14, -4.744E-11, 
DataValue, -0.12000000000000001, -3.964E-11, 
DataValue, -0.1, -3.676E-11, 
DataValue, -0.08, -2.676E-11, 
DataValue, -0.060000000000000005, -1.972E-11, 
DataValue, -0.04, -6.32E-12, 
DataValue, -0.02, 2.34E-12, 
DataValue, 0, 1.767E-11, 
DataValue, 0.02, 2.542E-11, 
DataValue, 0.04, 3.544E-11, 
DataValue, 0.060000000000000005, 3.866E-11, 
DataValue, 0.08, 4.592E-11, 
DataValue, 0.1, 4.672E-11, 
DataValue, 0.12000000000000001, 5.276E-11, 
DataValue, 0.14, 5.481E-11, 
DataValue, 0.16, 6.038E-11, 
DataValue, 0.18000000000000002, 6.231E-11, 
DataValue, 0.2, 6.843E-11, 
DataValue, 0.22, 6.854E-11, 
DataValue, 0.24000000000000002, 7.324E-11, 
DataValue, 0.26, 7.559E-11, 
DataValue, 0.28, 8.219E-11, 
DataValue, 0.3, 8.602E-11, 
DataValue, 0.32, 9.215E-11, 
DataValue, 0.34, 9.367E-11, 
DataValue, 0.36000000000000004, 9.707E-11, 
DataValue, 0.38, 9.947E-11, 
DataValue, 0.4, 1.0652E-10, 
DataValue, 0.42000000000000004, 1.0761E-10, 
DataValue, 0.44, 1.1296E-10, 
DataValue, 0.46, 1.1623E-10, 
DataValue, 0.48000000000000004, 1.2461E-10, 
DataValue, 0.5, 1.2362E-10, 
DataValue, 0.52, 1.301E-10, 
DataValue, 0.54, 1.3259E-10, 
DataValue, 0.56, 1.3883E-10, 
DataValue, 0.58000000000000007, 1.3892E-10, 
DataValue, 0.6, 1.4674E-10, 
DataValue, 0.62, 1.4869E-10, 
DataValue, 0.64, 1.5161E-10, 
DataValue, 0.66, 1.5228E-10, 
DataValue, 0.68, 1.6162E-10, 
DataValue, 0.70000000000000007, 1.6388E-10, 
DataValue, 0.72000000000000008, 1.7222E-10, 
DataValue, 0.74, 1.7372E-10, 
DataValue, 0.76, 1.8002E-10, 
DataValue, 0.78, 1.8412E-10, 
DataValue, 0.8, 1.8525E-10, 
DataValue, 0.82000000000000006, 1.8701E-10, 
DataValue, 0.84000000000000008, 1.9706E-10, 
DataValue, 0.86, 2.0158E-10, 
DataValue, 0.88, 2.0985E-10, 
DataValue, 0.9, 2.1199E-10, 
DataValue, 0.92, 2.1952E-10, 
DataValue, 0.94000000000000006, 2.2134E-10, 
DataValue, 0.96000000000000008, 2.2334E-10, 
DataValue, 0.98000000000000009, 2.3276E-10, 
DataValue, 1, 2.41E-10, 