
SetupTitle, WW
PrimitiveTest, I/V Sweep
TestParameter, Context.MainFrame, B1500A
TestParameter, Channel.UnitType, SMU, SMU
TestParameter, Channel.Unit, SMU2:HP, SMU1:HP
TestParameter, Channel.IName, I1, I4
TestParameter, Channel.VName, V1, V4
TestParameter, Channel.Mode, V, COMMON
TestParameter, Channel.Func, VAR1, CONST
TestParameter, Channel.Index, 
TestParameter, Channel.Time, 
TestParameter, Measurement.Port.Unit, SMU2:HP, SMU1:HP
TestParameter, Measurement.Port.SeriesResistor, NONE, NONE
TestParameter, Measurement.Port.Filter, ON, ON
TestParameter, Measurement.Port.OutputVoltageComparison, 0, 0
TestParameter, Measurement.Primary.Locus, Single
TestParameter, Measurement.Primary.Scale, LINEAR
TestParameter, Measurement.Primary.Start, -1
TestParameter, Measurement.Primary.Stop, 1
TestParameter, Measurement.Primary.Step, 0.02
TestParameter, Measurement.Primary.Compliance, 0.01
TestParameter, Measurement.Primary.PowerCompliance, 0
TestParameter, Measurement.Aborting.Condition, CONTINUE AT ANY
TestParameter, Measurement.PostOutput.Value, START
TestParameter, Measurement.PostOutput.Retention, OFF
TestParameter, Measurement.Bias.Source, -1, 0
TestParameter, Measurement.Bias.Compliance, 0.01, 1
TestParameter, Measurement.Monitor.Unit, SMU2:HP, SMU1:HP
TestParameter, Measurement.Monitor.Adc, HR ADC, HR ADC
TestParameter, Measurement.Monitor.Measurement, Compliance Side, Compliance Side
TestParameter, Measurement.Monitor.RangingMode, AUTO, AUTO
TestParameter, Measurement.Monitor.RangeBoundary, , 
TestParameter, Measurement.Monitor.RangeRating, BY FULL RANGE, BY FULL RANGE
TestParameter, Measurement.Monitor.RangeRatingCoeff, 50, 50
TestParameter, Measurement.Timing.Hold, 0
TestParameter, Measurement.Timing.Delay, 0.001
TestParameter, Measurement.Adc.HighSpeed.Mode, AUTO
TestParameter, Measurement.Adc.HighSpeed.Coeff, 1
TestParameter, Measurement.Adc.HighResolution.AutoZero, OFF
TestParameter, Measurement.Adc.HighResolution.Mode, PLC
TestParameter, Measurement.Adc.HighResolution.Coeff, 1
TestParameter, Measurement.WaitTime.Source.Coeff, 1
TestParameter, Measurement.WaitTime.Source.Offset, 0
TestParameter, Measurement.WaitTime.Monitor.Coeff, 1
TestParameter, Measurement.WaitTime.Monitor.Offset, 0
TestParameter, Function.User.Name, Ohmic
TestParameter, Function.User.Unit, ohm
TestParameter, Function.User.Definition, avg(V1/I1)
TestParameter, Output.Graph.Enabled, true
TestParameter, Output.Graph.XAxis.Data, V1
TestParameter, Output.Graph.XAxis.Scale, Linear
TestParameter, Output.Graph.XAxis.Left, -5
TestParameter, Output.Graph.XAxis.Right, 5
TestParameter, Output.Graph.YAxis.Data, I1
TestParameter, Output.Graph.YAxis.Scale, Linear
TestParameter, Output.Graph.YAxis.Bottom, -0.001
TestParameter, Output.Graph.YAxis.Top, 0.001
TestParameter, Output.Graph.YAxis.Group, 
TestParameter, Output.Scalar.Data, Ohmic
TestParameter, AutoAnalysis.Interpolation, false
TestParameter, AutoAnalysis.Line1.Enabled, false
TestParameter, AutoAnalysis.Line1.Type, 1
TestParameter, AutoAnalysis.Line1.Fix, True
TestParameter, AutoAnalysis.Line1.YAxis, 0
TestParameter, AutoAnalysis.Line1.Point1.Type, 0
TestParameter, AutoAnalysis.Line1.Point1.XY.X, 
TestParameter, AutoAnalysis.Line1.Point1.XY.Y, 
TestParameter, AutoAnalysis.Line1.Point1.Data.Var, 
TestParameter, AutoAnalysis.Line1.Point1.Data.Condition, 
TestParameter, AutoAnalysis.Line1.Point1.Data.Start, false
TestParameter, AutoAnalysis.Line1.Point1.Data.StartVar, 
TestParameter, AutoAnalysis.Line1.Point1.Data.StartCondition, 
TestParameter, AutoAnalysis.Line1.Point2.Type, 0
TestParameter, AutoAnalysis.Line1.Point2.XY.X, 
TestParameter, AutoAnalysis.Line1.Point2.XY.Y, 
TestParameter, AutoAnalysis.Line1.Point2.Data.Var, 
TestParameter, AutoAnalysis.Line1.Point2.Data.Condition, 
TestParameter, AutoAnalysis.Line1.Point2.Data.Start, false
TestParameter, AutoAnalysis.Line1.Point2.Data.StartVar, 
TestParameter, AutoAnalysis.Line1.Point2.Data.StartCondition, 
TestParameter, AutoAnalysis.Line1.GradientExpr, 0
TestParameter, AutoAnalysis.Line2.Enabled, false
TestParameter, AutoAnalysis.Line2.Type, 1
TestParameter, AutoAnalysis.Line2.Fix, True
TestParameter, AutoAnalysis.Line2.YAxis, 0
TestParameter, AutoAnalysis.Line2.Point1.Type, 0
TestParameter, AutoAnalysis.Line2.Point1.XY.X, 
TestParameter, AutoAnalysis.Line2.Point1.XY.Y, 
TestParameter, AutoAnalysis.Line2.Point1.Data.Var, 
TestParameter, AutoAnalysis.Line2.Point1.Data.Condition, 
TestParameter, AutoAnalysis.Line2.Point1.Data.Start, false
TestParameter, AutoAnalysis.Line2.Point1.Data.StartVar, 
TestParameter, AutoAnalysis.Line2.Point1.Data.StartCondition, 
TestParameter, AutoAnalysis.Line2.Point2.Type, 0
TestParameter, AutoAnalysis.Line2.Point2.XY.X, 
TestParameter, AutoAnalysis.Line2.Point2.XY.Y, 
TestParameter, AutoAnalysis.Line2.Point2.Data.Var, 
TestParameter, AutoAnalysis.Line2.Point2.Data.Condition, 
TestParameter, AutoAnalysis.Line2.Point2.Data.Start, false
TestParameter, AutoAnalysis.Line2.Point2.Data.StartVar, 
TestParameter, AutoAnalysis.Line2.Point2.Data.StartCondition, 
TestParameter, AutoAnalysis.Line2.GradientExpr, 0
TestParameter, AutoAnalysis.Marker.Enabled, false
TestParameter, AutoAnalysis.Marker.Data.Var, 
TestParameter, AutoAnalysis.Marker.Data.Condition, 
TestParameter, AutoAnalysis.Marker.Data.Start, false
TestParameter, AutoAnalysis.Marker.Data.StartVar, 
TestParameter, AutoAnalysis.Marker.Data.StartCondition, 
MetaData, TestRecord.EntryPoint, true
MetaData, TestRecord.RecordTime, 01/18/2020 20:45:00
MetaData, TestRecord.TestTarget, 
MetaData, TestRecord.IterationIndex, 59
MetaData, TestRecord.Preservation, true
MetaData, TestRecord.Flag, 
MetaData, TestRecord.Remarks, 
MetaData, TestRecord.LinkKey, 2cf31c48-6df5-4e05-92c0-33295f5539a8
Dimension1, 101, 101, 101
Dimension2, 1, 1, 1
DataName, V1, I1, Ohmic
DataValue, -1, -2.199E-10, 4080728907.9303231
DataValue, -0.98000000000000009, -2.1324E-10, 
DataValue, -0.96000000000000008, -2.0889E-10, 
DataValue, -0.94000000000000006, -2.0314E-10, 
DataValue, -0.92, -2.0039E-10, 
DataValue, -0.9, -1.9493E-10, 
DataValue, -0.88, -1.8779E-10, 
DataValue, -0.86, -1.8284E-10, 
DataValue, -0.84000000000000008, -1.7994E-10, 
DataValue, -0.82000000000000006, -1.7334E-10, 
DataValue, -0.8, -1.6851E-10, 
DataValue, -0.78, -1.6237E-10, 
DataValue, -0.76, -1.6457E-10, 
DataValue, -0.74, -1.5376E-10, 
DataValue, -0.72000000000000008, -1.504E-10, 
DataValue, -0.70000000000000007, -1.4357E-10, 
DataValue, -0.68, -1.4281E-10, 
DataValue, -0.66, -1.3762E-10, 
DataValue, -0.64, -1.3678E-10, 
DataValue, -0.62, -1.2794E-10, 
DataValue, -0.6, -1.2743E-10, 
DataValue, -0.58000000000000007, -1.2088E-10, 
DataValue, -0.56, -1.192E-10, 
DataValue, -0.54, -1.1342E-10, 
DataValue, -0.52, -1.1185E-10, 
DataValue, -0.5, -1.0548E-10, 
DataValue, -0.48000000000000004, -1.0399E-10, 
DataValue, -0.46, -9.715E-11, 
DataValue, -0.44, -9.992E-11, 
DataValue, -0.42000000000000004, -9.034E-11, 
DataValue, -0.4, -9.187E-11, 
DataValue, -0.38, -8.543E-11, 
DataValue, -0.36000000000000004, -8.455E-11, 
DataValue, -0.34, -7.691E-11, 
DataValue, -0.32, -7.534E-11, 
DataValue, -0.3, -7.011E-11, 
DataValue, -0.28, -7.019E-11, 
DataValue, -0.26, -6.3E-11, 
DataValue, -0.24000000000000002, -6.101E-11, 
DataValue, -0.22, -5.358E-11, 
DataValue, -0.2, -5.284E-11, 
DataValue, -0.18000000000000002, -4.94E-11, 
DataValue, -0.16, -4.595E-11, 
DataValue, -0.14, -4.062E-11, 
DataValue, -0.12000000000000001, -3.992E-11, 
DataValue, -0.1, -3.04E-11, 
DataValue, -0.08, -2.871E-11, 
DataValue, -0.060000000000000005, -1.79E-11, 
DataValue, -0.04, -1.071E-11, 
DataValue, -0.02, 2.1E-12, 
DataValue, 0, 1.162E-11, 
DataValue, 0.02, 2.128E-11, 
DataValue, 0.04, 2.538E-11, 
DataValue, 0.060000000000000005, 3.203E-11, 
DataValue, 0.08, 3.483E-11, 
DataValue, 0.1, 3.98E-11, 
DataValue, 0.12000000000000001, 4.014E-11, 
DataValue, 0.14, 4.527E-11, 
DataValue, 0.16, 4.756E-11, 
DataValue, 0.18000000000000002, 5.245E-11, 
DataValue, 0.2, 5.412E-11, 
DataValue, 0.22, 6.197E-11, 
DataValue, 0.24000000000000002, 5.937E-11, 
DataValue, 0.26, 6.36E-11, 
DataValue, 0.28, 6.583E-11, 
DataValue, 0.3, 7.105E-11, 
DataValue, 0.32, 7.221E-11, 
DataValue, 0.34, 7.85E-11, 
DataValue, 0.36000000000000004, 7.886E-11, 
DataValue, 0.38, 8.464E-11, 
DataValue, 0.4, 8.785E-11, 
DataValue, 0.42000000000000004, 9.63E-11, 
DataValue, 0.44, 9.621E-11, 
DataValue, 0.46, 1.04E-10, 
DataValue, 0.48000000000000004, 1.0418E-10, 
DataValue, 0.5, 1.0876E-10, 
DataValue, 0.52, 1.1086E-10, 
DataValue, 0.54, 1.1535E-10, 
DataValue, 0.56, 1.1572E-10, 
DataValue, 0.58000000000000007, 1.229E-10, 
DataValue, 0.6, 1.2358E-10, 
DataValue, 0.62, 1.2916E-10, 
DataValue, 0.64, 1.3543E-10, 
DataValue, 0.66, 1.4389E-10, 
DataValue, 0.68, 1.4563E-10, 
DataValue, 0.70000000000000007, 1.5037E-10, 
DataValue, 0.72000000000000008, 1.5237E-10, 
DataValue, 0.74, 1.6019E-10, 
DataValue, 0.76, 1.6221E-10, 
DataValue, 0.78, 1.6638E-10, 
DataValue, 0.8, 1.7216E-10, 
DataValue, 0.82000000000000006, 1.7735E-10, 
DataValue, 0.84000000000000008, 1.8053E-10, 
DataValue, 0.86, 1.8137E-10, 
DataValue, 0.88, 1.8671E-10, 
DataValue, 0.9, 1.9312E-10, 
DataValue, 0.92, 1.9735E-10, 
DataValue, 0.94000000000000006, 2.0454E-10, 
DataValue, 0.96000000000000008, 2.0821E-10, 
DataValue, 0.98000000000000009, 2.0874E-10, 
DataValue, 1, 2.1119E-10, 