
SetupTitle, WW
PrimitiveTest, I/V Sweep
TestParameter, Context.MainFrame, B1500A
TestParameter, Channel.UnitType, SMU, SMU
TestParameter, Channel.Unit, SMU2:HP, SMU1:HP
TestParameter, Channel.IName, I1, I4
TestParameter, Channel.VName, V1, V4
TestParameter, Channel.Mode, V, COMMON
TestParameter, Channel.Func, VAR1, CONST
TestParameter, Channel.Index, 
TestParameter, Channel.Time, 
TestParameter, Measurement.Port.Unit, SMU2:HP, SMU1:HP
TestParameter, Measurement.Port.SeriesResistor, NONE, NONE
TestParameter, Measurement.Port.Filter, ON, ON
TestParameter, Measurement.Port.OutputVoltageComparison, 0, 0
TestParameter, Measurement.Primary.Locus, Single
TestParameter, Measurement.Primary.Scale, LINEAR
TestParameter, Measurement.Primary.Start, -1
TestParameter, Measurement.Primary.Stop, 1
TestParameter, Measurement.Primary.Step, 0.02
TestParameter, Measurement.Primary.Compliance, 0.01
TestParameter, Measurement.Primary.PowerCompliance, 0
TestParameter, Measurement.Aborting.Condition, CONTINUE AT ANY
TestParameter, Measurement.PostOutput.Value, START
TestParameter, Measurement.PostOutput.Retention, OFF
TestParameter, Measurement.Bias.Source, -1, 0
TestParameter, Measurement.Bias.Compliance, 0.01, 1
TestParameter, Measurement.Monitor.Unit, SMU2:HP, SMU1:HP
TestParameter, Measurement.Monitor.Adc, HR ADC, HR ADC
TestParameter, Measurement.Monitor.Measurement, Compliance Side, Compliance Side
TestParameter, Measurement.Monitor.RangingMode, AUTO, AUTO
TestParameter, Measurement.Monitor.RangeBoundary, , 
TestParameter, Measurement.Monitor.RangeRating, BY FULL RANGE, BY FULL RANGE
TestParameter, Measurement.Monitor.RangeRatingCoeff, 50, 50
TestParameter, Measurement.Timing.Hold, 0
TestParameter, Measurement.Timing.Delay, 0.001
TestParameter, Measurement.Adc.HighSpeed.Mode, AUTO
TestParameter, Measurement.Adc.HighSpeed.Coeff, 1
TestParameter, Measurement.Adc.HighResolution.AutoZero, OFF
TestParameter, Measurement.Adc.HighResolution.Mode, PLC
TestParameter, Measurement.Adc.HighResolution.Coeff, 1
TestParameter, Measurement.WaitTime.Source.Coeff, 1
TestParameter, Measurement.WaitTime.Source.Offset, 0
TestParameter, Measurement.WaitTime.Monitor.Coeff, 1
TestParameter, Measurement.WaitTime.Monitor.Offset, 0
TestParameter, Function.User.Name, Ohmic
TestParameter, Function.User.Unit, ohm
TestParameter, Function.User.Definition, avg(V1/I1)
TestParameter, Output.Graph.Enabled, true
TestParameter, Output.Graph.XAxis.Data, V1
TestParameter, Output.Graph.XAxis.Scale, Linear
TestParameter, Output.Graph.XAxis.Left, -5
TestParameter, Output.Graph.XAxis.Right, 5
TestParameter, Output.Graph.YAxis.Data, I1
TestParameter, Output.Graph.YAxis.Scale, Linear
TestParameter, Output.Graph.YAxis.Bottom, -0.001
TestParameter, Output.Graph.YAxis.Top, 0.001
TestParameter, Output.Graph.YAxis.Group, 
TestParameter, Output.Scalar.Data, Ohmic
TestParameter, AutoAnalysis.Interpolation, false
TestParameter, AutoAnalysis.Line1.Enabled, false
TestParameter, AutoAnalysis.Line1.Type, 1
TestParameter, AutoAnalysis.Line1.Fix, True
TestParameter, AutoAnalysis.Line1.YAxis, 0
TestParameter, AutoAnalysis.Line1.Point1.Type, 0
TestParameter, AutoAnalysis.Line1.Point1.XY.X, 
TestParameter, AutoAnalysis.Line1.Point1.XY.Y, 
TestParameter, AutoAnalysis.Line1.Point1.Data.Var, 
TestParameter, AutoAnalysis.Line1.Point1.Data.Condition, 
TestParameter, AutoAnalysis.Line1.Point1.Data.Start, false
TestParameter, AutoAnalysis.Line1.Point1.Data.StartVar, 
TestParameter, AutoAnalysis.Line1.Point1.Data.StartCondition, 
TestParameter, AutoAnalysis.Line1.Point2.Type, 0
TestParameter, AutoAnalysis.Line1.Point2.XY.X, 
TestParameter, AutoAnalysis.Line1.Point2.XY.Y, 
TestParameter, AutoAnalysis.Line1.Point2.Data.Var, 
TestParameter, AutoAnalysis.Line1.Point2.Data.Condition, 
TestParameter, AutoAnalysis.Line1.Point2.Data.Start, false
TestParameter, AutoAnalysis.Line1.Point2.Data.StartVar, 
TestParameter, AutoAnalysis.Line1.Point2.Data.StartCondition, 
TestParameter, AutoAnalysis.Line1.GradientExpr, 0
TestParameter, AutoAnalysis.Line2.Enabled, false
TestParameter, AutoAnalysis.Line2.Type, 1
TestParameter, AutoAnalysis.Line2.Fix, True
TestParameter, AutoAnalysis.Line2.YAxis, 0
TestParameter, AutoAnalysis.Line2.Point1.Type, 0
TestParameter, AutoAnalysis.Line2.Point1.XY.X, 
TestParameter, AutoAnalysis.Line2.Point1.XY.Y, 
TestParameter, AutoAnalysis.Line2.Point1.Data.Var, 
TestParameter, AutoAnalysis.Line2.Point1.Data.Condition, 
TestParameter, AutoAnalysis.Line2.Point1.Data.Start, false
TestParameter, AutoAnalysis.Line2.Point1.Data.StartVar, 
TestParameter, AutoAnalysis.Line2.Point1.Data.StartCondition, 
TestParameter, AutoAnalysis.Line2.Point2.Type, 0
TestParameter, AutoAnalysis.Line2.Point2.XY.X, 
TestParameter, AutoAnalysis.Line2.Point2.XY.Y, 
TestParameter, AutoAnalysis.Line2.Point2.Data.Var, 
TestParameter, AutoAnalysis.Line2.Point2.Data.Condition, 
TestParameter, AutoAnalysis.Line2.Point2.Data.Start, false
TestParameter, AutoAnalysis.Line2.Point2.Data.StartVar, 
TestParameter, AutoAnalysis.Line2.Point2.Data.StartCondition, 
TestParameter, AutoAnalysis.Line2.GradientExpr, 0
TestParameter, AutoAnalysis.Marker.Enabled, false
TestParameter, AutoAnalysis.Marker.Data.Var, 
TestParameter, AutoAnalysis.Marker.Data.Condition, 
TestParameter, AutoAnalysis.Marker.Data.Start, false
TestParameter, AutoAnalysis.Marker.Data.StartVar, 
TestParameter, AutoAnalysis.Marker.Data.StartCondition, 
MetaData, TestRecord.EntryPoint, true
MetaData, TestRecord.RecordTime, 01/18/2020 20:43:37
MetaData, TestRecord.TestTarget, 
MetaData, TestRecord.IterationIndex, 56
MetaData, TestRecord.Preservation, true
MetaData, TestRecord.Flag, 
MetaData, TestRecord.Remarks, 
MetaData, TestRecord.LinkKey, 856b0583-69fb-47bd-9852-9aa80764c42c
Dimension1, 101, 101, 101
Dimension2, 1, 1, 1
DataName, V1, I1, Ohmic
DataValue, -1, -2.3329E-10, 3612363429.5853519
DataValue, -0.98000000000000009, -2.2029E-10, 
DataValue, -0.96000000000000008, -2.1767E-10, 
DataValue, -0.94000000000000006, -2.1742E-10, 
DataValue, -0.92, -2.1218E-10, 
DataValue, -0.9, -2.1168E-10, 
DataValue, -0.88, -2.0151E-10, 
DataValue, -0.86, -1.9915E-10, 
DataValue, -0.84000000000000008, -1.9834E-10, 
DataValue, -0.82000000000000006, -1.882E-10, 
DataValue, -0.8, -1.8504E-10, 
DataValue, -0.78, -1.7776E-10, 
DataValue, -0.76, -1.781E-10, 
DataValue, -0.74, -1.7393E-10, 
DataValue, -0.72000000000000008, -1.7088E-10, 
DataValue, -0.70000000000000007, -1.651E-10, 
DataValue, -0.68, -1.6331E-10, 
DataValue, -0.66, -1.603E-10, 
DataValue, -0.64, -1.54E-10, 
DataValue, -0.62, -1.5254E-10, 
DataValue, -0.6, -1.51E-10, 
DataValue, -0.58000000000000007, -1.4206E-10, 
DataValue, -0.56, -1.4188E-10, 
DataValue, -0.54, -1.3156E-10, 
DataValue, -0.52, -1.3125E-10, 
DataValue, -0.5, -1.2542E-10, 
DataValue, -0.48000000000000004, -1.2122E-10, 
DataValue, -0.46, -1.1328E-10, 
DataValue, -0.44, -1.0786E-10, 
DataValue, -0.42000000000000004, -1.0455E-10, 
DataValue, -0.4, -9.888E-11, 
DataValue, -0.38, -9.441E-11, 
DataValue, -0.36000000000000004, -9.445E-11, 
DataValue, -0.34, -8.61E-11, 
DataValue, -0.32, -8.167E-11, 
DataValue, -0.3, -7.722E-11, 
DataValue, -0.28, -7.221E-11, 
DataValue, -0.26, -6.899E-11, 
DataValue, -0.24000000000000002, -6.654E-11, 
DataValue, -0.22, -5.978E-11, 
DataValue, -0.2, -5.586E-11, 
DataValue, -0.18000000000000002, -5.009E-11, 
DataValue, -0.16, -4.879E-11, 
DataValue, -0.14, -4.509E-11, 
DataValue, -0.12000000000000001, -3.971E-11, 
DataValue, -0.1, -3.245E-11, 
DataValue, -0.08, -2.823E-11, 
DataValue, -0.060000000000000005, -1.817E-11, 
DataValue, -0.04, -8.4E-12, 
DataValue, -0.02, 6.15E-12, 
DataValue, 0, 1.452E-11, 
DataValue, 0.02, 2.645E-11, 
DataValue, 0.04, 3.273E-11, 
DataValue, 0.060000000000000005, 4.056E-11, 
DataValue, 0.08, 4.402E-11, 
DataValue, 0.1, 4.76E-11, 
DataValue, 0.12000000000000001, 4.974E-11, 
DataValue, 0.14, 5.476E-11, 
DataValue, 0.16, 5.814E-11, 
DataValue, 0.18000000000000002, 6.212E-11, 
DataValue, 0.2, 6.577E-11, 
DataValue, 0.22, 7.013E-11, 
DataValue, 0.24000000000000002, 7.241E-11, 
DataValue, 0.26, 7.605E-11, 
DataValue, 0.28, 8.043E-11, 
DataValue, 0.3, 8.721E-11, 
DataValue, 0.32, 9.055E-11, 
DataValue, 0.34, 9.64E-11, 
DataValue, 0.36000000000000004, 1.0081E-10, 
DataValue, 0.38, 1.0598E-10, 
DataValue, 0.4, 1.079E-10, 
DataValue, 0.42000000000000004, 1.1151E-10, 
DataValue, 0.44, 1.111E-10, 
DataValue, 0.46, 1.1468E-10, 
DataValue, 0.48000000000000004, 1.1733E-10, 
DataValue, 0.5, 1.257E-10, 
DataValue, 0.52, 1.2904E-10, 
DataValue, 0.54, 1.3209E-10, 
DataValue, 0.56, 1.399E-10, 
DataValue, 0.58000000000000007, 1.4708E-10, 
DataValue, 0.6, 1.5506E-10, 
DataValue, 0.62, 1.5547E-10, 
DataValue, 0.64, 1.607E-10, 
DataValue, 0.66, 1.6441E-10, 
DataValue, 0.68, 1.6771E-10, 
DataValue, 0.70000000000000007, 1.7754E-10, 
DataValue, 0.72000000000000008, 1.8072E-10, 
DataValue, 0.74, 1.9032E-10, 
DataValue, 0.76, 1.9041E-10, 
DataValue, 0.78, 1.973E-10, 
DataValue, 0.8, 2.0646E-10, 
DataValue, 0.82000000000000006, 2.1363E-10, 
DataValue, 0.84000000000000008, 2.1763E-10, 
DataValue, 0.86, 2.2493E-10, 
DataValue, 0.88, 2.3114E-10, 
DataValue, 0.9, 2.345E-10, 
DataValue, 0.92, 2.4315E-10, 
DataValue, 0.94000000000000006, 2.4936E-10, 
DataValue, 0.96000000000000008, 2.5375E-10, 
DataValue, 0.98000000000000009, 2.5976E-10, 
DataValue, 1, 2.6069E-10, 