
SetupTitle, WW
PrimitiveTest, I/V Sweep
TestParameter, Context.MainFrame, B1500A
TestParameter, Channel.UnitType, SMU, SMU
TestParameter, Channel.Unit, SMU2:HP, SMU1:HP
TestParameter, Channel.IName, I1, I4
TestParameter, Channel.VName, V1, V4
TestParameter, Channel.Mode, V, COMMON
TestParameter, Channel.Func, VAR1, CONST
TestParameter, Channel.Index, 
TestParameter, Channel.Time, 
TestParameter, Measurement.Port.Unit, SMU2:HP, SMU1:HP
TestParameter, Measurement.Port.SeriesResistor, NONE, NONE
TestParameter, Measurement.Port.Filter, ON, ON
TestParameter, Measurement.Port.OutputVoltageComparison, 0, 0
TestParameter, Measurement.Primary.Locus, Single
TestParameter, Measurement.Primary.Scale, LINEAR
TestParameter, Measurement.Primary.Start, -1
TestParameter, Measurement.Primary.Stop, 1
TestParameter, Measurement.Primary.Step, 0.02
TestParameter, Measurement.Primary.Compliance, 0.01
TestParameter, Measurement.Primary.PowerCompliance, 0
TestParameter, Measurement.Aborting.Condition, CONTINUE AT ANY
TestParameter, Measurement.PostOutput.Value, START
TestParameter, Measurement.PostOutput.Retention, OFF
TestParameter, Measurement.Bias.Source, -1, 0
TestParameter, Measurement.Bias.Compliance, 0.01, 1
TestParameter, Measurement.Monitor.Unit, SMU2:HP, SMU1:HP
TestParameter, Measurement.Monitor.Adc, HR ADC, HR ADC
TestParameter, Measurement.Monitor.Measurement, Compliance Side, Compliance Side
TestParameter, Measurement.Monitor.RangingMode, AUTO, AUTO
TestParameter, Measurement.Monitor.RangeBoundary, , 
TestParameter, Measurement.Monitor.RangeRating, BY FULL RANGE, BY FULL RANGE
TestParameter, Measurement.Monitor.RangeRatingCoeff, 50, 50
TestParameter, Measurement.Timing.Hold, 0
TestParameter, Measurement.Timing.Delay, 0.001
TestParameter, Measurement.Adc.HighSpeed.Mode, AUTO
TestParameter, Measurement.Adc.HighSpeed.Coeff, 1
TestParameter, Measurement.Adc.HighResolution.AutoZero, OFF
TestParameter, Measurement.Adc.HighResolution.Mode, PLC
TestParameter, Measurement.Adc.HighResolution.Coeff, 1
TestParameter, Measurement.WaitTime.Source.Coeff, 1
TestParameter, Measurement.WaitTime.Source.Offset, 0
TestParameter, Measurement.WaitTime.Monitor.Coeff, 1
TestParameter, Measurement.WaitTime.Monitor.Offset, 0
TestParameter, Function.User.Name, Ohmic
TestParameter, Function.User.Unit, ohm
TestParameter, Function.User.Definition, avg(V1/I1)
TestParameter, Output.Graph.Enabled, true
TestParameter, Output.Graph.XAxis.Data, V1
TestParameter, Output.Graph.XAxis.Scale, Linear
TestParameter, Output.Graph.XAxis.Left, -5
TestParameter, Output.Graph.XAxis.Right, 5
TestParameter, Output.Graph.YAxis.Data, I1
TestParameter, Output.Graph.YAxis.Scale, Linear
TestParameter, Output.Graph.YAxis.Bottom, -0.001
TestParameter, Output.Graph.YAxis.Top, 0.001
TestParameter, Output.Graph.YAxis.Group, 
TestParameter, Output.Scalar.Data, Ohmic
TestParameter, AutoAnalysis.Interpolation, false
TestParameter, AutoAnalysis.Line1.Enabled, false
TestParameter, AutoAnalysis.Line1.Type, 1
TestParameter, AutoAnalysis.Line1.Fix, True
TestParameter, AutoAnalysis.Line1.YAxis, 0
TestParameter, AutoAnalysis.Line1.Point1.Type, 0
TestParameter, AutoAnalysis.Line1.Point1.XY.X, 
TestParameter, AutoAnalysis.Line1.Point1.XY.Y, 
TestParameter, AutoAnalysis.Line1.Point1.Data.Var, 
TestParameter, AutoAnalysis.Line1.Point1.Data.Condition, 
TestParameter, AutoAnalysis.Line1.Point1.Data.Start, false
TestParameter, AutoAnalysis.Line1.Point1.Data.StartVar, 
TestParameter, AutoAnalysis.Line1.Point1.Data.StartCondition, 
TestParameter, AutoAnalysis.Line1.Point2.Type, 0
TestParameter, AutoAnalysis.Line1.Point2.XY.X, 
TestParameter, AutoAnalysis.Line1.Point2.XY.Y, 
TestParameter, AutoAnalysis.Line1.Point2.Data.Var, 
TestParameter, AutoAnalysis.Line1.Point2.Data.Condition, 
TestParameter, AutoAnalysis.Line1.Point2.Data.Start, false
TestParameter, AutoAnalysis.Line1.Point2.Data.StartVar, 
TestParameter, AutoAnalysis.Line1.Point2.Data.StartCondition, 
TestParameter, AutoAnalysis.Line1.GradientExpr, 0
TestParameter, AutoAnalysis.Line2.Enabled, false
TestParameter, AutoAnalysis.Line2.Type, 1
TestParameter, AutoAnalysis.Line2.Fix, True
TestParameter, AutoAnalysis.Line2.YAxis, 0
TestParameter, AutoAnalysis.Line2.Point1.Type, 0
TestParameter, AutoAnalysis.Line2.Point1.XY.X, 
TestParameter, AutoAnalysis.Line2.Point1.XY.Y, 
TestParameter, AutoAnalysis.Line2.Point1.Data.Var, 
TestParameter, AutoAnalysis.Line2.Point1.Data.Condition, 
TestParameter, AutoAnalysis.Line2.Point1.Data.Start, false
TestParameter, AutoAnalysis.Line2.Point1.Data.StartVar, 
TestParameter, AutoAnalysis.Line2.Point1.Data.StartCondition, 
TestParameter, AutoAnalysis.Line2.Point2.Type, 0
TestParameter, AutoAnalysis.Line2.Point2.XY.X, 
TestParameter, AutoAnalysis.Line2.Point2.XY.Y, 
TestParameter, AutoAnalysis.Line2.Point2.Data.Var, 
TestParameter, AutoAnalysis.Line2.Point2.Data.Condition, 
TestParameter, AutoAnalysis.Line2.Point2.Data.Start, false
TestParameter, AutoAnalysis.Line2.Point2.Data.StartVar, 
TestParameter, AutoAnalysis.Line2.Point2.Data.StartCondition, 
TestParameter, AutoAnalysis.Line2.GradientExpr, 0
TestParameter, AutoAnalysis.Marker.Enabled, false
TestParameter, AutoAnalysis.Marker.Data.Var, 
TestParameter, AutoAnalysis.Marker.Data.Condition, 
TestParameter, AutoAnalysis.Marker.Data.Start, false
TestParameter, AutoAnalysis.Marker.Data.StartVar, 
TestParameter, AutoAnalysis.Marker.Data.StartCondition, 
MetaData, TestRecord.EntryPoint, true
MetaData, TestRecord.RecordTime, 01/18/2020 20:42:39
MetaData, TestRecord.TestTarget, 
MetaData, TestRecord.IterationIndex, 54
MetaData, TestRecord.Preservation, true
MetaData, TestRecord.Flag, 
MetaData, TestRecord.Remarks, 
MetaData, TestRecord.LinkKey, 13db2a13-a2a7-492c-8348-61ab9b1bb4f9
Dimension1, 101, 101, 101
Dimension2, 1, 1, 1
DataName, V1, I1, Ohmic
DataValue, -1, -2.4846E-10, 2954797111.6623716
DataValue, -0.98000000000000009, -2.3805E-10, 
DataValue, -0.96000000000000008, -2.3596E-10, 
DataValue, -0.94000000000000006, -2.314E-10, 
DataValue, -0.92, -2.276E-10, 
DataValue, -0.9, -2.2517E-10, 
DataValue, -0.88, -2.2572E-10, 
DataValue, -0.86, -2.1486E-10, 
DataValue, -0.84000000000000008, -2.1458E-10, 
DataValue, -0.82000000000000006, -2.15E-10, 
DataValue, -0.8, -2.0829E-10, 
DataValue, -0.78, -2.0796E-10, 
DataValue, -0.76, -2.0927E-10, 
DataValue, -0.74, -2.0023E-10, 
DataValue, -0.72000000000000008, -1.9286E-10, 
DataValue, -0.70000000000000007, -1.8782E-10, 
DataValue, -0.68, -1.8744E-10, 
DataValue, -0.66, -1.7963E-10, 
DataValue, -0.64, -1.7562E-10, 
DataValue, -0.62, -1.6894E-10, 
DataValue, -0.6, -1.6501E-10, 
DataValue, -0.58000000000000007, -1.6217E-10, 
DataValue, -0.56, -1.5272E-10, 
DataValue, -0.54, -1.5415E-10, 
DataValue, -0.52, -1.4763E-10, 
DataValue, -0.5, -1.4445E-10, 
DataValue, -0.48000000000000004, -1.4125E-10, 
DataValue, -0.46, -1.3096E-10, 
DataValue, -0.44, -1.2242E-10, 
DataValue, -0.42000000000000004, -1.2207E-10, 
DataValue, -0.4, -1.1684E-10, 
DataValue, -0.38, -1.0987E-10, 
DataValue, -0.36000000000000004, -1.0625E-10, 
DataValue, -0.34, -1.0256E-10, 
DataValue, -0.32, -1.0022E-10, 
DataValue, -0.3, -9.597E-11, 
DataValue, -0.28, -8.71E-11, 
DataValue, -0.26, -8.397E-11, 
DataValue, -0.24000000000000002, -7.293E-11, 
DataValue, -0.22, -7.241E-11, 
DataValue, -0.2, -6.589E-11, 
DataValue, -0.18000000000000002, -6.475E-11, 
DataValue, -0.16, -5.717E-11, 
DataValue, -0.14, -4.676E-11, 
DataValue, -0.12000000000000001, -4.336E-11, 
DataValue, -0.1, -3.542E-11, 
DataValue, -0.08, -3.039E-11, 
DataValue, -0.060000000000000005, -2.001E-11, 
DataValue, -0.04, -8.12E-12, 
DataValue, -0.02, 1.43E-12, 
DataValue, 0, 1.49E-11, 
DataValue, 0.02, 2.776E-11, 
DataValue, 0.04, 3.754E-11, 
DataValue, 0.060000000000000005, 4.352E-11, 
DataValue, 0.08, 4.783E-11, 
DataValue, 0.1, 5.425E-11, 
DataValue, 0.12000000000000001, 5.764E-11, 
DataValue, 0.14, 6.143E-11, 
DataValue, 0.16, 6.335E-11, 
DataValue, 0.18000000000000002, 6.648E-11, 
DataValue, 0.2, 6.957E-11, 
DataValue, 0.22, 7.5839999999999994E-11, 
DataValue, 0.24000000000000002, 7.778E-11, 
DataValue, 0.26, 8.277E-11, 
DataValue, 0.28, 9.314E-11, 
DataValue, 0.3, 1.0310999999999999E-10, 
DataValue, 0.32, 1.0672E-10, 
DataValue, 0.34, 1.1455E-10, 
DataValue, 0.36000000000000004, 1.188E-10, 
DataValue, 0.38, 1.247E-10, 
DataValue, 0.4, 1.3538E-10, 
DataValue, 0.42000000000000004, 1.3589E-10, 
DataValue, 0.44, 1.4322E-10, 
DataValue, 0.46, 1.595E-10, 
DataValue, 0.48000000000000004, 1.6594E-10, 
DataValue, 0.5, 1.6849E-10, 
DataValue, 0.52, 1.7673E-10, 
DataValue, 0.54, 1.8314E-10, 
DataValue, 0.56, 1.8291E-10, 
DataValue, 0.58000000000000007, 1.7655E-10, 
DataValue, 0.6, 1.827E-10, 
DataValue, 0.62, 1.9072E-10, 
DataValue, 0.64, 1.9776E-10, 
DataValue, 0.66, 2.0473E-10, 
DataValue, 0.68, 2.282E-10, 
DataValue, 0.70000000000000007, 2.3412E-10, 
DataValue, 0.72000000000000008, 2.3555E-10, 
DataValue, 0.74, 2.4587E-10, 
DataValue, 0.76, 2.4968E-10, 
DataValue, 0.78, 2.6665E-10, 
DataValue, 0.8, 2.6283E-10, 
DataValue, 0.82000000000000006, 2.8101E-10, 
DataValue, 0.84000000000000008, 2.9489E-10, 
DataValue, 0.86, 2.9289E-10, 
DataValue, 0.88, 2.9908E-10, 
DataValue, 0.9, 3.039E-10, 
DataValue, 0.92, 3.0247E-10, 
DataValue, 0.94000000000000006, 3.2183E-10, 
DataValue, 0.96000000000000008, 3.2614E-10, 
DataValue, 0.98000000000000009, 3.2829E-10, 
DataValue, 1, 3.3409E-10, 