
SetupTitle, WW
PrimitiveTest, I/V Sweep
TestParameter, Context.MainFrame, B1500A
TestParameter, Channel.UnitType, SMU, SMU
TestParameter, Channel.Unit, SMU2:HP, SMU1:HP
TestParameter, Channel.IName, I1, I4
TestParameter, Channel.VName, V1, V4
TestParameter, Channel.Mode, V, COMMON
TestParameter, Channel.Func, VAR1, CONST
TestParameter, Channel.Index, 
TestParameter, Channel.Time, 
TestParameter, Measurement.Port.Unit, SMU2:HP, SMU1:HP
TestParameter, Measurement.Port.SeriesResistor, NONE, NONE
TestParameter, Measurement.Port.Filter, ON, ON
TestParameter, Measurement.Port.OutputVoltageComparison, 0, 0
TestParameter, Measurement.Primary.Locus, Single
TestParameter, Measurement.Primary.Scale, LINEAR
TestParameter, Measurement.Primary.Start, -1
TestParameter, Measurement.Primary.Stop, 1
TestParameter, Measurement.Primary.Step, 0.02
TestParameter, Measurement.Primary.Compliance, 0.01
TestParameter, Measurement.Primary.PowerCompliance, 0
TestParameter, Measurement.Aborting.Condition, CONTINUE AT ANY
TestParameter, Measurement.PostOutput.Value, START
TestParameter, Measurement.PostOutput.Retention, OFF
TestParameter, Measurement.Bias.Source, -1, 0
TestParameter, Measurement.Bias.Compliance, 0.01, 1
TestParameter, Measurement.Monitor.Unit, SMU2:HP, SMU1:HP
TestParameter, Measurement.Monitor.Adc, HR ADC, HR ADC
TestParameter, Measurement.Monitor.Measurement, Compliance Side, Compliance Side
TestParameter, Measurement.Monitor.RangingMode, AUTO, AUTO
TestParameter, Measurement.Monitor.RangeBoundary, , 
TestParameter, Measurement.Monitor.RangeRating, BY FULL RANGE, BY FULL RANGE
TestParameter, Measurement.Monitor.RangeRatingCoeff, 50, 50
TestParameter, Measurement.Timing.Hold, 0
TestParameter, Measurement.Timing.Delay, 0.001
TestParameter, Measurement.Adc.HighSpeed.Mode, AUTO
TestParameter, Measurement.Adc.HighSpeed.Coeff, 1
TestParameter, Measurement.Adc.HighResolution.AutoZero, OFF
TestParameter, Measurement.Adc.HighResolution.Mode, PLC
TestParameter, Measurement.Adc.HighResolution.Coeff, 1
TestParameter, Measurement.WaitTime.Source.Coeff, 1
TestParameter, Measurement.WaitTime.Source.Offset, 0
TestParameter, Measurement.WaitTime.Monitor.Coeff, 1
TestParameter, Measurement.WaitTime.Monitor.Offset, 0
TestParameter, Function.User.Name, Ohmic
TestParameter, Function.User.Unit, ohm
TestParameter, Function.User.Definition, avg(V1/I1)
TestParameter, Output.Graph.Enabled, true
TestParameter, Output.Graph.XAxis.Data, V1
TestParameter, Output.Graph.XAxis.Scale, Linear
TestParameter, Output.Graph.XAxis.Left, -5
TestParameter, Output.Graph.XAxis.Right, 5
TestParameter, Output.Graph.YAxis.Data, I1
TestParameter, Output.Graph.YAxis.Scale, Linear
TestParameter, Output.Graph.YAxis.Bottom, -0.001
TestParameter, Output.Graph.YAxis.Top, 0.001
TestParameter, Output.Graph.YAxis.Group, 
TestParameter, Output.Scalar.Data, Ohmic
TestParameter, AutoAnalysis.Interpolation, false
TestParameter, AutoAnalysis.Line1.Enabled, false
TestParameter, AutoAnalysis.Line1.Type, 1
TestParameter, AutoAnalysis.Line1.Fix, True
TestParameter, AutoAnalysis.Line1.YAxis, 0
TestParameter, AutoAnalysis.Line1.Point1.Type, 0
TestParameter, AutoAnalysis.Line1.Point1.XY.X, 
TestParameter, AutoAnalysis.Line1.Point1.XY.Y, 
TestParameter, AutoAnalysis.Line1.Point1.Data.Var, 
TestParameter, AutoAnalysis.Line1.Point1.Data.Condition, 
TestParameter, AutoAnalysis.Line1.Point1.Data.Start, false
TestParameter, AutoAnalysis.Line1.Point1.Data.StartVar, 
TestParameter, AutoAnalysis.Line1.Point1.Data.StartCondition, 
TestParameter, AutoAnalysis.Line1.Point2.Type, 0
TestParameter, AutoAnalysis.Line1.Point2.XY.X, 
TestParameter, AutoAnalysis.Line1.Point2.XY.Y, 
TestParameter, AutoAnalysis.Line1.Point2.Data.Var, 
TestParameter, AutoAnalysis.Line1.Point2.Data.Condition, 
TestParameter, AutoAnalysis.Line1.Point2.Data.Start, false
TestParameter, AutoAnalysis.Line1.Point2.Data.StartVar, 
TestParameter, AutoAnalysis.Line1.Point2.Data.StartCondition, 
TestParameter, AutoAnalysis.Line1.GradientExpr, 0
TestParameter, AutoAnalysis.Line2.Enabled, false
TestParameter, AutoAnalysis.Line2.Type, 1
TestParameter, AutoAnalysis.Line2.Fix, True
TestParameter, AutoAnalysis.Line2.YAxis, 0
TestParameter, AutoAnalysis.Line2.Point1.Type, 0
TestParameter, AutoAnalysis.Line2.Point1.XY.X, 
TestParameter, AutoAnalysis.Line2.Point1.XY.Y, 
TestParameter, AutoAnalysis.Line2.Point1.Data.Var, 
TestParameter, AutoAnalysis.Line2.Point1.Data.Condition, 
TestParameter, AutoAnalysis.Line2.Point1.Data.Start, false
TestParameter, AutoAnalysis.Line2.Point1.Data.StartVar, 
TestParameter, AutoAnalysis.Line2.Point1.Data.StartCondition, 
TestParameter, AutoAnalysis.Line2.Point2.Type, 0
TestParameter, AutoAnalysis.Line2.Point2.XY.X, 
TestParameter, AutoAnalysis.Line2.Point2.XY.Y, 
TestParameter, AutoAnalysis.Line2.Point2.Data.Var, 
TestParameter, AutoAnalysis.Line2.Point2.Data.Condition, 
TestParameter, AutoAnalysis.Line2.Point2.Data.Start, false
TestParameter, AutoAnalysis.Line2.Point2.Data.StartVar, 
TestParameter, AutoAnalysis.Line2.Point2.Data.StartCondition, 
TestParameter, AutoAnalysis.Line2.GradientExpr, 0
TestParameter, AutoAnalysis.Marker.Enabled, false
TestParameter, AutoAnalysis.Marker.Data.Var, 
TestParameter, AutoAnalysis.Marker.Data.Condition, 
TestParameter, AutoAnalysis.Marker.Data.Start, false
TestParameter, AutoAnalysis.Marker.Data.StartVar, 
TestParameter, AutoAnalysis.Marker.Data.StartCondition, 
MetaData, TestRecord.EntryPoint, true
MetaData, TestRecord.RecordTime, 01/18/2020 20:42:09
MetaData, TestRecord.TestTarget, 
MetaData, TestRecord.IterationIndex, 53
MetaData, TestRecord.Preservation, true
MetaData, TestRecord.Flag, 
MetaData, TestRecord.Remarks, 
MetaData, TestRecord.LinkKey, 87d530aa-30eb-48ba-a357-da54a2daa073
Dimension1, 101, 101, 101
Dimension2, 1, 1, 1
DataName, V1, I1, Ohmic
DataValue, -1, -2.5525E-10, 3111385511.9963083
DataValue, -0.98000000000000009, -2.5047E-10, 
DataValue, -0.96000000000000008, -2.4774E-10, 
DataValue, -0.94000000000000006, -2.4191E-10, 
DataValue, -0.92, -2.3949E-10, 
DataValue, -0.9, -2.3233E-10, 
DataValue, -0.88, -2.2936E-10, 
DataValue, -0.86, -2.225E-10, 
DataValue, -0.84000000000000008, -2.2138E-10, 
DataValue, -0.82000000000000006, -2.1522E-10, 
DataValue, -0.8, -2.1358E-10, 
DataValue, -0.78, -2.0646E-10, 
DataValue, -0.76, -2.0595E-10, 
DataValue, -0.74, -1.9615E-10, 
DataValue, -0.72000000000000008, -1.9598E-10, 
DataValue, -0.70000000000000007, -1.9036E-10, 
DataValue, -0.68, -1.869E-10, 
DataValue, -0.66, -1.8152E-10, 
DataValue, -0.64, -1.7901E-10, 
DataValue, -0.62, -1.6986E-10, 
DataValue, -0.6, -1.6713E-10, 
DataValue, -0.58000000000000007, -1.628E-10, 
DataValue, -0.56, -1.6055E-10, 
DataValue, -0.54, -1.5046E-10, 
DataValue, -0.52, -1.463E-10, 
DataValue, -0.5, -1.3729E-10, 
DataValue, -0.48000000000000004, -1.3553E-10, 
DataValue, -0.46, -1.2826E-10, 
DataValue, -0.44, -1.2735E-10, 
DataValue, -0.42000000000000004, -1.1759E-10, 
DataValue, -0.4, -1.1275E-10, 
DataValue, -0.38, -1.0839E-10, 
DataValue, -0.36000000000000004, -1.0401E-10, 
DataValue, -0.34, -9.843E-11, 
DataValue, -0.32, -9.594E-11, 
DataValue, -0.3, -9.121E-11, 
DataValue, -0.28, -8.546E-11, 
DataValue, -0.26, -7.606E-11, 
DataValue, -0.24000000000000002, -7.484E-11, 
DataValue, -0.22, -7.152E-11, 
DataValue, -0.2, -6.63E-11, 
DataValue, -0.18000000000000002, -5.952E-11, 
DataValue, -0.16, -5.342E-11, 
DataValue, -0.14, -4.519E-11, 
DataValue, -0.12000000000000001, -4.368E-11, 
DataValue, -0.1, -3.451E-11, 
DataValue, -0.08, -2.992E-11, 
DataValue, -0.060000000000000005, -1.943E-11, 
DataValue, -0.04, -1.081E-11, 
DataValue, -0.02, 3.27E-12, 
DataValue, 0, 1.2419999999999999E-11, 
DataValue, 0.02, 2.352E-11, 
DataValue, 0.04, 3.05E-11, 
DataValue, 0.060000000000000005, 3.937E-11, 
DataValue, 0.08, 4.177E-11, 
DataValue, 0.1, 4.977E-11, 
DataValue, 0.12000000000000001, 4.958E-11, 
DataValue, 0.14, 5.581E-11, 
DataValue, 0.16, 5.654E-11, 
DataValue, 0.18000000000000002, 6.38E-11, 
DataValue, 0.2, 6.348E-11, 
DataValue, 0.22, 7.277E-11, 
DataValue, 0.24000000000000002, 7.955E-11, 
DataValue, 0.26, 8.535E-11, 
DataValue, 0.28, 8.648E-11, 
DataValue, 0.3, 9.415E-11, 
DataValue, 0.32, 9.506E-11, 
DataValue, 0.34, 1.0131E-10, 
DataValue, 0.36000000000000004, 1.1126E-10, 
DataValue, 0.38, 1.1586E-10, 
DataValue, 0.4, 1.2093E-10, 
DataValue, 0.42000000000000004, 1.2475E-10, 
DataValue, 0.44, 1.3207E-10, 
DataValue, 0.46, 1.3567E-10, 
DataValue, 0.48000000000000004, 1.4414E-10, 
DataValue, 0.5, 1.533E-10, 
DataValue, 0.52, 1.5732E-10, 
DataValue, 0.54, 1.7001E-10, 
DataValue, 0.56, 1.7037E-10, 
DataValue, 0.58000000000000007, 1.8209E-10, 
DataValue, 0.6, 1.8658E-10, 
DataValue, 0.62, 1.9528E-10, 
DataValue, 0.64, 2.0181E-10, 
DataValue, 0.66, 2.0775E-10, 
DataValue, 0.68, 2.1249E-10, 
DataValue, 0.70000000000000007, 2.2518E-10, 
DataValue, 0.72000000000000008, 2.3131E-10, 
DataValue, 0.74, 2.3988E-10, 
DataValue, 0.76, 2.4053E-10, 
DataValue, 0.78, 2.5384E-10, 
DataValue, 0.8, 2.5951E-10, 
DataValue, 0.82000000000000006, 2.5398E-10, 
DataValue, 0.84000000000000008, 2.698E-10, 
DataValue, 0.86, 2.8249E-10, 
DataValue, 0.88, 2.8483E-10, 
DataValue, 0.9, 2.8861E-10, 
DataValue, 0.92, 2.9365E-10, 
DataValue, 0.94000000000000006, 3.127E-10, 
DataValue, 0.96000000000000008, 3.1883E-10, 
DataValue, 0.98000000000000009, 3.2819E-10, 
DataValue, 1, 3.1242E-10, 