
SetupTitle, WW
PrimitiveTest, I/V Sweep
TestParameter, Context.MainFrame, B1500A
TestParameter, Channel.UnitType, SMU, SMU
TestParameter, Channel.Unit, SMU2:HP, SMU1:HP
TestParameter, Channel.IName, I1, I4
TestParameter, Channel.VName, V1, V4
TestParameter, Channel.Mode, V, COMMON
TestParameter, Channel.Func, VAR1, CONST
TestParameter, Channel.Index, 
TestParameter, Channel.Time, 
TestParameter, Measurement.Port.Unit, SMU2:HP, SMU1:HP
TestParameter, Measurement.Port.SeriesResistor, NONE, NONE
TestParameter, Measurement.Port.Filter, ON, ON
TestParameter, Measurement.Port.OutputVoltageComparison, 0, 0
TestParameter, Measurement.Primary.Locus, Single
TestParameter, Measurement.Primary.Scale, LINEAR
TestParameter, Measurement.Primary.Start, -1
TestParameter, Measurement.Primary.Stop, 1
TestParameter, Measurement.Primary.Step, 0.02
TestParameter, Measurement.Primary.Compliance, 0.01
TestParameter, Measurement.Primary.PowerCompliance, 0
TestParameter, Measurement.Aborting.Condition, CONTINUE AT ANY
TestParameter, Measurement.PostOutput.Value, START
TestParameter, Measurement.PostOutput.Retention, OFF
TestParameter, Measurement.Bias.Source, -1, 0
TestParameter, Measurement.Bias.Compliance, 0.01, 1
TestParameter, Measurement.Monitor.Unit, SMU2:HP, SMU1:HP
TestParameter, Measurement.Monitor.Adc, HR ADC, HR ADC
TestParameter, Measurement.Monitor.Measurement, Compliance Side, Compliance Side
TestParameter, Measurement.Monitor.RangingMode, AUTO, AUTO
TestParameter, Measurement.Monitor.RangeBoundary, , 
TestParameter, Measurement.Monitor.RangeRating, BY FULL RANGE, BY FULL RANGE
TestParameter, Measurement.Monitor.RangeRatingCoeff, 50, 50
TestParameter, Measurement.Timing.Hold, 0
TestParameter, Measurement.Timing.Delay, 0.001
TestParameter, Measurement.Adc.HighSpeed.Mode, AUTO
TestParameter, Measurement.Adc.HighSpeed.Coeff, 1
TestParameter, Measurement.Adc.HighResolution.AutoZero, OFF
TestParameter, Measurement.Adc.HighResolution.Mode, PLC
TestParameter, Measurement.Adc.HighResolution.Coeff, 1
TestParameter, Measurement.WaitTime.Source.Coeff, 1
TestParameter, Measurement.WaitTime.Source.Offset, 0
TestParameter, Measurement.WaitTime.Monitor.Coeff, 1
TestParameter, Measurement.WaitTime.Monitor.Offset, 0
TestParameter, Function.User.Name, Ohmic
TestParameter, Function.User.Unit, ohm
TestParameter, Function.User.Definition, avg(V1/I1)
TestParameter, Output.Graph.Enabled, true
TestParameter, Output.Graph.XAxis.Data, V1
TestParameter, Output.Graph.XAxis.Scale, Linear
TestParameter, Output.Graph.XAxis.Left, -5
TestParameter, Output.Graph.XAxis.Right, 5
TestParameter, Output.Graph.YAxis.Data, I1
TestParameter, Output.Graph.YAxis.Scale, Linear
TestParameter, Output.Graph.YAxis.Bottom, -0.001
TestParameter, Output.Graph.YAxis.Top, 0.001
TestParameter, Output.Graph.YAxis.Group, 
TestParameter, Output.Scalar.Data, Ohmic
TestParameter, AutoAnalysis.Interpolation, false
TestParameter, AutoAnalysis.Line1.Enabled, false
TestParameter, AutoAnalysis.Line1.Type, 1
TestParameter, AutoAnalysis.Line1.Fix, True
TestParameter, AutoAnalysis.Line1.YAxis, 0
TestParameter, AutoAnalysis.Line1.Point1.Type, 0
TestParameter, AutoAnalysis.Line1.Point1.XY.X, 
TestParameter, AutoAnalysis.Line1.Point1.XY.Y, 
TestParameter, AutoAnalysis.Line1.Point1.Data.Var, 
TestParameter, AutoAnalysis.Line1.Point1.Data.Condition, 
TestParameter, AutoAnalysis.Line1.Point1.Data.Start, false
TestParameter, AutoAnalysis.Line1.Point1.Data.StartVar, 
TestParameter, AutoAnalysis.Line1.Point1.Data.StartCondition, 
TestParameter, AutoAnalysis.Line1.Point2.Type, 0
TestParameter, AutoAnalysis.Line1.Point2.XY.X, 
TestParameter, AutoAnalysis.Line1.Point2.XY.Y, 
TestParameter, AutoAnalysis.Line1.Point2.Data.Var, 
TestParameter, AutoAnalysis.Line1.Point2.Data.Condition, 
TestParameter, AutoAnalysis.Line1.Point2.Data.Start, false
TestParameter, AutoAnalysis.Line1.Point2.Data.StartVar, 
TestParameter, AutoAnalysis.Line1.Point2.Data.StartCondition, 
TestParameter, AutoAnalysis.Line1.GradientExpr, 0
TestParameter, AutoAnalysis.Line2.Enabled, false
TestParameter, AutoAnalysis.Line2.Type, 1
TestParameter, AutoAnalysis.Line2.Fix, True
TestParameter, AutoAnalysis.Line2.YAxis, 0
TestParameter, AutoAnalysis.Line2.Point1.Type, 0
TestParameter, AutoAnalysis.Line2.Point1.XY.X, 
TestParameter, AutoAnalysis.Line2.Point1.XY.Y, 
TestParameter, AutoAnalysis.Line2.Point1.Data.Var, 
TestParameter, AutoAnalysis.Line2.Point1.Data.Condition, 
TestParameter, AutoAnalysis.Line2.Point1.Data.Start, false
TestParameter, AutoAnalysis.Line2.Point1.Data.StartVar, 
TestParameter, AutoAnalysis.Line2.Point1.Data.StartCondition, 
TestParameter, AutoAnalysis.Line2.Point2.Type, 0
TestParameter, AutoAnalysis.Line2.Point2.XY.X, 
TestParameter, AutoAnalysis.Line2.Point2.XY.Y, 
TestParameter, AutoAnalysis.Line2.Point2.Data.Var, 
TestParameter, AutoAnalysis.Line2.Point2.Data.Condition, 
TestParameter, AutoAnalysis.Line2.Point2.Data.Start, false
TestParameter, AutoAnalysis.Line2.Point2.Data.StartVar, 
TestParameter, AutoAnalysis.Line2.Point2.Data.StartCondition, 
TestParameter, AutoAnalysis.Line2.GradientExpr, 0
TestParameter, AutoAnalysis.Marker.Enabled, false
TestParameter, AutoAnalysis.Marker.Data.Var, 
TestParameter, AutoAnalysis.Marker.Data.Condition, 
TestParameter, AutoAnalysis.Marker.Data.Start, false
TestParameter, AutoAnalysis.Marker.Data.StartVar, 
TestParameter, AutoAnalysis.Marker.Data.StartCondition, 
MetaData, TestRecord.EntryPoint, true
MetaData, TestRecord.RecordTime, 01/18/2020 20:40:49
MetaData, TestRecord.TestTarget, 
MetaData, TestRecord.IterationIndex, 51
MetaData, TestRecord.Preservation, true
MetaData, TestRecord.Flag, 
MetaData, TestRecord.Remarks, 
MetaData, TestRecord.LinkKey, 89cdf42f-81ad-4d11-b4db-8b1471acac72
Dimension1, 101, 101, 101
Dimension2, 1, 1, 1
DataName, V1, I1, Ohmic
DataValue, -1, -2.4491E-10, 3290417703.1259704
DataValue, -0.98000000000000009, -2.4415E-10, 
DataValue, -0.96000000000000008, -2.4178E-10, 
DataValue, -0.94000000000000006, -2.345E-10, 
DataValue, -0.92, -2.3479E-10, 
DataValue, -0.9, -2.2823E-10, 
DataValue, -0.88, -2.2325999999999999E-10, 
DataValue, -0.86, -2.1977E-10, 
DataValue, -0.84000000000000008, -2.1296E-10, 
DataValue, -0.82000000000000006, -2.0634E-10, 
DataValue, -0.8, -2.0361E-10, 
DataValue, -0.78, -1.9984E-10, 
DataValue, -0.76, -1.9408E-10, 
DataValue, -0.74, -1.9212999999999999E-10, 
DataValue, -0.72000000000000008, -1.8764E-10, 
DataValue, -0.70000000000000007, -1.822E-10, 
DataValue, -0.68, -1.8014E-10, 
DataValue, -0.66, -1.7643E-10, 
DataValue, -0.64, -1.7243E-10, 
DataValue, -0.62, -1.6722E-10, 
DataValue, -0.6, -1.6296E-10, 
DataValue, -0.58000000000000007, -1.5724E-10, 
DataValue, -0.56, -1.5323E-10, 
DataValue, -0.54, -1.499E-10, 
DataValue, -0.52, -1.4596E-10, 
DataValue, -0.5, -1.4033E-10, 
DataValue, -0.48000000000000004, -1.3324E-10, 
DataValue, -0.46, -1.2801E-10, 
DataValue, -0.44, -1.2452E-10, 
DataValue, -0.42000000000000004, -1.1795E-10, 
DataValue, -0.4, -1.1469E-10, 
DataValue, -0.38, -1.0883E-10, 
DataValue, -0.36000000000000004, -1.0305E-10, 
DataValue, -0.34, -1.0079E-10, 
DataValue, -0.32, -9.417E-11, 
DataValue, -0.3, -8.625E-11, 
DataValue, -0.28, -8.081E-11, 
DataValue, -0.26, -7.455E-11, 
DataValue, -0.24000000000000002, -7.152E-11, 
DataValue, -0.22, -6.604E-11, 
DataValue, -0.2, -5.871E-11, 
DataValue, -0.18000000000000002, -5.587E-11, 
DataValue, -0.16, -5.284E-11, 
DataValue, -0.14, -4.581E-11, 
DataValue, -0.12000000000000001, -4.113E-11, 
DataValue, -0.1, -3.609E-11, 
DataValue, -0.08, -2.778E-11, 
DataValue, -0.060000000000000005, -1.693E-11, 
DataValue, -0.04, -7.7E-12, 
DataValue, -0.02, 3.23E-12, 
DataValue, 0, 1.693E-11, 
DataValue, 0.02, 2.799E-11, 
DataValue, 0.04, 3.475E-11, 
DataValue, 0.060000000000000005, 3.814E-11, 
DataValue, 0.08, 4.189E-11, 
DataValue, 0.1, 4.916E-11, 
DataValue, 0.12000000000000001, 4.899E-11, 
DataValue, 0.14, 5.613E-11, 
DataValue, 0.16, 5.739E-11, 
DataValue, 0.18000000000000002, 5.242E-11, 
DataValue, 0.2, 5.542E-11, 
DataValue, 0.22, 5.977E-11, 
DataValue, 0.24000000000000002, 6.341E-11, 
DataValue, 0.26, 6.683E-11, 
DataValue, 0.28, 7.017E-11, 
DataValue, 0.3, 7.488E-11, 
DataValue, 0.32, 8.391E-11, 
DataValue, 0.34, 1.0117E-10, 
DataValue, 0.36000000000000004, 1.0972E-10, 
DataValue, 0.38, 1.1446999999999999E-10, 
DataValue, 0.4, 1.183E-10, 
DataValue, 0.42000000000000004, 1.1634E-10, 
DataValue, 0.44, 1.3207E-10, 
DataValue, 0.46, 1.321E-10, 
DataValue, 0.48000000000000004, 1.4129E-10, 
DataValue, 0.5, 1.2606E-10, 
DataValue, 0.52, 1.4933E-10, 
DataValue, 0.54, 1.5944E-10, 
DataValue, 0.56, 1.6018E-10, 
DataValue, 0.58000000000000007, 1.6976E-10, 
DataValue, 0.6, 1.7829E-10, 
DataValue, 0.62, 1.747E-10, 
DataValue, 0.64, 1.9209E-10, 
DataValue, 0.66, 1.8909E-10, 
DataValue, 0.68, 1.8517E-10, 
DataValue, 0.70000000000000007, 2.0584E-10, 
DataValue, 0.72000000000000008, 2.1491E-10, 
DataValue, 0.74, 2.2089E-10, 
DataValue, 0.76, 2.2967E-10, 
DataValue, 0.78, 2.3225E-10, 
DataValue, 0.8, 2.4306E-10, 
DataValue, 0.82000000000000006, 2.4835E-10, 
DataValue, 0.84000000000000008, 2.6069E-10, 
DataValue, 0.86, 2.6682E-10, 
DataValue, 0.88, 2.7298E-10, 
DataValue, 0.9, 2.7648E-10, 
DataValue, 0.92, 2.7206E-10, 
DataValue, 0.94000000000000006, 2.8911E-10, 
DataValue, 0.96000000000000008, 2.9472E-10, 
DataValue, 0.98000000000000009, 3.1016E-10, 
DataValue, 1, 3.1307E-10, 