
SetupTitle, WW
PrimitiveTest, I/V Sweep
TestParameter, Context.MainFrame, B1500A
TestParameter, Channel.UnitType, SMU, SMU
TestParameter, Channel.Unit, SMU2:HP, SMU1:HP
TestParameter, Channel.IName, I1, I4
TestParameter, Channel.VName, V1, V4
TestParameter, Channel.Mode, V, COMMON
TestParameter, Channel.Func, VAR1, CONST
TestParameter, Channel.Index, 
TestParameter, Channel.Time, 
TestParameter, Measurement.Port.Unit, SMU2:HP, SMU1:HP
TestParameter, Measurement.Port.SeriesResistor, NONE, NONE
TestParameter, Measurement.Port.Filter, ON, ON
TestParameter, Measurement.Port.OutputVoltageComparison, 0, 0
TestParameter, Measurement.Primary.Locus, Single
TestParameter, Measurement.Primary.Scale, LINEAR
TestParameter, Measurement.Primary.Start, -1
TestParameter, Measurement.Primary.Stop, 1
TestParameter, Measurement.Primary.Step, 0.02
TestParameter, Measurement.Primary.Compliance, 0.01
TestParameter, Measurement.Primary.PowerCompliance, 0
TestParameter, Measurement.Aborting.Condition, CONTINUE AT ANY
TestParameter, Measurement.PostOutput.Value, START
TestParameter, Measurement.PostOutput.Retention, OFF
TestParameter, Measurement.Bias.Source, -1, 0
TestParameter, Measurement.Bias.Compliance, 0.01, 1
TestParameter, Measurement.Monitor.Unit, SMU2:HP, SMU1:HP
TestParameter, Measurement.Monitor.Adc, HR ADC, HR ADC
TestParameter, Measurement.Monitor.Measurement, Compliance Side, Compliance Side
TestParameter, Measurement.Monitor.RangingMode, AUTO, AUTO
TestParameter, Measurement.Monitor.RangeBoundary, , 
TestParameter, Measurement.Monitor.RangeRating, BY FULL RANGE, BY FULL RANGE
TestParameter, Measurement.Monitor.RangeRatingCoeff, 50, 50
TestParameter, Measurement.Timing.Hold, 0
TestParameter, Measurement.Timing.Delay, 0.001
TestParameter, Measurement.Adc.HighSpeed.Mode, AUTO
TestParameter, Measurement.Adc.HighSpeed.Coeff, 1
TestParameter, Measurement.Adc.HighResolution.AutoZero, OFF
TestParameter, Measurement.Adc.HighResolution.Mode, PLC
TestParameter, Measurement.Adc.HighResolution.Coeff, 1
TestParameter, Measurement.WaitTime.Source.Coeff, 1
TestParameter, Measurement.WaitTime.Source.Offset, 0
TestParameter, Measurement.WaitTime.Monitor.Coeff, 1
TestParameter, Measurement.WaitTime.Monitor.Offset, 0
TestParameter, Function.User.Name, Ohmic
TestParameter, Function.User.Unit, ohm
TestParameter, Function.User.Definition, avg(V1/I1)
TestParameter, Output.Graph.Enabled, true
TestParameter, Output.Graph.XAxis.Data, V1
TestParameter, Output.Graph.XAxis.Scale, Linear
TestParameter, Output.Graph.XAxis.Left, -5
TestParameter, Output.Graph.XAxis.Right, 5
TestParameter, Output.Graph.YAxis.Data, I1
TestParameter, Output.Graph.YAxis.Scale, Linear
TestParameter, Output.Graph.YAxis.Bottom, -0.001
TestParameter, Output.Graph.YAxis.Top, 0.001
TestParameter, Output.Graph.YAxis.Group, 
TestParameter, Output.Scalar.Data, Ohmic
TestParameter, AutoAnalysis.Interpolation, false
TestParameter, AutoAnalysis.Line1.Enabled, false
TestParameter, AutoAnalysis.Line1.Type, 1
TestParameter, AutoAnalysis.Line1.Fix, True
TestParameter, AutoAnalysis.Line1.YAxis, 0
TestParameter, AutoAnalysis.Line1.Point1.Type, 0
TestParameter, AutoAnalysis.Line1.Point1.XY.X, 
TestParameter, AutoAnalysis.Line1.Point1.XY.Y, 
TestParameter, AutoAnalysis.Line1.Point1.Data.Var, 
TestParameter, AutoAnalysis.Line1.Point1.Data.Condition, 
TestParameter, AutoAnalysis.Line1.Point1.Data.Start, false
TestParameter, AutoAnalysis.Line1.Point1.Data.StartVar, 
TestParameter, AutoAnalysis.Line1.Point1.Data.StartCondition, 
TestParameter, AutoAnalysis.Line1.Point2.Type, 0
TestParameter, AutoAnalysis.Line1.Point2.XY.X, 
TestParameter, AutoAnalysis.Line1.Point2.XY.Y, 
TestParameter, AutoAnalysis.Line1.Point2.Data.Var, 
TestParameter, AutoAnalysis.Line1.Point2.Data.Condition, 
TestParameter, AutoAnalysis.Line1.Point2.Data.Start, false
TestParameter, AutoAnalysis.Line1.Point2.Data.StartVar, 
TestParameter, AutoAnalysis.Line1.Point2.Data.StartCondition, 
TestParameter, AutoAnalysis.Line1.GradientExpr, 0
TestParameter, AutoAnalysis.Line2.Enabled, false
TestParameter, AutoAnalysis.Line2.Type, 1
TestParameter, AutoAnalysis.Line2.Fix, True
TestParameter, AutoAnalysis.Line2.YAxis, 0
TestParameter, AutoAnalysis.Line2.Point1.Type, 0
TestParameter, AutoAnalysis.Line2.Point1.XY.X, 
TestParameter, AutoAnalysis.Line2.Point1.XY.Y, 
TestParameter, AutoAnalysis.Line2.Point1.Data.Var, 
TestParameter, AutoAnalysis.Line2.Point1.Data.Condition, 
TestParameter, AutoAnalysis.Line2.Point1.Data.Start, false
TestParameter, AutoAnalysis.Line2.Point1.Data.StartVar, 
TestParameter, AutoAnalysis.Line2.Point1.Data.StartCondition, 
TestParameter, AutoAnalysis.Line2.Point2.Type, 0
TestParameter, AutoAnalysis.Line2.Point2.XY.X, 
TestParameter, AutoAnalysis.Line2.Point2.XY.Y, 
TestParameter, AutoAnalysis.Line2.Point2.Data.Var, 
TestParameter, AutoAnalysis.Line2.Point2.Data.Condition, 
TestParameter, AutoAnalysis.Line2.Point2.Data.Start, false
TestParameter, AutoAnalysis.Line2.Point2.Data.StartVar, 
TestParameter, AutoAnalysis.Line2.Point2.Data.StartCondition, 
TestParameter, AutoAnalysis.Line2.GradientExpr, 0
TestParameter, AutoAnalysis.Marker.Enabled, false
TestParameter, AutoAnalysis.Marker.Data.Var, 
TestParameter, AutoAnalysis.Marker.Data.Condition, 
TestParameter, AutoAnalysis.Marker.Data.Start, false
TestParameter, AutoAnalysis.Marker.Data.StartVar, 
TestParameter, AutoAnalysis.Marker.Data.StartCondition, 
MetaData, TestRecord.EntryPoint, true
MetaData, TestRecord.RecordTime, 01/18/2020 20:40:16
MetaData, TestRecord.TestTarget, 
MetaData, TestRecord.IterationIndex, 50
MetaData, TestRecord.Preservation, true
MetaData, TestRecord.Flag, 
MetaData, TestRecord.Remarks, 
MetaData, TestRecord.LinkKey, bef24e38-e2fe-4d10-9129-08d79496c12d
Dimension1, 101, 101, 101
Dimension2, 1, 1, 1
DataName, V1, I1, Ohmic
DataValue, -1, -2.4877E-10, 2602145015.4865379
DataValue, -0.98000000000000009, -2.3873E-10, 
DataValue, -0.96000000000000008, -2.3254E-10, 
DataValue, -0.94000000000000006, -2.3194E-10, 
DataValue, -0.92, -2.2666E-10, 
DataValue, -0.9, -2.2801E-10, 
DataValue, -0.88, -2.1949E-10, 
DataValue, -0.86, -2.1902E-10, 
DataValue, -0.84000000000000008, -2.0821E-10, 
DataValue, -0.82000000000000006, -2.0707E-10, 
DataValue, -0.8, -2.0097E-10, 
DataValue, -0.78, -2.0052E-10, 
DataValue, -0.76, -1.9402E-10, 
DataValue, -0.74, -2.0124E-10, 
DataValue, -0.72000000000000008, -1.9559E-10, 
DataValue, -0.70000000000000007, -1.8928E-10, 
DataValue, -0.68, -1.8081E-10, 
DataValue, -0.66, -1.78E-10, 
DataValue, -0.64, -1.6999E-10, 
DataValue, -0.62, -1.6854E-10, 
DataValue, -0.6, -1.6055E-10, 
DataValue, -0.58000000000000007, -1.603E-10, 
DataValue, -0.56, -1.5002E-10, 
DataValue, -0.54, -1.4818E-10, 
DataValue, -0.52, -1.3961E-10, 
DataValue, -0.5, -1.3577E-10, 
DataValue, -0.48000000000000004, -1.2717E-10, 
DataValue, -0.46, -1.2685E-10, 
DataValue, -0.44, -1.1937E-10, 
DataValue, -0.42000000000000004, -1.1824E-10, 
DataValue, -0.4, -1.086E-10, 
DataValue, -0.38, -1.0833E-10, 
DataValue, -0.36000000000000004, -9.763E-11, 
DataValue, -0.34, -9.529E-11, 
DataValue, -0.32, -8.704E-11, 
DataValue, -0.3, -8.25E-11, 
DataValue, -0.28, -7.608E-11, 
DataValue, -0.26, -7.381E-11, 
DataValue, -0.24000000000000002, -6.652E-11, 
DataValue, -0.22, -6.295E-11, 
DataValue, -0.2, -5.764E-11, 
DataValue, -0.18000000000000002, -5.722E-11, 
DataValue, -0.16, -4.888E-11, 
DataValue, -0.14, -4.691E-11, 
DataValue, -0.12000000000000001, -3.898E-11, 
DataValue, -0.1, -3.628E-11, 
DataValue, -0.08, -2.686E-11, 
DataValue, -0.060000000000000005, -1.97E-11, 
DataValue, -0.04, -8.03E-12, 
DataValue, -0.02, 2.3E-13, 
DataValue, 0, 1.147E-11, 
DataValue, 0.02, 1.678E-11, 
DataValue, 0.04, 3.069E-11, 
DataValue, 0.060000000000000005, 3.14E-11, 
DataValue, 0.08, 3.42E-11, 
DataValue, 0.1, 3.868E-11, 
DataValue, 0.12000000000000001, 4.409E-11, 
DataValue, 0.14, 4.238E-11, 
DataValue, 0.16, 4.775E-11, 
DataValue, 0.18000000000000002, 5.335E-11, 
DataValue, 0.2, 5.672E-11, 
DataValue, 0.22, 6.188E-11, 
DataValue, 0.24000000000000002, 6.468E-11, 
DataValue, 0.26, 6.736E-11, 
DataValue, 0.28, 8.033E-11, 
DataValue, 0.3, 8.061E-11, 
DataValue, 0.32, 8.768E-11, 
DataValue, 0.34, 8.758E-11, 
DataValue, 0.36000000000000004, 9.959E-11, 
DataValue, 0.38, 8.482E-11, 
DataValue, 0.4, 1.072E-10, 
DataValue, 0.42000000000000004, 1.117E-10, 
DataValue, 0.44, 1.1654E-10, 
DataValue, 0.46, 1.1734E-10, 
DataValue, 0.48000000000000004, 1.3047E-10, 
DataValue, 0.5, 1.3463E-10, 
DataValue, 0.52, 1.4157E-10, 
DataValue, 0.54, 1.4436E-10, 
DataValue, 0.56, 1.5855E-10, 
DataValue, 0.58000000000000007, 1.6515E-10, 
DataValue, 0.6, 1.6183E-10, 
DataValue, 0.62, 1.7411E-10, 
DataValue, 0.64, 1.8923E-10, 
DataValue, 0.66, 1.8866E-10, 
DataValue, 0.68, 1.9838E-10, 
DataValue, 0.70000000000000007, 1.9728E-10, 
DataValue, 0.72000000000000008, 2.0726E-10, 
DataValue, 0.74, 2.166E-10, 
DataValue, 0.76, 2.1832E-10, 
DataValue, 0.78, 2.1941E-10, 
DataValue, 0.8, 2.2391E-10, 
DataValue, 0.82000000000000006, 2.3374E-10, 
DataValue, 0.84000000000000008, 2.4657E-10, 
DataValue, 0.86, 2.482E-10, 
DataValue, 0.88, 2.5522E-10, 
DataValue, 0.9, 2.6404E-10, 
DataValue, 0.92, 2.6869E-10, 
DataValue, 0.94000000000000006, 2.8266E-10, 
DataValue, 0.96000000000000008, 2.8802E-10, 
DataValue, 0.98000000000000009, 2.9275E-10, 
DataValue, 1, 3.0103E-10, 