
SetupTitle, WW
PrimitiveTest, I/V Sweep
TestParameter, Context.MainFrame, B1500A
TestParameter, Channel.UnitType, SMU, SMU
TestParameter, Channel.Unit, SMU2:HP, SMU1:HP
TestParameter, Channel.IName, I1, I4
TestParameter, Channel.VName, V1, V4
TestParameter, Channel.Mode, V, COMMON
TestParameter, Channel.Func, VAR1, CONST
TestParameter, Channel.Index, 
TestParameter, Channel.Time, 
TestParameter, Measurement.Port.Unit, SMU2:HP, SMU1:HP
TestParameter, Measurement.Port.SeriesResistor, NONE, NONE
TestParameter, Measurement.Port.Filter, ON, ON
TestParameter, Measurement.Port.OutputVoltageComparison, 0, 0
TestParameter, Measurement.Primary.Locus, Single
TestParameter, Measurement.Primary.Scale, LINEAR
TestParameter, Measurement.Primary.Start, -1
TestParameter, Measurement.Primary.Stop, 1
TestParameter, Measurement.Primary.Step, 0.02
TestParameter, Measurement.Primary.Compliance, 0.01
TestParameter, Measurement.Primary.PowerCompliance, 0
TestParameter, Measurement.Aborting.Condition, CONTINUE AT ANY
TestParameter, Measurement.PostOutput.Value, START
TestParameter, Measurement.PostOutput.Retention, OFF
TestParameter, Measurement.Bias.Source, -1, 0
TestParameter, Measurement.Bias.Compliance, 0.01, 1
TestParameter, Measurement.Monitor.Unit, SMU2:HP, SMU1:HP
TestParameter, Measurement.Monitor.Adc, HR ADC, HR ADC
TestParameter, Measurement.Monitor.Measurement, Compliance Side, Compliance Side
TestParameter, Measurement.Monitor.RangingMode, AUTO, AUTO
TestParameter, Measurement.Monitor.RangeBoundary, , 
TestParameter, Measurement.Monitor.RangeRating, BY FULL RANGE, BY FULL RANGE
TestParameter, Measurement.Monitor.RangeRatingCoeff, 50, 50
TestParameter, Measurement.Timing.Hold, 0
TestParameter, Measurement.Timing.Delay, 0.001
TestParameter, Measurement.Adc.HighSpeed.Mode, AUTO
TestParameter, Measurement.Adc.HighSpeed.Coeff, 1
TestParameter, Measurement.Adc.HighResolution.AutoZero, OFF
TestParameter, Measurement.Adc.HighResolution.Mode, PLC
TestParameter, Measurement.Adc.HighResolution.Coeff, 1
TestParameter, Measurement.WaitTime.Source.Coeff, 1
TestParameter, Measurement.WaitTime.Source.Offset, 0
TestParameter, Measurement.WaitTime.Monitor.Coeff, 1
TestParameter, Measurement.WaitTime.Monitor.Offset, 0
TestParameter, Function.User.Name, Ohmic
TestParameter, Function.User.Unit, ohm
TestParameter, Function.User.Definition, avg(V1/I1)
TestParameter, Output.Graph.Enabled, true
TestParameter, Output.Graph.XAxis.Data, V1
TestParameter, Output.Graph.XAxis.Scale, Linear
TestParameter, Output.Graph.XAxis.Left, -5
TestParameter, Output.Graph.XAxis.Right, 5
TestParameter, Output.Graph.YAxis.Data, I1
TestParameter, Output.Graph.YAxis.Scale, Linear
TestParameter, Output.Graph.YAxis.Bottom, -0.001
TestParameter, Output.Graph.YAxis.Top, 0.001
TestParameter, Output.Graph.YAxis.Group, 
TestParameter, Output.Scalar.Data, Ohmic
TestParameter, AutoAnalysis.Interpolation, false
TestParameter, AutoAnalysis.Line1.Enabled, false
TestParameter, AutoAnalysis.Line1.Type, 1
TestParameter, AutoAnalysis.Line1.Fix, True
TestParameter, AutoAnalysis.Line1.YAxis, 0
TestParameter, AutoAnalysis.Line1.Point1.Type, 0
TestParameter, AutoAnalysis.Line1.Point1.XY.X, 
TestParameter, AutoAnalysis.Line1.Point1.XY.Y, 
TestParameter, AutoAnalysis.Line1.Point1.Data.Var, 
TestParameter, AutoAnalysis.Line1.Point1.Data.Condition, 
TestParameter, AutoAnalysis.Line1.Point1.Data.Start, false
TestParameter, AutoAnalysis.Line1.Point1.Data.StartVar, 
TestParameter, AutoAnalysis.Line1.Point1.Data.StartCondition, 
TestParameter, AutoAnalysis.Line1.Point2.Type, 0
TestParameter, AutoAnalysis.Line1.Point2.XY.X, 
TestParameter, AutoAnalysis.Line1.Point2.XY.Y, 
TestParameter, AutoAnalysis.Line1.Point2.Data.Var, 
TestParameter, AutoAnalysis.Line1.Point2.Data.Condition, 
TestParameter, AutoAnalysis.Line1.Point2.Data.Start, false
TestParameter, AutoAnalysis.Line1.Point2.Data.StartVar, 
TestParameter, AutoAnalysis.Line1.Point2.Data.StartCondition, 
TestParameter, AutoAnalysis.Line1.GradientExpr, 0
TestParameter, AutoAnalysis.Line2.Enabled, false
TestParameter, AutoAnalysis.Line2.Type, 1
TestParameter, AutoAnalysis.Line2.Fix, True
TestParameter, AutoAnalysis.Line2.YAxis, 0
TestParameter, AutoAnalysis.Line2.Point1.Type, 0
TestParameter, AutoAnalysis.Line2.Point1.XY.X, 
TestParameter, AutoAnalysis.Line2.Point1.XY.Y, 
TestParameter, AutoAnalysis.Line2.Point1.Data.Var, 
TestParameter, AutoAnalysis.Line2.Point1.Data.Condition, 
TestParameter, AutoAnalysis.Line2.Point1.Data.Start, false
TestParameter, AutoAnalysis.Line2.Point1.Data.StartVar, 
TestParameter, AutoAnalysis.Line2.Point1.Data.StartCondition, 
TestParameter, AutoAnalysis.Line2.Point2.Type, 0
TestParameter, AutoAnalysis.Line2.Point2.XY.X, 
TestParameter, AutoAnalysis.Line2.Point2.XY.Y, 
TestParameter, AutoAnalysis.Line2.Point2.Data.Var, 
TestParameter, AutoAnalysis.Line2.Point2.Data.Condition, 
TestParameter, AutoAnalysis.Line2.Point2.Data.Start, false
TestParameter, AutoAnalysis.Line2.Point2.Data.StartVar, 
TestParameter, AutoAnalysis.Line2.Point2.Data.StartCondition, 
TestParameter, AutoAnalysis.Line2.GradientExpr, 0
TestParameter, AutoAnalysis.Marker.Enabled, false
TestParameter, AutoAnalysis.Marker.Data.Var, 
TestParameter, AutoAnalysis.Marker.Data.Condition, 
TestParameter, AutoAnalysis.Marker.Data.Start, false
TestParameter, AutoAnalysis.Marker.Data.StartVar, 
TestParameter, AutoAnalysis.Marker.Data.StartCondition, 
MetaData, TestRecord.EntryPoint, true
MetaData, TestRecord.RecordTime, 01/18/2020 20:39:41
MetaData, TestRecord.TestTarget, 
MetaData, TestRecord.IterationIndex, 49
MetaData, TestRecord.Preservation, true
MetaData, TestRecord.Flag, 
MetaData, TestRecord.Remarks, 
MetaData, TestRecord.LinkKey, f64e7d68-beca-4d62-be5f-43395f500787
Dimension1, 101, 101, 101
Dimension2, 1, 1, 1
DataName, V1, I1, Ohmic
DataValue, -1, -2.4004E-10, 3611189810.0642471
DataValue, -0.98000000000000009, -2.3809E-10, 
DataValue, -0.96000000000000008, -2.308E-10, 
DataValue, -0.94000000000000006, -2.2815E-10, 
DataValue, -0.92, -2.2334E-10, 
DataValue, -0.9, -2.1882E-10, 
DataValue, -0.88, -2.1759E-10, 
DataValue, -0.86, -2.118E-10, 
DataValue, -0.84000000000000008, -2.0633E-10, 
DataValue, -0.82000000000000006, -2.0156E-10, 
DataValue, -0.8, -1.9492E-10, 
DataValue, -0.78, -1.901E-10, 
DataValue, -0.76, -1.8682E-10, 
DataValue, -0.74, -1.8322E-10, 
DataValue, -0.72000000000000008, -1.796E-10, 
DataValue, -0.70000000000000007, -1.7378E-10, 
DataValue, -0.68, -1.6867E-10, 
DataValue, -0.66, -1.6519E-10, 
DataValue, -0.64, -1.557E-10, 
DataValue, -0.62, -1.546E-10, 
DataValue, -0.6, -1.4976E-10, 
DataValue, -0.58000000000000007, -1.4216E-10, 
DataValue, -0.56, -1.3625E-10, 
DataValue, -0.54, -1.3097E-10, 
DataValue, -0.52, -1.2936E-10, 
DataValue, -0.5, -1.2136E-10, 
DataValue, -0.48000000000000004, -1.1676E-10, 
DataValue, -0.46, -1.1272E-10, 
DataValue, -0.44, -1.08E-10, 
DataValue, -0.42000000000000004, -1.0245E-10, 
DataValue, -0.4, -9.746E-11, 
DataValue, -0.38, -9.03E-11, 
DataValue, -0.36000000000000004, -8.807E-11, 
DataValue, -0.34, -8.075E-11, 
DataValue, -0.32, -7.606E-11, 
DataValue, -0.3, -7.042E-11, 
DataValue, -0.28, -6.727E-11, 
DataValue, -0.26, -6.264E-11, 
DataValue, -0.24000000000000002, -5.918E-11, 
DataValue, -0.22, -5.299E-11, 
DataValue, -0.2, -4.889E-11, 
DataValue, -0.18000000000000002, -4.586E-11, 
DataValue, -0.16, -4.329E-11, 
DataValue, -0.14, -3.937E-11, 
DataValue, -0.12000000000000001, -3.544E-11, 
DataValue, -0.1, -2.789E-11, 
DataValue, -0.08, -2.399E-11, 
DataValue, -0.060000000000000005, -1.643E-11, 
DataValue, -0.04, -8.58E-12, 
DataValue, -0.02, 8.1E-13, 
DataValue, 0, 1.111E-11, 
DataValue, 0.02, 1.806E-11, 
DataValue, 0.04, 2.305E-11, 
DataValue, 0.060000000000000005, 3.034E-11, 
DataValue, 0.08, 3.2E-11, 
DataValue, 0.1, 3.514E-11, 
DataValue, 0.12000000000000001, 3.951E-11, 
DataValue, 0.14, 4.034E-11, 
DataValue, 0.16, 4.369E-11, 
DataValue, 0.18000000000000002, 4.799E-11, 
DataValue, 0.2, 4.977E-11, 
DataValue, 0.22, 5.489E-11, 
DataValue, 0.24000000000000002, 5.533E-11, 
DataValue, 0.26, 6.104E-11, 
DataValue, 0.28, 6.728E-11, 
DataValue, 0.3, 6.771E-11, 
DataValue, 0.32, 7.202E-11, 
DataValue, 0.34, 7.85E-11, 
DataValue, 0.36000000000000004, 7.903E-11, 
DataValue, 0.38, 8.539E-11, 
DataValue, 0.4, 8.928E-11, 
DataValue, 0.42000000000000004, 9.325E-11, 
DataValue, 0.44, 9.71E-11, 
DataValue, 0.46, 1.0476E-10, 
DataValue, 0.48000000000000004, 1.0668E-10, 
DataValue, 0.5, 1.1808E-10, 
DataValue, 0.52, 1.2153E-10, 
DataValue, 0.54, 1.2861E-10, 
DataValue, 0.56, 1.3057E-10, 
DataValue, 0.58000000000000007, 1.3967E-10, 
DataValue, 0.6, 1.4446E-10, 
DataValue, 0.62, 1.4789E-10, 
DataValue, 0.64, 1.5748E-10, 
DataValue, 0.66, 1.6731E-10, 
DataValue, 0.68, 1.7465E-10, 
DataValue, 0.70000000000000007, 1.7827E-10, 
DataValue, 0.72000000000000008, 1.9254E-10, 
DataValue, 0.74, 1.8918E-10, 
DataValue, 0.76, 1.9334E-10, 
DataValue, 0.78, 1.8985E-10, 
DataValue, 0.8, 2.05E-10, 
DataValue, 0.82000000000000006, 2.101E-10, 
DataValue, 0.84000000000000008, 2.1789E-10, 
DataValue, 0.86, 2.224E-10, 
DataValue, 0.88, 2.3633E-10, 
DataValue, 0.9, 2.4304E-10, 
DataValue, 0.92, 2.5142E-10, 
DataValue, 0.94000000000000006, 2.6001E-10, 
DataValue, 0.96000000000000008, 2.6363E-10, 
DataValue, 0.98000000000000009, 2.7187E-10, 
DataValue, 1, 2.7843E-10, 