
SetupTitle, WW
PrimitiveTest, I/V Sweep
TestParameter, Context.MainFrame, B1500A
TestParameter, Channel.UnitType, SMU, SMU
TestParameter, Channel.Unit, SMU2:HP, SMU1:HP
TestParameter, Channel.IName, I1, I4
TestParameter, Channel.VName, V1, V4
TestParameter, Channel.Mode, V, COMMON
TestParameter, Channel.Func, VAR1, CONST
TestParameter, Channel.Index, 
TestParameter, Channel.Time, 
TestParameter, Measurement.Port.Unit, SMU2:HP, SMU1:HP
TestParameter, Measurement.Port.SeriesResistor, NONE, NONE
TestParameter, Measurement.Port.Filter, ON, ON
TestParameter, Measurement.Port.OutputVoltageComparison, 0, 0
TestParameter, Measurement.Primary.Locus, Single
TestParameter, Measurement.Primary.Scale, LINEAR
TestParameter, Measurement.Primary.Start, -1
TestParameter, Measurement.Primary.Stop, 1
TestParameter, Measurement.Primary.Step, 0.02
TestParameter, Measurement.Primary.Compliance, 0.01
TestParameter, Measurement.Primary.PowerCompliance, 0
TestParameter, Measurement.Aborting.Condition, CONTINUE AT ANY
TestParameter, Measurement.PostOutput.Value, START
TestParameter, Measurement.PostOutput.Retention, OFF
TestParameter, Measurement.Bias.Source, -1, 0
TestParameter, Measurement.Bias.Compliance, 0.01, 1
TestParameter, Measurement.Monitor.Unit, SMU2:HP, SMU1:HP
TestParameter, Measurement.Monitor.Adc, HR ADC, HR ADC
TestParameter, Measurement.Monitor.Measurement, Compliance Side, Compliance Side
TestParameter, Measurement.Monitor.RangingMode, AUTO, AUTO
TestParameter, Measurement.Monitor.RangeBoundary, , 
TestParameter, Measurement.Monitor.RangeRating, BY FULL RANGE, BY FULL RANGE
TestParameter, Measurement.Monitor.RangeRatingCoeff, 50, 50
TestParameter, Measurement.Timing.Hold, 0
TestParameter, Measurement.Timing.Delay, 0.001
TestParameter, Measurement.Adc.HighSpeed.Mode, AUTO
TestParameter, Measurement.Adc.HighSpeed.Coeff, 1
TestParameter, Measurement.Adc.HighResolution.AutoZero, OFF
TestParameter, Measurement.Adc.HighResolution.Mode, PLC
TestParameter, Measurement.Adc.HighResolution.Coeff, 1
TestParameter, Measurement.WaitTime.Source.Coeff, 1
TestParameter, Measurement.WaitTime.Source.Offset, 0
TestParameter, Measurement.WaitTime.Monitor.Coeff, 1
TestParameter, Measurement.WaitTime.Monitor.Offset, 0
TestParameter, Function.User.Name, Ohmic
TestParameter, Function.User.Unit, ohm
TestParameter, Function.User.Definition, avg(V1/I1)
TestParameter, Output.Graph.Enabled, true
TestParameter, Output.Graph.XAxis.Data, V1
TestParameter, Output.Graph.XAxis.Scale, Linear
TestParameter, Output.Graph.XAxis.Left, -5
TestParameter, Output.Graph.XAxis.Right, 5
TestParameter, Output.Graph.YAxis.Data, I1
TestParameter, Output.Graph.YAxis.Scale, Linear
TestParameter, Output.Graph.YAxis.Bottom, -0.001
TestParameter, Output.Graph.YAxis.Top, 0.001
TestParameter, Output.Graph.YAxis.Group, 
TestParameter, Output.Scalar.Data, Ohmic
TestParameter, AutoAnalysis.Interpolation, false
TestParameter, AutoAnalysis.Line1.Enabled, false
TestParameter, AutoAnalysis.Line1.Type, 1
TestParameter, AutoAnalysis.Line1.Fix, True
TestParameter, AutoAnalysis.Line1.YAxis, 0
TestParameter, AutoAnalysis.Line1.Point1.Type, 0
TestParameter, AutoAnalysis.Line1.Point1.XY.X, 
TestParameter, AutoAnalysis.Line1.Point1.XY.Y, 
TestParameter, AutoAnalysis.Line1.Point1.Data.Var, 
TestParameter, AutoAnalysis.Line1.Point1.Data.Condition, 
TestParameter, AutoAnalysis.Line1.Point1.Data.Start, false
TestParameter, AutoAnalysis.Line1.Point1.Data.StartVar, 
TestParameter, AutoAnalysis.Line1.Point1.Data.StartCondition, 
TestParameter, AutoAnalysis.Line1.Point2.Type, 0
TestParameter, AutoAnalysis.Line1.Point2.XY.X, 
TestParameter, AutoAnalysis.Line1.Point2.XY.Y, 
TestParameter, AutoAnalysis.Line1.Point2.Data.Var, 
TestParameter, AutoAnalysis.Line1.Point2.Data.Condition, 
TestParameter, AutoAnalysis.Line1.Point2.Data.Start, false
TestParameter, AutoAnalysis.Line1.Point2.Data.StartVar, 
TestParameter, AutoAnalysis.Line1.Point2.Data.StartCondition, 
TestParameter, AutoAnalysis.Line1.GradientExpr, 0
TestParameter, AutoAnalysis.Line2.Enabled, false
TestParameter, AutoAnalysis.Line2.Type, 1
TestParameter, AutoAnalysis.Line2.Fix, True
TestParameter, AutoAnalysis.Line2.YAxis, 0
TestParameter, AutoAnalysis.Line2.Point1.Type, 0
TestParameter, AutoAnalysis.Line2.Point1.XY.X, 
TestParameter, AutoAnalysis.Line2.Point1.XY.Y, 
TestParameter, AutoAnalysis.Line2.Point1.Data.Var, 
TestParameter, AutoAnalysis.Line2.Point1.Data.Condition, 
TestParameter, AutoAnalysis.Line2.Point1.Data.Start, false
TestParameter, AutoAnalysis.Line2.Point1.Data.StartVar, 
TestParameter, AutoAnalysis.Line2.Point1.Data.StartCondition, 
TestParameter, AutoAnalysis.Line2.Point2.Type, 0
TestParameter, AutoAnalysis.Line2.Point2.XY.X, 
TestParameter, AutoAnalysis.Line2.Point2.XY.Y, 
TestParameter, AutoAnalysis.Line2.Point2.Data.Var, 
TestParameter, AutoAnalysis.Line2.Point2.Data.Condition, 
TestParameter, AutoAnalysis.Line2.Point2.Data.Start, false
TestParameter, AutoAnalysis.Line2.Point2.Data.StartVar, 
TestParameter, AutoAnalysis.Line2.Point2.Data.StartCondition, 
TestParameter, AutoAnalysis.Line2.GradientExpr, 0
TestParameter, AutoAnalysis.Marker.Enabled, false
TestParameter, AutoAnalysis.Marker.Data.Var, 
TestParameter, AutoAnalysis.Marker.Data.Condition, 
TestParameter, AutoAnalysis.Marker.Data.Start, false
TestParameter, AutoAnalysis.Marker.Data.StartVar, 
TestParameter, AutoAnalysis.Marker.Data.StartCondition, 
MetaData, TestRecord.EntryPoint, true
MetaData, TestRecord.RecordTime, 01/18/2020 20:38:13
MetaData, TestRecord.TestTarget, 
MetaData, TestRecord.IterationIndex, 46
MetaData, TestRecord.Preservation, true
MetaData, TestRecord.Flag, 
MetaData, TestRecord.Remarks, 
MetaData, TestRecord.LinkKey, 177719b8-40c2-48a3-9535-d5aacc596c34
Dimension1, 101, 101, 101
Dimension2, 1, 1, 1
DataName, V1, I1, Ohmic
DataValue, -1, -2.2847E-10, 4112298628.0064559
DataValue, -0.98000000000000009, -2.2447E-10, 
DataValue, -0.96000000000000008, -2.254E-10, 
DataValue, -0.94000000000000006, -2.1891E-10, 
DataValue, -0.92, -2.07E-10, 
DataValue, -0.9, -1.9879E-10, 
DataValue, -0.88, -1.903E-10, 
DataValue, -0.86, -1.8628E-10, 
DataValue, -0.84000000000000008, -1.8937E-10, 
DataValue, -0.82000000000000006, -1.877E-10, 
DataValue, -0.8, -1.878E-10, 
DataValue, -0.78, -1.7632E-10, 
DataValue, -0.76, -1.7229E-10, 
DataValue, -0.74, -1.6893E-10, 
DataValue, -0.72000000000000008, -1.6478E-10, 
DataValue, -0.70000000000000007, -1.598E-10, 
DataValue, -0.68, -1.5791E-10, 
DataValue, -0.66, -1.5193E-10, 
DataValue, -0.64, -1.4644E-10, 
DataValue, -0.62, -1.388E-10, 
DataValue, -0.6, -1.3349E-10, 
DataValue, -0.58000000000000007, -1.2988E-10, 
DataValue, -0.56, -1.3081E-10, 
DataValue, -0.54, -1.2208E-10, 
DataValue, -0.52, -1.1865E-10, 
DataValue, -0.5, -1.1241E-10, 
DataValue, -0.48000000000000004, -1.1028E-10, 
DataValue, -0.46, -1.0698E-10, 
DataValue, -0.44, -1.0082E-10, 
DataValue, -0.42000000000000004, -9.692E-11, 
DataValue, -0.4, -9.036E-11, 
DataValue, -0.38, -8.511E-11, 
DataValue, -0.36000000000000004, -7.674E-11, 
DataValue, -0.34, -7.627E-11, 
DataValue, -0.32, -7.087E-11, 
DataValue, -0.3, -6.853E-11, 
DataValue, -0.28, -6.281E-11, 
DataValue, -0.26, -5.899E-11, 
DataValue, -0.24000000000000002, -5.406E-11, 
DataValue, -0.22, -4.927E-11, 
DataValue, -0.2, -4.355E-11, 
DataValue, -0.18000000000000002, -4.441E-11, 
DataValue, -0.16, -3.895E-11, 
DataValue, -0.14, -3.551E-11, 
DataValue, -0.12000000000000001, -3.339E-11, 
DataValue, -0.1, -2.734E-11, 
DataValue, -0.08, -2.074E-11, 
DataValue, -0.060000000000000005, -1.427E-11, 
DataValue, -0.04, -6.19E-12, 
DataValue, -0.02, 2.76E-12, 
DataValue, 0, 1.031E-11, 
DataValue, 0.02, 1.922E-11, 
DataValue, 0.04, 2.371E-11, 
DataValue, 0.060000000000000005, 2.958E-11, 
DataValue, 0.08, 3.201E-11, 
DataValue, 0.1, 3.602E-11, 
DataValue, 0.12000000000000001, 3.629E-11, 
DataValue, 0.14, 4.084E-11, 
DataValue, 0.16, 4.119E-11, 
DataValue, 0.18000000000000002, 4.316E-11, 
DataValue, 0.2, 4.597E-11, 
DataValue, 0.22, 4.956E-11, 
DataValue, 0.24000000000000002, 5.331E-11, 
DataValue, 0.26, 5.781E-11, 
DataValue, 0.28, 5.746E-11, 
DataValue, 0.3, 6.334E-11, 
DataValue, 0.32, 6.511E-11, 
DataValue, 0.34, 6.927E-11, 
DataValue, 0.36000000000000004, 7.378E-11, 
DataValue, 0.38, 7.746E-11, 
DataValue, 0.4, 8.113E-11, 
DataValue, 0.42000000000000004, 8.48E-11, 
DataValue, 0.44, 9.031E-11, 
DataValue, 0.46, 9.658E-11, 
DataValue, 0.48000000000000004, 1.0327E-10, 
DataValue, 0.5, 1.062E-10, 
DataValue, 0.52, 1.0982E-10, 
DataValue, 0.54, 1.1924E-10, 
DataValue, 0.56, 1.2253E-10, 
DataValue, 0.58000000000000007, 1.3032E-10, 
DataValue, 0.6, 1.2706E-10, 
DataValue, 0.62, 1.3584E-10, 
DataValue, 0.64, 1.4153E-10, 
DataValue, 0.66, 1.4663E-10, 
DataValue, 0.68, 1.5114E-10, 
DataValue, 0.70000000000000007, 1.6116E-10, 
DataValue, 0.72000000000000008, 1.6788E-10, 
DataValue, 0.74, 1.6892E-10, 
DataValue, 0.76, 1.7837E-10, 
DataValue, 0.78, 1.8481E-10, 
DataValue, 0.8, 1.898E-10, 
DataValue, 0.82000000000000006, 1.9772E-10, 
DataValue, 0.84000000000000008, 2.0079E-10, 
DataValue, 0.86, 2.1088E-10, 
DataValue, 0.88, 2.2188E-10, 
DataValue, 0.9, 2.2878E-10, 
DataValue, 0.92, 2.2875E-10, 
DataValue, 0.94000000000000006, 2.385E-10, 
DataValue, 0.96000000000000008, 2.4482E-10, 
DataValue, 0.98000000000000009, 2.4759E-10, 
DataValue, 1, 2.5735E-10, 