
SetupTitle, WW
PrimitiveTest, I/V Sweep
TestParameter, Context.MainFrame, B1500A
TestParameter, Channel.UnitType, SMU, SMU
TestParameter, Channel.Unit, SMU2:HP, SMU1:HP
TestParameter, Channel.IName, I1, I4
TestParameter, Channel.VName, V1, V4
TestParameter, Channel.Mode, V, COMMON
TestParameter, Channel.Func, VAR1, CONST
TestParameter, Channel.Index, 
TestParameter, Channel.Time, 
TestParameter, Measurement.Port.Unit, SMU2:HP, SMU1:HP
TestParameter, Measurement.Port.SeriesResistor, NONE, NONE
TestParameter, Measurement.Port.Filter, ON, ON
TestParameter, Measurement.Port.OutputVoltageComparison, 0, 0
TestParameter, Measurement.Primary.Locus, Single
TestParameter, Measurement.Primary.Scale, LINEAR
TestParameter, Measurement.Primary.Start, -1
TestParameter, Measurement.Primary.Stop, 1
TestParameter, Measurement.Primary.Step, 0.02
TestParameter, Measurement.Primary.Compliance, 0.01
TestParameter, Measurement.Primary.PowerCompliance, 0
TestParameter, Measurement.Aborting.Condition, CONTINUE AT ANY
TestParameter, Measurement.PostOutput.Value, START
TestParameter, Measurement.PostOutput.Retention, OFF
TestParameter, Measurement.Bias.Source, -1, 0
TestParameter, Measurement.Bias.Compliance, 0.01, 1
TestParameter, Measurement.Monitor.Unit, SMU2:HP, SMU1:HP
TestParameter, Measurement.Monitor.Adc, HR ADC, HR ADC
TestParameter, Measurement.Monitor.Measurement, Compliance Side, Compliance Side
TestParameter, Measurement.Monitor.RangingMode, AUTO, AUTO
TestParameter, Measurement.Monitor.RangeBoundary, , 
TestParameter, Measurement.Monitor.RangeRating, BY FULL RANGE, BY FULL RANGE
TestParameter, Measurement.Monitor.RangeRatingCoeff, 50, 50
TestParameter, Measurement.Timing.Hold, 0
TestParameter, Measurement.Timing.Delay, 0.001
TestParameter, Measurement.Adc.HighSpeed.Mode, AUTO
TestParameter, Measurement.Adc.HighSpeed.Coeff, 1
TestParameter, Measurement.Adc.HighResolution.AutoZero, OFF
TestParameter, Measurement.Adc.HighResolution.Mode, PLC
TestParameter, Measurement.Adc.HighResolution.Coeff, 1
TestParameter, Measurement.WaitTime.Source.Coeff, 1
TestParameter, Measurement.WaitTime.Source.Offset, 0
TestParameter, Measurement.WaitTime.Monitor.Coeff, 1
TestParameter, Measurement.WaitTime.Monitor.Offset, 0
TestParameter, Function.User.Name, Ohmic
TestParameter, Function.User.Unit, ohm
TestParameter, Function.User.Definition, avg(V1/I1)
TestParameter, Output.Graph.Enabled, true
TestParameter, Output.Graph.XAxis.Data, V1
TestParameter, Output.Graph.XAxis.Scale, Linear
TestParameter, Output.Graph.XAxis.Left, -5
TestParameter, Output.Graph.XAxis.Right, 5
TestParameter, Output.Graph.YAxis.Data, I1
TestParameter, Output.Graph.YAxis.Scale, Linear
TestParameter, Output.Graph.YAxis.Bottom, -0.001
TestParameter, Output.Graph.YAxis.Top, 0.001
TestParameter, Output.Graph.YAxis.Group, 
TestParameter, Output.Scalar.Data, Ohmic
TestParameter, AutoAnalysis.Interpolation, false
TestParameter, AutoAnalysis.Line1.Enabled, false
TestParameter, AutoAnalysis.Line1.Type, 1
TestParameter, AutoAnalysis.Line1.Fix, True
TestParameter, AutoAnalysis.Line1.YAxis, 0
TestParameter, AutoAnalysis.Line1.Point1.Type, 0
TestParameter, AutoAnalysis.Line1.Point1.XY.X, 
TestParameter, AutoAnalysis.Line1.Point1.XY.Y, 
TestParameter, AutoAnalysis.Line1.Point1.Data.Var, 
TestParameter, AutoAnalysis.Line1.Point1.Data.Condition, 
TestParameter, AutoAnalysis.Line1.Point1.Data.Start, false
TestParameter, AutoAnalysis.Line1.Point1.Data.StartVar, 
TestParameter, AutoAnalysis.Line1.Point1.Data.StartCondition, 
TestParameter, AutoAnalysis.Line1.Point2.Type, 0
TestParameter, AutoAnalysis.Line1.Point2.XY.X, 
TestParameter, AutoAnalysis.Line1.Point2.XY.Y, 
TestParameter, AutoAnalysis.Line1.Point2.Data.Var, 
TestParameter, AutoAnalysis.Line1.Point2.Data.Condition, 
TestParameter, AutoAnalysis.Line1.Point2.Data.Start, false
TestParameter, AutoAnalysis.Line1.Point2.Data.StartVar, 
TestParameter, AutoAnalysis.Line1.Point2.Data.StartCondition, 
TestParameter, AutoAnalysis.Line1.GradientExpr, 0
TestParameter, AutoAnalysis.Line2.Enabled, false
TestParameter, AutoAnalysis.Line2.Type, 1
TestParameter, AutoAnalysis.Line2.Fix, True
TestParameter, AutoAnalysis.Line2.YAxis, 0
TestParameter, AutoAnalysis.Line2.Point1.Type, 0
TestParameter, AutoAnalysis.Line2.Point1.XY.X, 
TestParameter, AutoAnalysis.Line2.Point1.XY.Y, 
TestParameter, AutoAnalysis.Line2.Point1.Data.Var, 
TestParameter, AutoAnalysis.Line2.Point1.Data.Condition, 
TestParameter, AutoAnalysis.Line2.Point1.Data.Start, false
TestParameter, AutoAnalysis.Line2.Point1.Data.StartVar, 
TestParameter, AutoAnalysis.Line2.Point1.Data.StartCondition, 
TestParameter, AutoAnalysis.Line2.Point2.Type, 0
TestParameter, AutoAnalysis.Line2.Point2.XY.X, 
TestParameter, AutoAnalysis.Line2.Point2.XY.Y, 
TestParameter, AutoAnalysis.Line2.Point2.Data.Var, 
TestParameter, AutoAnalysis.Line2.Point2.Data.Condition, 
TestParameter, AutoAnalysis.Line2.Point2.Data.Start, false
TestParameter, AutoAnalysis.Line2.Point2.Data.StartVar, 
TestParameter, AutoAnalysis.Line2.Point2.Data.StartCondition, 
TestParameter, AutoAnalysis.Line2.GradientExpr, 0
TestParameter, AutoAnalysis.Marker.Enabled, false
TestParameter, AutoAnalysis.Marker.Data.Var, 
TestParameter, AutoAnalysis.Marker.Data.Condition, 
TestParameter, AutoAnalysis.Marker.Data.Start, false
TestParameter, AutoAnalysis.Marker.Data.StartVar, 
TestParameter, AutoAnalysis.Marker.Data.StartCondition, 
MetaData, TestRecord.EntryPoint, true
MetaData, TestRecord.RecordTime, 01/18/2020 20:37:44
MetaData, TestRecord.TestTarget, 
MetaData, TestRecord.IterationIndex, 45
MetaData, TestRecord.Preservation, true
MetaData, TestRecord.Flag, 
MetaData, TestRecord.Remarks, 
MetaData, TestRecord.LinkKey, 3f541cf1-bc3c-4acd-b4e1-ddd378df4a0a
Dimension1, 101, 101, 101
Dimension2, 1, 1, 1
DataName, V1, I1, Ohmic
DataValue, -1, -2.1617E-10, 4675094410.77647
DataValue, -0.98000000000000009, -2.0887E-10, 
DataValue, -0.96000000000000008, -2.0626E-10, 
DataValue, -0.94000000000000006, -1.9962999999999999E-10, 
DataValue, -0.92, -1.9515E-10, 
DataValue, -0.9, -1.8842E-10, 
DataValue, -0.88, -1.8237E-10, 
DataValue, -0.86, -1.8168E-10, 
DataValue, -0.84000000000000008, -1.7889E-10, 
DataValue, -0.82000000000000006, -1.7176E-10, 
DataValue, -0.8, -1.6941E-10, 
DataValue, -0.78, -1.6585E-10, 
DataValue, -0.76, -1.6079E-10, 
DataValue, -0.74, -1.5604E-10, 
DataValue, -0.72000000000000008, -1.5327E-10, 
DataValue, -0.70000000000000007, -1.5068E-10, 
DataValue, -0.68, -1.4586E-10, 
DataValue, -0.66, -1.4542E-10, 
DataValue, -0.64, -1.3971E-10, 
DataValue, -0.62, -1.3397E-10, 
DataValue, -0.6, -1.2583E-10, 
DataValue, -0.58000000000000007, -1.2255E-10, 
DataValue, -0.56, -1.1794E-10, 
DataValue, -0.54, -1.146E-10, 
DataValue, -0.52, -1.1158E-10, 
DataValue, -0.5, -1.0695E-10, 
DataValue, -0.48000000000000004, -9.951E-11, 
DataValue, -0.46, -9.466E-11, 
DataValue, -0.44, -8.988E-11, 
DataValue, -0.42000000000000004, -8.763E-11, 
DataValue, -0.4, -8.146E-11, 
DataValue, -0.38, -7.635E-11, 
DataValue, -0.36000000000000004, -7.217E-11, 
DataValue, -0.34, -6.948E-11, 
DataValue, -0.32, -6.519E-11, 
DataValue, -0.3, -5.912E-11, 
DataValue, -0.28, -5.526E-11, 
DataValue, -0.26, -5.292E-11, 
DataValue, -0.24000000000000002, -4.914E-11, 
DataValue, -0.22, -4.559E-11, 
DataValue, -0.2, -4.16E-11, 
DataValue, -0.18000000000000002, -3.863E-11, 
DataValue, -0.16, -3.423E-11, 
DataValue, -0.14, -3.095E-11, 
DataValue, -0.12000000000000001, -2.701E-11, 
DataValue, -0.1, -2.472E-11, 
DataValue, -0.08, -1.819E-11, 
DataValue, -0.060000000000000005, -1.271E-11, 
DataValue, -0.04, -6E-12, 
DataValue, -0.02, 1.7299999999999999E-12, 
DataValue, 0, 8.04E-12, 
DataValue, 0.02, 1.432E-11, 
DataValue, 0.04, 1.869E-11, 
DataValue, 0.060000000000000005, 2.156E-11, 
DataValue, 0.08, 2.412E-11, 
DataValue, 0.1, 2.719E-11, 
DataValue, 0.12000000000000001, 2.895E-11, 
DataValue, 0.14, 3.103E-11, 
DataValue, 0.16, 3.345E-11, 
DataValue, 0.18000000000000002, 3.574E-11, 
DataValue, 0.2, 3.785E-11, 
DataValue, 0.22, 4.018E-11, 
DataValue, 0.24000000000000002, 4.316E-11, 
DataValue, 0.26, 4.59E-11, 
DataValue, 0.28, 5.014E-11, 
DataValue, 0.3, 5.286E-11, 
DataValue, 0.32, 5.589E-11, 
DataValue, 0.34, 5.901E-11, 
DataValue, 0.36000000000000004, 6.174E-11, 
DataValue, 0.38, 6.646E-11, 
DataValue, 0.4, 6.889E-11, 
DataValue, 0.42000000000000004, 7.221E-11, 
DataValue, 0.44, 7.612E-11, 
DataValue, 0.46, 7.955E-11, 
DataValue, 0.48000000000000004, 8.474E-11, 
DataValue, 0.5, 9.022E-11, 
DataValue, 0.52, 9.458E-11, 
DataValue, 0.54, 1.0327E-10, 
DataValue, 0.56, 1.0424E-10, 
DataValue, 0.58000000000000007, 1.0463E-10, 
DataValue, 0.6, 1.0661E-10, 
DataValue, 0.62, 1.1223E-10, 
DataValue, 0.64, 1.1644E-10, 
DataValue, 0.66, 1.224E-10, 
DataValue, 0.68, 1.2688E-10, 
DataValue, 0.70000000000000007, 1.3552E-10, 
DataValue, 0.72000000000000008, 1.409E-10, 
DataValue, 0.74, 1.4714E-10, 
DataValue, 0.76, 1.4841E-10, 
DataValue, 0.78, 1.5316E-10, 
DataValue, 0.8, 1.5937E-10, 
DataValue, 0.82000000000000006, 1.6742E-10, 
DataValue, 0.84000000000000008, 1.7193E-10, 
DataValue, 0.86, 1.821E-10, 
DataValue, 0.88, 1.8256E-10, 
DataValue, 0.9, 1.8882E-10, 
DataValue, 0.92, 1.9003E-10, 
DataValue, 0.94000000000000006, 1.9636E-10, 
DataValue, 0.96000000000000008, 2.0267E-10, 
DataValue, 0.98000000000000009, 2.0932E-10, 
DataValue, 1, 2.1435E-10, 