
SetupTitle, WW
PrimitiveTest, I/V Sweep
TestParameter, Context.MainFrame, B1500A
TestParameter, Channel.UnitType, SMU, SMU
TestParameter, Channel.Unit, SMU2:HP, SMU1:HP
TestParameter, Channel.IName, I1, I4
TestParameter, Channel.VName, V1, V4
TestParameter, Channel.Mode, V, COMMON
TestParameter, Channel.Func, VAR1, CONST
TestParameter, Channel.Index, 
TestParameter, Channel.Time, 
TestParameter, Measurement.Port.Unit, SMU2:HP, SMU1:HP
TestParameter, Measurement.Port.SeriesResistor, NONE, NONE
TestParameter, Measurement.Port.Filter, ON, ON
TestParameter, Measurement.Port.OutputVoltageComparison, 0, 0
TestParameter, Measurement.Primary.Locus, Single
TestParameter, Measurement.Primary.Scale, LINEAR
TestParameter, Measurement.Primary.Start, -1
TestParameter, Measurement.Primary.Stop, 1
TestParameter, Measurement.Primary.Step, 0.02
TestParameter, Measurement.Primary.Compliance, 0.01
TestParameter, Measurement.Primary.PowerCompliance, 0
TestParameter, Measurement.Aborting.Condition, CONTINUE AT ANY
TestParameter, Measurement.PostOutput.Value, START
TestParameter, Measurement.PostOutput.Retention, OFF
TestParameter, Measurement.Bias.Source, -1, 0
TestParameter, Measurement.Bias.Compliance, 0.01, 1
TestParameter, Measurement.Monitor.Unit, SMU2:HP, SMU1:HP
TestParameter, Measurement.Monitor.Adc, HR ADC, HR ADC
TestParameter, Measurement.Monitor.Measurement, Compliance Side, Compliance Side
TestParameter, Measurement.Monitor.RangingMode, AUTO, AUTO
TestParameter, Measurement.Monitor.RangeBoundary, , 
TestParameter, Measurement.Monitor.RangeRating, BY FULL RANGE, BY FULL RANGE
TestParameter, Measurement.Monitor.RangeRatingCoeff, 50, 50
TestParameter, Measurement.Timing.Hold, 0
TestParameter, Measurement.Timing.Delay, 0.001
TestParameter, Measurement.Adc.HighSpeed.Mode, AUTO
TestParameter, Measurement.Adc.HighSpeed.Coeff, 1
TestParameter, Measurement.Adc.HighResolution.AutoZero, OFF
TestParameter, Measurement.Adc.HighResolution.Mode, PLC
TestParameter, Measurement.Adc.HighResolution.Coeff, 1
TestParameter, Measurement.WaitTime.Source.Coeff, 1
TestParameter, Measurement.WaitTime.Source.Offset, 0
TestParameter, Measurement.WaitTime.Monitor.Coeff, 1
TestParameter, Measurement.WaitTime.Monitor.Offset, 0
TestParameter, Function.User.Name, Ohmic
TestParameter, Function.User.Unit, ohm
TestParameter, Function.User.Definition, avg(V1/I1)
TestParameter, Output.Graph.Enabled, true
TestParameter, Output.Graph.XAxis.Data, V1
TestParameter, Output.Graph.XAxis.Scale, Linear
TestParameter, Output.Graph.XAxis.Left, -5
TestParameter, Output.Graph.XAxis.Right, 5
TestParameter, Output.Graph.YAxis.Data, I1
TestParameter, Output.Graph.YAxis.Scale, Linear
TestParameter, Output.Graph.YAxis.Bottom, -0.001
TestParameter, Output.Graph.YAxis.Top, 0.001
TestParameter, Output.Graph.YAxis.Group, 
TestParameter, Output.Scalar.Data, Ohmic
TestParameter, AutoAnalysis.Interpolation, false
TestParameter, AutoAnalysis.Line1.Enabled, false
TestParameter, AutoAnalysis.Line1.Type, 1
TestParameter, AutoAnalysis.Line1.Fix, True
TestParameter, AutoAnalysis.Line1.YAxis, 0
TestParameter, AutoAnalysis.Line1.Point1.Type, 0
TestParameter, AutoAnalysis.Line1.Point1.XY.X, 
TestParameter, AutoAnalysis.Line1.Point1.XY.Y, 
TestParameter, AutoAnalysis.Line1.Point1.Data.Var, 
TestParameter, AutoAnalysis.Line1.Point1.Data.Condition, 
TestParameter, AutoAnalysis.Line1.Point1.Data.Start, false
TestParameter, AutoAnalysis.Line1.Point1.Data.StartVar, 
TestParameter, AutoAnalysis.Line1.Point1.Data.StartCondition, 
TestParameter, AutoAnalysis.Line1.Point2.Type, 0
TestParameter, AutoAnalysis.Line1.Point2.XY.X, 
TestParameter, AutoAnalysis.Line1.Point2.XY.Y, 
TestParameter, AutoAnalysis.Line1.Point2.Data.Var, 
TestParameter, AutoAnalysis.Line1.Point2.Data.Condition, 
TestParameter, AutoAnalysis.Line1.Point2.Data.Start, false
TestParameter, AutoAnalysis.Line1.Point2.Data.StartVar, 
TestParameter, AutoAnalysis.Line1.Point2.Data.StartCondition, 
TestParameter, AutoAnalysis.Line1.GradientExpr, 0
TestParameter, AutoAnalysis.Line2.Enabled, false
TestParameter, AutoAnalysis.Line2.Type, 1
TestParameter, AutoAnalysis.Line2.Fix, True
TestParameter, AutoAnalysis.Line2.YAxis, 0
TestParameter, AutoAnalysis.Line2.Point1.Type, 0
TestParameter, AutoAnalysis.Line2.Point1.XY.X, 
TestParameter, AutoAnalysis.Line2.Point1.XY.Y, 
TestParameter, AutoAnalysis.Line2.Point1.Data.Var, 
TestParameter, AutoAnalysis.Line2.Point1.Data.Condition, 
TestParameter, AutoAnalysis.Line2.Point1.Data.Start, false
TestParameter, AutoAnalysis.Line2.Point1.Data.StartVar, 
TestParameter, AutoAnalysis.Line2.Point1.Data.StartCondition, 
TestParameter, AutoAnalysis.Line2.Point2.Type, 0
TestParameter, AutoAnalysis.Line2.Point2.XY.X, 
TestParameter, AutoAnalysis.Line2.Point2.XY.Y, 
TestParameter, AutoAnalysis.Line2.Point2.Data.Var, 
TestParameter, AutoAnalysis.Line2.Point2.Data.Condition, 
TestParameter, AutoAnalysis.Line2.Point2.Data.Start, false
TestParameter, AutoAnalysis.Line2.Point2.Data.StartVar, 
TestParameter, AutoAnalysis.Line2.Point2.Data.StartCondition, 
TestParameter, AutoAnalysis.Line2.GradientExpr, 0
TestParameter, AutoAnalysis.Marker.Enabled, false
TestParameter, AutoAnalysis.Marker.Data.Var, 
TestParameter, AutoAnalysis.Marker.Data.Condition, 
TestParameter, AutoAnalysis.Marker.Data.Start, false
TestParameter, AutoAnalysis.Marker.Data.StartVar, 
TestParameter, AutoAnalysis.Marker.Data.StartCondition, 
MetaData, TestRecord.EntryPoint, true
MetaData, TestRecord.RecordTime, 01/18/2020 20:37:16
MetaData, TestRecord.TestTarget, 
MetaData, TestRecord.IterationIndex, 44
MetaData, TestRecord.Preservation, true
MetaData, TestRecord.Flag, 
MetaData, TestRecord.Remarks, 
MetaData, TestRecord.LinkKey, 03e9b408-424f-40d4-b5eb-089e2f2c8145
Dimension1, 101, 101, 101
Dimension2, 1, 1, 1
DataName, V1, I1, Ohmic
DataValue, -1, -2.0087E-10, 4796039595.8489285
DataValue, -0.98000000000000009, -1.9198E-10, 
DataValue, -0.96000000000000008, -1.8851E-10, 
DataValue, -0.94000000000000006, -1.8363E-10, 
DataValue, -0.92, -1.7855E-10, 
DataValue, -0.9, -1.7306E-10, 
DataValue, -0.88, -1.7316E-10, 
DataValue, -0.86, -1.7057E-10, 
DataValue, -0.84000000000000008, -1.6677E-10, 
DataValue, -0.82000000000000006, -1.6169E-10, 
DataValue, -0.8, -1.5935E-10, 
DataValue, -0.78, -1.5718E-10, 
DataValue, -0.76, -1.5615E-10, 
DataValue, -0.74, -1.4842E-10, 
DataValue, -0.72000000000000008, -1.4414E-10, 
DataValue, -0.70000000000000007, -1.3654E-10, 
DataValue, -0.68, -1.3639E-10, 
DataValue, -0.66, -1.2866E-10, 
DataValue, -0.64, -1.2967E-10, 
DataValue, -0.62, -1.2423E-10, 
DataValue, -0.6, -1.2331E-10, 
DataValue, -0.58000000000000007, -1.1801E-10, 
DataValue, -0.56, -1.1586E-10, 
DataValue, -0.54, -1.0768E-10, 
DataValue, -0.52, -9.742E-11, 
DataValue, -0.5, -9.169E-11, 
DataValue, -0.48000000000000004, -9.698E-11, 
DataValue, -0.46, -8.896E-11, 
DataValue, -0.44, -8.425E-11, 
DataValue, -0.42000000000000004, -8.138E-11, 
DataValue, -0.4, -7.91E-11, 
DataValue, -0.38, -7.246E-11, 
DataValue, -0.36000000000000004, -7.009E-11, 
DataValue, -0.34, -6.475E-11, 
DataValue, -0.32, -6.336E-11, 
DataValue, -0.3, -5.649E-11, 
DataValue, -0.28, -5.215E-11, 
DataValue, -0.26, -4.7349999999999997E-11, 
DataValue, -0.24000000000000002, -4.749E-11, 
DataValue, -0.22, -4.269E-11, 
DataValue, -0.2, -4.014E-11, 
DataValue, -0.18000000000000002, -3.553E-11, 
DataValue, -0.16, -3.437E-11, 
DataValue, -0.14, -2.834E-11, 
DataValue, -0.12000000000000001, -2.66E-11, 
DataValue, -0.1, -2.09E-11, 
DataValue, -0.08, -1.902E-11, 
DataValue, -0.060000000000000005, -1.183E-11, 
DataValue, -0.04, -6.63E-12, 
DataValue, -0.02, 2.64E-12, 
DataValue, 0, 8.04E-12, 
DataValue, 0.02, 1.595E-11, 
DataValue, 0.04, 1.921E-11, 
DataValue, 0.060000000000000005, 2.476E-11, 
DataValue, 0.08, 2.682E-11, 
DataValue, 0.1, 3.037E-11, 
DataValue, 0.12000000000000001, 3.13E-11, 
DataValue, 0.14, 3.525E-11, 
DataValue, 0.16, 3.526E-11, 
DataValue, 0.18000000000000002, 3.833E-11, 
DataValue, 0.2, 3.889E-11, 
DataValue, 0.22, 4.323E-11, 
DataValue, 0.24000000000000002, 4.442E-11, 
DataValue, 0.26, 4.903E-11, 
DataValue, 0.28, 4.945E-11, 
DataValue, 0.3, 5.462E-11, 
DataValue, 0.32, 5.543E-11, 
DataValue, 0.34, 6.178E-11, 
DataValue, 0.36000000000000004, 6.219E-11, 
DataValue, 0.38, 6.692E-11, 
DataValue, 0.4, 6.908E-11, 
DataValue, 0.42000000000000004, 7.432E-11, 
DataValue, 0.44, 7.706E-11, 
DataValue, 0.46, 8.179E-11, 
DataValue, 0.48000000000000004, 8.525E-11, 
DataValue, 0.5, 8.743E-11, 
DataValue, 0.52, 9.446E-11, 
DataValue, 0.54, 9.782E-11, 
DataValue, 0.56, 9.921E-11, 
DataValue, 0.58000000000000007, 1.0668E-10, 
DataValue, 0.6, 1.1235E-10, 
DataValue, 0.62, 1.1746E-10, 
DataValue, 0.64, 1.1974E-10, 
DataValue, 0.66, 1.2912E-10, 
DataValue, 0.68, 1.2976E-10, 
DataValue, 0.70000000000000007, 1.3843E-10, 
DataValue, 0.72000000000000008, 1.4309E-10, 
DataValue, 0.74, 1.4488E-10, 
DataValue, 0.76, 1.4904E-10, 
DataValue, 0.78, 1.5518E-10, 
DataValue, 0.8, 1.614E-10, 
DataValue, 0.82000000000000006, 1.6771E-10, 
DataValue, 0.84000000000000008, 1.7554E-10, 
DataValue, 0.86, 1.82E-10, 
DataValue, 0.88, 1.8358E-10, 
DataValue, 0.9, 1.9158E-10, 
DataValue, 0.92, 1.9547E-10, 
DataValue, 0.94000000000000006, 2.0113E-10, 
DataValue, 0.96000000000000008, 2.0652E-10, 
DataValue, 0.98000000000000009, 2.1528E-10, 
DataValue, 1, 2.1756E-10, 