
SetupTitle, WW
PrimitiveTest, I/V Sweep
TestParameter, Context.MainFrame, B1500A
TestParameter, Channel.UnitType, SMU, SMU
TestParameter, Channel.Unit, SMU2:HP, SMU1:HP
TestParameter, Channel.IName, I1, I4
TestParameter, Channel.VName, V1, V4
TestParameter, Channel.Mode, V, COMMON
TestParameter, Channel.Func, VAR1, CONST
TestParameter, Channel.Index, 
TestParameter, Channel.Time, 
TestParameter, Measurement.Port.Unit, SMU2:HP, SMU1:HP
TestParameter, Measurement.Port.SeriesResistor, NONE, NONE
TestParameter, Measurement.Port.Filter, ON, ON
TestParameter, Measurement.Port.OutputVoltageComparison, 0, 0
TestParameter, Measurement.Primary.Locus, Single
TestParameter, Measurement.Primary.Scale, LINEAR
TestParameter, Measurement.Primary.Start, -1
TestParameter, Measurement.Primary.Stop, 1
TestParameter, Measurement.Primary.Step, 0.02
TestParameter, Measurement.Primary.Compliance, 0.01
TestParameter, Measurement.Primary.PowerCompliance, 0
TestParameter, Measurement.Aborting.Condition, CONTINUE AT ANY
TestParameter, Measurement.PostOutput.Value, START
TestParameter, Measurement.PostOutput.Retention, OFF
TestParameter, Measurement.Bias.Source, -1, 0
TestParameter, Measurement.Bias.Compliance, 0.01, 1
TestParameter, Measurement.Monitor.Unit, SMU2:HP, SMU1:HP
TestParameter, Measurement.Monitor.Adc, HR ADC, HR ADC
TestParameter, Measurement.Monitor.Measurement, Compliance Side, Compliance Side
TestParameter, Measurement.Monitor.RangingMode, AUTO, AUTO
TestParameter, Measurement.Monitor.RangeBoundary, , 
TestParameter, Measurement.Monitor.RangeRating, BY FULL RANGE, BY FULL RANGE
TestParameter, Measurement.Monitor.RangeRatingCoeff, 50, 50
TestParameter, Measurement.Timing.Hold, 0
TestParameter, Measurement.Timing.Delay, 0.001
TestParameter, Measurement.Adc.HighSpeed.Mode, AUTO
TestParameter, Measurement.Adc.HighSpeed.Coeff, 1
TestParameter, Measurement.Adc.HighResolution.AutoZero, OFF
TestParameter, Measurement.Adc.HighResolution.Mode, PLC
TestParameter, Measurement.Adc.HighResolution.Coeff, 1
TestParameter, Measurement.WaitTime.Source.Coeff, 1
TestParameter, Measurement.WaitTime.Source.Offset, 0
TestParameter, Measurement.WaitTime.Monitor.Coeff, 1
TestParameter, Measurement.WaitTime.Monitor.Offset, 0
TestParameter, Function.User.Name, Ohmic
TestParameter, Function.User.Unit, ohm
TestParameter, Function.User.Definition, avg(V1/I1)
TestParameter, Output.Graph.Enabled, true
TestParameter, Output.Graph.XAxis.Data, V1
TestParameter, Output.Graph.XAxis.Scale, Linear
TestParameter, Output.Graph.XAxis.Left, -5
TestParameter, Output.Graph.XAxis.Right, 5
TestParameter, Output.Graph.YAxis.Data, I1
TestParameter, Output.Graph.YAxis.Scale, Linear
TestParameter, Output.Graph.YAxis.Bottom, -0.001
TestParameter, Output.Graph.YAxis.Top, 0.001
TestParameter, Output.Graph.YAxis.Group, 
TestParameter, Output.Scalar.Data, Ohmic
TestParameter, AutoAnalysis.Interpolation, false
TestParameter, AutoAnalysis.Line1.Enabled, false
TestParameter, AutoAnalysis.Line1.Type, 1
TestParameter, AutoAnalysis.Line1.Fix, True
TestParameter, AutoAnalysis.Line1.YAxis, 0
TestParameter, AutoAnalysis.Line1.Point1.Type, 0
TestParameter, AutoAnalysis.Line1.Point1.XY.X, 
TestParameter, AutoAnalysis.Line1.Point1.XY.Y, 
TestParameter, AutoAnalysis.Line1.Point1.Data.Var, 
TestParameter, AutoAnalysis.Line1.Point1.Data.Condition, 
TestParameter, AutoAnalysis.Line1.Point1.Data.Start, false
TestParameter, AutoAnalysis.Line1.Point1.Data.StartVar, 
TestParameter, AutoAnalysis.Line1.Point1.Data.StartCondition, 
TestParameter, AutoAnalysis.Line1.Point2.Type, 0
TestParameter, AutoAnalysis.Line1.Point2.XY.X, 
TestParameter, AutoAnalysis.Line1.Point2.XY.Y, 
TestParameter, AutoAnalysis.Line1.Point2.Data.Var, 
TestParameter, AutoAnalysis.Line1.Point2.Data.Condition, 
TestParameter, AutoAnalysis.Line1.Point2.Data.Start, false
TestParameter, AutoAnalysis.Line1.Point2.Data.StartVar, 
TestParameter, AutoAnalysis.Line1.Point2.Data.StartCondition, 
TestParameter, AutoAnalysis.Line1.GradientExpr, 0
TestParameter, AutoAnalysis.Line2.Enabled, false
TestParameter, AutoAnalysis.Line2.Type, 1
TestParameter, AutoAnalysis.Line2.Fix, True
TestParameter, AutoAnalysis.Line2.YAxis, 0
TestParameter, AutoAnalysis.Line2.Point1.Type, 0
TestParameter, AutoAnalysis.Line2.Point1.XY.X, 
TestParameter, AutoAnalysis.Line2.Point1.XY.Y, 
TestParameter, AutoAnalysis.Line2.Point1.Data.Var, 
TestParameter, AutoAnalysis.Line2.Point1.Data.Condition, 
TestParameter, AutoAnalysis.Line2.Point1.Data.Start, false
TestParameter, AutoAnalysis.Line2.Point1.Data.StartVar, 
TestParameter, AutoAnalysis.Line2.Point1.Data.StartCondition, 
TestParameter, AutoAnalysis.Line2.Point2.Type, 0
TestParameter, AutoAnalysis.Line2.Point2.XY.X, 
TestParameter, AutoAnalysis.Line2.Point2.XY.Y, 
TestParameter, AutoAnalysis.Line2.Point2.Data.Var, 
TestParameter, AutoAnalysis.Line2.Point2.Data.Condition, 
TestParameter, AutoAnalysis.Line2.Point2.Data.Start, false
TestParameter, AutoAnalysis.Line2.Point2.Data.StartVar, 
TestParameter, AutoAnalysis.Line2.Point2.Data.StartCondition, 
TestParameter, AutoAnalysis.Line2.GradientExpr, 0
TestParameter, AutoAnalysis.Marker.Enabled, false
TestParameter, AutoAnalysis.Marker.Data.Var, 
TestParameter, AutoAnalysis.Marker.Data.Condition, 
TestParameter, AutoAnalysis.Marker.Data.Start, false
TestParameter, AutoAnalysis.Marker.Data.StartVar, 
TestParameter, AutoAnalysis.Marker.Data.StartCondition, 
MetaData, TestRecord.EntryPoint, true
MetaData, TestRecord.RecordTime, 01/18/2020 20:36:24
MetaData, TestRecord.TestTarget, 
MetaData, TestRecord.IterationIndex, 43
MetaData, TestRecord.Preservation, true
MetaData, TestRecord.Flag, 
MetaData, TestRecord.Remarks, 
MetaData, TestRecord.LinkKey, d9e2c4be-76c2-4e40-8b3b-27d5d7f99732
Dimension1, 101, 101, 101
Dimension2, 1, 1, 1
DataName, V1, I1, Ohmic
DataValue, -1, -1.8058E-10, 5227771760.16712
DataValue, -0.98000000000000009, -1.7332E-10, 
DataValue, -0.96000000000000008, -1.674E-10, 
DataValue, -0.94000000000000006, -1.6383E-10, 
DataValue, -0.92, -1.6466E-10, 
DataValue, -0.9, -1.5744E-10, 
DataValue, -0.88, -1.5381E-10, 
DataValue, -0.86, -1.524E-10, 
DataValue, -0.84000000000000008, -1.4991E-10, 
DataValue, -0.82000000000000006, -1.4613E-10, 
DataValue, -0.8, -1.4036E-10, 
DataValue, -0.78, -1.3725E-10, 
DataValue, -0.76, -1.3369E-10, 
DataValue, -0.74, -1.3247E-10, 
DataValue, -0.72000000000000008, -1.2946E-10, 
DataValue, -0.70000000000000007, -1.2597E-10, 
DataValue, -0.68, -1.2132E-10, 
DataValue, -0.66, -1.1903E-10, 
DataValue, -0.64, -1.166E-10, 
DataValue, -0.62, -1.126E-10, 
DataValue, -0.6, -1.0994E-10, 
DataValue, -0.58000000000000007, -1.0609E-10, 
DataValue, -0.56, -1.0205E-10, 
DataValue, -0.54, -9.824E-11, 
DataValue, -0.52, -9.418E-11, 
DataValue, -0.5, -9.199E-11, 
DataValue, -0.48000000000000004, -8.796E-11, 
DataValue, -0.46, -8.274E-11, 
DataValue, -0.44, -7.705E-11, 
DataValue, -0.42000000000000004, -7.451E-11, 
DataValue, -0.4, -6.965E-11, 
DataValue, -0.38, -6.785E-11, 
DataValue, -0.36000000000000004, -6.485E-11, 
DataValue, -0.34, -6.217E-11, 
DataValue, -0.32, -5.776E-11, 
DataValue, -0.3, -5.443E-11, 
DataValue, -0.28, -5.107E-11, 
DataValue, -0.26, -4.761E-11, 
DataValue, -0.24000000000000002, -4.419E-11, 
DataValue, -0.22, -4.162E-11, 
DataValue, -0.2, -3.763E-11, 
DataValue, -0.18000000000000002, -3.576E-11, 
DataValue, -0.16, -3.244E-11, 
DataValue, -0.14, -2.951E-11, 
DataValue, -0.12000000000000001, -2.467E-11, 
DataValue, -0.1, -2.137E-11, 
DataValue, -0.08, -1.678E-11, 
DataValue, -0.060000000000000005, -1.166E-11, 
DataValue, -0.04, -4.87E-12, 
DataValue, -0.02, 2.2E-12, 
DataValue, 0, 9.01E-12, 
DataValue, 0.02, 1.544E-11, 
DataValue, 0.04, 1.987E-11, 
DataValue, 0.060000000000000005, 2.311E-11, 
DataValue, 0.08, 2.588E-11, 
DataValue, 0.1, 2.858E-11, 
DataValue, 0.12000000000000001, 2.962E-11, 
DataValue, 0.14, 3.119E-11, 
DataValue, 0.16, 3.31E-11, 
DataValue, 0.18000000000000002, 3.595E-11, 
DataValue, 0.2, 3.769E-11, 
DataValue, 0.22, 4.115E-11, 
DataValue, 0.24000000000000002, 4.358E-11, 
DataValue, 0.26, 4.453E-11, 
DataValue, 0.28, 4.691E-11, 
DataValue, 0.3, 4.87E-11, 
DataValue, 0.32, 5.215E-11, 
DataValue, 0.34, 5.511E-11, 
DataValue, 0.36000000000000004, 5.834E-11, 
DataValue, 0.38, 6.199E-11, 
DataValue, 0.4, 6.444E-11, 
DataValue, 0.42000000000000004, 6.822E-11, 
DataValue, 0.44, 7.109E-11, 
DataValue, 0.46, 7.249E-11, 
DataValue, 0.48000000000000004, 7.912E-11, 
DataValue, 0.5, 8.204E-11, 
DataValue, 0.52, 8.463E-11, 
DataValue, 0.54, 8.836E-11, 
DataValue, 0.56, 9.124E-11, 
DataValue, 0.58000000000000007, 9.476E-11, 
DataValue, 0.6, 1.0159E-10, 
DataValue, 0.62, 1.0581E-10, 
DataValue, 0.64, 1.1016E-10, 
DataValue, 0.66, 1.1444E-10, 
DataValue, 0.68, 1.1728E-10, 
DataValue, 0.70000000000000007, 1.2159E-10, 
DataValue, 0.72000000000000008, 1.2679E-10, 
DataValue, 0.74, 1.2907E-10, 
DataValue, 0.76, 1.3403E-10, 
DataValue, 0.78, 1.3888E-10, 
DataValue, 0.8, 1.4563E-10, 
DataValue, 0.82000000000000006, 1.5097E-10, 
DataValue, 0.84000000000000008, 1.564E-10, 
DataValue, 0.86, 1.637E-10, 
DataValue, 0.88, 1.6558E-10, 
DataValue, 0.9, 1.6869E-10, 
DataValue, 0.92, 1.7921E-10, 
DataValue, 0.94000000000000006, 1.7809E-10, 
DataValue, 0.96000000000000008, 1.8724E-10, 
DataValue, 0.98000000000000009, 1.942E-10, 
DataValue, 1, 1.9742E-10, 