
SetupTitle, WW
PrimitiveTest, I/V Sweep
TestParameter, Context.MainFrame, B1500A
TestParameter, Channel.UnitType, SMU, SMU
TestParameter, Channel.Unit, SMU2:HP, SMU1:HP
TestParameter, Channel.IName, I1, I4
TestParameter, Channel.VName, V1, V4
TestParameter, Channel.Mode, V, COMMON
TestParameter, Channel.Func, VAR1, CONST
TestParameter, Channel.Index, 
TestParameter, Channel.Time, 
TestParameter, Measurement.Port.Unit, SMU2:HP, SMU1:HP
TestParameter, Measurement.Port.SeriesResistor, NONE, NONE
TestParameter, Measurement.Port.Filter, ON, ON
TestParameter, Measurement.Port.OutputVoltageComparison, 0, 0
TestParameter, Measurement.Primary.Locus, Single
TestParameter, Measurement.Primary.Scale, LINEAR
TestParameter, Measurement.Primary.Start, -1
TestParameter, Measurement.Primary.Stop, 1
TestParameter, Measurement.Primary.Step, 0.02
TestParameter, Measurement.Primary.Compliance, 0.01
TestParameter, Measurement.Primary.PowerCompliance, 0
TestParameter, Measurement.Aborting.Condition, CONTINUE AT ANY
TestParameter, Measurement.PostOutput.Value, START
TestParameter, Measurement.PostOutput.Retention, OFF
TestParameter, Measurement.Bias.Source, -1, 0
TestParameter, Measurement.Bias.Compliance, 0.01, 1
TestParameter, Measurement.Monitor.Unit, SMU2:HP, SMU1:HP
TestParameter, Measurement.Monitor.Adc, HR ADC, HR ADC
TestParameter, Measurement.Monitor.Measurement, Compliance Side, Compliance Side
TestParameter, Measurement.Monitor.RangingMode, AUTO, AUTO
TestParameter, Measurement.Monitor.RangeBoundary, , 
TestParameter, Measurement.Monitor.RangeRating, BY FULL RANGE, BY FULL RANGE
TestParameter, Measurement.Monitor.RangeRatingCoeff, 50, 50
TestParameter, Measurement.Timing.Hold, 0
TestParameter, Measurement.Timing.Delay, 0.001
TestParameter, Measurement.Adc.HighSpeed.Mode, AUTO
TestParameter, Measurement.Adc.HighSpeed.Coeff, 1
TestParameter, Measurement.Adc.HighResolution.AutoZero, OFF
TestParameter, Measurement.Adc.HighResolution.Mode, PLC
TestParameter, Measurement.Adc.HighResolution.Coeff, 1
TestParameter, Measurement.WaitTime.Source.Coeff, 1
TestParameter, Measurement.WaitTime.Source.Offset, 0
TestParameter, Measurement.WaitTime.Monitor.Coeff, 1
TestParameter, Measurement.WaitTime.Monitor.Offset, 0
TestParameter, Function.User.Name, Ohmic
TestParameter, Function.User.Unit, ohm
TestParameter, Function.User.Definition, avg(V1/I1)
TestParameter, Output.Graph.Enabled, true
TestParameter, Output.Graph.XAxis.Data, V1
TestParameter, Output.Graph.XAxis.Scale, Linear
TestParameter, Output.Graph.XAxis.Left, -5
TestParameter, Output.Graph.XAxis.Right, 5
TestParameter, Output.Graph.YAxis.Data, I1
TestParameter, Output.Graph.YAxis.Scale, Linear
TestParameter, Output.Graph.YAxis.Bottom, -0.001
TestParameter, Output.Graph.YAxis.Top, 0.001
TestParameter, Output.Graph.YAxis.Group, 
TestParameter, Output.Scalar.Data, Ohmic
TestParameter, AutoAnalysis.Interpolation, false
TestParameter, AutoAnalysis.Line1.Enabled, false
TestParameter, AutoAnalysis.Line1.Type, 1
TestParameter, AutoAnalysis.Line1.Fix, True
TestParameter, AutoAnalysis.Line1.YAxis, 0
TestParameter, AutoAnalysis.Line1.Point1.Type, 0
TestParameter, AutoAnalysis.Line1.Point1.XY.X, 
TestParameter, AutoAnalysis.Line1.Point1.XY.Y, 
TestParameter, AutoAnalysis.Line1.Point1.Data.Var, 
TestParameter, AutoAnalysis.Line1.Point1.Data.Condition, 
TestParameter, AutoAnalysis.Line1.Point1.Data.Start, false
TestParameter, AutoAnalysis.Line1.Point1.Data.StartVar, 
TestParameter, AutoAnalysis.Line1.Point1.Data.StartCondition, 
TestParameter, AutoAnalysis.Line1.Point2.Type, 0
TestParameter, AutoAnalysis.Line1.Point2.XY.X, 
TestParameter, AutoAnalysis.Line1.Point2.XY.Y, 
TestParameter, AutoAnalysis.Line1.Point2.Data.Var, 
TestParameter, AutoAnalysis.Line1.Point2.Data.Condition, 
TestParameter, AutoAnalysis.Line1.Point2.Data.Start, false
TestParameter, AutoAnalysis.Line1.Point2.Data.StartVar, 
TestParameter, AutoAnalysis.Line1.Point2.Data.StartCondition, 
TestParameter, AutoAnalysis.Line1.GradientExpr, 0
TestParameter, AutoAnalysis.Line2.Enabled, false
TestParameter, AutoAnalysis.Line2.Type, 1
TestParameter, AutoAnalysis.Line2.Fix, True
TestParameter, AutoAnalysis.Line2.YAxis, 0
TestParameter, AutoAnalysis.Line2.Point1.Type, 0
TestParameter, AutoAnalysis.Line2.Point1.XY.X, 
TestParameter, AutoAnalysis.Line2.Point1.XY.Y, 
TestParameter, AutoAnalysis.Line2.Point1.Data.Var, 
TestParameter, AutoAnalysis.Line2.Point1.Data.Condition, 
TestParameter, AutoAnalysis.Line2.Point1.Data.Start, false
TestParameter, AutoAnalysis.Line2.Point1.Data.StartVar, 
TestParameter, AutoAnalysis.Line2.Point1.Data.StartCondition, 
TestParameter, AutoAnalysis.Line2.Point2.Type, 0
TestParameter, AutoAnalysis.Line2.Point2.XY.X, 
TestParameter, AutoAnalysis.Line2.Point2.XY.Y, 
TestParameter, AutoAnalysis.Line2.Point2.Data.Var, 
TestParameter, AutoAnalysis.Line2.Point2.Data.Condition, 
TestParameter, AutoAnalysis.Line2.Point2.Data.Start, false
TestParameter, AutoAnalysis.Line2.Point2.Data.StartVar, 
TestParameter, AutoAnalysis.Line2.Point2.Data.StartCondition, 
TestParameter, AutoAnalysis.Line2.GradientExpr, 0
TestParameter, AutoAnalysis.Marker.Enabled, false
TestParameter, AutoAnalysis.Marker.Data.Var, 
TestParameter, AutoAnalysis.Marker.Data.Condition, 
TestParameter, AutoAnalysis.Marker.Data.Start, false
TestParameter, AutoAnalysis.Marker.Data.StartVar, 
TestParameter, AutoAnalysis.Marker.Data.StartCondition, 
MetaData, TestRecord.EntryPoint, true
MetaData, TestRecord.RecordTime, 01/18/2020 20:35:27
MetaData, TestRecord.TestTarget, 
MetaData, TestRecord.IterationIndex, 42
MetaData, TestRecord.Preservation, true
MetaData, TestRecord.Flag, 
MetaData, TestRecord.Remarks, 
MetaData, TestRecord.LinkKey, 3aad76d7-242f-43f9-a7f3-2132161a5eb5
Dimension1, 101, 101, 101
Dimension2, 1, 1, 1
DataName, V1, I1, Ohmic
DataValue, -1, -1.6309E-10, 5836097846.7638626
DataValue, -0.98000000000000009, -1.5467E-10, 
DataValue, -0.96000000000000008, -1.5139E-10, 
DataValue, -0.94000000000000006, -1.4928E-10, 
DataValue, -0.92, -1.4743E-10, 
DataValue, -0.9, -1.4428E-10, 
DataValue, -0.88, -1.3905E-10, 
DataValue, -0.86, -1.3392E-10, 
DataValue, -0.84000000000000008, -1.3311E-10, 
DataValue, -0.82000000000000006, -1.3027E-10, 
DataValue, -0.8, -1.3077E-10, 
DataValue, -0.78, -1.2463E-10, 
DataValue, -0.76, -1.2269E-10, 
DataValue, -0.74, -1.1722E-10, 
DataValue, -0.72000000000000008, -1.1641E-10, 
DataValue, -0.70000000000000007, -1.1343E-10, 
DataValue, -0.68, -1.126E-10, 
DataValue, -0.66, -1.0945E-10, 
DataValue, -0.64, -1.0846E-10, 
DataValue, -0.62, -1.0239E-10, 
DataValue, -0.6, -1.0015E-10, 
DataValue, -0.58000000000000007, -9.617E-11, 
DataValue, -0.56, -9.409E-11, 
DataValue, -0.54, -8.774E-11, 
DataValue, -0.52, -8.838E-11, 
DataValue, -0.5, -8.37E-11, 
DataValue, -0.48000000000000004, -8.006E-11, 
DataValue, -0.46, -7.543E-11, 
DataValue, -0.44, -7.243E-11, 
DataValue, -0.42000000000000004, -6.87E-11, 
DataValue, -0.4, -6.695E-11, 
DataValue, -0.38, -6.113E-11, 
DataValue, -0.36000000000000004, -5.912E-11, 
DataValue, -0.34, -5.505E-11, 
DataValue, -0.32, -5.421E-11, 
DataValue, -0.3, -4.822E-11, 
DataValue, -0.28, -4.67E-11, 
DataValue, -0.26, -4.152E-11, 
DataValue, -0.24000000000000002, -4.225E-11, 
DataValue, -0.22, -3.641E-11, 
DataValue, -0.2, -3.673E-11, 
DataValue, -0.18000000000000002, -3.215E-11, 
DataValue, -0.16, -3.151E-11, 
DataValue, -0.14, -2.605E-11, 
DataValue, -0.12000000000000001, -2.562E-11, 
DataValue, -0.1, -1.87E-11, 
DataValue, -0.08, -1.699E-11, 
DataValue, -0.060000000000000005, -1.012E-11, 
DataValue, -0.04, -5.24E-12, 
DataValue, -0.02, 4.23E-12, 
DataValue, 0, 9.11E-12, 
DataValue, 0.02, 1.565E-11, 
DataValue, 0.04, 1.945E-11, 
DataValue, 0.060000000000000005, 2.324E-11, 
DataValue, 0.08, 2.377E-11, 
DataValue, 0.1, 2.789E-11, 
DataValue, 0.12000000000000001, 2.817E-11, 
DataValue, 0.14, 3.161E-11, 
DataValue, 0.16, 3.236E-11, 
DataValue, 0.18000000000000002, 3.574E-11, 
DataValue, 0.2, 3.636E-11, 
DataValue, 0.22, 3.903E-11, 
DataValue, 0.24000000000000002, 3.897E-11, 
DataValue, 0.26, 4.105E-11, 
DataValue, 0.28, 4.261E-11, 
DataValue, 0.3, 4.673E-11, 
DataValue, 0.32, 4.778E-11, 
DataValue, 0.34, 5.05E-11, 
DataValue, 0.36000000000000004, 5.129E-11, 
DataValue, 0.38, 5.404E-11, 
DataValue, 0.4, 5.525E-11, 
DataValue, 0.42000000000000004, 6.074E-11, 
DataValue, 0.44, 6.174E-11, 
DataValue, 0.46, 6.81E-11, 
DataValue, 0.48000000000000004, 7.122E-11, 
DataValue, 0.5, 7.451E-11, 
DataValue, 0.52, 7.581E-11, 
DataValue, 0.54, 7.863E-11, 
DataValue, 0.56, 8.222E-11, 
DataValue, 0.58000000000000007, 8.366E-11, 
DataValue, 0.6, 8.703E-11, 
DataValue, 0.62, 9.108E-11, 
DataValue, 0.64, 9.4E-11, 
DataValue, 0.66, 1.0009E-10, 
DataValue, 0.68, 1.0624E-10, 
DataValue, 0.70000000000000007, 1.0739E-10, 
DataValue, 0.72000000000000008, 1.1024E-10, 
DataValue, 0.74, 1.1206E-10, 
DataValue, 0.76, 1.1515E-10, 
DataValue, 0.78, 1.2135E-10, 
DataValue, 0.8, 1.2564E-10, 
DataValue, 0.82000000000000006, 1.26E-10, 
DataValue, 0.84000000000000008, 1.3426E-10, 
DataValue, 0.86, 1.379E-10, 
DataValue, 0.88, 1.3831E-10, 
DataValue, 0.9, 1.4589E-10, 
DataValue, 0.92, 1.506E-10, 
DataValue, 0.94000000000000006, 1.4996E-10, 
DataValue, 0.96000000000000008, 1.5257E-10, 
DataValue, 0.98000000000000009, 1.6378E-10, 
DataValue, 1, 1.6644E-10, 