
SetupTitle, WW
PrimitiveTest, I/V Sweep
TestParameter, Context.MainFrame, B1500A
TestParameter, Channel.UnitType, SMU, SMU
TestParameter, Channel.Unit, SMU2:HP, SMU1:HP
TestParameter, Channel.IName, I1, I4
TestParameter, Channel.VName, V1, V4
TestParameter, Channel.Mode, V, COMMON
TestParameter, Channel.Func, VAR1, CONST
TestParameter, Channel.Index, 
TestParameter, Channel.Time, 
TestParameter, Measurement.Port.Unit, SMU2:HP, SMU1:HP
TestParameter, Measurement.Port.SeriesResistor, NONE, NONE
TestParameter, Measurement.Port.Filter, ON, ON
TestParameter, Measurement.Port.OutputVoltageComparison, 0, 0
TestParameter, Measurement.Primary.Locus, Single
TestParameter, Measurement.Primary.Scale, LINEAR
TestParameter, Measurement.Primary.Start, -1
TestParameter, Measurement.Primary.Stop, 1
TestParameter, Measurement.Primary.Step, 0.02
TestParameter, Measurement.Primary.Compliance, 0.01
TestParameter, Measurement.Primary.PowerCompliance, 0
TestParameter, Measurement.Aborting.Condition, CONTINUE AT ANY
TestParameter, Measurement.PostOutput.Value, START
TestParameter, Measurement.PostOutput.Retention, OFF
TestParameter, Measurement.Bias.Source, -1, 0
TestParameter, Measurement.Bias.Compliance, 0.01, 1
TestParameter, Measurement.Monitor.Unit, SMU2:HP, SMU1:HP
TestParameter, Measurement.Monitor.Adc, HR ADC, HR ADC
TestParameter, Measurement.Monitor.Measurement, Compliance Side, Compliance Side
TestParameter, Measurement.Monitor.RangingMode, AUTO, AUTO
TestParameter, Measurement.Monitor.RangeBoundary, , 
TestParameter, Measurement.Monitor.RangeRating, BY FULL RANGE, BY FULL RANGE
TestParameter, Measurement.Monitor.RangeRatingCoeff, 50, 50
TestParameter, Measurement.Timing.Hold, 0
TestParameter, Measurement.Timing.Delay, 0.001
TestParameter, Measurement.Adc.HighSpeed.Mode, AUTO
TestParameter, Measurement.Adc.HighSpeed.Coeff, 1
TestParameter, Measurement.Adc.HighResolution.AutoZero, OFF
TestParameter, Measurement.Adc.HighResolution.Mode, PLC
TestParameter, Measurement.Adc.HighResolution.Coeff, 1
TestParameter, Measurement.WaitTime.Source.Coeff, 1
TestParameter, Measurement.WaitTime.Source.Offset, 0
TestParameter, Measurement.WaitTime.Monitor.Coeff, 1
TestParameter, Measurement.WaitTime.Monitor.Offset, 0
TestParameter, Function.User.Name, Ohmic
TestParameter, Function.User.Unit, ohm
TestParameter, Function.User.Definition, avg(V1/I1)
TestParameter, Output.Graph.Enabled, true
TestParameter, Output.Graph.XAxis.Data, V1
TestParameter, Output.Graph.XAxis.Scale, Linear
TestParameter, Output.Graph.XAxis.Left, -5
TestParameter, Output.Graph.XAxis.Right, 5
TestParameter, Output.Graph.YAxis.Data, I1
TestParameter, Output.Graph.YAxis.Scale, Linear
TestParameter, Output.Graph.YAxis.Bottom, -0.001
TestParameter, Output.Graph.YAxis.Top, 0.001
TestParameter, Output.Graph.YAxis.Group, 
TestParameter, Output.Scalar.Data, Ohmic
TestParameter, AutoAnalysis.Interpolation, false
TestParameter, AutoAnalysis.Line1.Enabled, false
TestParameter, AutoAnalysis.Line1.Type, 1
TestParameter, AutoAnalysis.Line1.Fix, True
TestParameter, AutoAnalysis.Line1.YAxis, 0
TestParameter, AutoAnalysis.Line1.Point1.Type, 0
TestParameter, AutoAnalysis.Line1.Point1.XY.X, 
TestParameter, AutoAnalysis.Line1.Point1.XY.Y, 
TestParameter, AutoAnalysis.Line1.Point1.Data.Var, 
TestParameter, AutoAnalysis.Line1.Point1.Data.Condition, 
TestParameter, AutoAnalysis.Line1.Point1.Data.Start, false
TestParameter, AutoAnalysis.Line1.Point1.Data.StartVar, 
TestParameter, AutoAnalysis.Line1.Point1.Data.StartCondition, 
TestParameter, AutoAnalysis.Line1.Point2.Type, 0
TestParameter, AutoAnalysis.Line1.Point2.XY.X, 
TestParameter, AutoAnalysis.Line1.Point2.XY.Y, 
TestParameter, AutoAnalysis.Line1.Point2.Data.Var, 
TestParameter, AutoAnalysis.Line1.Point2.Data.Condition, 
TestParameter, AutoAnalysis.Line1.Point2.Data.Start, false
TestParameter, AutoAnalysis.Line1.Point2.Data.StartVar, 
TestParameter, AutoAnalysis.Line1.Point2.Data.StartCondition, 
TestParameter, AutoAnalysis.Line1.GradientExpr, 0
TestParameter, AutoAnalysis.Line2.Enabled, false
TestParameter, AutoAnalysis.Line2.Type, 1
TestParameter, AutoAnalysis.Line2.Fix, True
TestParameter, AutoAnalysis.Line2.YAxis, 0
TestParameter, AutoAnalysis.Line2.Point1.Type, 0
TestParameter, AutoAnalysis.Line2.Point1.XY.X, 
TestParameter, AutoAnalysis.Line2.Point1.XY.Y, 
TestParameter, AutoAnalysis.Line2.Point1.Data.Var, 
TestParameter, AutoAnalysis.Line2.Point1.Data.Condition, 
TestParameter, AutoAnalysis.Line2.Point1.Data.Start, false
TestParameter, AutoAnalysis.Line2.Point1.Data.StartVar, 
TestParameter, AutoAnalysis.Line2.Point1.Data.StartCondition, 
TestParameter, AutoAnalysis.Line2.Point2.Type, 0
TestParameter, AutoAnalysis.Line2.Point2.XY.X, 
TestParameter, AutoAnalysis.Line2.Point2.XY.Y, 
TestParameter, AutoAnalysis.Line2.Point2.Data.Var, 
TestParameter, AutoAnalysis.Line2.Point2.Data.Condition, 
TestParameter, AutoAnalysis.Line2.Point2.Data.Start, false
TestParameter, AutoAnalysis.Line2.Point2.Data.StartVar, 
TestParameter, AutoAnalysis.Line2.Point2.Data.StartCondition, 
TestParameter, AutoAnalysis.Line2.GradientExpr, 0
TestParameter, AutoAnalysis.Marker.Enabled, false
TestParameter, AutoAnalysis.Marker.Data.Var, 
TestParameter, AutoAnalysis.Marker.Data.Condition, 
TestParameter, AutoAnalysis.Marker.Data.Start, false
TestParameter, AutoAnalysis.Marker.Data.StartVar, 
TestParameter, AutoAnalysis.Marker.Data.StartCondition, 
MetaData, TestRecord.EntryPoint, true
MetaData, TestRecord.RecordTime, 01/18/2020 20:33:55
MetaData, TestRecord.TestTarget, 
MetaData, TestRecord.IterationIndex, 41
MetaData, TestRecord.Preservation, true
MetaData, TestRecord.Flag, 
MetaData, TestRecord.Remarks, 
MetaData, TestRecord.LinkKey, 7814f078-fe79-4062-beb1-52e85063481a
Dimension1, 101, 101, 101
Dimension2, 1, 1, 1
DataName, V1, I1, Ohmic
DataValue, -1, -1.3897E-10, 7392945764.1850557
DataValue, -0.98000000000000009, -1.2825E-10, 
DataValue, -0.96000000000000008, -1.2587E-10, 
DataValue, -0.94000000000000006, -1.1962E-10, 
DataValue, -0.92, -1.1638E-10, 
DataValue, -0.9, -1.1431E-10, 
DataValue, -0.88, -1.1257E-10, 
DataValue, -0.86, -1.0821E-10, 
DataValue, -0.84000000000000008, -1.0783E-10, 
DataValue, -0.82000000000000006, -1.0374E-10, 
DataValue, -0.8, -1.0307E-10, 
DataValue, -0.78, -9.937E-11, 
DataValue, -0.76, -9.659E-11, 
DataValue, -0.74, -9.323E-11, 
DataValue, -0.72000000000000008, -9.339E-11, 
DataValue, -0.70000000000000007, -8.976E-11, 
DataValue, -0.68, -8.838E-11, 
DataValue, -0.66, -8.512E-11, 
DataValue, -0.64, -8.397E-11, 
DataValue, -0.62, -8.126E-11, 
DataValue, -0.6, -8.117E-11, 
DataValue, -0.58000000000000007, -7.678E-11, 
DataValue, -0.56, -7.612E-11, 
DataValue, -0.54, -7.178E-11, 
DataValue, -0.52, -7.028E-11, 
DataValue, -0.5, -6.676E-11, 
DataValue, -0.48000000000000004, -6.497E-11, 
DataValue, -0.46, -6.214E-11, 
DataValue, -0.44, -6.07E-11, 
DataValue, -0.42000000000000004, -5.806E-11, 
DataValue, -0.4, -5.622E-11, 
DataValue, -0.38, -5.22E-11, 
DataValue, -0.36000000000000004, -5.194E-11, 
DataValue, -0.34, -4.83E-11, 
DataValue, -0.32, -4.653E-11, 
DataValue, -0.3, -4.367E-11, 
DataValue, -0.28, -4.311E-11, 
DataValue, -0.26, -3.938E-11, 
DataValue, -0.24000000000000002, -3.963E-11, 
DataValue, -0.22, -3.611E-11, 
DataValue, -0.2, -3.405E-11, 
DataValue, -0.18000000000000002, -2.971E-11, 
DataValue, -0.16, -2.895E-11, 
DataValue, -0.14, -2.4129999999999998E-11, 
DataValue, -0.12000000000000001, -2.227E-11, 
DataValue, -0.1, -1.844E-11, 
DataValue, -0.08, -1.619E-11, 
DataValue, -0.060000000000000005, -9.28E-12, 
DataValue, -0.04, -4.51E-12, 
DataValue, -0.02, 4.05E-12, 
DataValue, 0, 8.61E-12, 
DataValue, 0.02, 1.621E-11, 
DataValue, 0.04, 1.722E-11, 
DataValue, 0.060000000000000005, 2.253E-11, 
DataValue, 0.08, 2.213E-11, 
DataValue, 0.1, 2.603E-11, 
DataValue, 0.12000000000000001, 2.573E-11, 
DataValue, 0.14, 2.892E-11, 
DataValue, 0.16, 2.797E-11, 
DataValue, 0.18000000000000002, 3.296E-11, 
DataValue, 0.2, 3.185E-11, 
DataValue, 0.22, 3.24E-11, 
DataValue, 0.24000000000000002, 3.26E-11, 
DataValue, 0.26, 3.585E-11, 
DataValue, 0.28, 3.601E-11, 
DataValue, 0.3, 3.876E-11, 
DataValue, 0.32, 3.8E-11, 
DataValue, 0.34, 4.171E-11, 
DataValue, 0.36000000000000004, 4.078E-11, 
DataValue, 0.38, 4.281E-11, 
DataValue, 0.4, 4.37E-11, 
DataValue, 0.42000000000000004, 4.675E-11, 
DataValue, 0.44, 4.549E-11, 
DataValue, 0.46, 4.98E-11, 
DataValue, 0.48000000000000004, 5.134E-11, 
DataValue, 0.5, 5.401E-11, 
DataValue, 0.52, 5.424E-11, 
DataValue, 0.54, 5.721E-11, 
DataValue, 0.56, 5.77E-11, 
DataValue, 0.58000000000000007, 6.173E-11, 
DataValue, 0.6, 6.317E-11, 
DataValue, 0.62, 6.811E-11, 
DataValue, 0.64, 6.458E-11, 
DataValue, 0.66, 6.885E-11, 
DataValue, 0.68, 7.08E-11, 
DataValue, 0.70000000000000007, 7.61E-11, 
DataValue, 0.72000000000000008, 7.517E-11, 
DataValue, 0.74, 7.966E-11, 
DataValue, 0.76, 7.957E-11, 
DataValue, 0.78, 8.205E-11, 
DataValue, 0.8, 8.202E-11, 
DataValue, 0.82000000000000006, 8.471E-11, 
DataValue, 0.84000000000000008, 8.832E-11, 
DataValue, 0.86, 9.382E-11, 
DataValue, 0.88, 9.658E-11, 
DataValue, 0.9, 9.97E-11, 
DataValue, 0.92, 1.0292E-10, 
DataValue, 0.94000000000000006, 1.0669E-10, 
DataValue, 0.96000000000000008, 1.0787E-10, 
DataValue, 0.98000000000000009, 1.1443E-10, 
DataValue, 1, 1.1314E-10, 