
SetupTitle, WW
PrimitiveTest, I/V Sweep
TestParameter, Context.MainFrame, B1500A
TestParameter, Channel.UnitType, SMU, SMU
TestParameter, Channel.Unit, SMU2:HP, SMU1:HP
TestParameter, Channel.IName, I1, I4
TestParameter, Channel.VName, V1, V4
TestParameter, Channel.Mode, V, COMMON
TestParameter, Channel.Func, VAR1, CONST
TestParameter, Channel.Index, 
TestParameter, Channel.Time, 
TestParameter, Measurement.Port.Unit, SMU2:HP, SMU1:HP
TestParameter, Measurement.Port.SeriesResistor, NONE, NONE
TestParameter, Measurement.Port.Filter, ON, ON
TestParameter, Measurement.Port.OutputVoltageComparison, 0, 0
TestParameter, Measurement.Primary.Locus, Single
TestParameter, Measurement.Primary.Scale, LINEAR
TestParameter, Measurement.Primary.Start, -1
TestParameter, Measurement.Primary.Stop, 1
TestParameter, Measurement.Primary.Step, 0.02
TestParameter, Measurement.Primary.Compliance, 0.01
TestParameter, Measurement.Primary.PowerCompliance, 0
TestParameter, Measurement.Aborting.Condition, CONTINUE AT ANY
TestParameter, Measurement.PostOutput.Value, START
TestParameter, Measurement.PostOutput.Retention, OFF
TestParameter, Measurement.Bias.Source, -1, 0
TestParameter, Measurement.Bias.Compliance, 0.01, 1
TestParameter, Measurement.Monitor.Unit, SMU2:HP, SMU1:HP
TestParameter, Measurement.Monitor.Adc, HR ADC, HR ADC
TestParameter, Measurement.Monitor.Measurement, Compliance Side, Compliance Side
TestParameter, Measurement.Monitor.RangingMode, AUTO, AUTO
TestParameter, Measurement.Monitor.RangeBoundary, , 
TestParameter, Measurement.Monitor.RangeRating, BY FULL RANGE, BY FULL RANGE
TestParameter, Measurement.Monitor.RangeRatingCoeff, 50, 50
TestParameter, Measurement.Timing.Hold, 0
TestParameter, Measurement.Timing.Delay, 0.001
TestParameter, Measurement.Adc.HighSpeed.Mode, AUTO
TestParameter, Measurement.Adc.HighSpeed.Coeff, 1
TestParameter, Measurement.Adc.HighResolution.AutoZero, OFF
TestParameter, Measurement.Adc.HighResolution.Mode, PLC
TestParameter, Measurement.Adc.HighResolution.Coeff, 1
TestParameter, Measurement.WaitTime.Source.Coeff, 1
TestParameter, Measurement.WaitTime.Source.Offset, 0
TestParameter, Measurement.WaitTime.Monitor.Coeff, 1
TestParameter, Measurement.WaitTime.Monitor.Offset, 0
TestParameter, Function.User.Name, Ohmic
TestParameter, Function.User.Unit, ohm
TestParameter, Function.User.Definition, avg(V1/I1)
TestParameter, Output.Graph.Enabled, true
TestParameter, Output.Graph.XAxis.Data, V1
TestParameter, Output.Graph.XAxis.Scale, Linear
TestParameter, Output.Graph.XAxis.Left, -5
TestParameter, Output.Graph.XAxis.Right, 5
TestParameter, Output.Graph.YAxis.Data, I1
TestParameter, Output.Graph.YAxis.Scale, Linear
TestParameter, Output.Graph.YAxis.Bottom, -0.001
TestParameter, Output.Graph.YAxis.Top, 0.001
TestParameter, Output.Graph.YAxis.Group, 
TestParameter, Output.Scalar.Data, Ohmic
TestParameter, AutoAnalysis.Interpolation, false
TestParameter, AutoAnalysis.Line1.Enabled, false
TestParameter, AutoAnalysis.Line1.Type, 1
TestParameter, AutoAnalysis.Line1.Fix, True
TestParameter, AutoAnalysis.Line1.YAxis, 0
TestParameter, AutoAnalysis.Line1.Point1.Type, 0
TestParameter, AutoAnalysis.Line1.Point1.XY.X, 
TestParameter, AutoAnalysis.Line1.Point1.XY.Y, 
TestParameter, AutoAnalysis.Line1.Point1.Data.Var, 
TestParameter, AutoAnalysis.Line1.Point1.Data.Condition, 
TestParameter, AutoAnalysis.Line1.Point1.Data.Start, false
TestParameter, AutoAnalysis.Line1.Point1.Data.StartVar, 
TestParameter, AutoAnalysis.Line1.Point1.Data.StartCondition, 
TestParameter, AutoAnalysis.Line1.Point2.Type, 0
TestParameter, AutoAnalysis.Line1.Point2.XY.X, 
TestParameter, AutoAnalysis.Line1.Point2.XY.Y, 
TestParameter, AutoAnalysis.Line1.Point2.Data.Var, 
TestParameter, AutoAnalysis.Line1.Point2.Data.Condition, 
TestParameter, AutoAnalysis.Line1.Point2.Data.Start, false
TestParameter, AutoAnalysis.Line1.Point2.Data.StartVar, 
TestParameter, AutoAnalysis.Line1.Point2.Data.StartCondition, 
TestParameter, AutoAnalysis.Line1.GradientExpr, 0
TestParameter, AutoAnalysis.Line2.Enabled, false
TestParameter, AutoAnalysis.Line2.Type, 1
TestParameter, AutoAnalysis.Line2.Fix, True
TestParameter, AutoAnalysis.Line2.YAxis, 0
TestParameter, AutoAnalysis.Line2.Point1.Type, 0
TestParameter, AutoAnalysis.Line2.Point1.XY.X, 
TestParameter, AutoAnalysis.Line2.Point1.XY.Y, 
TestParameter, AutoAnalysis.Line2.Point1.Data.Var, 
TestParameter, AutoAnalysis.Line2.Point1.Data.Condition, 
TestParameter, AutoAnalysis.Line2.Point1.Data.Start, false
TestParameter, AutoAnalysis.Line2.Point1.Data.StartVar, 
TestParameter, AutoAnalysis.Line2.Point1.Data.StartCondition, 
TestParameter, AutoAnalysis.Line2.Point2.Type, 0
TestParameter, AutoAnalysis.Line2.Point2.XY.X, 
TestParameter, AutoAnalysis.Line2.Point2.XY.Y, 
TestParameter, AutoAnalysis.Line2.Point2.Data.Var, 
TestParameter, AutoAnalysis.Line2.Point2.Data.Condition, 
TestParameter, AutoAnalysis.Line2.Point2.Data.Start, false
TestParameter, AutoAnalysis.Line2.Point2.Data.StartVar, 
TestParameter, AutoAnalysis.Line2.Point2.Data.StartCondition, 
TestParameter, AutoAnalysis.Line2.GradientExpr, 0
TestParameter, AutoAnalysis.Marker.Enabled, false
TestParameter, AutoAnalysis.Marker.Data.Var, 
TestParameter, AutoAnalysis.Marker.Data.Condition, 
TestParameter, AutoAnalysis.Marker.Data.Start, false
TestParameter, AutoAnalysis.Marker.Data.StartVar, 
TestParameter, AutoAnalysis.Marker.Data.StartCondition, 
MetaData, TestRecord.EntryPoint, true
MetaData, TestRecord.RecordTime, 01/18/2020 20:32:51
MetaData, TestRecord.TestTarget, 
MetaData, TestRecord.IterationIndex, 39
MetaData, TestRecord.Preservation, true
MetaData, TestRecord.Flag, 
MetaData, TestRecord.Remarks, 
MetaData, TestRecord.LinkKey, 176059b6-be92-4706-9a8d-2d8cd14b1f83
Dimension1, 101, 101, 101
Dimension2, 1, 1, 1
DataName, V1, I1, Ohmic
DataValue, -1, -1.101E-10, 9582035291.5867958
DataValue, -0.98000000000000009, -9.917E-11, 
DataValue, -0.96000000000000008, -9.262E-11, 
DataValue, -0.94000000000000006, -9.206E-11, 
DataValue, -0.92, -8.713E-11, 
DataValue, -0.9, -8.776E-11, 
DataValue, -0.88, -8.347E-11, 
DataValue, -0.86, -8.567E-11, 
DataValue, -0.84000000000000008, -8.15E-11, 
DataValue, -0.82000000000000006, -8.07E-11, 
DataValue, -0.8, -7.69E-11, 
DataValue, -0.78, -7.659E-11, 
DataValue, -0.76, -7.277E-11, 
DataValue, -0.74, -7.257E-11, 
DataValue, -0.72000000000000008, -6.762E-11, 
DataValue, -0.70000000000000007, -6.802E-11, 
DataValue, -0.68, -6.473E-11, 
DataValue, -0.66, -6.561E-11, 
DataValue, -0.64, -6.128E-11, 
DataValue, -0.62, -6.083E-11, 
DataValue, -0.6, -5.699E-11, 
DataValue, -0.58000000000000007, -5.718E-11, 
DataValue, -0.56, -5.416E-11, 
DataValue, -0.54, -5.682E-11, 
DataValue, -0.52, -5.355E-11, 
DataValue, -0.5, -5.508E-11, 
DataValue, -0.48000000000000004, -5.016E-11, 
DataValue, -0.46, -5.061E-11, 
DataValue, -0.44, -4.664E-11, 
DataValue, -0.42000000000000004, -4.721E-11, 
DataValue, -0.4, -4.203E-11, 
DataValue, -0.38, -4.24E-11, 
DataValue, -0.36000000000000004, -3.875E-11, 
DataValue, -0.34, -3.819E-11, 
DataValue, -0.32, -3.256E-11, 
DataValue, -0.3, -3.179E-11, 
DataValue, -0.28, -2.68E-11, 
DataValue, -0.26, -2.795E-11, 
DataValue, -0.24000000000000002, -2.255E-11, 
DataValue, -0.22, -2.249E-11, 
DataValue, -0.2, -1.909E-11, 
DataValue, -0.18000000000000002, -1.979E-11, 
DataValue, -0.16, -1.622E-11, 
DataValue, -0.14, -1.774E-11, 
DataValue, -0.12000000000000001, -1.397E-11, 
DataValue, -0.1, -1.565E-11, 
DataValue, -0.08, -9.74E-12, 
DataValue, -0.060000000000000005, -8.45E-12, 
DataValue, -0.04, -1.94E-12, 
DataValue, -0.02, 1.61E-12, 
DataValue, 0, 9.04E-12, 
DataValue, 0.02, 1.139E-11, 
DataValue, 0.04, 1.685E-11, 
DataValue, 0.060000000000000005, 1.668E-11, 
DataValue, 0.08, 2.035E-11, 
DataValue, 0.1, 1.938E-11, 
DataValue, 0.12000000000000001, 2.324E-11, 
DataValue, 0.14, 2.197E-11, 
DataValue, 0.16, 2.467E-11, 
DataValue, 0.18000000000000002, 2.303E-11, 
DataValue, 0.2, 2.624E-11, 
DataValue, 0.22, 2.5E-11, 
DataValue, 0.24000000000000002, 2.775E-11, 
DataValue, 0.26, 2.668E-11, 
DataValue, 0.28, 3.015E-11, 
DataValue, 0.3, 2.918E-11, 
DataValue, 0.32, 3.281E-11, 
DataValue, 0.34, 3.131E-11, 
DataValue, 0.36000000000000004, 3.422E-11, 
DataValue, 0.38, 3.359E-11, 
DataValue, 0.4, 3.552E-11, 
DataValue, 0.42000000000000004, 3.618E-11, 
DataValue, 0.44, 3.901E-11, 
DataValue, 0.46, 4.072E-11, 
DataValue, 0.48000000000000004, 4.242E-11, 
DataValue, 0.5, 4.331E-11, 
DataValue, 0.52, 4.527E-11, 
DataValue, 0.54, 4.582E-11, 
DataValue, 0.56, 4.673E-11, 
DataValue, 0.58000000000000007, 4.954E-11, 
DataValue, 0.6, 4.996E-11, 
DataValue, 0.62, 5.242E-11, 
DataValue, 0.64, 5.447E-11, 
DataValue, 0.66, 5.529E-11, 
DataValue, 0.68, 5.7E-11, 
DataValue, 0.70000000000000007, 6.035E-11, 
DataValue, 0.72000000000000008, 6.333E-11, 
DataValue, 0.74, 6.476E-11, 
DataValue, 0.76, 6.616E-11, 
DataValue, 0.78, 6.797E-11, 
DataValue, 0.8, 6.9249999999999994E-11, 
DataValue, 0.82000000000000006, 7.14E-11, 
DataValue, 0.84000000000000008, 7.487E-11, 
DataValue, 0.86, 7.666E-11, 
DataValue, 0.88, 7.801E-11, 
DataValue, 0.9, 8.139E-11, 
DataValue, 0.92, 8.314E-11, 
DataValue, 0.94000000000000006, 8.4E-11, 
DataValue, 0.96000000000000008, 8.599E-11, 
DataValue, 0.98000000000000009, 8.875E-11, 
DataValue, 1, 9.132E-11, 