
SetupTitle, WW
PrimitiveTest, I/V Sweep
TestParameter, Context.MainFrame, B1500A
TestParameter, Channel.UnitType, SMU, SMU
TestParameter, Channel.Unit, SMU2:HP, SMU1:HP
TestParameter, Channel.IName, I1, I4
TestParameter, Channel.VName, V1, V4
TestParameter, Channel.Mode, V, COMMON
TestParameter, Channel.Func, VAR1, CONST
TestParameter, Channel.Index, 
TestParameter, Channel.Time, 
TestParameter, Measurement.Port.Unit, SMU2:HP, SMU1:HP
TestParameter, Measurement.Port.SeriesResistor, NONE, NONE
TestParameter, Measurement.Port.Filter, ON, ON
TestParameter, Measurement.Port.OutputVoltageComparison, 0, 0
TestParameter, Measurement.Primary.Locus, Single
TestParameter, Measurement.Primary.Scale, LINEAR
TestParameter, Measurement.Primary.Start, -1
TestParameter, Measurement.Primary.Stop, 1
TestParameter, Measurement.Primary.Step, 0.02
TestParameter, Measurement.Primary.Compliance, 0.01
TestParameter, Measurement.Primary.PowerCompliance, 0
TestParameter, Measurement.Aborting.Condition, CONTINUE AT ANY
TestParameter, Measurement.PostOutput.Value, START
TestParameter, Measurement.PostOutput.Retention, OFF
TestParameter, Measurement.Bias.Source, -1, 0
TestParameter, Measurement.Bias.Compliance, 0.01, 1
TestParameter, Measurement.Monitor.Unit, SMU2:HP, SMU1:HP
TestParameter, Measurement.Monitor.Adc, HR ADC, HR ADC
TestParameter, Measurement.Monitor.Measurement, Compliance Side, Compliance Side
TestParameter, Measurement.Monitor.RangingMode, AUTO, AUTO
TestParameter, Measurement.Monitor.RangeBoundary, , 
TestParameter, Measurement.Monitor.RangeRating, BY FULL RANGE, BY FULL RANGE
TestParameter, Measurement.Monitor.RangeRatingCoeff, 50, 50
TestParameter, Measurement.Timing.Hold, 0
TestParameter, Measurement.Timing.Delay, 0.001
TestParameter, Measurement.Adc.HighSpeed.Mode, AUTO
TestParameter, Measurement.Adc.HighSpeed.Coeff, 1
TestParameter, Measurement.Adc.HighResolution.AutoZero, OFF
TestParameter, Measurement.Adc.HighResolution.Mode, PLC
TestParameter, Measurement.Adc.HighResolution.Coeff, 1
TestParameter, Measurement.WaitTime.Source.Coeff, 1
TestParameter, Measurement.WaitTime.Source.Offset, 0
TestParameter, Measurement.WaitTime.Monitor.Coeff, 1
TestParameter, Measurement.WaitTime.Monitor.Offset, 0
TestParameter, Function.User.Name, Ohmic
TestParameter, Function.User.Unit, ohm
TestParameter, Function.User.Definition, avg(V1/I1)
TestParameter, Output.Graph.Enabled, true
TestParameter, Output.Graph.XAxis.Data, V1
TestParameter, Output.Graph.XAxis.Scale, Linear
TestParameter, Output.Graph.XAxis.Left, -5
TestParameter, Output.Graph.XAxis.Right, 5
TestParameter, Output.Graph.YAxis.Data, I1
TestParameter, Output.Graph.YAxis.Scale, Linear
TestParameter, Output.Graph.YAxis.Bottom, -0.001
TestParameter, Output.Graph.YAxis.Top, 0.001
TestParameter, Output.Graph.YAxis.Group, 
TestParameter, Output.Scalar.Data, Ohmic
TestParameter, AutoAnalysis.Interpolation, false
TestParameter, AutoAnalysis.Line1.Enabled, false
TestParameter, AutoAnalysis.Line1.Type, 1
TestParameter, AutoAnalysis.Line1.Fix, True
TestParameter, AutoAnalysis.Line1.YAxis, 0
TestParameter, AutoAnalysis.Line1.Point1.Type, 0
TestParameter, AutoAnalysis.Line1.Point1.XY.X, 
TestParameter, AutoAnalysis.Line1.Point1.XY.Y, 
TestParameter, AutoAnalysis.Line1.Point1.Data.Var, 
TestParameter, AutoAnalysis.Line1.Point1.Data.Condition, 
TestParameter, AutoAnalysis.Line1.Point1.Data.Start, false
TestParameter, AutoAnalysis.Line1.Point1.Data.StartVar, 
TestParameter, AutoAnalysis.Line1.Point1.Data.StartCondition, 
TestParameter, AutoAnalysis.Line1.Point2.Type, 0
TestParameter, AutoAnalysis.Line1.Point2.XY.X, 
TestParameter, AutoAnalysis.Line1.Point2.XY.Y, 
TestParameter, AutoAnalysis.Line1.Point2.Data.Var, 
TestParameter, AutoAnalysis.Line1.Point2.Data.Condition, 
TestParameter, AutoAnalysis.Line1.Point2.Data.Start, false
TestParameter, AutoAnalysis.Line1.Point2.Data.StartVar, 
TestParameter, AutoAnalysis.Line1.Point2.Data.StartCondition, 
TestParameter, AutoAnalysis.Line1.GradientExpr, 0
TestParameter, AutoAnalysis.Line2.Enabled, false
TestParameter, AutoAnalysis.Line2.Type, 1
TestParameter, AutoAnalysis.Line2.Fix, True
TestParameter, AutoAnalysis.Line2.YAxis, 0
TestParameter, AutoAnalysis.Line2.Point1.Type, 0
TestParameter, AutoAnalysis.Line2.Point1.XY.X, 
TestParameter, AutoAnalysis.Line2.Point1.XY.Y, 
TestParameter, AutoAnalysis.Line2.Point1.Data.Var, 
TestParameter, AutoAnalysis.Line2.Point1.Data.Condition, 
TestParameter, AutoAnalysis.Line2.Point1.Data.Start, false
TestParameter, AutoAnalysis.Line2.Point1.Data.StartVar, 
TestParameter, AutoAnalysis.Line2.Point1.Data.StartCondition, 
TestParameter, AutoAnalysis.Line2.Point2.Type, 0
TestParameter, AutoAnalysis.Line2.Point2.XY.X, 
TestParameter, AutoAnalysis.Line2.Point2.XY.Y, 
TestParameter, AutoAnalysis.Line2.Point2.Data.Var, 
TestParameter, AutoAnalysis.Line2.Point2.Data.Condition, 
TestParameter, AutoAnalysis.Line2.Point2.Data.Start, false
TestParameter, AutoAnalysis.Line2.Point2.Data.StartVar, 
TestParameter, AutoAnalysis.Line2.Point2.Data.StartCondition, 
TestParameter, AutoAnalysis.Line2.GradientExpr, 0
TestParameter, AutoAnalysis.Marker.Enabled, false
TestParameter, AutoAnalysis.Marker.Data.Var, 
TestParameter, AutoAnalysis.Marker.Data.Condition, 
TestParameter, AutoAnalysis.Marker.Data.Start, false
TestParameter, AutoAnalysis.Marker.Data.StartVar, 
TestParameter, AutoAnalysis.Marker.Data.StartCondition, 
MetaData, TestRecord.EntryPoint, true
MetaData, TestRecord.RecordTime, 01/18/2020 20:31:52
MetaData, TestRecord.TestTarget, 
MetaData, TestRecord.IterationIndex, 37
MetaData, TestRecord.Preservation, true
MetaData, TestRecord.Flag, 
MetaData, TestRecord.Remarks, 
MetaData, TestRecord.LinkKey, febf05ba-f28d-4c65-bb63-7f137b366c68
Dimension1, 101, 101, 101
Dimension2, 1, 1, 1
DataName, V1, I1, Ohmic
DataValue, -1, -9.226E-11, 12880562224.193
DataValue, -0.98000000000000009, -8.057E-11, 
DataValue, -0.96000000000000008, -7.387E-11, 
DataValue, -0.94000000000000006, -7.224E-11, 
DataValue, -0.92, -6.702E-11, 
DataValue, -0.9, -6.575E-11, 
DataValue, -0.88, -6.242E-11, 
DataValue, -0.86, -6.194E-11, 
DataValue, -0.84000000000000008, -5.826E-11, 
DataValue, -0.82000000000000006, -5.932E-11, 
DataValue, -0.8, -5.613E-11, 
DataValue, -0.78, -5.576E-11, 
DataValue, -0.76, -5.239E-11, 
DataValue, -0.74, -5.345E-11, 
DataValue, -0.72000000000000008, -4.996E-11, 
DataValue, -0.70000000000000007, -5.042E-11, 
DataValue, -0.68, -4.595E-11, 
DataValue, -0.66, -4.66E-11, 
DataValue, -0.64, -4.288E-11, 
DataValue, -0.62, -4.321E-11, 
DataValue, -0.6, -3.967E-11, 
DataValue, -0.58000000000000007, -4.026E-11, 
DataValue, -0.56, -3.724E-11, 
DataValue, -0.54, -3.749E-11, 
DataValue, -0.52, -3.351E-11, 
DataValue, -0.5, -3.461E-11, 
DataValue, -0.48000000000000004, -3.073E-11, 
DataValue, -0.46, -3.129E-11, 
DataValue, -0.44, -2.832E-11, 
DataValue, -0.42000000000000004, -2.935E-11, 
DataValue, -0.4, -2.537E-11, 
DataValue, -0.38, -2.6259999999999998E-11, 
DataValue, -0.36000000000000004, -2.233E-11, 
DataValue, -0.34, -2.368E-11, 
DataValue, -0.32, -2.056E-11, 
DataValue, -0.3, -2.132E-11, 
DataValue, -0.28, -1.786E-11, 
DataValue, -0.26, -1.893E-11, 
DataValue, -0.24000000000000002, -1.533E-11, 
DataValue, -0.22, -1.637E-11, 
DataValue, -0.2, -1.247E-11, 
DataValue, -0.18000000000000002, -1.338E-11, 
DataValue, -0.16, -9.61E-12, 
DataValue, -0.14, -1.093E-11, 
DataValue, -0.12000000000000001, -7.26E-12, 
DataValue, -0.1, -6.87E-12, 
DataValue, -0.08, -2.77E-12, 
DataValue, -0.060000000000000005, -1.57E-12, 
DataValue, -0.04, 3.7E-12, 
DataValue, -0.02, 5.38E-12, 
DataValue, 0, 1.044E-11, 
DataValue, 0.02, 1.145E-11, 
DataValue, 0.04, 1.542E-11, 
DataValue, 0.060000000000000005, 1.494E-11, 
DataValue, 0.08, 1.782E-11, 
DataValue, 0.1, 1.688E-11, 
DataValue, 0.12000000000000001, 1.921E-11, 
DataValue, 0.14, 1.819E-11, 
DataValue, 0.16, 2.075E-11, 
DataValue, 0.18000000000000002, 2.189E-11, 
DataValue, 0.2, 2.257E-11, 
DataValue, 0.22, 2.283E-11, 
DataValue, 0.24000000000000002, 2.373E-11, 
DataValue, 0.26, 2.443E-11, 
DataValue, 0.28, 2.508E-11, 
DataValue, 0.3, 2.606E-11, 
DataValue, 0.32, 2.7E-11, 
DataValue, 0.34, 2.811E-11, 
DataValue, 0.36000000000000004, 2.985E-11, 
DataValue, 0.38, 3.037E-11, 
DataValue, 0.4, 3.128E-11, 
DataValue, 0.42000000000000004, 3.184E-11, 
DataValue, 0.44, 3.398E-11, 
DataValue, 0.46, 3.53E-11, 
DataValue, 0.48000000000000004, 3.624E-11, 
DataValue, 0.5, 3.778E-11, 
DataValue, 0.52, 3.817E-11, 
DataValue, 0.54, 3.999E-11, 
DataValue, 0.56, 4.301E-11, 
DataValue, 0.58000000000000007, 4.254E-11, 
DataValue, 0.6, 4.589E-11, 
DataValue, 0.62, 4.505E-11, 
DataValue, 0.64, 4.668E-11, 
DataValue, 0.66, 4.845E-11, 
DataValue, 0.68, 5.113E-11, 
DataValue, 0.70000000000000007, 5.067E-11, 
DataValue, 0.72000000000000008, 5.155E-11, 
DataValue, 0.74, 5.369E-11, 
DataValue, 0.76, 5.424E-11, 
DataValue, 0.78, 5.491E-11, 
DataValue, 0.8, 5.718E-11, 
DataValue, 0.82000000000000006, 5.879E-11, 
DataValue, 0.84000000000000008, 5.937E-11, 
DataValue, 0.86, 6.046E-11, 
DataValue, 0.88, 6.09E-11, 
DataValue, 0.9, 6.343E-11, 
DataValue, 0.92, 6.396E-11, 
DataValue, 0.94000000000000006, 6.6409999999999993E-11, 
DataValue, 0.96000000000000008, 6.735E-11, 
DataValue, 0.98000000000000009, 6.951E-11, 
DataValue, 1, 7.049E-11, 