
SetupTitle, WW
PrimitiveTest, I/V Sweep
TestParameter, Context.MainFrame, B1500A
TestParameter, Channel.UnitType, SMU, SMU
TestParameter, Channel.Unit, SMU2:HP, SMU1:HP
TestParameter, Channel.IName, I1, I4
TestParameter, Channel.VName, V1, V4
TestParameter, Channel.Mode, V, COMMON
TestParameter, Channel.Func, VAR1, CONST
TestParameter, Channel.Index, 
TestParameter, Channel.Time, 
TestParameter, Measurement.Port.Unit, SMU2:HP, SMU1:HP
TestParameter, Measurement.Port.SeriesResistor, NONE, NONE
TestParameter, Measurement.Port.Filter, ON, ON
TestParameter, Measurement.Port.OutputVoltageComparison, 0, 0
TestParameter, Measurement.Primary.Locus, Single
TestParameter, Measurement.Primary.Scale, LINEAR
TestParameter, Measurement.Primary.Start, -1
TestParameter, Measurement.Primary.Stop, 1
TestParameter, Measurement.Primary.Step, 0.02
TestParameter, Measurement.Primary.Compliance, 0.01
TestParameter, Measurement.Primary.PowerCompliance, 0
TestParameter, Measurement.Aborting.Condition, CONTINUE AT ANY
TestParameter, Measurement.PostOutput.Value, START
TestParameter, Measurement.PostOutput.Retention, OFF
TestParameter, Measurement.Bias.Source, -1, 0
TestParameter, Measurement.Bias.Compliance, 0.01, 1
TestParameter, Measurement.Monitor.Unit, SMU2:HP, SMU1:HP
TestParameter, Measurement.Monitor.Adc, HR ADC, HR ADC
TestParameter, Measurement.Monitor.Measurement, Compliance Side, Compliance Side
TestParameter, Measurement.Monitor.RangingMode, AUTO, AUTO
TestParameter, Measurement.Monitor.RangeBoundary, , 
TestParameter, Measurement.Monitor.RangeRating, BY FULL RANGE, BY FULL RANGE
TestParameter, Measurement.Monitor.RangeRatingCoeff, 50, 50
TestParameter, Measurement.Timing.Hold, 0
TestParameter, Measurement.Timing.Delay, 0.001
TestParameter, Measurement.Adc.HighSpeed.Mode, AUTO
TestParameter, Measurement.Adc.HighSpeed.Coeff, 1
TestParameter, Measurement.Adc.HighResolution.AutoZero, OFF
TestParameter, Measurement.Adc.HighResolution.Mode, PLC
TestParameter, Measurement.Adc.HighResolution.Coeff, 1
TestParameter, Measurement.WaitTime.Source.Coeff, 1
TestParameter, Measurement.WaitTime.Source.Offset, 0
TestParameter, Measurement.WaitTime.Monitor.Coeff, 1
TestParameter, Measurement.WaitTime.Monitor.Offset, 0
TestParameter, Function.User.Name, Ohmic
TestParameter, Function.User.Unit, ohm
TestParameter, Function.User.Definition, avg(V1/I1)
TestParameter, Output.Graph.Enabled, true
TestParameter, Output.Graph.XAxis.Data, V1
TestParameter, Output.Graph.XAxis.Scale, Linear
TestParameter, Output.Graph.XAxis.Left, -5
TestParameter, Output.Graph.XAxis.Right, 5
TestParameter, Output.Graph.YAxis.Data, I1
TestParameter, Output.Graph.YAxis.Scale, Linear
TestParameter, Output.Graph.YAxis.Bottom, -0.001
TestParameter, Output.Graph.YAxis.Top, 0.001
TestParameter, Output.Graph.YAxis.Group, 
TestParameter, Output.Scalar.Data, Ohmic
TestParameter, AutoAnalysis.Interpolation, false
TestParameter, AutoAnalysis.Line1.Enabled, false
TestParameter, AutoAnalysis.Line1.Type, 1
TestParameter, AutoAnalysis.Line1.Fix, True
TestParameter, AutoAnalysis.Line1.YAxis, 0
TestParameter, AutoAnalysis.Line1.Point1.Type, 0
TestParameter, AutoAnalysis.Line1.Point1.XY.X, 
TestParameter, AutoAnalysis.Line1.Point1.XY.Y, 
TestParameter, AutoAnalysis.Line1.Point1.Data.Var, 
TestParameter, AutoAnalysis.Line1.Point1.Data.Condition, 
TestParameter, AutoAnalysis.Line1.Point1.Data.Start, false
TestParameter, AutoAnalysis.Line1.Point1.Data.StartVar, 
TestParameter, AutoAnalysis.Line1.Point1.Data.StartCondition, 
TestParameter, AutoAnalysis.Line1.Point2.Type, 0
TestParameter, AutoAnalysis.Line1.Point2.XY.X, 
TestParameter, AutoAnalysis.Line1.Point2.XY.Y, 
TestParameter, AutoAnalysis.Line1.Point2.Data.Var, 
TestParameter, AutoAnalysis.Line1.Point2.Data.Condition, 
TestParameter, AutoAnalysis.Line1.Point2.Data.Start, false
TestParameter, AutoAnalysis.Line1.Point2.Data.StartVar, 
TestParameter, AutoAnalysis.Line1.Point2.Data.StartCondition, 
TestParameter, AutoAnalysis.Line1.GradientExpr, 0
TestParameter, AutoAnalysis.Line2.Enabled, false
TestParameter, AutoAnalysis.Line2.Type, 1
TestParameter, AutoAnalysis.Line2.Fix, True
TestParameter, AutoAnalysis.Line2.YAxis, 0
TestParameter, AutoAnalysis.Line2.Point1.Type, 0
TestParameter, AutoAnalysis.Line2.Point1.XY.X, 
TestParameter, AutoAnalysis.Line2.Point1.XY.Y, 
TestParameter, AutoAnalysis.Line2.Point1.Data.Var, 
TestParameter, AutoAnalysis.Line2.Point1.Data.Condition, 
TestParameter, AutoAnalysis.Line2.Point1.Data.Start, false
TestParameter, AutoAnalysis.Line2.Point1.Data.StartVar, 
TestParameter, AutoAnalysis.Line2.Point1.Data.StartCondition, 
TestParameter, AutoAnalysis.Line2.Point2.Type, 0
TestParameter, AutoAnalysis.Line2.Point2.XY.X, 
TestParameter, AutoAnalysis.Line2.Point2.XY.Y, 
TestParameter, AutoAnalysis.Line2.Point2.Data.Var, 
TestParameter, AutoAnalysis.Line2.Point2.Data.Condition, 
TestParameter, AutoAnalysis.Line2.Point2.Data.Start, false
TestParameter, AutoAnalysis.Line2.Point2.Data.StartVar, 
TestParameter, AutoAnalysis.Line2.Point2.Data.StartCondition, 
TestParameter, AutoAnalysis.Line2.GradientExpr, 0
TestParameter, AutoAnalysis.Marker.Enabled, false
TestParameter, AutoAnalysis.Marker.Data.Var, 
TestParameter, AutoAnalysis.Marker.Data.Condition, 
TestParameter, AutoAnalysis.Marker.Data.Start, false
TestParameter, AutoAnalysis.Marker.Data.StartVar, 
TestParameter, AutoAnalysis.Marker.Data.StartCondition, 
MetaData, TestRecord.EntryPoint, true
MetaData, TestRecord.RecordTime, 01/18/2020 20:29:56
MetaData, TestRecord.TestTarget, 
MetaData, TestRecord.IterationIndex, 34
MetaData, TestRecord.Preservation, true
MetaData, TestRecord.Flag, 
MetaData, TestRecord.Remarks, 
MetaData, TestRecord.LinkKey, e68f2d1a-7ee6-4966-8f5b-a7e390186537
Dimension1, 101, 101, 101
Dimension2, 1, 1, 1
DataName, V1, I1, Ohmic
DataValue, -1, -7.738E-11, 17772007997.972073
DataValue, -0.98000000000000009, -6.392E-11, 
DataValue, -0.96000000000000008, -5.785E-11, 
DataValue, -0.94000000000000006, -5.413E-11, 
DataValue, -0.92, -5.068E-11, 
DataValue, -0.9, -4.766E-11, 
DataValue, -0.88, -4.534E-11, 
DataValue, -0.86, -4.393E-11, 
DataValue, -0.84000000000000008, -4.25E-11, 
DataValue, -0.82000000000000006, -4.041E-11, 
DataValue, -0.8, -3.849E-11, 
DataValue, -0.78, -3.702E-11, 
DataValue, -0.76, -3.501E-11, 
DataValue, -0.74, -3.371E-11, 
DataValue, -0.72000000000000008, -3.209E-11, 
DataValue, -0.70000000000000007, -3.125E-11, 
DataValue, -0.68, -2.887E-11, 
DataValue, -0.66, -2.851E-11, 
DataValue, -0.64, -2.635E-11, 
DataValue, -0.62, -2.618E-11, 
DataValue, -0.6, -2.617E-11, 
DataValue, -0.58000000000000007, -2.518E-11, 
DataValue, -0.56, -2.309E-11, 
DataValue, -0.54, -2.199E-11, 
DataValue, -0.52, -1.996E-11, 
DataValue, -0.5, -1.973E-11, 
DataValue, -0.48000000000000004, -1.838E-11, 
DataValue, -0.46, -1.854E-11, 
DataValue, -0.44, -1.588E-11, 
DataValue, -0.42000000000000004, -1.589E-11, 
DataValue, -0.4, -1.406E-11, 
DataValue, -0.38, -1.41E-11, 
DataValue, -0.36000000000000004, -1.165E-11, 
DataValue, -0.34, -1.157E-11, 
DataValue, -0.32, -1.02E-11, 
DataValue, -0.3, -1.031E-11, 
DataValue, -0.28, -8.23E-12, 
DataValue, -0.26, -8.13E-12, 
DataValue, -0.24000000000000002, -6.11E-12, 
DataValue, -0.22, -6.37E-12, 
DataValue, -0.2, -3.87E-12, 
DataValue, -0.18000000000000002, -2.15E-12, 
DataValue, -0.16, 1.31E-12, 
DataValue, -0.14, -2.13E-12, 
DataValue, -0.12000000000000001, -1.16E-12, 
DataValue, -0.1, -1.08E-12, 
DataValue, -0.08, 2.8E-13, 
DataValue, -0.060000000000000005, 1.51E-12, 
DataValue, -0.04, 3.92E-12, 
DataValue, -0.02, 5.33E-12, 
DataValue, 0, 7.43E-12, 
DataValue, 0.02, 8.85E-12, 
DataValue, 0.04, 1.111E-11, 
DataValue, 0.060000000000000005, 1.126E-11, 
DataValue, 0.08, 1.267E-11, 
DataValue, 0.1, 1.249E-11, 
DataValue, 0.12000000000000001, 1.375E-11, 
DataValue, 0.14, 1.442E-11, 
DataValue, 0.16, 1.451E-11, 
DataValue, 0.18000000000000002, 1.438E-11, 
DataValue, 0.2, 1.563E-11, 
DataValue, 0.22, 1.625E-11, 
DataValue, 0.24000000000000002, 1.656E-11, 
DataValue, 0.26, 1.697E-11, 
DataValue, 0.28, 1.776E-11, 
DataValue, 0.3, 1.786E-11, 
DataValue, 0.32, 1.892E-11, 
DataValue, 0.34, 2.002E-11, 
DataValue, 0.36000000000000004, 2.003E-11, 
DataValue, 0.38, 2.131E-11, 
DataValue, 0.4, 2.148E-11, 
DataValue, 0.42000000000000004, 2.273E-11, 
DataValue, 0.44, 2.311E-11, 
DataValue, 0.46, 2.391E-11, 
DataValue, 0.48000000000000004, 2.386E-11, 
DataValue, 0.5, 2.527E-11, 
DataValue, 0.52, 2.592E-11, 
DataValue, 0.54, 2.6259999999999998E-11, 
DataValue, 0.56, 2.702E-11, 
DataValue, 0.58000000000000007, 2.825E-11, 
DataValue, 0.6, 2.889E-11, 
DataValue, 0.62, 2.935E-11, 
DataValue, 0.64, 3.015E-11, 
DataValue, 0.66, 3.094E-11, 
DataValue, 0.68, 3.18E-11, 
DataValue, 0.70000000000000007, 3.171E-11, 
DataValue, 0.72000000000000008, 3.234E-11, 
DataValue, 0.74, 3.4195000000000004E-11, 
DataValue, 0.76, 3.5166000000000004E-11, 
DataValue, 0.78, 3.5893000000000005E-11, 
DataValue, 0.8, 3.5713000000000005E-11, 
DataValue, 0.82000000000000006, 3.5622E-11, 
DataValue, 0.84000000000000008, 3.7378E-11, 
DataValue, 0.86, 3.8312000000000006E-11, 
DataValue, 0.88, 3.8249E-11, 
DataValue, 0.9, 3.8754000000000004E-11, 
DataValue, 0.92, 4.0764000000000005E-11, 
DataValue, 0.94000000000000006, 4.1198000000000006E-11, 
DataValue, 0.96000000000000008, 4.2415E-11, 
DataValue, 0.98000000000000009, 4.2658E-11, 
DataValue, 1, 4.3417000000000004E-11, 