
SetupTitle, WW
PrimitiveTest, I/V Sweep
TestParameter, Context.MainFrame, B1500A
TestParameter, Channel.UnitType, SMU, SMU
TestParameter, Channel.Unit, SMU2:HP, SMU1:HP
TestParameter, Channel.IName, I1, I4
TestParameter, Channel.VName, V1, V4
TestParameter, Channel.Mode, V, COMMON
TestParameter, Channel.Func, VAR1, CONST
TestParameter, Channel.Index, 
TestParameter, Channel.Time, 
TestParameter, Measurement.Port.Unit, SMU2:HP, SMU1:HP
TestParameter, Measurement.Port.SeriesResistor, NONE, NONE
TestParameter, Measurement.Port.Filter, ON, ON
TestParameter, Measurement.Port.OutputVoltageComparison, 0, 0
TestParameter, Measurement.Primary.Locus, Single
TestParameter, Measurement.Primary.Scale, LINEAR
TestParameter, Measurement.Primary.Start, -1
TestParameter, Measurement.Primary.Stop, 1
TestParameter, Measurement.Primary.Step, 0.02
TestParameter, Measurement.Primary.Compliance, 0.01
TestParameter, Measurement.Primary.PowerCompliance, 0
TestParameter, Measurement.Aborting.Condition, CONTINUE AT ANY
TestParameter, Measurement.PostOutput.Value, START
TestParameter, Measurement.PostOutput.Retention, OFF
TestParameter, Measurement.Bias.Source, -1, 0
TestParameter, Measurement.Bias.Compliance, 0.01, 1
TestParameter, Measurement.Monitor.Unit, SMU2:HP, SMU1:HP
TestParameter, Measurement.Monitor.Adc, HR ADC, HR ADC
TestParameter, Measurement.Monitor.Measurement, Compliance Side, Compliance Side
TestParameter, Measurement.Monitor.RangingMode, AUTO, AUTO
TestParameter, Measurement.Monitor.RangeBoundary, , 
TestParameter, Measurement.Monitor.RangeRating, BY FULL RANGE, BY FULL RANGE
TestParameter, Measurement.Monitor.RangeRatingCoeff, 50, 50
TestParameter, Measurement.Timing.Hold, 0
TestParameter, Measurement.Timing.Delay, 0.001
TestParameter, Measurement.Adc.HighSpeed.Mode, AUTO
TestParameter, Measurement.Adc.HighSpeed.Coeff, 1
TestParameter, Measurement.Adc.HighResolution.AutoZero, OFF
TestParameter, Measurement.Adc.HighResolution.Mode, PLC
TestParameter, Measurement.Adc.HighResolution.Coeff, 1
TestParameter, Measurement.WaitTime.Source.Coeff, 1
TestParameter, Measurement.WaitTime.Source.Offset, 0
TestParameter, Measurement.WaitTime.Monitor.Coeff, 1
TestParameter, Measurement.WaitTime.Monitor.Offset, 0
TestParameter, Function.User.Name, Ohmic
TestParameter, Function.User.Unit, ohm
TestParameter, Function.User.Definition, avg(V1/I1)
TestParameter, Output.Graph.Enabled, true
TestParameter, Output.Graph.XAxis.Data, V1
TestParameter, Output.Graph.XAxis.Scale, Linear
TestParameter, Output.Graph.XAxis.Left, -5
TestParameter, Output.Graph.XAxis.Right, 5
TestParameter, Output.Graph.YAxis.Data, I1
TestParameter, Output.Graph.YAxis.Scale, Linear
TestParameter, Output.Graph.YAxis.Bottom, -0.001
TestParameter, Output.Graph.YAxis.Top, 0.001
TestParameter, Output.Graph.YAxis.Group, 
TestParameter, Output.Scalar.Data, Ohmic
TestParameter, AutoAnalysis.Interpolation, false
TestParameter, AutoAnalysis.Line1.Enabled, false
TestParameter, AutoAnalysis.Line1.Type, 1
TestParameter, AutoAnalysis.Line1.Fix, True
TestParameter, AutoAnalysis.Line1.YAxis, 0
TestParameter, AutoAnalysis.Line1.Point1.Type, 0
TestParameter, AutoAnalysis.Line1.Point1.XY.X, 
TestParameter, AutoAnalysis.Line1.Point1.XY.Y, 
TestParameter, AutoAnalysis.Line1.Point1.Data.Var, 
TestParameter, AutoAnalysis.Line1.Point1.Data.Condition, 
TestParameter, AutoAnalysis.Line1.Point1.Data.Start, false
TestParameter, AutoAnalysis.Line1.Point1.Data.StartVar, 
TestParameter, AutoAnalysis.Line1.Point1.Data.StartCondition, 
TestParameter, AutoAnalysis.Line1.Point2.Type, 0
TestParameter, AutoAnalysis.Line1.Point2.XY.X, 
TestParameter, AutoAnalysis.Line1.Point2.XY.Y, 
TestParameter, AutoAnalysis.Line1.Point2.Data.Var, 
TestParameter, AutoAnalysis.Line1.Point2.Data.Condition, 
TestParameter, AutoAnalysis.Line1.Point2.Data.Start, false
TestParameter, AutoAnalysis.Line1.Point2.Data.StartVar, 
TestParameter, AutoAnalysis.Line1.Point2.Data.StartCondition, 
TestParameter, AutoAnalysis.Line1.GradientExpr, 0
TestParameter, AutoAnalysis.Line2.Enabled, false
TestParameter, AutoAnalysis.Line2.Type, 1
TestParameter, AutoAnalysis.Line2.Fix, True
TestParameter, AutoAnalysis.Line2.YAxis, 0
TestParameter, AutoAnalysis.Line2.Point1.Type, 0
TestParameter, AutoAnalysis.Line2.Point1.XY.X, 
TestParameter, AutoAnalysis.Line2.Point1.XY.Y, 
TestParameter, AutoAnalysis.Line2.Point1.Data.Var, 
TestParameter, AutoAnalysis.Line2.Point1.Data.Condition, 
TestParameter, AutoAnalysis.Line2.Point1.Data.Start, false
TestParameter, AutoAnalysis.Line2.Point1.Data.StartVar, 
TestParameter, AutoAnalysis.Line2.Point1.Data.StartCondition, 
TestParameter, AutoAnalysis.Line2.Point2.Type, 0
TestParameter, AutoAnalysis.Line2.Point2.XY.X, 
TestParameter, AutoAnalysis.Line2.Point2.XY.Y, 
TestParameter, AutoAnalysis.Line2.Point2.Data.Var, 
TestParameter, AutoAnalysis.Line2.Point2.Data.Condition, 
TestParameter, AutoAnalysis.Line2.Point2.Data.Start, false
TestParameter, AutoAnalysis.Line2.Point2.Data.StartVar, 
TestParameter, AutoAnalysis.Line2.Point2.Data.StartCondition, 
TestParameter, AutoAnalysis.Line2.GradientExpr, 0
TestParameter, AutoAnalysis.Marker.Enabled, false
TestParameter, AutoAnalysis.Marker.Data.Var, 
TestParameter, AutoAnalysis.Marker.Data.Condition, 
TestParameter, AutoAnalysis.Marker.Data.Start, false
TestParameter, AutoAnalysis.Marker.Data.StartVar, 
TestParameter, AutoAnalysis.Marker.Data.StartCondition, 
MetaData, TestRecord.EntryPoint, true
MetaData, TestRecord.RecordTime, 01/18/2020 20:27:34
MetaData, TestRecord.TestTarget, 
MetaData, TestRecord.IterationIndex, 30
MetaData, TestRecord.Preservation, true
MetaData, TestRecord.Flag, 
MetaData, TestRecord.Remarks, 
MetaData, TestRecord.LinkKey, 866be638-4b78-4db9-8d0b-8fc759f117a0
Dimension1, 101, 101, 101
Dimension2, 1, 1, 1
DataName, V1, I1, Ohmic
DataValue, -1, -6.958E-11, 29370997420.07748
DataValue, -0.98000000000000009, -5.468E-11, 
DataValue, -0.96000000000000008, -4.774E-11, 
DataValue, -0.94000000000000006, -4.43E-11, 
DataValue, -0.92, -4.058E-11, 
DataValue, -0.9, -3.724E-11, 
DataValue, -0.88, -3.478E-11, 
DataValue, -0.86, -3.28E-11, 
DataValue, -0.84000000000000008, -3.11E-11, 
DataValue, -0.82000000000000006, -3.086E-11, 
DataValue, -0.8, -2.772E-11, 
DataValue, -0.78, -2.821E-11, 
DataValue, -0.76, -2.517E-11, 
DataValue, -0.74, -2.504E-11, 
DataValue, -0.72000000000000008, -2.23E-11, 
DataValue, -0.70000000000000007, -2.302E-11, 
DataValue, -0.68, -2.024E-11, 
DataValue, -0.66, -1.912E-11, 
DataValue, -0.64, -1.799E-11, 
DataValue, -0.62, -1.702E-11, 
DataValue, -0.6, -1.593E-11, 
DataValue, -0.58000000000000007, -1.471E-11, 
DataValue, -0.56, -1.396E-11, 
DataValue, -0.54, -1.312E-11, 
DataValue, -0.52, -1.181E-11, 
DataValue, -0.5, -1.226E-11, 
DataValue, -0.48000000000000004, -9.76E-12, 
DataValue, -0.46, -1.038E-11, 
DataValue, -0.44, -7.78E-12, 
DataValue, -0.42000000000000004, -8.7699999999999992E-12, 
DataValue, -0.4, -6.24E-12, 
DataValue, -0.38, -6.97E-12, 
DataValue, -0.36000000000000004, -4.44E-12, 
DataValue, -0.34, -4.16E-12, 
DataValue, -0.32, -3.62E-12, 
DataValue, -0.3, -3.05E-12, 
DataValue, -0.28, -2.43E-12, 
DataValue, -0.26, -1.89E-12, 
DataValue, -0.24000000000000002, -1.2E-12, 
DataValue, -0.22, -1.66E-12, 
DataValue, -0.2, 4E-13, 
DataValue, -0.18000000000000002, -4.2E-13, 
DataValue, -0.16, 1.7299999999999999E-12, 
DataValue, -0.14, 7E-13, 
DataValue, -0.12000000000000001, 2.81E-12, 
DataValue, -0.1, 2.08E-12, 
DataValue, -0.08, 3.92E-12, 
DataValue, -0.060000000000000005, 4.51E-12, 
DataValue, -0.04, 5.27E-12, 
DataValue, -0.02, 6.13E-12, 
DataValue, 0, 7.06E-12, 
DataValue, 0.02, 7.57E-12, 
DataValue, 0.04, 8.07E-12, 
DataValue, 0.060000000000000005, 8.78E-12, 
DataValue, 0.08, 9.36E-12, 
DataValue, 0.1, 9.78E-12, 
DataValue, 0.12000000000000001, 1.035E-11, 
DataValue, 0.14, 1.074E-11, 
DataValue, 0.16, 1.032E-11, 
DataValue, 0.18000000000000002, 1.089E-11, 
DataValue, 0.2, 1.115E-11, 
DataValue, 0.22, 1.123E-11, 
DataValue, 0.24000000000000002, 1.137E-11, 
DataValue, 0.26, 1.2E-11, 
DataValue, 0.28, 1.199E-11, 
DataValue, 0.3, 1.214E-11, 
DataValue, 0.32, 1.273E-11, 
DataValue, 0.34, 1.278E-11, 
DataValue, 0.36000000000000004, 1.302E-11, 
DataValue, 0.38, 1.347E-11, 
DataValue, 0.4, 1.387E-11, 
DataValue, 0.42000000000000004, 1.394E-11, 
DataValue, 0.44, 1.4549999999999999E-11, 
DataValue, 0.46, 1.47E-11, 
DataValue, 0.48000000000000004, 1.533E-11, 
DataValue, 0.5, 1.532E-11, 
DataValue, 0.52, 1.589E-11, 
DataValue, 0.54, 1.673E-11, 
DataValue, 0.56, 1.659E-11, 
DataValue, 0.58000000000000007, 1.683E-11, 
DataValue, 0.6, 1.744E-11, 
DataValue, 0.62, 1.675E-11, 
DataValue, 0.64, 1.758E-11, 
DataValue, 0.66, 1.847E-11, 
DataValue, 0.68, 1.799E-11, 
DataValue, 0.70000000000000007, 1.877E-11, 
DataValue, 0.72000000000000008, 1.8845E-11, 
DataValue, 0.74, 1.9925000000000002E-11, 
DataValue, 0.76, 1.9698000000000003E-11, 
DataValue, 0.78, 2.1016E-11, 
DataValue, 0.8, 2.1183E-11, 
DataValue, 0.82000000000000006, 2.1745E-11, 
DataValue, 0.84000000000000008, 2.1929000000000003E-11, 
DataValue, 0.86, 2.3851000000000002E-11, 
DataValue, 0.88, 2.2869000000000002E-11, 
DataValue, 0.9, 2.3782000000000002E-11, 
DataValue, 0.92, 2.4633000000000003E-11, 
DataValue, 0.94000000000000006, 2.4527E-11, 
DataValue, 0.96000000000000008, 2.5512000000000002E-11, 
DataValue, 0.98000000000000009, 2.6028000000000002E-11, 
DataValue, 1, 2.7667000000000003E-11, 