
SetupTitle, WW
PrimitiveTest, I/V Sweep
TestParameter, Context.MainFrame, B1500A
TestParameter, Channel.UnitType, SMU, SMU
TestParameter, Channel.Unit, SMU2:HP, SMU1:HP
TestParameter, Channel.IName, I1, I4
TestParameter, Channel.VName, V1, V4
TestParameter, Channel.Mode, V, COMMON
TestParameter, Channel.Func, VAR1, CONST
TestParameter, Channel.Index, 
TestParameter, Channel.Time, 
TestParameter, Measurement.Port.Unit, SMU2:HP, SMU1:HP
TestParameter, Measurement.Port.SeriesResistor, NONE, NONE
TestParameter, Measurement.Port.Filter, ON, ON
TestParameter, Measurement.Port.OutputVoltageComparison, 0, 0
TestParameter, Measurement.Primary.Locus, Single
TestParameter, Measurement.Primary.Scale, LINEAR
TestParameter, Measurement.Primary.Start, -1
TestParameter, Measurement.Primary.Stop, 1
TestParameter, Measurement.Primary.Step, 0.02
TestParameter, Measurement.Primary.Compliance, 0.01
TestParameter, Measurement.Primary.PowerCompliance, 0
TestParameter, Measurement.Aborting.Condition, CONTINUE AT ANY
TestParameter, Measurement.PostOutput.Value, START
TestParameter, Measurement.PostOutput.Retention, OFF
TestParameter, Measurement.Bias.Source, -1, 0
TestParameter, Measurement.Bias.Compliance, 0.01, 1
TestParameter, Measurement.Monitor.Unit, SMU2:HP, SMU1:HP
TestParameter, Measurement.Monitor.Adc, HR ADC, HR ADC
TestParameter, Measurement.Monitor.Measurement, Compliance Side, Compliance Side
TestParameter, Measurement.Monitor.RangingMode, AUTO, AUTO
TestParameter, Measurement.Monitor.RangeBoundary, , 
TestParameter, Measurement.Monitor.RangeRating, BY FULL RANGE, BY FULL RANGE
TestParameter, Measurement.Monitor.RangeRatingCoeff, 50, 50
TestParameter, Measurement.Timing.Hold, 0
TestParameter, Measurement.Timing.Delay, 0.001
TestParameter, Measurement.Adc.HighSpeed.Mode, AUTO
TestParameter, Measurement.Adc.HighSpeed.Coeff, 1
TestParameter, Measurement.Adc.HighResolution.AutoZero, OFF
TestParameter, Measurement.Adc.HighResolution.Mode, PLC
TestParameter, Measurement.Adc.HighResolution.Coeff, 1
TestParameter, Measurement.WaitTime.Source.Coeff, 1
TestParameter, Measurement.WaitTime.Source.Offset, 0
TestParameter, Measurement.WaitTime.Monitor.Coeff, 1
TestParameter, Measurement.WaitTime.Monitor.Offset, 0
TestParameter, Function.User.Name, Ohmic
TestParameter, Function.User.Unit, ohm
TestParameter, Function.User.Definition, avg(V1/I1)
TestParameter, Output.Graph.Enabled, true
TestParameter, Output.Graph.XAxis.Data, V1
TestParameter, Output.Graph.XAxis.Scale, Linear
TestParameter, Output.Graph.XAxis.Left, -5
TestParameter, Output.Graph.XAxis.Right, 5
TestParameter, Output.Graph.YAxis.Data, I1
TestParameter, Output.Graph.YAxis.Scale, Linear
TestParameter, Output.Graph.YAxis.Bottom, -0.001
TestParameter, Output.Graph.YAxis.Top, 0.001
TestParameter, Output.Graph.YAxis.Group, 
TestParameter, Output.Scalar.Data, Ohmic
TestParameter, AutoAnalysis.Interpolation, false
TestParameter, AutoAnalysis.Line1.Enabled, false
TestParameter, AutoAnalysis.Line1.Type, 1
TestParameter, AutoAnalysis.Line1.Fix, True
TestParameter, AutoAnalysis.Line1.YAxis, 0
TestParameter, AutoAnalysis.Line1.Point1.Type, 0
TestParameter, AutoAnalysis.Line1.Point1.XY.X, 
TestParameter, AutoAnalysis.Line1.Point1.XY.Y, 
TestParameter, AutoAnalysis.Line1.Point1.Data.Var, 
TestParameter, AutoAnalysis.Line1.Point1.Data.Condition, 
TestParameter, AutoAnalysis.Line1.Point1.Data.Start, false
TestParameter, AutoAnalysis.Line1.Point1.Data.StartVar, 
TestParameter, AutoAnalysis.Line1.Point1.Data.StartCondition, 
TestParameter, AutoAnalysis.Line1.Point2.Type, 0
TestParameter, AutoAnalysis.Line1.Point2.XY.X, 
TestParameter, AutoAnalysis.Line1.Point2.XY.Y, 
TestParameter, AutoAnalysis.Line1.Point2.Data.Var, 
TestParameter, AutoAnalysis.Line1.Point2.Data.Condition, 
TestParameter, AutoAnalysis.Line1.Point2.Data.Start, false
TestParameter, AutoAnalysis.Line1.Point2.Data.StartVar, 
TestParameter, AutoAnalysis.Line1.Point2.Data.StartCondition, 
TestParameter, AutoAnalysis.Line1.GradientExpr, 0
TestParameter, AutoAnalysis.Line2.Enabled, false
TestParameter, AutoAnalysis.Line2.Type, 1
TestParameter, AutoAnalysis.Line2.Fix, True
TestParameter, AutoAnalysis.Line2.YAxis, 0
TestParameter, AutoAnalysis.Line2.Point1.Type, 0
TestParameter, AutoAnalysis.Line2.Point1.XY.X, 
TestParameter, AutoAnalysis.Line2.Point1.XY.Y, 
TestParameter, AutoAnalysis.Line2.Point1.Data.Var, 
TestParameter, AutoAnalysis.Line2.Point1.Data.Condition, 
TestParameter, AutoAnalysis.Line2.Point1.Data.Start, false
TestParameter, AutoAnalysis.Line2.Point1.Data.StartVar, 
TestParameter, AutoAnalysis.Line2.Point1.Data.StartCondition, 
TestParameter, AutoAnalysis.Line2.Point2.Type, 0
TestParameter, AutoAnalysis.Line2.Point2.XY.X, 
TestParameter, AutoAnalysis.Line2.Point2.XY.Y, 
TestParameter, AutoAnalysis.Line2.Point2.Data.Var, 
TestParameter, AutoAnalysis.Line2.Point2.Data.Condition, 
TestParameter, AutoAnalysis.Line2.Point2.Data.Start, false
TestParameter, AutoAnalysis.Line2.Point2.Data.StartVar, 
TestParameter, AutoAnalysis.Line2.Point2.Data.StartCondition, 
TestParameter, AutoAnalysis.Line2.GradientExpr, 0
TestParameter, AutoAnalysis.Marker.Enabled, false
TestParameter, AutoAnalysis.Marker.Data.Var, 
TestParameter, AutoAnalysis.Marker.Data.Condition, 
TestParameter, AutoAnalysis.Marker.Data.Start, false
TestParameter, AutoAnalysis.Marker.Data.StartVar, 
TestParameter, AutoAnalysis.Marker.Data.StartCondition, 
MetaData, TestRecord.EntryPoint, true
MetaData, TestRecord.RecordTime, 01/18/2020 20:27:01
MetaData, TestRecord.TestTarget, 
MetaData, TestRecord.IterationIndex, 29
MetaData, TestRecord.Preservation, true
MetaData, TestRecord.Flag, 
MetaData, TestRecord.Remarks, 
MetaData, TestRecord.LinkKey, 64075413-160d-4d6b-95c4-10522885e557
Dimension1, 101, 101, 101
Dimension2, 1, 1, 1
DataName, V1, I1, Ohmic
DataValue, -1, -6.708E-11, 31676353990.5121
DataValue, -0.98000000000000009, -5.295E-11, 
DataValue, -0.96000000000000008, -4.561E-11, 
DataValue, -0.94000000000000006, -4.181E-11, 
DataValue, -0.92, -3.872E-11, 
DataValue, -0.9, -3.612E-11, 
DataValue, -0.88, -3.35E-11, 
DataValue, -0.86, -3.096E-11, 
DataValue, -0.84000000000000008, -3.01E-11, 
DataValue, -0.82000000000000006, -2.87E-11, 
DataValue, -0.8, -2.814E-11, 
DataValue, -0.78, -2.705E-11, 
DataValue, -0.76, -2.574E-11, 
DataValue, -0.74, -2.428E-11, 
DataValue, -0.72000000000000008, -2.292E-11, 
DataValue, -0.70000000000000007, -2.148E-11, 
DataValue, -0.68, -1.995E-11, 
DataValue, -0.66, -1.87E-11, 
DataValue, -0.64, -1.789E-11, 
DataValue, -0.62, -1.657E-11, 
DataValue, -0.6, -1.546E-11, 
DataValue, -0.58000000000000007, -1.438E-11, 
DataValue, -0.56, -1.395E-11, 
DataValue, -0.54, -1.282E-11, 
DataValue, -0.52, -1.186E-11, 
DataValue, -0.5, -1.097E-11, 
DataValue, -0.48000000000000004, -1.04E-11, 
DataValue, -0.46, -9.24E-12, 
DataValue, -0.44, -8.52E-12, 
DataValue, -0.42000000000000004, -7.77E-12, 
DataValue, -0.4, -7.06E-12, 
DataValue, -0.38, -6.13E-12, 
DataValue, -0.36000000000000004, -5.72E-12, 
DataValue, -0.34, -4.86E-12, 
DataValue, -0.32, -4.02E-12, 
DataValue, -0.3, -3.41E-12, 
DataValue, -0.28, -2.79E-12, 
DataValue, -0.26, -2E-12, 
DataValue, -0.24000000000000002, -1.51E-12, 
DataValue, -0.22, -7.3E-13, 
DataValue, -0.2, -1.8E-13, 
DataValue, -0.18000000000000002, 2E-13, 
DataValue, -0.16, 5.6E-13, 
DataValue, -0.14, 1.18E-12, 
DataValue, -0.12000000000000001, 1.6E-12, 
DataValue, -0.1, 2.12E-12, 
DataValue, -0.08, 2.97E-12, 
DataValue, -0.060000000000000005, 3.41E-12, 
DataValue, -0.04, 4E-12, 
DataValue, -0.02, 4.97E-12, 
DataValue, 0, 5.67E-12, 
DataValue, 0.02, 6.65E-12, 
DataValue, 0.04, 7.33E-12, 
DataValue, 0.060000000000000005, 7.96E-12, 
DataValue, 0.08, 8.89E-12, 
DataValue, 0.1, 9.07E-12, 
DataValue, 0.12000000000000001, 9.37E-12, 
DataValue, 0.14, 9.61E-12, 
DataValue, 0.16, 9.26E-12, 
DataValue, 0.18000000000000002, 1.013E-11, 
DataValue, 0.2, 1.055E-11, 
DataValue, 0.22, 1.039E-11, 
DataValue, 0.24000000000000002, 1.087E-11, 
DataValue, 0.26, 1.077E-11, 
DataValue, 0.28, 1.125E-11, 
DataValue, 0.3, 1.179E-11, 
DataValue, 0.32, 1.236E-11, 
DataValue, 0.34, 1.257E-11, 
DataValue, 0.36000000000000004, 1.254E-11, 
DataValue, 0.38, 1.298E-11, 
DataValue, 0.4, 1.327E-11, 
DataValue, 0.42000000000000004, 1.392E-11, 
DataValue, 0.44, 1.401E-11, 
DataValue, 0.46, 1.442E-11, 
DataValue, 0.48000000000000004, 1.499E-11, 
DataValue, 0.5, 1.57E-11, 
DataValue, 0.52, 1.636E-11, 
DataValue, 0.54, 1.622E-11, 
DataValue, 0.56, 1.638E-11, 
DataValue, 0.58000000000000007, 1.663E-11, 
DataValue, 0.6, 1.722E-11, 
DataValue, 0.62, 1.735E-11, 
DataValue, 0.64, 1.8E-11, 
DataValue, 0.66, 1.866E-11, 
DataValue, 0.68, 1.851E-11, 
DataValue, 0.70000000000000007, 1.8681000000000002E-11, 
DataValue, 0.72000000000000008, 1.9335E-11, 
DataValue, 0.74, 2.0088E-11, 
DataValue, 0.76, 2.0092000000000003E-11, 
DataValue, 0.78, 2.0838E-11, 
DataValue, 0.8, 2.1921000000000002E-11, 
DataValue, 0.82000000000000006, 2.1660000000000003E-11, 
DataValue, 0.84000000000000008, 2.214E-11, 
DataValue, 0.86, 2.2652000000000002E-11, 
DataValue, 0.88, 2.3141000000000002E-11, 
DataValue, 0.9, 2.3914000000000003E-11, 
DataValue, 0.92, 2.4058E-11, 
DataValue, 0.94000000000000006, 2.4239000000000003E-11, 
DataValue, 0.96000000000000008, 2.5077000000000002E-11, 
DataValue, 0.98000000000000009, 2.58E-11, 
DataValue, 1, 2.558E-11, 