
SetupTitle, WW
PrimitiveTest, I/V Sweep
TestParameter, Context.MainFrame, B1500A
TestParameter, Channel.UnitType, SMU, SMU
TestParameter, Channel.Unit, SMU2:HP, SMU1:HP
TestParameter, Channel.IName, I1, I4
TestParameter, Channel.VName, V1, V4
TestParameter, Channel.Mode, V, COMMON
TestParameter, Channel.Func, VAR1, CONST
TestParameter, Channel.Index, 
TestParameter, Channel.Time, 
TestParameter, Measurement.Port.Unit, SMU2:HP, SMU1:HP
TestParameter, Measurement.Port.SeriesResistor, NONE, NONE
TestParameter, Measurement.Port.Filter, ON, ON
TestParameter, Measurement.Port.OutputVoltageComparison, 0, 0
TestParameter, Measurement.Primary.Locus, Single
TestParameter, Measurement.Primary.Scale, LINEAR
TestParameter, Measurement.Primary.Start, -5
TestParameter, Measurement.Primary.Stop, 5
TestParameter, Measurement.Primary.Step, 0.1
TestParameter, Measurement.Primary.Compliance, 0.1
TestParameter, Measurement.Primary.PowerCompliance, 0
TestParameter, Measurement.Aborting.Condition, CONTINUE AT ANY
TestParameter, Measurement.PostOutput.Value, START
TestParameter, Measurement.PostOutput.Retention, OFF
TestParameter, Measurement.Bias.Source, -5, 0
TestParameter, Measurement.Bias.Compliance, 0.1, 1
TestParameter, Measurement.Monitor.Unit, SMU2:HP, SMU1:HP
TestParameter, Measurement.Monitor.Adc, HR ADC, HR ADC
TestParameter, Measurement.Monitor.Measurement, Compliance Side, Compliance Side
TestParameter, Measurement.Monitor.RangingMode, AUTO, AUTO
TestParameter, Measurement.Monitor.RangeBoundary, , 
TestParameter, Measurement.Monitor.RangeRating, BY FULL RANGE, BY FULL RANGE
TestParameter, Measurement.Monitor.RangeRatingCoeff, 50, 50
TestParameter, Measurement.Timing.Hold, 0
TestParameter, Measurement.Timing.Delay, 0.001
TestParameter, Measurement.Adc.HighSpeed.Mode, AUTO
TestParameter, Measurement.Adc.HighSpeed.Coeff, 1
TestParameter, Measurement.Adc.HighResolution.AutoZero, OFF
TestParameter, Measurement.Adc.HighResolution.Mode, PLC
TestParameter, Measurement.Adc.HighResolution.Coeff, 1
TestParameter, Measurement.WaitTime.Source.Coeff, 1
TestParameter, Measurement.WaitTime.Source.Offset, 0
TestParameter, Measurement.WaitTime.Monitor.Coeff, 1
TestParameter, Measurement.WaitTime.Monitor.Offset, 0
TestParameter, Function.User.Name, Ohmic
TestParameter, Function.User.Unit, ohm
TestParameter, Function.User.Definition, avg(V1/I1)
TestParameter, Output.Graph.Enabled, true
TestParameter, Output.Graph.XAxis.Data, V1
TestParameter, Output.Graph.XAxis.Scale, Linear
TestParameter, Output.Graph.XAxis.Left, -5
TestParameter, Output.Graph.XAxis.Right, 5
TestParameter, Output.Graph.YAxis.Data, I1
TestParameter, Output.Graph.YAxis.Scale, Linear
TestParameter, Output.Graph.YAxis.Bottom, -0.001
TestParameter, Output.Graph.YAxis.Top, 0.001
TestParameter, Output.Graph.YAxis.Group, 
TestParameter, Output.Scalar.Data, Ohmic
TestParameter, AutoAnalysis.Interpolation, false
TestParameter, AutoAnalysis.Line1.Enabled, false
TestParameter, AutoAnalysis.Line1.Type, 1
TestParameter, AutoAnalysis.Line1.Fix, True
TestParameter, AutoAnalysis.Line1.YAxis, 0
TestParameter, AutoAnalysis.Line1.Point1.Type, 0
TestParameter, AutoAnalysis.Line1.Point1.XY.X, 
TestParameter, AutoAnalysis.Line1.Point1.XY.Y, 
TestParameter, AutoAnalysis.Line1.Point1.Data.Var, 
TestParameter, AutoAnalysis.Line1.Point1.Data.Condition, 
TestParameter, AutoAnalysis.Line1.Point1.Data.Start, false
TestParameter, AutoAnalysis.Line1.Point1.Data.StartVar, 
TestParameter, AutoAnalysis.Line1.Point1.Data.StartCondition, 
TestParameter, AutoAnalysis.Line1.Point2.Type, 0
TestParameter, AutoAnalysis.Line1.Point2.XY.X, 
TestParameter, AutoAnalysis.Line1.Point2.XY.Y, 
TestParameter, AutoAnalysis.Line1.Point2.Data.Var, 
TestParameter, AutoAnalysis.Line1.Point2.Data.Condition, 
TestParameter, AutoAnalysis.Line1.Point2.Data.Start, false
TestParameter, AutoAnalysis.Line1.Point2.Data.StartVar, 
TestParameter, AutoAnalysis.Line1.Point2.Data.StartCondition, 
TestParameter, AutoAnalysis.Line1.GradientExpr, 0
TestParameter, AutoAnalysis.Line2.Enabled, false
TestParameter, AutoAnalysis.Line2.Type, 1
TestParameter, AutoAnalysis.Line2.Fix, True
TestParameter, AutoAnalysis.Line2.YAxis, 0
TestParameter, AutoAnalysis.Line2.Point1.Type, 0
TestParameter, AutoAnalysis.Line2.Point1.XY.X, 
TestParameter, AutoAnalysis.Line2.Point1.XY.Y, 
TestParameter, AutoAnalysis.Line2.Point1.Data.Var, 
TestParameter, AutoAnalysis.Line2.Point1.Data.Condition, 
TestParameter, AutoAnalysis.Line2.Point1.Data.Start, false
TestParameter, AutoAnalysis.Line2.Point1.Data.StartVar, 
TestParameter, AutoAnalysis.Line2.Point1.Data.StartCondition, 
TestParameter, AutoAnalysis.Line2.Point2.Type, 0
TestParameter, AutoAnalysis.Line2.Point2.XY.X, 
TestParameter, AutoAnalysis.Line2.Point2.XY.Y, 
TestParameter, AutoAnalysis.Line2.Point2.Data.Var, 
TestParameter, AutoAnalysis.Line2.Point2.Data.Condition, 
TestParameter, AutoAnalysis.Line2.Point2.Data.Start, false
TestParameter, AutoAnalysis.Line2.Point2.Data.StartVar, 
TestParameter, AutoAnalysis.Line2.Point2.Data.StartCondition, 
TestParameter, AutoAnalysis.Line2.GradientExpr, 0
TestParameter, AutoAnalysis.Marker.Enabled, false
TestParameter, AutoAnalysis.Marker.Data.Var, 
TestParameter, AutoAnalysis.Marker.Data.Condition, 
TestParameter, AutoAnalysis.Marker.Data.Start, false
TestParameter, AutoAnalysis.Marker.Data.StartVar, 
TestParameter, AutoAnalysis.Marker.Data.StartCondition, 
MetaData, TestRecord.EntryPoint, true
MetaData, TestRecord.RecordTime, 07/05/2020 18:21:21
MetaData, TestRecord.TestTarget, 
MetaData, TestRecord.IterationIndex, 97
MetaData, TestRecord.Preservation, true
MetaData, TestRecord.Flag, 
MetaData, TestRecord.Remarks, 
MetaData, TestRecord.LinkKey, 2f5bcb2f-dd7a-4202-a3c4-9d395d9e5200
Dimension1, 101, 101, 101
Dimension2, 1, 1, 1
DataName, V1, I1, Ohmic
DataValue, -5, -1.1231E-10, -13559275509.674515
DataValue, -4.9, -8.907E-11, 
DataValue, -4.8, -7.101E-11, 
DataValue, -4.7, -6.427E-11, 
DataValue, -4.6000000000000005, -5.284E-11, 
DataValue, -4.5, -4.954E-11, 
DataValue, -4.4, -4.059E-11, 
DataValue, -4.3, -3.921E-11, 
DataValue, -4.2, -3.451E-11, 
DataValue, -4.1, -3.224E-11, 
DataValue, -4, -2.666E-11, 
DataValue, -3.9, -2.672E-11, 
DataValue, -3.8000000000000003, -2.209E-11, 
DataValue, -3.7, -2.257E-11, 
DataValue, -3.6, -1.887E-11, 
DataValue, -3.5, -1.881E-11, 
DataValue, -3.4, -1.413E-11, 
DataValue, -3.3000000000000003, -1.564E-11, 
DataValue, -3.2, -1.092E-11, 
DataValue, -3.1, -1.255E-11, 
DataValue, -3, -9.37E-12, 
DataValue, -2.9, -1.122E-11, 
DataValue, -2.8000000000000003, -7.6E-12, 
DataValue, -2.7, -9.09E-12, 
DataValue, -2.6, -4.05E-12, 
DataValue, -2.5, -6.53E-12, 
DataValue, -2.4, -3.28E-12, 
DataValue, -2.3000000000000003, -5.21E-12, 
DataValue, -2.2, -8.2E-13, 
DataValue, -2.1, -2.98E-12, 
DataValue, -2, 2.2E-13, 
DataValue, -1.9000000000000001, -1.52E-12, 
DataValue, -1.8, 2.12E-12, 
DataValue, -1.7, 7.4E-13, 
DataValue, -1.6, 3.85E-12, 
DataValue, -1.5, 3.08E-12, 
DataValue, -1.4000000000000001, 6.59E-12, 
DataValue, -1.3, 5.46E-12, 
DataValue, -1.2, 9.21E-12, 
DataValue, -1.1, 8.32E-12, 
DataValue, -1, 1.184E-11, 
DataValue, -0.9, 1.233E-11, 
DataValue, -0.8, 1.66E-11, 
DataValue, -0.70000000000000007, 1.617E-11, 
DataValue, -0.6, 1.932E-11, 
DataValue, -0.5, 1.885E-11, 
DataValue, -0.4, 2.275E-11, 
DataValue, -0.3, 2.256E-11, 
DataValue, -0.2, 2.46E-11, 
DataValue, -0.1, 2.505E-11, 
DataValue, 0, 3.041E-11, 
DataValue, 0.1, 2.851E-11, 
DataValue, 0.2, 3.229E-11, 
DataValue, 0.3, 3.107E-11, 
DataValue, 0.4, 3.431E-11, 
DataValue, 0.5, 3.338E-11, 
DataValue, 0.6, 3.663E-11, 
DataValue, 0.70000000000000007, 3.634E-11, 
DataValue, 0.8, 3.86E-11, 
DataValue, 0.9, 3.821E-11, 
DataValue, 1, 4.092E-11, 
DataValue, 1.1, 3.997E-11, 
DataValue, 1.2, 4.388E-11, 
DataValue, 1.3, 4.366E-11, 
DataValue, 1.4000000000000001, 4.642E-11, 
DataValue, 1.5, 4.61E-11, 
DataValue, 1.6, 4.928E-11, 
DataValue, 1.7, 4.827E-11, 
DataValue, 1.8, 5.187E-11, 
DataValue, 1.9000000000000001, 5.057E-11, 
DataValue, 2, 5.557E-11, 
DataValue, 2.1, 5.391E-11, 
DataValue, 2.2, 5.649E-11, 
DataValue, 2.3000000000000003, 5.553E-11, 
DataValue, 2.4, 5.88E-11, 
DataValue, 2.5, 5.838E-11, 
DataValue, 2.6, 6.105E-11, 
DataValue, 2.7, 6.195E-11, 
DataValue, 2.8000000000000003, 6.625E-11, 
DataValue, 2.9, 6.485E-11, 
DataValue, 3, 7.022E-11, 
DataValue, 3.1, 6.784E-11, 
DataValue, 3.2, 7.047E-11, 
DataValue, 3.3000000000000003, 7.011E-11, 
DataValue, 3.4, 7.291E-11, 
DataValue, 3.5, 7.311E-11, 
DataValue, 3.6, 7.602E-11, 
DataValue, 3.7, 7.611E-11, 
DataValue, 3.8000000000000003, 7.9E-11, 
DataValue, 3.9, 7.887E-11, 
DataValue, 4, 8.357E-11, 
DataValue, 4.1, 8.246E-11, 
DataValue, 4.2, 8.727E-11, 
DataValue, 4.3, 8.577E-11, 
DataValue, 4.4, 8.894E-11, 
DataValue, 4.5, 8.853E-11, 
DataValue, 4.6000000000000005, 9.296E-11, 
DataValue, 4.7, 9.182E-11, 
DataValue, 4.8, 9.5609999999999993E-11, 
DataValue, 4.9, 9.527E-11, 
DataValue, 5, 9.895E-11, 