
SetupTitle, WW
PrimitiveTest, I/V Sweep
TestParameter, Context.MainFrame, B1500A
TestParameter, Channel.UnitType, SMU, SMU
TestParameter, Channel.Unit, SMU2:HP, SMU1:HP
TestParameter, Channel.IName, I1, I4
TestParameter, Channel.VName, V1, V4
TestParameter, Channel.Mode, V, COMMON
TestParameter, Channel.Func, VAR1, CONST
TestParameter, Channel.Index, 
TestParameter, Channel.Time, 
TestParameter, Measurement.Port.Unit, SMU2:HP, SMU1:HP
TestParameter, Measurement.Port.SeriesResistor, NONE, NONE
TestParameter, Measurement.Port.Filter, ON, ON
TestParameter, Measurement.Port.OutputVoltageComparison, 0, 0
TestParameter, Measurement.Primary.Locus, Single
TestParameter, Measurement.Primary.Scale, LINEAR
TestParameter, Measurement.Primary.Start, -5
TestParameter, Measurement.Primary.Stop, 5
TestParameter, Measurement.Primary.Step, 0.1
TestParameter, Measurement.Primary.Compliance, 0.1
TestParameter, Measurement.Primary.PowerCompliance, 0
TestParameter, Measurement.Aborting.Condition, CONTINUE AT ANY
TestParameter, Measurement.PostOutput.Value, START
TestParameter, Measurement.PostOutput.Retention, OFF
TestParameter, Measurement.Bias.Source, -5, 0
TestParameter, Measurement.Bias.Compliance, 0.1, 1
TestParameter, Measurement.Monitor.Unit, SMU2:HP, SMU1:HP
TestParameter, Measurement.Monitor.Adc, HR ADC, HR ADC
TestParameter, Measurement.Monitor.Measurement, Compliance Side, Compliance Side
TestParameter, Measurement.Monitor.RangingMode, AUTO, AUTO
TestParameter, Measurement.Monitor.RangeBoundary, , 
TestParameter, Measurement.Monitor.RangeRating, BY FULL RANGE, BY FULL RANGE
TestParameter, Measurement.Monitor.RangeRatingCoeff, 50, 50
TestParameter, Measurement.Timing.Hold, 0
TestParameter, Measurement.Timing.Delay, 0.001
TestParameter, Measurement.Adc.HighSpeed.Mode, AUTO
TestParameter, Measurement.Adc.HighSpeed.Coeff, 1
TestParameter, Measurement.Adc.HighResolution.AutoZero, OFF
TestParameter, Measurement.Adc.HighResolution.Mode, PLC
TestParameter, Measurement.Adc.HighResolution.Coeff, 1
TestParameter, Measurement.WaitTime.Source.Coeff, 1
TestParameter, Measurement.WaitTime.Source.Offset, 0
TestParameter, Measurement.WaitTime.Monitor.Coeff, 1
TestParameter, Measurement.WaitTime.Monitor.Offset, 0
TestParameter, Function.User.Name, Ohmic
TestParameter, Function.User.Unit, ohm
TestParameter, Function.User.Definition, avg(V1/I1)
TestParameter, Output.Graph.Enabled, true
TestParameter, Output.Graph.XAxis.Data, V1
TestParameter, Output.Graph.XAxis.Scale, Linear
TestParameter, Output.Graph.XAxis.Left, -5
TestParameter, Output.Graph.XAxis.Right, 5
TestParameter, Output.Graph.YAxis.Data, I1
TestParameter, Output.Graph.YAxis.Scale, Linear
TestParameter, Output.Graph.YAxis.Bottom, -0.001
TestParameter, Output.Graph.YAxis.Top, 0.001
TestParameter, Output.Graph.YAxis.Group, 
TestParameter, Output.Scalar.Data, Ohmic
TestParameter, AutoAnalysis.Interpolation, false
TestParameter, AutoAnalysis.Line1.Enabled, false
TestParameter, AutoAnalysis.Line1.Type, 1
TestParameter, AutoAnalysis.Line1.Fix, True
TestParameter, AutoAnalysis.Line1.YAxis, 0
TestParameter, AutoAnalysis.Line1.Point1.Type, 0
TestParameter, AutoAnalysis.Line1.Point1.XY.X, 
TestParameter, AutoAnalysis.Line1.Point1.XY.Y, 
TestParameter, AutoAnalysis.Line1.Point1.Data.Var, 
TestParameter, AutoAnalysis.Line1.Point1.Data.Condition, 
TestParameter, AutoAnalysis.Line1.Point1.Data.Start, false
TestParameter, AutoAnalysis.Line1.Point1.Data.StartVar, 
TestParameter, AutoAnalysis.Line1.Point1.Data.StartCondition, 
TestParameter, AutoAnalysis.Line1.Point2.Type, 0
TestParameter, AutoAnalysis.Line1.Point2.XY.X, 
TestParameter, AutoAnalysis.Line1.Point2.XY.Y, 
TestParameter, AutoAnalysis.Line1.Point2.Data.Var, 
TestParameter, AutoAnalysis.Line1.Point2.Data.Condition, 
TestParameter, AutoAnalysis.Line1.Point2.Data.Start, false
TestParameter, AutoAnalysis.Line1.Point2.Data.StartVar, 
TestParameter, AutoAnalysis.Line1.Point2.Data.StartCondition, 
TestParameter, AutoAnalysis.Line1.GradientExpr, 0
TestParameter, AutoAnalysis.Line2.Enabled, false
TestParameter, AutoAnalysis.Line2.Type, 1
TestParameter, AutoAnalysis.Line2.Fix, True
TestParameter, AutoAnalysis.Line2.YAxis, 0
TestParameter, AutoAnalysis.Line2.Point1.Type, 0
TestParameter, AutoAnalysis.Line2.Point1.XY.X, 
TestParameter, AutoAnalysis.Line2.Point1.XY.Y, 
TestParameter, AutoAnalysis.Line2.Point1.Data.Var, 
TestParameter, AutoAnalysis.Line2.Point1.Data.Condition, 
TestParameter, AutoAnalysis.Line2.Point1.Data.Start, false
TestParameter, AutoAnalysis.Line2.Point1.Data.StartVar, 
TestParameter, AutoAnalysis.Line2.Point1.Data.StartCondition, 
TestParameter, AutoAnalysis.Line2.Point2.Type, 0
TestParameter, AutoAnalysis.Line2.Point2.XY.X, 
TestParameter, AutoAnalysis.Line2.Point2.XY.Y, 
TestParameter, AutoAnalysis.Line2.Point2.Data.Var, 
TestParameter, AutoAnalysis.Line2.Point2.Data.Condition, 
TestParameter, AutoAnalysis.Line2.Point2.Data.Start, false
TestParameter, AutoAnalysis.Line2.Point2.Data.StartVar, 
TestParameter, AutoAnalysis.Line2.Point2.Data.StartCondition, 
TestParameter, AutoAnalysis.Line2.GradientExpr, 0
TestParameter, AutoAnalysis.Marker.Enabled, false
TestParameter, AutoAnalysis.Marker.Data.Var, 
TestParameter, AutoAnalysis.Marker.Data.Condition, 
TestParameter, AutoAnalysis.Marker.Data.Start, false
TestParameter, AutoAnalysis.Marker.Data.StartVar, 
TestParameter, AutoAnalysis.Marker.Data.StartCondition, 
MetaData, TestRecord.EntryPoint, true
MetaData, TestRecord.RecordTime, 07/05/2020 18:20:52
MetaData, TestRecord.TestTarget, 
MetaData, TestRecord.IterationIndex, 96
MetaData, TestRecord.Preservation, true
MetaData, TestRecord.Flag, 
MetaData, TestRecord.Remarks, 
MetaData, TestRecord.LinkKey, f3b01251-7151-4d6f-b1ba-d6c182e57e4e
Dimension1, 101, 101, 101
Dimension2, 1, 1, 1
DataName, V1, I1, Ohmic
DataValue, -5, -1.1368E-10, 106205821266.77489
DataValue, -4.9, -9.411E-11, 
DataValue, -4.8, -7.607E-11, 
DataValue, -4.7, -6.74E-11, 
DataValue, -4.6000000000000005, -5.72E-11, 
DataValue, -4.5, -5.285E-11, 
DataValue, -4.4, -4.567E-11, 
DataValue, -4.3, -4.327E-11, 
DataValue, -4.2, -3.636E-11, 
DataValue, -4.1, -3.329E-11, 
DataValue, -4, -3.021E-11, 
DataValue, -3.9, -2.834E-11, 
DataValue, -3.8000000000000003, -2.597E-11, 
DataValue, -3.7, -2.582E-11, 
DataValue, -3.6, -2.178E-11, 
DataValue, -3.5, -2.05E-11, 
DataValue, -3.4, -1.802E-11, 
DataValue, -3.3000000000000003, -1.884E-11, 
DataValue, -3.2, -1.499E-11, 
DataValue, -3.1, -1.611E-11, 
DataValue, -3, -1.248E-11, 
DataValue, -2.9, -1.177E-11, 
DataValue, -2.8000000000000003, -1.004E-11, 
DataValue, -2.7, -9.73E-12, 
DataValue, -2.6, -7.44E-12, 
DataValue, -2.5, -8.48E-12, 
DataValue, -2.4, -5.47E-12, 
DataValue, -2.3000000000000003, -7.05E-12, 
DataValue, -2.2, -3.48E-12, 
DataValue, -2.1, -4.44E-12, 
DataValue, -2, -7.9E-13, 
DataValue, -1.9000000000000001, -1.61E-12, 
DataValue, -1.8, 1.49E-12, 
DataValue, -1.7, -8.7E-13, 
DataValue, -1.6, 4.4E-12, 
DataValue, -1.5, 3.9E-12, 
DataValue, -1.4000000000000001, 7.5E-12, 
DataValue, -1.3, 7.69E-12, 
DataValue, -1.2, 1.144E-11, 
DataValue, -1.1, 1.212E-11, 
DataValue, -1, 1.495E-11, 
DataValue, -0.9, 1.552E-11, 
DataValue, -0.8, 1.841E-11, 
DataValue, -0.70000000000000007, 1.851E-11, 
DataValue, -0.6, 2.141E-11, 
DataValue, -0.5, 2.176E-11, 
DataValue, -0.4, 2.444E-11, 
DataValue, -0.3, 2.273E-11, 
DataValue, -0.2, 2.716E-11, 
DataValue, -0.1, 2.867E-11, 
DataValue, 0, 3.04E-11, 
DataValue, 0.1, 2.953E-11, 
DataValue, 0.2, 3.318E-11, 
DataValue, 0.3, 3.286E-11, 
DataValue, 0.4, 3.549E-11, 
DataValue, 0.5, 3.55E-11, 
DataValue, 0.6, 3.813E-11, 
DataValue, 0.70000000000000007, 3.755E-11, 
DataValue, 0.8, 4.009E-11, 
DataValue, 0.9, 3.942E-11, 
DataValue, 1, 4.247E-11, 
DataValue, 1.1, 4.236E-11, 
DataValue, 1.2, 4.46E-11, 
DataValue, 1.3, 4.535E-11, 
DataValue, 1.4000000000000001, 4.669E-11, 
DataValue, 1.5, 4.847E-11, 
DataValue, 1.6, 5.033E-11, 
DataValue, 1.7, 5.092E-11, 
DataValue, 1.8, 5.341E-11, 
DataValue, 1.9000000000000001, 5.295E-11, 
DataValue, 2, 5.499E-11, 
DataValue, 2.1, 5.582E-11, 
DataValue, 2.2, 5.838E-11, 
DataValue, 2.3000000000000003, 5.842E-11, 
DataValue, 2.4, 6.08E-11, 
DataValue, 2.5, 6.063E-11, 
DataValue, 2.6, 6.385E-11, 
DataValue, 2.7, 6.314E-11, 
DataValue, 2.8000000000000003, 6.608E-11, 
DataValue, 2.9, 6.743E-11, 
DataValue, 3, 6.97E-11, 
DataValue, 3.1, 6.858E-11, 
DataValue, 3.2, 7.302E-11, 
DataValue, 3.3000000000000003, 7.228E-11, 
DataValue, 3.4, 7.53E-11, 
DataValue, 3.5, 7.462E-11, 
DataValue, 3.6, 7.882E-11, 
DataValue, 3.7, 7.967E-11, 
DataValue, 3.8000000000000003, 8.098E-11, 
DataValue, 3.9, 8.207E-11, 
DataValue, 4, 8.415E-11, 
DataValue, 4.1, 8.496E-11, 
DataValue, 4.2, 8.831E-11, 
DataValue, 4.3, 8.791E-11, 
DataValue, 4.4, 9.125E-11, 
DataValue, 4.5, 9.139E-11, 
DataValue, 4.6000000000000005, 9.471E-11, 
DataValue, 4.7, 9.542E-11, 
DataValue, 4.8, 9.768E-11, 
DataValue, 4.9, 9.91E-11, 
DataValue, 5, 1.0104E-10, 