
SetupTitle, WW
PrimitiveTest, I/V Sweep
TestParameter, Context.MainFrame, B1500A
TestParameter, Channel.UnitType, SMU, SMU
TestParameter, Channel.Unit, SMU2:HP, SMU1:HP
TestParameter, Channel.IName, I1, I4
TestParameter, Channel.VName, V1, V4
TestParameter, Channel.Mode, V, COMMON
TestParameter, Channel.Func, VAR1, CONST
TestParameter, Channel.Index, 
TestParameter, Channel.Time, 
TestParameter, Measurement.Port.Unit, SMU2:HP, SMU1:HP
TestParameter, Measurement.Port.SeriesResistor, NONE, NONE
TestParameter, Measurement.Port.Filter, ON, ON
TestParameter, Measurement.Port.OutputVoltageComparison, 0, 0
TestParameter, Measurement.Primary.Locus, Single
TestParameter, Measurement.Primary.Scale, LINEAR
TestParameter, Measurement.Primary.Start, -5
TestParameter, Measurement.Primary.Stop, 5
TestParameter, Measurement.Primary.Step, 0.1
TestParameter, Measurement.Primary.Compliance, 0.1
TestParameter, Measurement.Primary.PowerCompliance, 0
TestParameter, Measurement.Aborting.Condition, CONTINUE AT ANY
TestParameter, Measurement.PostOutput.Value, START
TestParameter, Measurement.PostOutput.Retention, OFF
TestParameter, Measurement.Bias.Source, -5, 0
TestParameter, Measurement.Bias.Compliance, 0.1, 1
TestParameter, Measurement.Monitor.Unit, SMU2:HP, SMU1:HP
TestParameter, Measurement.Monitor.Adc, HR ADC, HR ADC
TestParameter, Measurement.Monitor.Measurement, Compliance Side, Compliance Side
TestParameter, Measurement.Monitor.RangingMode, AUTO, AUTO
TestParameter, Measurement.Monitor.RangeBoundary, , 
TestParameter, Measurement.Monitor.RangeRating, BY FULL RANGE, BY FULL RANGE
TestParameter, Measurement.Monitor.RangeRatingCoeff, 50, 50
TestParameter, Measurement.Timing.Hold, 0
TestParameter, Measurement.Timing.Delay, 0.001
TestParameter, Measurement.Adc.HighSpeed.Mode, AUTO
TestParameter, Measurement.Adc.HighSpeed.Coeff, 1
TestParameter, Measurement.Adc.HighResolution.AutoZero, OFF
TestParameter, Measurement.Adc.HighResolution.Mode, PLC
TestParameter, Measurement.Adc.HighResolution.Coeff, 1
TestParameter, Measurement.WaitTime.Source.Coeff, 1
TestParameter, Measurement.WaitTime.Source.Offset, 0
TestParameter, Measurement.WaitTime.Monitor.Coeff, 1
TestParameter, Measurement.WaitTime.Monitor.Offset, 0
TestParameter, Function.User.Name, Ohmic
TestParameter, Function.User.Unit, ohm
TestParameter, Function.User.Definition, avg(V1/I1)
TestParameter, Output.Graph.Enabled, true
TestParameter, Output.Graph.XAxis.Data, V1
TestParameter, Output.Graph.XAxis.Scale, Linear
TestParameter, Output.Graph.XAxis.Left, -5
TestParameter, Output.Graph.XAxis.Right, 5
TestParameter, Output.Graph.YAxis.Data, I1
TestParameter, Output.Graph.YAxis.Scale, Linear
TestParameter, Output.Graph.YAxis.Bottom, -0.001
TestParameter, Output.Graph.YAxis.Top, 0.001
TestParameter, Output.Graph.YAxis.Group, 
TestParameter, Output.Scalar.Data, Ohmic
TestParameter, AutoAnalysis.Interpolation, false
TestParameter, AutoAnalysis.Line1.Enabled, false
TestParameter, AutoAnalysis.Line1.Type, 1
TestParameter, AutoAnalysis.Line1.Fix, True
TestParameter, AutoAnalysis.Line1.YAxis, 0
TestParameter, AutoAnalysis.Line1.Point1.Type, 0
TestParameter, AutoAnalysis.Line1.Point1.XY.X, 
TestParameter, AutoAnalysis.Line1.Point1.XY.Y, 
TestParameter, AutoAnalysis.Line1.Point1.Data.Var, 
TestParameter, AutoAnalysis.Line1.Point1.Data.Condition, 
TestParameter, AutoAnalysis.Line1.Point1.Data.Start, false
TestParameter, AutoAnalysis.Line1.Point1.Data.StartVar, 
TestParameter, AutoAnalysis.Line1.Point1.Data.StartCondition, 
TestParameter, AutoAnalysis.Line1.Point2.Type, 0
TestParameter, AutoAnalysis.Line1.Point2.XY.X, 
TestParameter, AutoAnalysis.Line1.Point2.XY.Y, 
TestParameter, AutoAnalysis.Line1.Point2.Data.Var, 
TestParameter, AutoAnalysis.Line1.Point2.Data.Condition, 
TestParameter, AutoAnalysis.Line1.Point2.Data.Start, false
TestParameter, AutoAnalysis.Line1.Point2.Data.StartVar, 
TestParameter, AutoAnalysis.Line1.Point2.Data.StartCondition, 
TestParameter, AutoAnalysis.Line1.GradientExpr, 0
TestParameter, AutoAnalysis.Line2.Enabled, false
TestParameter, AutoAnalysis.Line2.Type, 1
TestParameter, AutoAnalysis.Line2.Fix, True
TestParameter, AutoAnalysis.Line2.YAxis, 0
TestParameter, AutoAnalysis.Line2.Point1.Type, 0
TestParameter, AutoAnalysis.Line2.Point1.XY.X, 
TestParameter, AutoAnalysis.Line2.Point1.XY.Y, 
TestParameter, AutoAnalysis.Line2.Point1.Data.Var, 
TestParameter, AutoAnalysis.Line2.Point1.Data.Condition, 
TestParameter, AutoAnalysis.Line2.Point1.Data.Start, false
TestParameter, AutoAnalysis.Line2.Point1.Data.StartVar, 
TestParameter, AutoAnalysis.Line2.Point1.Data.StartCondition, 
TestParameter, AutoAnalysis.Line2.Point2.Type, 0
TestParameter, AutoAnalysis.Line2.Point2.XY.X, 
TestParameter, AutoAnalysis.Line2.Point2.XY.Y, 
TestParameter, AutoAnalysis.Line2.Point2.Data.Var, 
TestParameter, AutoAnalysis.Line2.Point2.Data.Condition, 
TestParameter, AutoAnalysis.Line2.Point2.Data.Start, false
TestParameter, AutoAnalysis.Line2.Point2.Data.StartVar, 
TestParameter, AutoAnalysis.Line2.Point2.Data.StartCondition, 
TestParameter, AutoAnalysis.Line2.GradientExpr, 0
TestParameter, AutoAnalysis.Marker.Enabled, false
TestParameter, AutoAnalysis.Marker.Data.Var, 
TestParameter, AutoAnalysis.Marker.Data.Condition, 
TestParameter, AutoAnalysis.Marker.Data.Start, false
TestParameter, AutoAnalysis.Marker.Data.StartVar, 
TestParameter, AutoAnalysis.Marker.Data.StartCondition, 
MetaData, TestRecord.EntryPoint, true
MetaData, TestRecord.RecordTime, 07/05/2020 18:19:24
MetaData, TestRecord.TestTarget, 
MetaData, TestRecord.IterationIndex, 93
MetaData, TestRecord.Preservation, true
MetaData, TestRecord.Flag, 
MetaData, TestRecord.Remarks, 
MetaData, TestRecord.LinkKey, 9b5d7d48-921c-41e4-be6b-284e0beb031e
Dimension1, 101, 101, 101
Dimension2, 1, 1, 1
DataName, V1, I1, Ohmic
DataValue, -5, -1.6783E-10, -7976034873.2386923
DataValue, -4.9, -1.439E-10, 
DataValue, -4.8, -1.2919E-10, 
DataValue, -4.7, -1.1687E-10, 
DataValue, -4.6000000000000005, -1.0634E-10, 
DataValue, -4.5, -9.745E-11, 
DataValue, -4.4, -8.845E-11, 
DataValue, -4.3, -7.923E-11, 
DataValue, -4.2, -7.303E-11, 
DataValue, -4.1, -6.324E-11, 
DataValue, -4, -5.985E-11, 
DataValue, -3.9, -5.318E-11, 
DataValue, -3.8000000000000003, -4.849E-11, 
DataValue, -3.7, -4.148E-11, 
DataValue, -3.6, -3.866E-11, 
DataValue, -3.5, -3.43E-11, 
DataValue, -3.4, -2.966E-11, 
DataValue, -3.3000000000000003, -2.587E-11, 
DataValue, -3.2, -2.311E-11, 
DataValue, -3.1, -1.828E-11, 
DataValue, -3, -1.664E-11, 
DataValue, -2.9, -1.193E-11, 
DataValue, -2.8000000000000003, -1.098E-11, 
DataValue, -2.7, -6.65E-12, 
DataValue, -2.6, -6.5E-12, 
DataValue, -2.5, -2.46E-12, 
DataValue, -2.4, -1.88E-12, 
DataValue, -2.3000000000000003, 5.2E-13, 
DataValue, -2.2, 1.79E-12, 
DataValue, -2.1, 5.24E-12, 
DataValue, -2, 4.87E-12, 
DataValue, -1.9000000000000001, 8.83E-12, 
DataValue, -1.8, 8.7699999999999992E-12, 
DataValue, -1.7, 1.257E-11, 
DataValue, -1.6, 1.278E-11, 
DataValue, -1.5, 1.405E-11, 
DataValue, -1.4000000000000001, 1.538E-11, 
DataValue, -1.3, 1.645E-11, 
DataValue, -1.2, 1.848E-11, 
DataValue, -1.1, 2.153E-11, 
DataValue, -1, 2.091E-11, 
DataValue, -0.9, 2.407E-11, 
DataValue, -0.8, 2.313E-11, 
DataValue, -0.70000000000000007, 2.409E-11, 
DataValue, -0.6, 2.572E-11, 
DataValue, -0.5, 2.832E-11, 
DataValue, -0.4, 2.791E-11, 
DataValue, -0.3, 2.966E-11, 
DataValue, -0.2, 3.018E-11, 
DataValue, -0.1, 3.306E-11, 
DataValue, 0, 3.2749999999999997E-11, 
DataValue, 0.1, 3.537E-11, 
DataValue, 0.2, 3.518E-11, 
DataValue, 0.3, 3.682E-11, 
DataValue, 0.4, 3.685E-11, 
DataValue, 0.5, 4.019E-11, 
DataValue, 0.6, 3.923E-11, 
DataValue, 0.70000000000000007, 4.24E-11, 
DataValue, 0.8, 4.083E-11, 
DataValue, 0.9, 4.34E-11, 
DataValue, 1, 4.349E-11, 
DataValue, 1.1, 4.65E-11, 
DataValue, 1.2, 4.656E-11, 
DataValue, 1.3, 4.79E-11, 
DataValue, 1.4000000000000001, 4.874E-11, 
DataValue, 1.5, 5.301E-11, 
DataValue, 1.6, 5.192E-11, 
DataValue, 1.7, 5.459E-11, 
DataValue, 1.8, 5.532E-11, 
DataValue, 1.9000000000000001, 5.743E-11, 
DataValue, 2, 5.806E-11, 
DataValue, 2.1, 6.303E-11, 
DataValue, 2.2, 6.183E-11, 
DataValue, 2.3000000000000003, 6.273E-11, 
DataValue, 2.4, 6.545E-11, 
DataValue, 2.5, 6.87E-11, 
DataValue, 2.6, 6.831E-11, 
DataValue, 2.7, 7.135E-11, 
DataValue, 2.8000000000000003, 7.148E-11, 
DataValue, 2.9, 7.511E-11, 
DataValue, 3, 7.561E-11, 
DataValue, 3.1, 7.682E-11, 
DataValue, 3.2, 7.811E-11, 
DataValue, 3.3000000000000003, 8.061E-11, 
DataValue, 3.4, 8.139E-11, 
DataValue, 3.5, 8.418E-11, 
DataValue, 3.6, 8.522E-11, 
DataValue, 3.7, 8.635E-11, 
DataValue, 3.8000000000000003, 8.856E-11, 
DataValue, 3.9, 9.015E-11, 
DataValue, 4, 9.205E-11, 
DataValue, 4.1, 9.432E-11, 
DataValue, 4.2, 9.605E-11, 
DataValue, 4.3, 9.72E-11, 
DataValue, 4.4, 9.897E-11, 
DataValue, 4.5, 1.0156E-10, 
DataValue, 4.6000000000000005, 1.02E-10, 
DataValue, 4.7, 1.0515E-10, 
DataValue, 4.8, 1.073E-10, 
DataValue, 4.9, 1.0926E-10, 
DataValue, 5, 1.0957E-10, 