
SetupTitle, WW
PrimitiveTest, I/V Sweep
TestParameter, Context.MainFrame, B1500A
TestParameter, Channel.UnitType, SMU, SMU
TestParameter, Channel.Unit, SMU2:HP, SMU1:HP
TestParameter, Channel.IName, I1, I4
TestParameter, Channel.VName, V1, V4
TestParameter, Channel.Mode, V, COMMON
TestParameter, Channel.Func, VAR1, CONST
TestParameter, Channel.Index, 
TestParameter, Channel.Time, 
TestParameter, Measurement.Port.Unit, SMU2:HP, SMU1:HP
TestParameter, Measurement.Port.SeriesResistor, NONE, NONE
TestParameter, Measurement.Port.Filter, ON, ON
TestParameter, Measurement.Port.OutputVoltageComparison, 0, 0
TestParameter, Measurement.Primary.Locus, Single
TestParameter, Measurement.Primary.Scale, LINEAR
TestParameter, Measurement.Primary.Start, -5
TestParameter, Measurement.Primary.Stop, 5
TestParameter, Measurement.Primary.Step, 0.1
TestParameter, Measurement.Primary.Compliance, 0.1
TestParameter, Measurement.Primary.PowerCompliance, 0
TestParameter, Measurement.Aborting.Condition, CONTINUE AT ANY
TestParameter, Measurement.PostOutput.Value, START
TestParameter, Measurement.PostOutput.Retention, OFF
TestParameter, Measurement.Bias.Source, -5, 0
TestParameter, Measurement.Bias.Compliance, 0.1, 1
TestParameter, Measurement.Monitor.Unit, SMU2:HP, SMU1:HP
TestParameter, Measurement.Monitor.Adc, HR ADC, HR ADC
TestParameter, Measurement.Monitor.Measurement, Compliance Side, Compliance Side
TestParameter, Measurement.Monitor.RangingMode, AUTO, AUTO
TestParameter, Measurement.Monitor.RangeBoundary, , 
TestParameter, Measurement.Monitor.RangeRating, BY FULL RANGE, BY FULL RANGE
TestParameter, Measurement.Monitor.RangeRatingCoeff, 50, 50
TestParameter, Measurement.Timing.Hold, 0
TestParameter, Measurement.Timing.Delay, 0.001
TestParameter, Measurement.Adc.HighSpeed.Mode, AUTO
TestParameter, Measurement.Adc.HighSpeed.Coeff, 1
TestParameter, Measurement.Adc.HighResolution.AutoZero, OFF
TestParameter, Measurement.Adc.HighResolution.Mode, PLC
TestParameter, Measurement.Adc.HighResolution.Coeff, 1
TestParameter, Measurement.WaitTime.Source.Coeff, 1
TestParameter, Measurement.WaitTime.Source.Offset, 0
TestParameter, Measurement.WaitTime.Monitor.Coeff, 1
TestParameter, Measurement.WaitTime.Monitor.Offset, 0
TestParameter, Function.User.Name, Ohmic
TestParameter, Function.User.Unit, ohm
TestParameter, Function.User.Definition, avg(V1/I1)
TestParameter, Output.Graph.Enabled, true
TestParameter, Output.Graph.XAxis.Data, V1
TestParameter, Output.Graph.XAxis.Scale, Linear
TestParameter, Output.Graph.XAxis.Left, -5
TestParameter, Output.Graph.XAxis.Right, 5
TestParameter, Output.Graph.YAxis.Data, I1
TestParameter, Output.Graph.YAxis.Scale, Linear
TestParameter, Output.Graph.YAxis.Bottom, -0.001
TestParameter, Output.Graph.YAxis.Top, 0.001
TestParameter, Output.Graph.YAxis.Group, 
TestParameter, Output.Scalar.Data, Ohmic
TestParameter, AutoAnalysis.Interpolation, false
TestParameter, AutoAnalysis.Line1.Enabled, false
TestParameter, AutoAnalysis.Line1.Type, 1
TestParameter, AutoAnalysis.Line1.Fix, True
TestParameter, AutoAnalysis.Line1.YAxis, 0
TestParameter, AutoAnalysis.Line1.Point1.Type, 0
TestParameter, AutoAnalysis.Line1.Point1.XY.X, 
TestParameter, AutoAnalysis.Line1.Point1.XY.Y, 
TestParameter, AutoAnalysis.Line1.Point1.Data.Var, 
TestParameter, AutoAnalysis.Line1.Point1.Data.Condition, 
TestParameter, AutoAnalysis.Line1.Point1.Data.Start, false
TestParameter, AutoAnalysis.Line1.Point1.Data.StartVar, 
TestParameter, AutoAnalysis.Line1.Point1.Data.StartCondition, 
TestParameter, AutoAnalysis.Line1.Point2.Type, 0
TestParameter, AutoAnalysis.Line1.Point2.XY.X, 
TestParameter, AutoAnalysis.Line1.Point2.XY.Y, 
TestParameter, AutoAnalysis.Line1.Point2.Data.Var, 
TestParameter, AutoAnalysis.Line1.Point2.Data.Condition, 
TestParameter, AutoAnalysis.Line1.Point2.Data.Start, false
TestParameter, AutoAnalysis.Line1.Point2.Data.StartVar, 
TestParameter, AutoAnalysis.Line1.Point2.Data.StartCondition, 
TestParameter, AutoAnalysis.Line1.GradientExpr, 0
TestParameter, AutoAnalysis.Line2.Enabled, false
TestParameter, AutoAnalysis.Line2.Type, 1
TestParameter, AutoAnalysis.Line2.Fix, True
TestParameter, AutoAnalysis.Line2.YAxis, 0
TestParameter, AutoAnalysis.Line2.Point1.Type, 0
TestParameter, AutoAnalysis.Line2.Point1.XY.X, 
TestParameter, AutoAnalysis.Line2.Point1.XY.Y, 
TestParameter, AutoAnalysis.Line2.Point1.Data.Var, 
TestParameter, AutoAnalysis.Line2.Point1.Data.Condition, 
TestParameter, AutoAnalysis.Line2.Point1.Data.Start, false
TestParameter, AutoAnalysis.Line2.Point1.Data.StartVar, 
TestParameter, AutoAnalysis.Line2.Point1.Data.StartCondition, 
TestParameter, AutoAnalysis.Line2.Point2.Type, 0
TestParameter, AutoAnalysis.Line2.Point2.XY.X, 
TestParameter, AutoAnalysis.Line2.Point2.XY.Y, 
TestParameter, AutoAnalysis.Line2.Point2.Data.Var, 
TestParameter, AutoAnalysis.Line2.Point2.Data.Condition, 
TestParameter, AutoAnalysis.Line2.Point2.Data.Start, false
TestParameter, AutoAnalysis.Line2.Point2.Data.StartVar, 
TestParameter, AutoAnalysis.Line2.Point2.Data.StartCondition, 
TestParameter, AutoAnalysis.Line2.GradientExpr, 0
TestParameter, AutoAnalysis.Marker.Enabled, false
TestParameter, AutoAnalysis.Marker.Data.Var, 
TestParameter, AutoAnalysis.Marker.Data.Condition, 
TestParameter, AutoAnalysis.Marker.Data.Start, false
TestParameter, AutoAnalysis.Marker.Data.StartVar, 
TestParameter, AutoAnalysis.Marker.Data.StartCondition, 
MetaData, TestRecord.EntryPoint, true
MetaData, TestRecord.RecordTime, 07/05/2020 18:16:52
MetaData, TestRecord.TestTarget, 
MetaData, TestRecord.IterationIndex, 88
MetaData, TestRecord.Preservation, true
MetaData, TestRecord.Flag, 
MetaData, TestRecord.Remarks, 
MetaData, TestRecord.LinkKey, c422d5e5-13e3-4d61-a1ec-f2600aeff1c0
Dimension1, 101, 101, 101
Dimension2, 1, 1, 1
DataName, V1, I1, Ohmic
DataValue, -5, -1.549E-10, -99941262047.434021
DataValue, -4.9, -1.2902E-10, 
DataValue, -4.8, -1.1627E-10, 
DataValue, -4.7, -1.0132E-10, 
DataValue, -4.6000000000000005, -9.332E-11, 
DataValue, -4.5, -8.255E-11, 
DataValue, -4.4, -7.705E-11, 
DataValue, -4.3, -6.833E-11, 
DataValue, -4.2, -6.488E-11, 
DataValue, -4.1, -5.651E-11, 
DataValue, -4, -5.244E-11, 
DataValue, -3.9, -4.71E-11, 
DataValue, -3.8000000000000003, -4.413E-11, 
DataValue, -3.7, -3.86E-11, 
DataValue, -3.6, -3.698E-11, 
DataValue, -3.5, -3.149E-11, 
DataValue, -3.4, -3.056E-11, 
DataValue, -3.3000000000000003, -2.577E-11, 
DataValue, -3.2, -2.267E-11, 
DataValue, -3.1, -1.944E-11, 
DataValue, -3, -1.847E-11, 
DataValue, -2.9, -1.44E-11, 
DataValue, -2.8000000000000003, -1.344E-11, 
DataValue, -2.7, -9.22E-12, 
DataValue, -2.6, -9.56E-12, 
DataValue, -2.5, -4.81E-12, 
DataValue, -2.4, -3.75E-12, 
DataValue, -2.3000000000000003, -3.5E-13, 
DataValue, -2.2, 1.1E-13, 
DataValue, -2.1, 3.26E-12, 
DataValue, -2, 3.93E-12, 
DataValue, -1.9000000000000001, 6.9E-12, 
DataValue, -1.8, 7.32E-12, 
DataValue, -1.7, 1.166E-11, 
DataValue, -1.6, 1.004E-11, 
DataValue, -1.5, 1.374E-11, 
DataValue, -1.4000000000000001, 1.396E-11, 
DataValue, -1.3, 1.691E-11, 
DataValue, -1.2, 1.705E-11, 
DataValue, -1.1, 1.987E-11, 
DataValue, -1, 1.874E-11, 
DataValue, -0.9, 2.261E-11, 
DataValue, -0.8, 2.314E-11, 
DataValue, -0.70000000000000007, 2.499E-11, 
DataValue, -0.6, 2.451E-11, 
DataValue, -0.5, 2.742E-11, 
DataValue, -0.4, 2.624E-11, 
DataValue, -0.3, 2.948E-11, 
DataValue, -0.2, 2.838E-11, 
DataValue, -0.1, 3.21E-11, 
DataValue, 0, 3.246E-11, 
DataValue, 0.1, 3.435E-11, 
DataValue, 0.2, 3.307E-11, 
DataValue, 0.3, 3.661E-11, 
DataValue, 0.4, 3.572E-11, 
DataValue, 0.5, 3.815E-11, 
DataValue, 0.6, 3.636E-11, 
DataValue, 0.70000000000000007, 4.002E-11, 
DataValue, 0.8, 3.871E-11, 
DataValue, 0.9, 4.204E-11, 
DataValue, 1, 4.073E-11, 
DataValue, 1.1, 4.367E-11, 
DataValue, 1.2, 4.173E-11, 
DataValue, 1.3, 4.59E-11, 
DataValue, 1.4000000000000001, 4.511E-11, 
DataValue, 1.5, 4.791E-11, 
DataValue, 1.6, 4.802E-11, 
DataValue, 1.7, 4.93E-11, 
DataValue, 1.8, 4.815E-11, 
DataValue, 1.9000000000000001, 5.169E-11, 
DataValue, 2, 4.972E-11, 
DataValue, 2.1, 5.339E-11, 
DataValue, 2.2, 5.274E-11, 
DataValue, 2.3000000000000003, 5.553E-11, 
DataValue, 2.4, 5.323E-11, 
DataValue, 2.5, 5.777E-11, 
DataValue, 2.6, 5.511E-11, 
DataValue, 2.7, 5.873E-11, 
DataValue, 2.8000000000000003, 5.798E-11, 
DataValue, 2.9, 6.101E-11, 
DataValue, 3, 5.956E-11, 
DataValue, 3.1, 6.215E-11, 
DataValue, 3.2, 6.129E-11, 
DataValue, 3.3000000000000003, 6.455E-11, 
DataValue, 3.4, 6.461E-11, 
DataValue, 3.5, 6.684E-11, 
DataValue, 3.6, 6.552E-11, 
DataValue, 3.7, 6.859E-11, 
DataValue, 3.8000000000000003, 6.793E-11, 
DataValue, 3.9, 7.028E-11, 
DataValue, 4, 7.071E-11, 
DataValue, 4.1, 7.24E-11, 
DataValue, 4.2, 6.959E-11, 
DataValue, 4.3, 7.405E-11, 
DataValue, 4.4, 7.285E-11, 
DataValue, 4.5, 7.596E-11, 
DataValue, 4.6000000000000005, 7.685E-11, 
DataValue, 4.7, 7.832E-11, 
DataValue, 4.8, 7.704E-11, 
DataValue, 4.9, 8.021E-11, 
DataValue, 5, 7.96E-11, 