
SetupTitle, WW
PrimitiveTest, I/V Sweep
TestParameter, Context.MainFrame, B1500A
TestParameter, Channel.UnitType, SMU, SMU
TestParameter, Channel.Unit, SMU2:HP, SMU1:HP
TestParameter, Channel.IName, I1, I4
TestParameter, Channel.VName, V1, V4
TestParameter, Channel.Mode, V, COMMON
TestParameter, Channel.Func, VAR1, CONST
TestParameter, Channel.Index, 
TestParameter, Channel.Time, 
TestParameter, Measurement.Port.Unit, SMU2:HP, SMU1:HP
TestParameter, Measurement.Port.SeriesResistor, NONE, NONE
TestParameter, Measurement.Port.Filter, ON, ON
TestParameter, Measurement.Port.OutputVoltageComparison, 0, 0
TestParameter, Measurement.Primary.Locus, Single
TestParameter, Measurement.Primary.Scale, LINEAR
TestParameter, Measurement.Primary.Start, -5
TestParameter, Measurement.Primary.Stop, 5
TestParameter, Measurement.Primary.Step, 0.1
TestParameter, Measurement.Primary.Compliance, 0.1
TestParameter, Measurement.Primary.PowerCompliance, 0
TestParameter, Measurement.Aborting.Condition, CONTINUE AT ANY
TestParameter, Measurement.PostOutput.Value, START
TestParameter, Measurement.PostOutput.Retention, OFF
TestParameter, Measurement.Bias.Source, -5, 0
TestParameter, Measurement.Bias.Compliance, 0.1, 1
TestParameter, Measurement.Monitor.Unit, SMU2:HP, SMU1:HP
TestParameter, Measurement.Monitor.Adc, HR ADC, HR ADC
TestParameter, Measurement.Monitor.Measurement, Compliance Side, Compliance Side
TestParameter, Measurement.Monitor.RangingMode, AUTO, AUTO
TestParameter, Measurement.Monitor.RangeBoundary, , 
TestParameter, Measurement.Monitor.RangeRating, BY FULL RANGE, BY FULL RANGE
TestParameter, Measurement.Monitor.RangeRatingCoeff, 50, 50
TestParameter, Measurement.Timing.Hold, 0
TestParameter, Measurement.Timing.Delay, 0.001
TestParameter, Measurement.Adc.HighSpeed.Mode, AUTO
TestParameter, Measurement.Adc.HighSpeed.Coeff, 1
TestParameter, Measurement.Adc.HighResolution.AutoZero, OFF
TestParameter, Measurement.Adc.HighResolution.Mode, PLC
TestParameter, Measurement.Adc.HighResolution.Coeff, 1
TestParameter, Measurement.WaitTime.Source.Coeff, 1
TestParameter, Measurement.WaitTime.Source.Offset, 0
TestParameter, Measurement.WaitTime.Monitor.Coeff, 1
TestParameter, Measurement.WaitTime.Monitor.Offset, 0
TestParameter, Function.User.Name, Ohmic
TestParameter, Function.User.Unit, ohm
TestParameter, Function.User.Definition, avg(V1/I1)
TestParameter, Output.Graph.Enabled, true
TestParameter, Output.Graph.XAxis.Data, V1
TestParameter, Output.Graph.XAxis.Scale, Linear
TestParameter, Output.Graph.XAxis.Left, -5
TestParameter, Output.Graph.XAxis.Right, 5
TestParameter, Output.Graph.YAxis.Data, I1
TestParameter, Output.Graph.YAxis.Scale, Linear
TestParameter, Output.Graph.YAxis.Bottom, -0.001
TestParameter, Output.Graph.YAxis.Top, 0.001
TestParameter, Output.Graph.YAxis.Group, 
TestParameter, Output.Scalar.Data, Ohmic
TestParameter, AutoAnalysis.Interpolation, false
TestParameter, AutoAnalysis.Line1.Enabled, false
TestParameter, AutoAnalysis.Line1.Type, 1
TestParameter, AutoAnalysis.Line1.Fix, True
TestParameter, AutoAnalysis.Line1.YAxis, 0
TestParameter, AutoAnalysis.Line1.Point1.Type, 0
TestParameter, AutoAnalysis.Line1.Point1.XY.X, 
TestParameter, AutoAnalysis.Line1.Point1.XY.Y, 
TestParameter, AutoAnalysis.Line1.Point1.Data.Var, 
TestParameter, AutoAnalysis.Line1.Point1.Data.Condition, 
TestParameter, AutoAnalysis.Line1.Point1.Data.Start, false
TestParameter, AutoAnalysis.Line1.Point1.Data.StartVar, 
TestParameter, AutoAnalysis.Line1.Point1.Data.StartCondition, 
TestParameter, AutoAnalysis.Line1.Point2.Type, 0
TestParameter, AutoAnalysis.Line1.Point2.XY.X, 
TestParameter, AutoAnalysis.Line1.Point2.XY.Y, 
TestParameter, AutoAnalysis.Line1.Point2.Data.Var, 
TestParameter, AutoAnalysis.Line1.Point2.Data.Condition, 
TestParameter, AutoAnalysis.Line1.Point2.Data.Start, false
TestParameter, AutoAnalysis.Line1.Point2.Data.StartVar, 
TestParameter, AutoAnalysis.Line1.Point2.Data.StartCondition, 
TestParameter, AutoAnalysis.Line1.GradientExpr, 0
TestParameter, AutoAnalysis.Line2.Enabled, false
TestParameter, AutoAnalysis.Line2.Type, 1
TestParameter, AutoAnalysis.Line2.Fix, True
TestParameter, AutoAnalysis.Line2.YAxis, 0
TestParameter, AutoAnalysis.Line2.Point1.Type, 0
TestParameter, AutoAnalysis.Line2.Point1.XY.X, 
TestParameter, AutoAnalysis.Line2.Point1.XY.Y, 
TestParameter, AutoAnalysis.Line2.Point1.Data.Var, 
TestParameter, AutoAnalysis.Line2.Point1.Data.Condition, 
TestParameter, AutoAnalysis.Line2.Point1.Data.Start, false
TestParameter, AutoAnalysis.Line2.Point1.Data.StartVar, 
TestParameter, AutoAnalysis.Line2.Point1.Data.StartCondition, 
TestParameter, AutoAnalysis.Line2.Point2.Type, 0
TestParameter, AutoAnalysis.Line2.Point2.XY.X, 
TestParameter, AutoAnalysis.Line2.Point2.XY.Y, 
TestParameter, AutoAnalysis.Line2.Point2.Data.Var, 
TestParameter, AutoAnalysis.Line2.Point2.Data.Condition, 
TestParameter, AutoAnalysis.Line2.Point2.Data.Start, false
TestParameter, AutoAnalysis.Line2.Point2.Data.StartVar, 
TestParameter, AutoAnalysis.Line2.Point2.Data.StartCondition, 
TestParameter, AutoAnalysis.Line2.GradientExpr, 0
TestParameter, AutoAnalysis.Marker.Enabled, false
TestParameter, AutoAnalysis.Marker.Data.Var, 
TestParameter, AutoAnalysis.Marker.Data.Condition, 
TestParameter, AutoAnalysis.Marker.Data.Start, false
TestParameter, AutoAnalysis.Marker.Data.StartVar, 
TestParameter, AutoAnalysis.Marker.Data.StartCondition, 
MetaData, TestRecord.EntryPoint, true
MetaData, TestRecord.RecordTime, 07/05/2020 18:16:23
MetaData, TestRecord.TestTarget, 
MetaData, TestRecord.IterationIndex, 87
MetaData, TestRecord.Preservation, true
MetaData, TestRecord.Flag, 
MetaData, TestRecord.Remarks, 
MetaData, TestRecord.LinkKey, ddcba856-4ad5-4a5e-983e-5e4efbc63011
Dimension1, 101, 101, 101
Dimension2, 1, 1, 1
DataName, V1, I1, Ohmic
DataValue, -5, -1.6342E-10, 44496249196.697289
DataValue, -4.9, -1.3728E-10, 
DataValue, -4.8, -1.2057E-10, 
DataValue, -4.7, -1.0755E-10, 
DataValue, -4.6000000000000005, -9.696E-11, 
DataValue, -4.5, -8.749E-11, 
DataValue, -4.4, -7.953E-11, 
DataValue, -4.3, -7.222E-11, 
DataValue, -4.2, -6.493E-11, 
DataValue, -4.1, -6.045E-11, 
DataValue, -4, -5.489E-11, 
DataValue, -3.9, -5.052E-11, 
DataValue, -3.8000000000000003, -4.566E-11, 
DataValue, -3.7, -4.213E-11, 
DataValue, -3.6, -3.752E-11, 
DataValue, -3.5, -3.367E-11, 
DataValue, -3.4, -3.022E-11, 
DataValue, -3.3000000000000003, -2.712E-11, 
DataValue, -3.2, -2.433E-11, 
DataValue, -3.1, -2.141E-11, 
DataValue, -3, -1.886E-11, 
DataValue, -2.9, -1.559E-11, 
DataValue, -2.8000000000000003, -1.171E-11, 
DataValue, -2.7, -1.029E-11, 
DataValue, -2.6, -7.89E-12, 
DataValue, -2.5, -5.15E-12, 
DataValue, -2.4, -3.73E-12, 
DataValue, -2.3000000000000003, -7.1E-13, 
DataValue, -2.2, 1.21E-12, 
DataValue, -2.1, 2.47E-12, 
DataValue, -2, 4.78E-12, 
DataValue, -1.9000000000000001, 5.94E-12, 
DataValue, -1.8, 7.47E-12, 
DataValue, -1.7, 1.02E-11, 
DataValue, -1.6, 1.144E-11, 
DataValue, -1.5, 1.253E-11, 
DataValue, -1.4000000000000001, 1.446E-11, 
DataValue, -1.3, 1.673E-11, 
DataValue, -1.2, 1.683E-11, 
DataValue, -1.1, 1.897E-11, 
DataValue, -1, 2E-11, 
DataValue, -0.9, 2.123E-11, 
DataValue, -0.8, 2.288E-11, 
DataValue, -0.70000000000000007, 2.422E-11, 
DataValue, -0.6, 2.58E-11, 
DataValue, -0.5, 2.664E-11, 
DataValue, -0.4, 2.821E-11, 
DataValue, -0.3, 2.958E-11, 
DataValue, -0.2, 2.933E-11, 
DataValue, -0.1, 3.074E-11, 
DataValue, 0, 3.363E-11, 
DataValue, 0.1, 3.394E-11, 
DataValue, 0.2, 3.409E-11, 
DataValue, 0.3, 3.493E-11, 
DataValue, 0.4, 3.608E-11, 
DataValue, 0.5, 3.725E-11, 
DataValue, 0.6, 3.772E-11, 
DataValue, 0.70000000000000007, 3.963E-11, 
DataValue, 0.8, 4.104E-11, 
DataValue, 0.9, 4.123E-11, 
DataValue, 1, 4.326E-11, 
DataValue, 1.1, 4.313E-11, 
DataValue, 1.2, 4.375E-11, 
DataValue, 1.3, 4.482E-11, 
DataValue, 1.4000000000000001, 4.706E-11, 
DataValue, 1.5, 4.704E-11, 
DataValue, 1.6, 4.787E-11, 
DataValue, 1.7, 4.906E-11, 
DataValue, 1.8, 5.088E-11, 
DataValue, 1.9000000000000001, 5.07E-11, 
DataValue, 2, 5.259E-11, 
DataValue, 2.1, 5.285E-11, 
DataValue, 2.2, 5.511E-11, 
DataValue, 2.3000000000000003, 5.432E-11, 
DataValue, 2.4, 5.49E-11, 
DataValue, 2.5, 5.745E-11, 
DataValue, 2.6, 5.817E-11, 
DataValue, 2.7, 5.895E-11, 
DataValue, 2.8000000000000003, 5.869E-11, 
DataValue, 2.9, 6.074E-11, 
DataValue, 3, 6.146E-11, 
DataValue, 3.1, 6.18E-11, 
DataValue, 3.2, 6.353E-11, 
DataValue, 3.3000000000000003, 6.441E-11, 
DataValue, 3.4, 6.529E-11, 
DataValue, 3.5, 6.555E-11, 
DataValue, 3.6, 6.766E-11, 
DataValue, 3.7, 6.775E-11, 
DataValue, 3.8000000000000003, 6.913E-11, 
DataValue, 3.9, 6.991E-11, 
DataValue, 4, 7.172E-11, 
DataValue, 4.1, 7.234E-11, 
DataValue, 4.2, 7.266E-11, 
DataValue, 4.3, 7.334E-11, 
DataValue, 4.4, 7.59E-11, 
DataValue, 4.5, 7.591E-11, 
DataValue, 4.6000000000000005, 7.655E-11, 
DataValue, 4.7, 7.798E-11, 
DataValue, 4.8, 7.831E-11, 
DataValue, 4.9, 7.913E-11, 
DataValue, 5, 8.264E-11, 