
SetupTitle, WW
PrimitiveTest, I/V Sweep
TestParameter, Context.MainFrame, B1500A
TestParameter, Channel.UnitType, SMU, SMU
TestParameter, Channel.Unit, SMU2:HP, SMU1:HP
TestParameter, Channel.IName, I1, I4
TestParameter, Channel.VName, V1, V4
TestParameter, Channel.Mode, V, COMMON
TestParameter, Channel.Func, VAR1, CONST
TestParameter, Channel.Index, 
TestParameter, Channel.Time, 
TestParameter, Measurement.Port.Unit, SMU2:HP, SMU1:HP
TestParameter, Measurement.Port.SeriesResistor, NONE, NONE
TestParameter, Measurement.Port.Filter, ON, ON
TestParameter, Measurement.Port.OutputVoltageComparison, 0, 0
TestParameter, Measurement.Primary.Locus, Single
TestParameter, Measurement.Primary.Scale, LINEAR
TestParameter, Measurement.Primary.Start, -5
TestParameter, Measurement.Primary.Stop, 5
TestParameter, Measurement.Primary.Step, 0.1
TestParameter, Measurement.Primary.Compliance, 0.1
TestParameter, Measurement.Primary.PowerCompliance, 0
TestParameter, Measurement.Aborting.Condition, CONTINUE AT ANY
TestParameter, Measurement.PostOutput.Value, START
TestParameter, Measurement.PostOutput.Retention, OFF
TestParameter, Measurement.Bias.Source, -5, 0
TestParameter, Measurement.Bias.Compliance, 0.1, 1
TestParameter, Measurement.Monitor.Unit, SMU2:HP, SMU1:HP
TestParameter, Measurement.Monitor.Adc, HR ADC, HR ADC
TestParameter, Measurement.Monitor.Measurement, Compliance Side, Compliance Side
TestParameter, Measurement.Monitor.RangingMode, AUTO, AUTO
TestParameter, Measurement.Monitor.RangeBoundary, , 
TestParameter, Measurement.Monitor.RangeRating, BY FULL RANGE, BY FULL RANGE
TestParameter, Measurement.Monitor.RangeRatingCoeff, 50, 50
TestParameter, Measurement.Timing.Hold, 0
TestParameter, Measurement.Timing.Delay, 0.001
TestParameter, Measurement.Adc.HighSpeed.Mode, AUTO
TestParameter, Measurement.Adc.HighSpeed.Coeff, 1
TestParameter, Measurement.Adc.HighResolution.AutoZero, OFF
TestParameter, Measurement.Adc.HighResolution.Mode, PLC
TestParameter, Measurement.Adc.HighResolution.Coeff, 1
TestParameter, Measurement.WaitTime.Source.Coeff, 1
TestParameter, Measurement.WaitTime.Source.Offset, 0
TestParameter, Measurement.WaitTime.Monitor.Coeff, 1
TestParameter, Measurement.WaitTime.Monitor.Offset, 0
TestParameter, Function.User.Name, Ohmic
TestParameter, Function.User.Unit, ohm
TestParameter, Function.User.Definition, avg(V1/I1)
TestParameter, Output.Graph.Enabled, true
TestParameter, Output.Graph.XAxis.Data, V1
TestParameter, Output.Graph.XAxis.Scale, Linear
TestParameter, Output.Graph.XAxis.Left, -5
TestParameter, Output.Graph.XAxis.Right, 5
TestParameter, Output.Graph.YAxis.Data, I1
TestParameter, Output.Graph.YAxis.Scale, Linear
TestParameter, Output.Graph.YAxis.Bottom, -0.001
TestParameter, Output.Graph.YAxis.Top, 0.001
TestParameter, Output.Graph.YAxis.Group, 
TestParameter, Output.Scalar.Data, Ohmic
TestParameter, AutoAnalysis.Interpolation, false
TestParameter, AutoAnalysis.Line1.Enabled, false
TestParameter, AutoAnalysis.Line1.Type, 1
TestParameter, AutoAnalysis.Line1.Fix, True
TestParameter, AutoAnalysis.Line1.YAxis, 0
TestParameter, AutoAnalysis.Line1.Point1.Type, 0
TestParameter, AutoAnalysis.Line1.Point1.XY.X, 
TestParameter, AutoAnalysis.Line1.Point1.XY.Y, 
TestParameter, AutoAnalysis.Line1.Point1.Data.Var, 
TestParameter, AutoAnalysis.Line1.Point1.Data.Condition, 
TestParameter, AutoAnalysis.Line1.Point1.Data.Start, false
TestParameter, AutoAnalysis.Line1.Point1.Data.StartVar, 
TestParameter, AutoAnalysis.Line1.Point1.Data.StartCondition, 
TestParameter, AutoAnalysis.Line1.Point2.Type, 0
TestParameter, AutoAnalysis.Line1.Point2.XY.X, 
TestParameter, AutoAnalysis.Line1.Point2.XY.Y, 
TestParameter, AutoAnalysis.Line1.Point2.Data.Var, 
TestParameter, AutoAnalysis.Line1.Point2.Data.Condition, 
TestParameter, AutoAnalysis.Line1.Point2.Data.Start, false
TestParameter, AutoAnalysis.Line1.Point2.Data.StartVar, 
TestParameter, AutoAnalysis.Line1.Point2.Data.StartCondition, 
TestParameter, AutoAnalysis.Line1.GradientExpr, 0
TestParameter, AutoAnalysis.Line2.Enabled, false
TestParameter, AutoAnalysis.Line2.Type, 1
TestParameter, AutoAnalysis.Line2.Fix, True
TestParameter, AutoAnalysis.Line2.YAxis, 0
TestParameter, AutoAnalysis.Line2.Point1.Type, 0
TestParameter, AutoAnalysis.Line2.Point1.XY.X, 
TestParameter, AutoAnalysis.Line2.Point1.XY.Y, 
TestParameter, AutoAnalysis.Line2.Point1.Data.Var, 
TestParameter, AutoAnalysis.Line2.Point1.Data.Condition, 
TestParameter, AutoAnalysis.Line2.Point1.Data.Start, false
TestParameter, AutoAnalysis.Line2.Point1.Data.StartVar, 
TestParameter, AutoAnalysis.Line2.Point1.Data.StartCondition, 
TestParameter, AutoAnalysis.Line2.Point2.Type, 0
TestParameter, AutoAnalysis.Line2.Point2.XY.X, 
TestParameter, AutoAnalysis.Line2.Point2.XY.Y, 
TestParameter, AutoAnalysis.Line2.Point2.Data.Var, 
TestParameter, AutoAnalysis.Line2.Point2.Data.Condition, 
TestParameter, AutoAnalysis.Line2.Point2.Data.Start, false
TestParameter, AutoAnalysis.Line2.Point2.Data.StartVar, 
TestParameter, AutoAnalysis.Line2.Point2.Data.StartCondition, 
TestParameter, AutoAnalysis.Line2.GradientExpr, 0
TestParameter, AutoAnalysis.Marker.Enabled, false
TestParameter, AutoAnalysis.Marker.Data.Var, 
TestParameter, AutoAnalysis.Marker.Data.Condition, 
TestParameter, AutoAnalysis.Marker.Data.Start, false
TestParameter, AutoAnalysis.Marker.Data.StartVar, 
TestParameter, AutoAnalysis.Marker.Data.StartCondition, 
MetaData, TestRecord.EntryPoint, true
MetaData, TestRecord.RecordTime, 07/05/2020 18:15:22
MetaData, TestRecord.TestTarget, 
MetaData, TestRecord.IterationIndex, 85
MetaData, TestRecord.Preservation, true
MetaData, TestRecord.Flag, 
MetaData, TestRecord.Remarks, 
MetaData, TestRecord.LinkKey, 20b61b10-2d1b-43a6-b0b9-b2d311660cdb
Dimension1, 101, 101, 101
Dimension2, 1, 1, 1
DataName, V1, I1, Ohmic
DataValue, -5, -1.7826E-10, 28578849716.146362
DataValue, -4.9, -1.4787E-10, 
DataValue, -4.8, -1.3077E-10, 
DataValue, -4.7, -1.1506E-10, 
DataValue, -4.6000000000000005, -1.0545E-10, 
DataValue, -4.5, -9.435E-11, 
DataValue, -4.4, -8.718E-11, 
DataValue, -4.3, -7.762E-11, 
DataValue, -4.2, -7.233E-11, 
DataValue, -4.1, -6.437E-11, 
DataValue, -4, -6.115E-11, 
DataValue, -3.9, -5.317E-11, 
DataValue, -3.8000000000000003, -5.046E-11, 
DataValue, -3.7, -4.305E-11, 
DataValue, -3.6, -4.143E-11, 
DataValue, -3.5, -3.485E-11, 
DataValue, -3.4, -3.311E-11, 
DataValue, -3.3000000000000003, -2.808E-11, 
DataValue, -3.2, -2.604E-11, 
DataValue, -3.1, -2.12E-11, 
DataValue, -3, -2.004E-11, 
DataValue, -2.9, -1.518E-11, 
DataValue, -2.8000000000000003, -1.431E-11, 
DataValue, -2.7, -9.72E-12, 
DataValue, -2.6, -9.58E-12, 
DataValue, -2.5, -4.39E-12, 
DataValue, -2.4, -4.5E-12, 
DataValue, -2.3000000000000003, 3.5E-13, 
DataValue, -2.2, -3.4E-13, 
DataValue, -2.1, 3.18E-12, 
DataValue, -2, 3.82E-12, 
DataValue, -1.9000000000000001, 7.9E-12, 
DataValue, -1.8, 6.86E-12, 
DataValue, -1.7, 1.196E-11, 
DataValue, -1.6, 1.079E-11, 
DataValue, -1.5, 1.574E-11, 
DataValue, -1.4000000000000001, 1.386E-11, 
DataValue, -1.3, 1.828E-11, 
DataValue, -1.2, 1.647E-11, 
DataValue, -1.1, 2.273E-11, 
DataValue, -1, 1.971E-11, 
DataValue, -0.9, 2.482E-11, 
DataValue, -0.8, 2.309E-11, 
DataValue, -0.70000000000000007, 2.653E-11, 
DataValue, -0.6, 2.488E-11, 
DataValue, -0.5, 2.914E-11, 
DataValue, -0.4, 2.743E-11, 
DataValue, -0.3, 3.097E-11, 
DataValue, -0.2, 2.958E-11, 
DataValue, -0.1, 3.368E-11, 
DataValue, 0, 3.254E-11, 
DataValue, 0.1, 3.602E-11, 
DataValue, 0.2, 3.432E-11, 
DataValue, 0.3, 3.715E-11, 
DataValue, 0.4, 3.605E-11, 
DataValue, 0.5, 4.118E-11, 
DataValue, 0.6, 3.854E-11, 
DataValue, 0.70000000000000007, 4.174E-11, 
DataValue, 0.8, 4.037E-11, 
DataValue, 0.9, 4.394E-11, 
DataValue, 1, 4.217E-11, 
DataValue, 1.1, 4.638E-11, 
DataValue, 1.2, 4.483E-11, 
DataValue, 1.3, 4.875E-11, 
DataValue, 1.4000000000000001, 4.714E-11, 
DataValue, 1.5, 5.085E-11, 
DataValue, 1.6, 4.859E-11, 
DataValue, 1.7, 5.276E-11, 
DataValue, 1.8, 5.118E-11, 
DataValue, 1.9000000000000001, 5.339E-11, 
DataValue, 2, 5.273E-11, 
DataValue, 2.1, 5.639E-11, 
DataValue, 2.2, 5.493E-11, 
DataValue, 2.3000000000000003, 5.837E-11, 
DataValue, 2.4, 5.7E-11, 
DataValue, 2.5, 6.068E-11, 
DataValue, 2.6, 5.884E-11, 
DataValue, 2.7, 6.288E-11, 
DataValue, 2.8000000000000003, 6.03E-11, 
DataValue, 2.9, 6.412E-11, 
DataValue, 3, 6.227E-11, 
DataValue, 3.1, 6.602E-11, 
DataValue, 3.2, 6.451E-11, 
DataValue, 3.3000000000000003, 6.725E-11, 
DataValue, 3.4, 6.582E-11, 
DataValue, 3.5, 7.062E-11, 
DataValue, 3.6, 6.885E-11, 
DataValue, 3.7, 7.167E-11, 
DataValue, 3.8000000000000003, 7.099E-11, 
DataValue, 3.9, 7.408E-11, 
DataValue, 4, 7.334E-11, 
DataValue, 4.1, 7.599E-11, 
DataValue, 4.2, 7.517E-11, 
DataValue, 4.3, 7.819E-11, 
DataValue, 4.4, 7.704E-11, 
DataValue, 4.5, 8.187E-11, 
DataValue, 4.6000000000000005, 7.928E-11, 
DataValue, 4.7, 8.297E-11, 
DataValue, 4.8, 8.094E-11, 
DataValue, 4.9, 8.482E-11, 
DataValue, 5, 8.297E-11, 