
SetupTitle, WW
PrimitiveTest, I/V Sweep
TestParameter, Context.MainFrame, B1500A
TestParameter, Channel.UnitType, SMU, SMU
TestParameter, Channel.Unit, SMU2:HP, SMU1:HP
TestParameter, Channel.IName, I1, I4
TestParameter, Channel.VName, V1, V4
TestParameter, Channel.Mode, V, COMMON
TestParameter, Channel.Func, VAR1, CONST
TestParameter, Channel.Index, 
TestParameter, Channel.Time, 
TestParameter, Measurement.Port.Unit, SMU2:HP, SMU1:HP
TestParameter, Measurement.Port.SeriesResistor, NONE, NONE
TestParameter, Measurement.Port.Filter, ON, ON
TestParameter, Measurement.Port.OutputVoltageComparison, 0, 0
TestParameter, Measurement.Primary.Locus, Single
TestParameter, Measurement.Primary.Scale, LINEAR
TestParameter, Measurement.Primary.Start, -5
TestParameter, Measurement.Primary.Stop, 5
TestParameter, Measurement.Primary.Step, 0.1
TestParameter, Measurement.Primary.Compliance, 0.1
TestParameter, Measurement.Primary.PowerCompliance, 0
TestParameter, Measurement.Aborting.Condition, CONTINUE AT ANY
TestParameter, Measurement.PostOutput.Value, START
TestParameter, Measurement.PostOutput.Retention, OFF
TestParameter, Measurement.Bias.Source, -5, 0
TestParameter, Measurement.Bias.Compliance, 0.1, 1
TestParameter, Measurement.Monitor.Unit, SMU2:HP, SMU1:HP
TestParameter, Measurement.Monitor.Adc, HR ADC, HR ADC
TestParameter, Measurement.Monitor.Measurement, Compliance Side, Compliance Side
TestParameter, Measurement.Monitor.RangingMode, AUTO, AUTO
TestParameter, Measurement.Monitor.RangeBoundary, , 
TestParameter, Measurement.Monitor.RangeRating, BY FULL RANGE, BY FULL RANGE
TestParameter, Measurement.Monitor.RangeRatingCoeff, 50, 50
TestParameter, Measurement.Timing.Hold, 0
TestParameter, Measurement.Timing.Delay, 0.001
TestParameter, Measurement.Adc.HighSpeed.Mode, AUTO
TestParameter, Measurement.Adc.HighSpeed.Coeff, 1
TestParameter, Measurement.Adc.HighResolution.AutoZero, OFF
TestParameter, Measurement.Adc.HighResolution.Mode, PLC
TestParameter, Measurement.Adc.HighResolution.Coeff, 1
TestParameter, Measurement.WaitTime.Source.Coeff, 1
TestParameter, Measurement.WaitTime.Source.Offset, 0
TestParameter, Measurement.WaitTime.Monitor.Coeff, 1
TestParameter, Measurement.WaitTime.Monitor.Offset, 0
TestParameter, Function.User.Name, Ohmic
TestParameter, Function.User.Unit, ohm
TestParameter, Function.User.Definition, avg(V1/I1)
TestParameter, Output.Graph.Enabled, true
TestParameter, Output.Graph.XAxis.Data, V1
TestParameter, Output.Graph.XAxis.Scale, Linear
TestParameter, Output.Graph.XAxis.Left, -5
TestParameter, Output.Graph.XAxis.Right, 5
TestParameter, Output.Graph.YAxis.Data, I1
TestParameter, Output.Graph.YAxis.Scale, Linear
TestParameter, Output.Graph.YAxis.Bottom, -0.001
TestParameter, Output.Graph.YAxis.Top, 0.001
TestParameter, Output.Graph.YAxis.Group, 
TestParameter, Output.Scalar.Data, Ohmic
TestParameter, AutoAnalysis.Interpolation, false
TestParameter, AutoAnalysis.Line1.Enabled, false
TestParameter, AutoAnalysis.Line1.Type, 1
TestParameter, AutoAnalysis.Line1.Fix, True
TestParameter, AutoAnalysis.Line1.YAxis, 0
TestParameter, AutoAnalysis.Line1.Point1.Type, 0
TestParameter, AutoAnalysis.Line1.Point1.XY.X, 
TestParameter, AutoAnalysis.Line1.Point1.XY.Y, 
TestParameter, AutoAnalysis.Line1.Point1.Data.Var, 
TestParameter, AutoAnalysis.Line1.Point1.Data.Condition, 
TestParameter, AutoAnalysis.Line1.Point1.Data.Start, false
TestParameter, AutoAnalysis.Line1.Point1.Data.StartVar, 
TestParameter, AutoAnalysis.Line1.Point1.Data.StartCondition, 
TestParameter, AutoAnalysis.Line1.Point2.Type, 0
TestParameter, AutoAnalysis.Line1.Point2.XY.X, 
TestParameter, AutoAnalysis.Line1.Point2.XY.Y, 
TestParameter, AutoAnalysis.Line1.Point2.Data.Var, 
TestParameter, AutoAnalysis.Line1.Point2.Data.Condition, 
TestParameter, AutoAnalysis.Line1.Point2.Data.Start, false
TestParameter, AutoAnalysis.Line1.Point2.Data.StartVar, 
TestParameter, AutoAnalysis.Line1.Point2.Data.StartCondition, 
TestParameter, AutoAnalysis.Line1.GradientExpr, 0
TestParameter, AutoAnalysis.Line2.Enabled, false
TestParameter, AutoAnalysis.Line2.Type, 1
TestParameter, AutoAnalysis.Line2.Fix, True
TestParameter, AutoAnalysis.Line2.YAxis, 0
TestParameter, AutoAnalysis.Line2.Point1.Type, 0
TestParameter, AutoAnalysis.Line2.Point1.XY.X, 
TestParameter, AutoAnalysis.Line2.Point1.XY.Y, 
TestParameter, AutoAnalysis.Line2.Point1.Data.Var, 
TestParameter, AutoAnalysis.Line2.Point1.Data.Condition, 
TestParameter, AutoAnalysis.Line2.Point1.Data.Start, false
TestParameter, AutoAnalysis.Line2.Point1.Data.StartVar, 
TestParameter, AutoAnalysis.Line2.Point1.Data.StartCondition, 
TestParameter, AutoAnalysis.Line2.Point2.Type, 0
TestParameter, AutoAnalysis.Line2.Point2.XY.X, 
TestParameter, AutoAnalysis.Line2.Point2.XY.Y, 
TestParameter, AutoAnalysis.Line2.Point2.Data.Var, 
TestParameter, AutoAnalysis.Line2.Point2.Data.Condition, 
TestParameter, AutoAnalysis.Line2.Point2.Data.Start, false
TestParameter, AutoAnalysis.Line2.Point2.Data.StartVar, 
TestParameter, AutoAnalysis.Line2.Point2.Data.StartCondition, 
TestParameter, AutoAnalysis.Line2.GradientExpr, 0
TestParameter, AutoAnalysis.Marker.Enabled, false
TestParameter, AutoAnalysis.Marker.Data.Var, 
TestParameter, AutoAnalysis.Marker.Data.Condition, 
TestParameter, AutoAnalysis.Marker.Data.Start, false
TestParameter, AutoAnalysis.Marker.Data.StartVar, 
TestParameter, AutoAnalysis.Marker.Data.StartCondition, 
MetaData, TestRecord.EntryPoint, true
MetaData, TestRecord.RecordTime, 07/05/2020 18:14:46
MetaData, TestRecord.TestTarget, 
MetaData, TestRecord.IterationIndex, 84
MetaData, TestRecord.Preservation, true
MetaData, TestRecord.Flag, 
MetaData, TestRecord.Remarks, 
MetaData, TestRecord.LinkKey, 919a4c66-8c09-4f5d-9aec-4b794942341d
Dimension1, 101, 101, 101
Dimension2, 1, 1, 1
DataName, V1, I1, Ohmic
DataValue, -5, -1.8274E-10, -6307046139.5253172
DataValue, -4.9, -1.513E-10, 
DataValue, -4.8, -1.3271E-10, 
DataValue, -4.7, -1.1804E-10, 
DataValue, -4.6000000000000005, -1.0633E-10, 
DataValue, -4.5, -9.645E-11, 
DataValue, -4.4, -8.86E-11, 
DataValue, -4.3, -7.907E-11, 
DataValue, -4.2, -7.219E-11, 
DataValue, -4.1, -6.539E-11, 
DataValue, -4, -5.981E-11, 
DataValue, -3.9, -5.418E-11, 
DataValue, -3.8000000000000003, -4.911E-11, 
DataValue, -3.7, -4.386E-11, 
DataValue, -3.6, -3.887E-11, 
DataValue, -3.5, -3.573E-11, 
DataValue, -3.4, -3.165E-11, 
DataValue, -3.3000000000000003, -2.818E-11, 
DataValue, -3.2, -2.481E-11, 
DataValue, -3.1, -2.168E-11, 
DataValue, -3, -1.8E-11, 
DataValue, -2.9, -1.588E-11, 
DataValue, -2.8000000000000003, -1.173E-11, 
DataValue, -2.7, -9.85E-12, 
DataValue, -2.6, -8.22E-12, 
DataValue, -2.5, -5.65E-12, 
DataValue, -2.4, -3.51E-12, 
DataValue, -2.3000000000000003, -1.33E-12, 
DataValue, -2.2, 4E-13, 
DataValue, -2.1, 3.33E-12, 
DataValue, -2, 4.18E-12, 
DataValue, -1.9000000000000001, 6.64E-12, 
DataValue, -1.8, 9.44E-12, 
DataValue, -1.7, 1.05E-11, 
DataValue, -1.6, 1.262E-11, 
DataValue, -1.5, 1.392E-11, 
DataValue, -1.4000000000000001, 1.561E-11, 
DataValue, -1.3, 1.714E-11, 
DataValue, -1.2, 1.898E-11, 
DataValue, -1.1, 2.041E-11, 
DataValue, -1, 2.18E-11, 
DataValue, -0.9, 2.275E-11, 
DataValue, -0.8, 2.391E-11, 
DataValue, -0.70000000000000007, 2.604E-11, 
DataValue, -0.6, 2.709E-11, 
DataValue, -0.5, 2.808E-11, 
DataValue, -0.4, 2.806E-11, 
DataValue, -0.3, 3.063E-11, 
DataValue, -0.2, 3.268E-11, 
DataValue, -0.1, 3.404E-11, 
DataValue, 0, 3.445E-11, 
DataValue, 0.1, 3.607E-11, 
DataValue, 0.2, 3.728E-11, 
DataValue, 0.3, 3.834E-11, 
DataValue, 0.4, 4.037E-11, 
DataValue, 0.5, 4.016E-11, 
DataValue, 0.6, 4.312E-11, 
DataValue, 0.70000000000000007, 4.241E-11, 
DataValue, 0.8, 4.393E-11, 
DataValue, 0.9, 4.526E-11, 
DataValue, 1, 4.633E-11, 
DataValue, 1.1, 4.67E-11, 
DataValue, 1.2, 4.837E-11, 
DataValue, 1.3, 4.885E-11, 
DataValue, 1.4000000000000001, 5.016E-11, 
DataValue, 1.5, 5.031E-11, 
DataValue, 1.6, 5.277E-11, 
DataValue, 1.7, 5.32E-11, 
DataValue, 1.8, 5.44E-11, 
DataValue, 1.9000000000000001, 5.405E-11, 
DataValue, 2, 5.609E-11, 
DataValue, 2.1, 5.647E-11, 
DataValue, 2.2, 5.768E-11, 
DataValue, 2.3000000000000003, 5.971E-11, 
DataValue, 2.4, 5.971E-11, 
DataValue, 2.5, 6.131E-11, 
DataValue, 2.6, 6.34E-11, 
DataValue, 2.7, 6.287E-11, 
DataValue, 2.8000000000000003, 6.571E-11, 
DataValue, 2.9, 6.547E-11, 
DataValue, 3, 6.591E-11, 
DataValue, 3.1, 6.742E-11, 
DataValue, 3.2, 6.953E-11, 
DataValue, 3.3000000000000003, 6.927E-11, 
DataValue, 3.4, 7.089E-11, 
DataValue, 3.5, 7.14E-11, 
DataValue, 3.6, 7.358E-11, 
DataValue, 3.7, 7.435E-11, 
DataValue, 3.8000000000000003, 7.587E-11, 
DataValue, 3.9, 7.593E-11, 
DataValue, 4, 7.725E-11, 
DataValue, 4.1, 7.769E-11, 
DataValue, 4.2, 7.887E-11, 
DataValue, 4.3, 8.001E-11, 
DataValue, 4.4, 8.114E-11, 
DataValue, 4.5, 8.255E-11, 
DataValue, 4.6000000000000005, 8.401E-11, 
DataValue, 4.7, 8.405E-11, 
DataValue, 4.8, 8.697E-11, 
DataValue, 4.9, 8.658E-11, 
DataValue, 5, 8.83E-11, 