
SetupTitle, WW
PrimitiveTest, I/V Sweep
TestParameter, Context.MainFrame, B1500A
TestParameter, Channel.UnitType, SMU, SMU
TestParameter, Channel.Unit, SMU2:HP, SMU1:HP
TestParameter, Channel.IName, I1, I4
TestParameter, Channel.VName, V1, V4
TestParameter, Channel.Mode, V, COMMON
TestParameter, Channel.Func, VAR1, CONST
TestParameter, Channel.Index, 
TestParameter, Channel.Time, 
TestParameter, Measurement.Port.Unit, SMU2:HP, SMU1:HP
TestParameter, Measurement.Port.SeriesResistor, NONE, NONE
TestParameter, Measurement.Port.Filter, ON, ON
TestParameter, Measurement.Port.OutputVoltageComparison, 0, 0
TestParameter, Measurement.Primary.Locus, Single
TestParameter, Measurement.Primary.Scale, LINEAR
TestParameter, Measurement.Primary.Start, -5
TestParameter, Measurement.Primary.Stop, 5
TestParameter, Measurement.Primary.Step, 0.1
TestParameter, Measurement.Primary.Compliance, 0.1
TestParameter, Measurement.Primary.PowerCompliance, 0
TestParameter, Measurement.Aborting.Condition, CONTINUE AT ANY
TestParameter, Measurement.PostOutput.Value, START
TestParameter, Measurement.PostOutput.Retention, OFF
TestParameter, Measurement.Bias.Source, -5, 0
TestParameter, Measurement.Bias.Compliance, 0.1, 1
TestParameter, Measurement.Monitor.Unit, SMU2:HP, SMU1:HP
TestParameter, Measurement.Monitor.Adc, HR ADC, HR ADC
TestParameter, Measurement.Monitor.Measurement, Compliance Side, Compliance Side
TestParameter, Measurement.Monitor.RangingMode, AUTO, AUTO
TestParameter, Measurement.Monitor.RangeBoundary, , 
TestParameter, Measurement.Monitor.RangeRating, BY FULL RANGE, BY FULL RANGE
TestParameter, Measurement.Monitor.RangeRatingCoeff, 50, 50
TestParameter, Measurement.Timing.Hold, 0
TestParameter, Measurement.Timing.Delay, 0.001
TestParameter, Measurement.Adc.HighSpeed.Mode, AUTO
TestParameter, Measurement.Adc.HighSpeed.Coeff, 1
TestParameter, Measurement.Adc.HighResolution.AutoZero, OFF
TestParameter, Measurement.Adc.HighResolution.Mode, PLC
TestParameter, Measurement.Adc.HighResolution.Coeff, 1
TestParameter, Measurement.WaitTime.Source.Coeff, 1
TestParameter, Measurement.WaitTime.Source.Offset, 0
TestParameter, Measurement.WaitTime.Monitor.Coeff, 1
TestParameter, Measurement.WaitTime.Monitor.Offset, 0
TestParameter, Function.User.Name, Ohmic
TestParameter, Function.User.Unit, ohm
TestParameter, Function.User.Definition, avg(V1/I1)
TestParameter, Output.Graph.Enabled, true
TestParameter, Output.Graph.XAxis.Data, V1
TestParameter, Output.Graph.XAxis.Scale, Linear
TestParameter, Output.Graph.XAxis.Left, -5
TestParameter, Output.Graph.XAxis.Right, 5
TestParameter, Output.Graph.YAxis.Data, I1
TestParameter, Output.Graph.YAxis.Scale, Linear
TestParameter, Output.Graph.YAxis.Bottom, -0.001
TestParameter, Output.Graph.YAxis.Top, 0.001
TestParameter, Output.Graph.YAxis.Group, 
TestParameter, Output.Scalar.Data, Ohmic
TestParameter, AutoAnalysis.Interpolation, false
TestParameter, AutoAnalysis.Line1.Enabled, false
TestParameter, AutoAnalysis.Line1.Type, 1
TestParameter, AutoAnalysis.Line1.Fix, True
TestParameter, AutoAnalysis.Line1.YAxis, 0
TestParameter, AutoAnalysis.Line1.Point1.Type, 0
TestParameter, AutoAnalysis.Line1.Point1.XY.X, 
TestParameter, AutoAnalysis.Line1.Point1.XY.Y, 
TestParameter, AutoAnalysis.Line1.Point1.Data.Var, 
TestParameter, AutoAnalysis.Line1.Point1.Data.Condition, 
TestParameter, AutoAnalysis.Line1.Point1.Data.Start, false
TestParameter, AutoAnalysis.Line1.Point1.Data.StartVar, 
TestParameter, AutoAnalysis.Line1.Point1.Data.StartCondition, 
TestParameter, AutoAnalysis.Line1.Point2.Type, 0
TestParameter, AutoAnalysis.Line1.Point2.XY.X, 
TestParameter, AutoAnalysis.Line1.Point2.XY.Y, 
TestParameter, AutoAnalysis.Line1.Point2.Data.Var, 
TestParameter, AutoAnalysis.Line1.Point2.Data.Condition, 
TestParameter, AutoAnalysis.Line1.Point2.Data.Start, false
TestParameter, AutoAnalysis.Line1.Point2.Data.StartVar, 
TestParameter, AutoAnalysis.Line1.Point2.Data.StartCondition, 
TestParameter, AutoAnalysis.Line1.GradientExpr, 0
TestParameter, AutoAnalysis.Line2.Enabled, false
TestParameter, AutoAnalysis.Line2.Type, 1
TestParameter, AutoAnalysis.Line2.Fix, True
TestParameter, AutoAnalysis.Line2.YAxis, 0
TestParameter, AutoAnalysis.Line2.Point1.Type, 0
TestParameter, AutoAnalysis.Line2.Point1.XY.X, 
TestParameter, AutoAnalysis.Line2.Point1.XY.Y, 
TestParameter, AutoAnalysis.Line2.Point1.Data.Var, 
TestParameter, AutoAnalysis.Line2.Point1.Data.Condition, 
TestParameter, AutoAnalysis.Line2.Point1.Data.Start, false
TestParameter, AutoAnalysis.Line2.Point1.Data.StartVar, 
TestParameter, AutoAnalysis.Line2.Point1.Data.StartCondition, 
TestParameter, AutoAnalysis.Line2.Point2.Type, 0
TestParameter, AutoAnalysis.Line2.Point2.XY.X, 
TestParameter, AutoAnalysis.Line2.Point2.XY.Y, 
TestParameter, AutoAnalysis.Line2.Point2.Data.Var, 
TestParameter, AutoAnalysis.Line2.Point2.Data.Condition, 
TestParameter, AutoAnalysis.Line2.Point2.Data.Start, false
TestParameter, AutoAnalysis.Line2.Point2.Data.StartVar, 
TestParameter, AutoAnalysis.Line2.Point2.Data.StartCondition, 
TestParameter, AutoAnalysis.Line2.GradientExpr, 0
TestParameter, AutoAnalysis.Marker.Enabled, false
TestParameter, AutoAnalysis.Marker.Data.Var, 
TestParameter, AutoAnalysis.Marker.Data.Condition, 
TestParameter, AutoAnalysis.Marker.Data.Start, false
TestParameter, AutoAnalysis.Marker.Data.StartVar, 
TestParameter, AutoAnalysis.Marker.Data.StartCondition, 
MetaData, TestRecord.EntryPoint, true
MetaData, TestRecord.RecordTime, 07/05/2020 18:14:16
MetaData, TestRecord.TestTarget, 
MetaData, TestRecord.IterationIndex, 83
MetaData, TestRecord.Preservation, true
MetaData, TestRecord.Flag, 
MetaData, TestRecord.Remarks, 
MetaData, TestRecord.LinkKey, d85f29ad-fc26-4b51-bb05-0f7909b1e402
Dimension1, 101, 101, 101
Dimension2, 1, 1, 1
DataName, V1, I1, Ohmic
DataValue, -5, -1.8496E-10, 62190653102.453873
DataValue, -4.9, -1.5619E-10, 
DataValue, -4.8, -1.3745E-10, 
DataValue, -4.7, -1.2341E-10, 
DataValue, -4.6000000000000005, -1.1093E-10, 
DataValue, -4.5, -9.924E-11, 
DataValue, -4.4, -9.091E-11, 
DataValue, -4.3, -8.177E-11, 
DataValue, -4.2, -7.531E-11, 
DataValue, -4.1, -6.838E-11, 
DataValue, -4, -6.315E-11, 
DataValue, -3.9, -5.708E-11, 
DataValue, -3.8000000000000003, -5.151E-11, 
DataValue, -3.7, -4.583E-11, 
DataValue, -3.6, -4.212E-11, 
DataValue, -3.5, -3.796E-11, 
DataValue, -3.4, -3.359E-11, 
DataValue, -3.3000000000000003, -2.918E-11, 
DataValue, -3.2, -2.683E-11, 
DataValue, -3.1, -2.357E-11, 
DataValue, -3, -2.086E-11, 
DataValue, -2.9, -1.715E-11, 
DataValue, -2.8000000000000003, -1.492E-11, 
DataValue, -2.7, -1.146E-11, 
DataValue, -2.6, -9.87E-12, 
DataValue, -2.5, -6.85E-12, 
DataValue, -2.4, -5.34E-12, 
DataValue, -2.3000000000000003, -2.46E-12, 
DataValue, -2.2, -6.9E-13, 
DataValue, -2.1, 2.69E-12, 
DataValue, -2, 3.96E-12, 
DataValue, -1.9000000000000001, 4.94E-12, 
DataValue, -1.8, 7.55E-12, 
DataValue, -1.7, 9.35E-12, 
DataValue, -1.6, 1.123E-11, 
DataValue, -1.5, 1.281E-11, 
DataValue, -1.4000000000000001, 1.451E-11, 
DataValue, -1.3, 1.681E-11, 
DataValue, -1.2, 1.836E-11, 
DataValue, -1.1, 2.032E-11, 
DataValue, -1, 2.175E-11, 
DataValue, -0.9, 2.225E-11, 
DataValue, -0.8, 2.453E-11, 
DataValue, -0.70000000000000007, 2.649E-11, 
DataValue, -0.6, 2.748E-11, 
DataValue, -0.5, 2.932E-11, 
DataValue, -0.4, 3.044E-11, 
DataValue, -0.3, 3.195E-11, 
DataValue, -0.2, 3.258E-11, 
DataValue, -0.1, 3.352E-11, 
DataValue, 0, 3.526E-11, 
DataValue, 0.1, 3.714E-11, 
DataValue, 0.2, 3.735E-11, 
DataValue, 0.3, 3.714E-11, 
DataValue, 0.4, 4.001E-11, 
DataValue, 0.5, 4.232E-11, 
DataValue, 0.6, 4.21E-11, 
DataValue, 0.70000000000000007, 4.396E-11, 
DataValue, 0.8, 4.427E-11, 
DataValue, 0.9, 4.534E-11, 
DataValue, 1, 4.633E-11, 
DataValue, 1.1, 4.765E-11, 
DataValue, 1.2, 4.912E-11, 
DataValue, 1.3, 4.901E-11, 
DataValue, 1.4000000000000001, 5.02E-11, 
DataValue, 1.5, 5.291E-11, 
DataValue, 1.6, 5.273E-11, 
DataValue, 1.7, 5.32E-11, 
DataValue, 1.8, 5.57E-11, 
DataValue, 1.9000000000000001, 5.659E-11, 
DataValue, 2, 5.68E-11, 
DataValue, 2.1, 5.766E-11, 
DataValue, 2.2, 5.942E-11, 
DataValue, 2.3000000000000003, 6.061E-11, 
DataValue, 2.4, 6.115E-11, 
DataValue, 2.5, 6.069E-11, 
DataValue, 2.6, 6.288E-11, 
DataValue, 2.7, 6.403E-11, 
DataValue, 2.8000000000000003, 6.617E-11, 
DataValue, 2.9, 6.87E-11, 
DataValue, 3, 6.793E-11, 
DataValue, 3.1, 6.867E-11, 
DataValue, 3.2, 7.08E-11, 
DataValue, 3.3000000000000003, 6.962E-11, 
DataValue, 3.4, 7.219E-11, 
DataValue, 3.5, 7.198E-11, 
DataValue, 3.6, 7.47E-11, 
DataValue, 3.7, 7.583E-11, 
DataValue, 3.8000000000000003, 7.661E-11, 
DataValue, 3.9, 7.859E-11, 
DataValue, 4, 7.913E-11, 
DataValue, 4.1, 8.054E-11, 
DataValue, 4.2, 8.136E-11, 
DataValue, 4.3, 8.121E-11, 
DataValue, 4.4, 8.421E-11, 
DataValue, 4.5, 8.393E-11, 
DataValue, 4.6000000000000005, 8.578E-11, 
DataValue, 4.7, 8.606E-11, 
DataValue, 4.8, 8.861E-11, 
DataValue, 4.9, 8.91E-11, 
DataValue, 5, 9.068E-11, 