
SetupTitle, WW
PrimitiveTest, I/V Sweep
TestParameter, Context.MainFrame, B1500A
TestParameter, Channel.UnitType, SMU, SMU
TestParameter, Channel.Unit, SMU2:HP, SMU1:HP
TestParameter, Channel.IName, I1, I4
TestParameter, Channel.VName, V1, V4
TestParameter, Channel.Mode, V, COMMON
TestParameter, Channel.Func, VAR1, CONST
TestParameter, Channel.Index, 
TestParameter, Channel.Time, 
TestParameter, Measurement.Port.Unit, SMU2:HP, SMU1:HP
TestParameter, Measurement.Port.SeriesResistor, NONE, NONE
TestParameter, Measurement.Port.Filter, ON, ON
TestParameter, Measurement.Port.OutputVoltageComparison, 0, 0
TestParameter, Measurement.Primary.Locus, Single
TestParameter, Measurement.Primary.Scale, LINEAR
TestParameter, Measurement.Primary.Start, -5
TestParameter, Measurement.Primary.Stop, 5
TestParameter, Measurement.Primary.Step, 0.1
TestParameter, Measurement.Primary.Compliance, 0.1
TestParameter, Measurement.Primary.PowerCompliance, 0
TestParameter, Measurement.Aborting.Condition, CONTINUE AT ANY
TestParameter, Measurement.PostOutput.Value, START
TestParameter, Measurement.PostOutput.Retention, OFF
TestParameter, Measurement.Bias.Source, -5, 0
TestParameter, Measurement.Bias.Compliance, 0.1, 1
TestParameter, Measurement.Monitor.Unit, SMU2:HP, SMU1:HP
TestParameter, Measurement.Monitor.Adc, HR ADC, HR ADC
TestParameter, Measurement.Monitor.Measurement, Compliance Side, Compliance Side
TestParameter, Measurement.Monitor.RangingMode, AUTO, AUTO
TestParameter, Measurement.Monitor.RangeBoundary, , 
TestParameter, Measurement.Monitor.RangeRating, BY FULL RANGE, BY FULL RANGE
TestParameter, Measurement.Monitor.RangeRatingCoeff, 50, 50
TestParameter, Measurement.Timing.Hold, 0
TestParameter, Measurement.Timing.Delay, 0.001
TestParameter, Measurement.Adc.HighSpeed.Mode, AUTO
TestParameter, Measurement.Adc.HighSpeed.Coeff, 1
TestParameter, Measurement.Adc.HighResolution.AutoZero, OFF
TestParameter, Measurement.Adc.HighResolution.Mode, PLC
TestParameter, Measurement.Adc.HighResolution.Coeff, 1
TestParameter, Measurement.WaitTime.Source.Coeff, 1
TestParameter, Measurement.WaitTime.Source.Offset, 0
TestParameter, Measurement.WaitTime.Monitor.Coeff, 1
TestParameter, Measurement.WaitTime.Monitor.Offset, 0
TestParameter, Function.User.Name, Ohmic
TestParameter, Function.User.Unit, ohm
TestParameter, Function.User.Definition, avg(V1/I1)
TestParameter, Output.Graph.Enabled, true
TestParameter, Output.Graph.XAxis.Data, V1
TestParameter, Output.Graph.XAxis.Scale, Linear
TestParameter, Output.Graph.XAxis.Left, -5
TestParameter, Output.Graph.XAxis.Right, 5
TestParameter, Output.Graph.YAxis.Data, I1
TestParameter, Output.Graph.YAxis.Scale, Linear
TestParameter, Output.Graph.YAxis.Bottom, -0.001
TestParameter, Output.Graph.YAxis.Top, 0.001
TestParameter, Output.Graph.YAxis.Group, 
TestParameter, Output.Scalar.Data, Ohmic
TestParameter, AutoAnalysis.Interpolation, false
TestParameter, AutoAnalysis.Line1.Enabled, false
TestParameter, AutoAnalysis.Line1.Type, 1
TestParameter, AutoAnalysis.Line1.Fix, True
TestParameter, AutoAnalysis.Line1.YAxis, 0
TestParameter, AutoAnalysis.Line1.Point1.Type, 0
TestParameter, AutoAnalysis.Line1.Point1.XY.X, 
TestParameter, AutoAnalysis.Line1.Point1.XY.Y, 
TestParameter, AutoAnalysis.Line1.Point1.Data.Var, 
TestParameter, AutoAnalysis.Line1.Point1.Data.Condition, 
TestParameter, AutoAnalysis.Line1.Point1.Data.Start, false
TestParameter, AutoAnalysis.Line1.Point1.Data.StartVar, 
TestParameter, AutoAnalysis.Line1.Point1.Data.StartCondition, 
TestParameter, AutoAnalysis.Line1.Point2.Type, 0
TestParameter, AutoAnalysis.Line1.Point2.XY.X, 
TestParameter, AutoAnalysis.Line1.Point2.XY.Y, 
TestParameter, AutoAnalysis.Line1.Point2.Data.Var, 
TestParameter, AutoAnalysis.Line1.Point2.Data.Condition, 
TestParameter, AutoAnalysis.Line1.Point2.Data.Start, false
TestParameter, AutoAnalysis.Line1.Point2.Data.StartVar, 
TestParameter, AutoAnalysis.Line1.Point2.Data.StartCondition, 
TestParameter, AutoAnalysis.Line1.GradientExpr, 0
TestParameter, AutoAnalysis.Line2.Enabled, false
TestParameter, AutoAnalysis.Line2.Type, 1
TestParameter, AutoAnalysis.Line2.Fix, True
TestParameter, AutoAnalysis.Line2.YAxis, 0
TestParameter, AutoAnalysis.Line2.Point1.Type, 0
TestParameter, AutoAnalysis.Line2.Point1.XY.X, 
TestParameter, AutoAnalysis.Line2.Point1.XY.Y, 
TestParameter, AutoAnalysis.Line2.Point1.Data.Var, 
TestParameter, AutoAnalysis.Line2.Point1.Data.Condition, 
TestParameter, AutoAnalysis.Line2.Point1.Data.Start, false
TestParameter, AutoAnalysis.Line2.Point1.Data.StartVar, 
TestParameter, AutoAnalysis.Line2.Point1.Data.StartCondition, 
TestParameter, AutoAnalysis.Line2.Point2.Type, 0
TestParameter, AutoAnalysis.Line2.Point2.XY.X, 
TestParameter, AutoAnalysis.Line2.Point2.XY.Y, 
TestParameter, AutoAnalysis.Line2.Point2.Data.Var, 
TestParameter, AutoAnalysis.Line2.Point2.Data.Condition, 
TestParameter, AutoAnalysis.Line2.Point2.Data.Start, false
TestParameter, AutoAnalysis.Line2.Point2.Data.StartVar, 
TestParameter, AutoAnalysis.Line2.Point2.Data.StartCondition, 
TestParameter, AutoAnalysis.Line2.GradientExpr, 0
TestParameter, AutoAnalysis.Marker.Enabled, false
TestParameter, AutoAnalysis.Marker.Data.Var, 
TestParameter, AutoAnalysis.Marker.Data.Condition, 
TestParameter, AutoAnalysis.Marker.Data.Start, false
TestParameter, AutoAnalysis.Marker.Data.StartVar, 
TestParameter, AutoAnalysis.Marker.Data.StartCondition, 
MetaData, TestRecord.EntryPoint, true
MetaData, TestRecord.RecordTime, 07/05/2020 18:13:45
MetaData, TestRecord.TestTarget, 
MetaData, TestRecord.IterationIndex, 82
MetaData, TestRecord.Preservation, true
MetaData, TestRecord.Flag, 
MetaData, TestRecord.Remarks, 
MetaData, TestRecord.LinkKey, f5928f77-6714-4a67-a7b0-be3edd54f91e
Dimension1, 101, 101, 101
Dimension2, 1, 1, 1
DataName, V1, I1, Ohmic
DataValue, -5, -1.9416E-10, -31601753146.253094
DataValue, -4.9, -1.6692E-10, 
DataValue, -4.8, -1.4413E-10, 
DataValue, -4.7, -1.302E-10, 
DataValue, -4.6000000000000005, -1.1463E-10, 
DataValue, -4.5, -1.0572E-10, 
DataValue, -4.4, -9.315E-11, 
DataValue, -4.3, -8.577E-11, 
DataValue, -4.2, -7.634E-11, 
DataValue, -4.1, -7.058E-11, 
DataValue, -4, -6.222E-11, 
DataValue, -3.9, -5.866E-11, 
DataValue, -3.8000000000000003, -5.1099999999999997E-11, 
DataValue, -3.7, -4.897E-11, 
DataValue, -3.6, -4.152E-11, 
DataValue, -3.5, -3.959E-11, 
DataValue, -3.4, -3.298E-11, 
DataValue, -3.3000000000000003, -3.135E-11, 
DataValue, -3.2, -2.568E-11, 
DataValue, -3.1, -2.408E-11, 
DataValue, -3, -1.998E-11, 
DataValue, -2.9, -1.84E-11, 
DataValue, -2.8000000000000003, -1.367E-11, 
DataValue, -2.7, -1.195E-11, 
DataValue, -2.6, -8.37E-12, 
DataValue, -2.5, -7.43E-12, 
DataValue, -2.4, -3.88E-12, 
DataValue, -2.3000000000000003, -4.94E-12, 
DataValue, -2.2, 1.05E-12, 
DataValue, -2.1, 4.4E-13, 
DataValue, -2, 4.54E-12, 
DataValue, -1.9000000000000001, 5.8E-12, 
DataValue, -1.8, 8.45E-12, 
DataValue, -1.7, 9.14E-12, 
DataValue, -1.6, 1.2419999999999999E-11, 
DataValue, -1.5, 1.203E-11, 
DataValue, -1.4000000000000001, 1.56E-11, 
DataValue, -1.3, 1.515E-11, 
DataValue, -1.2, 1.811E-11, 
DataValue, -1.1, 1.883E-11, 
DataValue, -1, 2.106E-11, 
DataValue, -0.9, 2.208E-11, 
DataValue, -0.8, 2.42E-11, 
DataValue, -0.70000000000000007, 2.454E-11, 
DataValue, -0.6, 2.709E-11, 
DataValue, -0.5, 2.647E-11, 
DataValue, -0.4, 2.98E-11, 
DataValue, -0.3, 3E-11, 
DataValue, -0.2, 3.343E-11, 
DataValue, -0.1, 3.268E-11, 
DataValue, 0, 3.637E-11, 
DataValue, 0.1, 3.458E-11, 
DataValue, 0.2, 3.83E-11, 
DataValue, 0.3, 3.618E-11, 
DataValue, 0.4, 4.045E-11, 
DataValue, 0.5, 3.913E-11, 
DataValue, 0.6, 4.233E-11, 
DataValue, 0.70000000000000007, 4.267E-11, 
DataValue, 0.8, 4.53E-11, 
DataValue, 0.9, 4.379E-11, 
DataValue, 1, 4.746E-11, 
DataValue, 1.1, 4.689E-11, 
DataValue, 1.2, 4.976E-11, 
DataValue, 1.3, 5.066E-11, 
DataValue, 1.4000000000000001, 5.139E-11, 
DataValue, 1.5, 5.022E-11, 
DataValue, 1.6, 5.417E-11, 
DataValue, 1.7, 5.268E-11, 
DataValue, 1.8, 5.671E-11, 
DataValue, 1.9000000000000001, 5.513E-11, 
DataValue, 2, 5.902E-11, 
DataValue, 2.1, 5.788E-11, 
DataValue, 2.2, 6.142E-11, 
DataValue, 2.3000000000000003, 6.141E-11, 
DataValue, 2.4, 6.311E-11, 
DataValue, 2.5, 6.317E-11, 
DataValue, 2.6, 6.453E-11, 
DataValue, 2.7, 6.455E-11, 
DataValue, 2.8000000000000003, 6.711E-11, 
DataValue, 2.9, 6.732E-11, 
DataValue, 3, 6.849E-11, 
DataValue, 3.1, 7.007E-11, 
DataValue, 3.2, 7.218E-11, 
DataValue, 3.3000000000000003, 7.227E-11, 
DataValue, 3.4, 7.383E-11, 
DataValue, 3.5, 7.366E-11, 
DataValue, 3.6, 7.66E-11, 
DataValue, 3.7, 7.619E-11, 
DataValue, 3.8000000000000003, 7.893E-11, 
DataValue, 3.9, 7.906E-11, 
DataValue, 4, 8.089E-11, 
DataValue, 4.1, 8.018E-11, 
DataValue, 4.2, 8.344E-11, 
DataValue, 4.3, 8.113E-11, 
DataValue, 4.4, 8.567E-11, 
DataValue, 4.5, 8.516E-11, 
DataValue, 4.6000000000000005, 8.748E-11, 
DataValue, 4.7, 8.778E-11, 
DataValue, 4.8, 9.016E-11, 
DataValue, 4.9, 9.046E-11, 
DataValue, 5, 9.282E-11, 