
SetupTitle, WW
PrimitiveTest, I/V Sweep
TestParameter, Context.MainFrame, B1500A
TestParameter, Channel.UnitType, SMU, SMU
TestParameter, Channel.Unit, SMU2:HP, SMU1:HP
TestParameter, Channel.IName, I1, I4
TestParameter, Channel.VName, V1, V4
TestParameter, Channel.Mode, V, COMMON
TestParameter, Channel.Func, VAR1, CONST
TestParameter, Channel.Index, 
TestParameter, Channel.Time, 
TestParameter, Measurement.Port.Unit, SMU2:HP, SMU1:HP
TestParameter, Measurement.Port.SeriesResistor, NONE, NONE
TestParameter, Measurement.Port.Filter, ON, ON
TestParameter, Measurement.Port.OutputVoltageComparison, 0, 0
TestParameter, Measurement.Primary.Locus, Single
TestParameter, Measurement.Primary.Scale, LINEAR
TestParameter, Measurement.Primary.Start, -5
TestParameter, Measurement.Primary.Stop, 5
TestParameter, Measurement.Primary.Step, 0.1
TestParameter, Measurement.Primary.Compliance, 0.1
TestParameter, Measurement.Primary.PowerCompliance, 0
TestParameter, Measurement.Aborting.Condition, CONTINUE AT ANY
TestParameter, Measurement.PostOutput.Value, START
TestParameter, Measurement.PostOutput.Retention, OFF
TestParameter, Measurement.Bias.Source, -5, 0
TestParameter, Measurement.Bias.Compliance, 0.1, 1
TestParameter, Measurement.Monitor.Unit, SMU2:HP, SMU1:HP
TestParameter, Measurement.Monitor.Adc, HR ADC, HR ADC
TestParameter, Measurement.Monitor.Measurement, Compliance Side, Compliance Side
TestParameter, Measurement.Monitor.RangingMode, AUTO, AUTO
TestParameter, Measurement.Monitor.RangeBoundary, , 
TestParameter, Measurement.Monitor.RangeRating, BY FULL RANGE, BY FULL RANGE
TestParameter, Measurement.Monitor.RangeRatingCoeff, 50, 50
TestParameter, Measurement.Timing.Hold, 0
TestParameter, Measurement.Timing.Delay, 0.001
TestParameter, Measurement.Adc.HighSpeed.Mode, AUTO
TestParameter, Measurement.Adc.HighSpeed.Coeff, 1
TestParameter, Measurement.Adc.HighResolution.AutoZero, OFF
TestParameter, Measurement.Adc.HighResolution.Mode, PLC
TestParameter, Measurement.Adc.HighResolution.Coeff, 1
TestParameter, Measurement.WaitTime.Source.Coeff, 1
TestParameter, Measurement.WaitTime.Source.Offset, 0
TestParameter, Measurement.WaitTime.Monitor.Coeff, 1
TestParameter, Measurement.WaitTime.Monitor.Offset, 0
TestParameter, Function.User.Name, Ohmic
TestParameter, Function.User.Unit, ohm
TestParameter, Function.User.Definition, avg(V1/I1)
TestParameter, Output.Graph.Enabled, true
TestParameter, Output.Graph.XAxis.Data, V1
TestParameter, Output.Graph.XAxis.Scale, Linear
TestParameter, Output.Graph.XAxis.Left, -5
TestParameter, Output.Graph.XAxis.Right, 5
TestParameter, Output.Graph.YAxis.Data, I1
TestParameter, Output.Graph.YAxis.Scale, Linear
TestParameter, Output.Graph.YAxis.Bottom, -0.001
TestParameter, Output.Graph.YAxis.Top, 0.001
TestParameter, Output.Graph.YAxis.Group, 
TestParameter, Output.Scalar.Data, Ohmic
TestParameter, AutoAnalysis.Interpolation, false
TestParameter, AutoAnalysis.Line1.Enabled, false
TestParameter, AutoAnalysis.Line1.Type, 1
TestParameter, AutoAnalysis.Line1.Fix, True
TestParameter, AutoAnalysis.Line1.YAxis, 0
TestParameter, AutoAnalysis.Line1.Point1.Type, 0
TestParameter, AutoAnalysis.Line1.Point1.XY.X, 
TestParameter, AutoAnalysis.Line1.Point1.XY.Y, 
TestParameter, AutoAnalysis.Line1.Point1.Data.Var, 
TestParameter, AutoAnalysis.Line1.Point1.Data.Condition, 
TestParameter, AutoAnalysis.Line1.Point1.Data.Start, false
TestParameter, AutoAnalysis.Line1.Point1.Data.StartVar, 
TestParameter, AutoAnalysis.Line1.Point1.Data.StartCondition, 
TestParameter, AutoAnalysis.Line1.Point2.Type, 0
TestParameter, AutoAnalysis.Line1.Point2.XY.X, 
TestParameter, AutoAnalysis.Line1.Point2.XY.Y, 
TestParameter, AutoAnalysis.Line1.Point2.Data.Var, 
TestParameter, AutoAnalysis.Line1.Point2.Data.Condition, 
TestParameter, AutoAnalysis.Line1.Point2.Data.Start, false
TestParameter, AutoAnalysis.Line1.Point2.Data.StartVar, 
TestParameter, AutoAnalysis.Line1.Point2.Data.StartCondition, 
TestParameter, AutoAnalysis.Line1.GradientExpr, 0
TestParameter, AutoAnalysis.Line2.Enabled, false
TestParameter, AutoAnalysis.Line2.Type, 1
TestParameter, AutoAnalysis.Line2.Fix, True
TestParameter, AutoAnalysis.Line2.YAxis, 0
TestParameter, AutoAnalysis.Line2.Point1.Type, 0
TestParameter, AutoAnalysis.Line2.Point1.XY.X, 
TestParameter, AutoAnalysis.Line2.Point1.XY.Y, 
TestParameter, AutoAnalysis.Line2.Point1.Data.Var, 
TestParameter, AutoAnalysis.Line2.Point1.Data.Condition, 
TestParameter, AutoAnalysis.Line2.Point1.Data.Start, false
TestParameter, AutoAnalysis.Line2.Point1.Data.StartVar, 
TestParameter, AutoAnalysis.Line2.Point1.Data.StartCondition, 
TestParameter, AutoAnalysis.Line2.Point2.Type, 0
TestParameter, AutoAnalysis.Line2.Point2.XY.X, 
TestParameter, AutoAnalysis.Line2.Point2.XY.Y, 
TestParameter, AutoAnalysis.Line2.Point2.Data.Var, 
TestParameter, AutoAnalysis.Line2.Point2.Data.Condition, 
TestParameter, AutoAnalysis.Line2.Point2.Data.Start, false
TestParameter, AutoAnalysis.Line2.Point2.Data.StartVar, 
TestParameter, AutoAnalysis.Line2.Point2.Data.StartCondition, 
TestParameter, AutoAnalysis.Line2.GradientExpr, 0
TestParameter, AutoAnalysis.Marker.Enabled, false
TestParameter, AutoAnalysis.Marker.Data.Var, 
TestParameter, AutoAnalysis.Marker.Data.Condition, 
TestParameter, AutoAnalysis.Marker.Data.Start, false
TestParameter, AutoAnalysis.Marker.Data.StartVar, 
TestParameter, AutoAnalysis.Marker.Data.StartCondition, 
MetaData, TestRecord.EntryPoint, true
MetaData, TestRecord.RecordTime, 07/05/2020 18:13:13
MetaData, TestRecord.TestTarget, 
MetaData, TestRecord.IterationIndex, 81
MetaData, TestRecord.Preservation, true
MetaData, TestRecord.Flag, 
MetaData, TestRecord.Remarks, 
MetaData, TestRecord.LinkKey, ec8bfcb4-2bb8-47da-aaf0-88547723c89d
Dimension1, 101, 101, 101
Dimension2, 1, 1, 1
DataName, V1, I1, Ohmic
DataValue, -5, -2.0309E-10, 70040622935.219284
DataValue, -4.9, -1.6936E-10, 
DataValue, -4.8, -1.5206E-10, 
DataValue, -4.7, -1.3098E-10, 
DataValue, -4.6000000000000005, -1.2003E-10, 
DataValue, -4.5, -1.0509E-10, 
DataValue, -4.4, -9.731E-11, 
DataValue, -4.3, -8.667E-11, 
DataValue, -4.2, -8.115E-11, 
DataValue, -4.1, -7.134E-11, 
DataValue, -4, -6.452E-11, 
DataValue, -3.9, -5.204E-11, 
DataValue, -3.8000000000000003, -5.226E-11, 
DataValue, -3.7, -4.616E-11, 
DataValue, -3.6, -4.359E-11, 
DataValue, -3.5, -3.785E-11, 
DataValue, -3.4, -3.611E-11, 
DataValue, -3.3000000000000003, -2.961E-11, 
DataValue, -3.2, -2.796E-11, 
DataValue, -3.1, -2.268E-11, 
DataValue, -3, -2.294E-11, 
DataValue, -2.9, -1.711E-11, 
DataValue, -2.8000000000000003, -1.563E-11, 
DataValue, -2.7, -1.082E-11, 
DataValue, -2.6, -1.04E-11, 
DataValue, -2.5, -6.54E-12, 
DataValue, -2.4, -4.75E-12, 
DataValue, -2.3000000000000003, -7.7E-13, 
DataValue, -2.2, -8.3E-13, 
DataValue, -2.1, 2.13E-12, 
DataValue, -2, 2.3E-12, 
DataValue, -1.9000000000000001, 6.01E-12, 
DataValue, -1.8, 5.64E-12, 
DataValue, -1.7, 9.59E-12, 
DataValue, -1.6, 8.04E-12, 
DataValue, -1.5, 1.266E-11, 
DataValue, -1.4000000000000001, 1.297E-11, 
DataValue, -1.3, 1.657E-11, 
DataValue, -1.2, 1.65E-11, 
DataValue, -1.1, 2.05E-11, 
DataValue, -1, 1.78E-11, 
DataValue, -0.9, 2.267E-11, 
DataValue, -0.8, 2.162E-11, 
DataValue, -0.70000000000000007, 2.603E-11, 
DataValue, -0.6, 2.55E-11, 
DataValue, -0.5, 2.846E-11, 
DataValue, -0.4, 2.812E-11, 
DataValue, -0.3, 3.122E-11, 
DataValue, -0.2, 3.168E-11, 
DataValue, -0.1, 3.376E-11, 
DataValue, 0, 3.289E-11, 
DataValue, 0.1, 3.687E-11, 
DataValue, 0.2, 3.593E-11, 
DataValue, 0.3, 3.898E-11, 
DataValue, 0.4, 3.948E-11, 
DataValue, 0.5, 4.163E-11, 
DataValue, 0.6, 4.123E-11, 
DataValue, 0.70000000000000007, 4.365E-11, 
DataValue, 0.8, 4.57E-11, 
DataValue, 0.9, 4.615E-11, 
DataValue, 1, 4.724E-11, 
DataValue, 1.1, 4.956E-11, 
DataValue, 1.2, 4.8769999999999997E-11, 
DataValue, 1.3, 5.153E-11, 
DataValue, 1.4000000000000001, 5.09E-11, 
DataValue, 1.5, 5.436E-11, 
DataValue, 1.6, 5.2519999999999997E-11, 
DataValue, 1.7, 5.648E-11, 
DataValue, 1.8, 5.69E-11, 
DataValue, 1.9000000000000001, 5.922E-11, 
DataValue, 2, 5.778E-11, 
DataValue, 2.1, 6.169E-11, 
DataValue, 2.2, 6.085E-11, 
DataValue, 2.3000000000000003, 6.387E-11, 
DataValue, 2.4, 6.407E-11, 
DataValue, 2.5, 6.622E-11, 
DataValue, 2.6, 6.435E-11, 
DataValue, 2.7, 6.815E-11, 
DataValue, 2.8000000000000003, 6.655E-11, 
DataValue, 2.9, 7.012E-11, 
DataValue, 3, 7.08E-11, 
DataValue, 3.1, 7.308E-11, 
DataValue, 3.2, 7.243E-11, 
DataValue, 3.3000000000000003, 7.544E-11, 
DataValue, 3.4, 7.338E-11, 
DataValue, 3.5, 7.782E-11, 
DataValue, 3.6, 7.698E-11, 
DataValue, 3.7, 7.922E-11, 
DataValue, 3.8000000000000003, 7.974E-11, 
DataValue, 3.9, 8.132E-11, 
DataValue, 4, 7.991E-11, 
DataValue, 4.1, 8.412E-11, 
DataValue, 4.2, 8.331E-11, 
DataValue, 4.3, 8.643E-11, 
DataValue, 4.4, 8.61E-11, 
DataValue, 4.5, 8.848E-11, 
DataValue, 4.6000000000000005, 8.742E-11, 
DataValue, 4.7, 9.133E-11, 
DataValue, 4.8, 9.124E-11, 
DataValue, 4.9, 9.415E-11, 
DataValue, 5, 9.268E-11, 