
SetupTitle, WW
PrimitiveTest, I/V Sweep
TestParameter, Context.MainFrame, B1500A
TestParameter, Channel.UnitType, SMU, SMU
TestParameter, Channel.Unit, SMU2:HP, SMU1:HP
TestParameter, Channel.IName, I1, I4
TestParameter, Channel.VName, V1, V4
TestParameter, Channel.Mode, V, COMMON
TestParameter, Channel.Func, VAR1, CONST
TestParameter, Channel.Index, 
TestParameter, Channel.Time, 
TestParameter, Measurement.Port.Unit, SMU2:HP, SMU1:HP
TestParameter, Measurement.Port.SeriesResistor, NONE, NONE
TestParameter, Measurement.Port.Filter, ON, ON
TestParameter, Measurement.Port.OutputVoltageComparison, 0, 0
TestParameter, Measurement.Primary.Locus, Single
TestParameter, Measurement.Primary.Scale, LINEAR
TestParameter, Measurement.Primary.Start, -5
TestParameter, Measurement.Primary.Stop, 5
TestParameter, Measurement.Primary.Step, 0.1
TestParameter, Measurement.Primary.Compliance, 0.1
TestParameter, Measurement.Primary.PowerCompliance, 0
TestParameter, Measurement.Aborting.Condition, CONTINUE AT ANY
TestParameter, Measurement.PostOutput.Value, START
TestParameter, Measurement.PostOutput.Retention, OFF
TestParameter, Measurement.Bias.Source, -5, 0
TestParameter, Measurement.Bias.Compliance, 0.1, 1
TestParameter, Measurement.Monitor.Unit, SMU2:HP, SMU1:HP
TestParameter, Measurement.Monitor.Adc, HR ADC, HR ADC
TestParameter, Measurement.Monitor.Measurement, Compliance Side, Compliance Side
TestParameter, Measurement.Monitor.RangingMode, AUTO, AUTO
TestParameter, Measurement.Monitor.RangeBoundary, , 
TestParameter, Measurement.Monitor.RangeRating, BY FULL RANGE, BY FULL RANGE
TestParameter, Measurement.Monitor.RangeRatingCoeff, 50, 50
TestParameter, Measurement.Timing.Hold, 0
TestParameter, Measurement.Timing.Delay, 0.001
TestParameter, Measurement.Adc.HighSpeed.Mode, AUTO
TestParameter, Measurement.Adc.HighSpeed.Coeff, 1
TestParameter, Measurement.Adc.HighResolution.AutoZero, OFF
TestParameter, Measurement.Adc.HighResolution.Mode, PLC
TestParameter, Measurement.Adc.HighResolution.Coeff, 1
TestParameter, Measurement.WaitTime.Source.Coeff, 1
TestParameter, Measurement.WaitTime.Source.Offset, 0
TestParameter, Measurement.WaitTime.Monitor.Coeff, 1
TestParameter, Measurement.WaitTime.Monitor.Offset, 0
TestParameter, Function.User.Name, Ohmic
TestParameter, Function.User.Unit, ohm
TestParameter, Function.User.Definition, avg(V1/I1)
TestParameter, Output.Graph.Enabled, true
TestParameter, Output.Graph.XAxis.Data, V1
TestParameter, Output.Graph.XAxis.Scale, Linear
TestParameter, Output.Graph.XAxis.Left, -5
TestParameter, Output.Graph.XAxis.Right, 5
TestParameter, Output.Graph.YAxis.Data, I1
TestParameter, Output.Graph.YAxis.Scale, Linear
TestParameter, Output.Graph.YAxis.Bottom, -0.001
TestParameter, Output.Graph.YAxis.Top, 0.001
TestParameter, Output.Graph.YAxis.Group, 
TestParameter, Output.Scalar.Data, Ohmic
TestParameter, AutoAnalysis.Interpolation, false
TestParameter, AutoAnalysis.Line1.Enabled, false
TestParameter, AutoAnalysis.Line1.Type, 1
TestParameter, AutoAnalysis.Line1.Fix, True
TestParameter, AutoAnalysis.Line1.YAxis, 0
TestParameter, AutoAnalysis.Line1.Point1.Type, 0
TestParameter, AutoAnalysis.Line1.Point1.XY.X, 
TestParameter, AutoAnalysis.Line1.Point1.XY.Y, 
TestParameter, AutoAnalysis.Line1.Point1.Data.Var, 
TestParameter, AutoAnalysis.Line1.Point1.Data.Condition, 
TestParameter, AutoAnalysis.Line1.Point1.Data.Start, false
TestParameter, AutoAnalysis.Line1.Point1.Data.StartVar, 
TestParameter, AutoAnalysis.Line1.Point1.Data.StartCondition, 
TestParameter, AutoAnalysis.Line1.Point2.Type, 0
TestParameter, AutoAnalysis.Line1.Point2.XY.X, 
TestParameter, AutoAnalysis.Line1.Point2.XY.Y, 
TestParameter, AutoAnalysis.Line1.Point2.Data.Var, 
TestParameter, AutoAnalysis.Line1.Point2.Data.Condition, 
TestParameter, AutoAnalysis.Line1.Point2.Data.Start, false
TestParameter, AutoAnalysis.Line1.Point2.Data.StartVar, 
TestParameter, AutoAnalysis.Line1.Point2.Data.StartCondition, 
TestParameter, AutoAnalysis.Line1.GradientExpr, 0
TestParameter, AutoAnalysis.Line2.Enabled, false
TestParameter, AutoAnalysis.Line2.Type, 1
TestParameter, AutoAnalysis.Line2.Fix, True
TestParameter, AutoAnalysis.Line2.YAxis, 0
TestParameter, AutoAnalysis.Line2.Point1.Type, 0
TestParameter, AutoAnalysis.Line2.Point1.XY.X, 
TestParameter, AutoAnalysis.Line2.Point1.XY.Y, 
TestParameter, AutoAnalysis.Line2.Point1.Data.Var, 
TestParameter, AutoAnalysis.Line2.Point1.Data.Condition, 
TestParameter, AutoAnalysis.Line2.Point1.Data.Start, false
TestParameter, AutoAnalysis.Line2.Point1.Data.StartVar, 
TestParameter, AutoAnalysis.Line2.Point1.Data.StartCondition, 
TestParameter, AutoAnalysis.Line2.Point2.Type, 0
TestParameter, AutoAnalysis.Line2.Point2.XY.X, 
TestParameter, AutoAnalysis.Line2.Point2.XY.Y, 
TestParameter, AutoAnalysis.Line2.Point2.Data.Var, 
TestParameter, AutoAnalysis.Line2.Point2.Data.Condition, 
TestParameter, AutoAnalysis.Line2.Point2.Data.Start, false
TestParameter, AutoAnalysis.Line2.Point2.Data.StartVar, 
TestParameter, AutoAnalysis.Line2.Point2.Data.StartCondition, 
TestParameter, AutoAnalysis.Line2.GradientExpr, 0
TestParameter, AutoAnalysis.Marker.Enabled, false
TestParameter, AutoAnalysis.Marker.Data.Var, 
TestParameter, AutoAnalysis.Marker.Data.Condition, 
TestParameter, AutoAnalysis.Marker.Data.Start, false
TestParameter, AutoAnalysis.Marker.Data.StartVar, 
TestParameter, AutoAnalysis.Marker.Data.StartCondition, 
MetaData, TestRecord.EntryPoint, true
MetaData, TestRecord.RecordTime, 07/05/2020 18:11:43
MetaData, TestRecord.TestTarget, 
MetaData, TestRecord.IterationIndex, 78
MetaData, TestRecord.Preservation, true
MetaData, TestRecord.Flag, 
MetaData, TestRecord.Remarks, 
MetaData, TestRecord.LinkKey, 73ff43ee-bc64-405c-b678-d67d616614a2
Dimension1, 101, 101, 101
Dimension2, 1, 1, 1
DataName, V1, I1, Ohmic
DataValue, -5, -2.1676E-10, 49472100134.027664
DataValue, -4.9, -1.811E-10, 
DataValue, -4.8, -1.5814E-10, 
DataValue, -4.7, -1.3972E-10, 
DataValue, -4.6000000000000005, -1.2357E-10, 
DataValue, -4.5, -1.1243E-10, 
DataValue, -4.4, -1.0161E-10, 
DataValue, -4.3, -9.233E-11, 
DataValue, -4.2, -8.277E-11, 
DataValue, -4.1, -7.597E-11, 
DataValue, -4, -6.772E-11, 
DataValue, -3.9, -6.33E-11, 
DataValue, -3.8000000000000003, -5.589E-11, 
DataValue, -3.7, -5.301E-11, 
DataValue, -3.6, -4.596E-11, 
DataValue, -3.5, -4.263E-11, 
DataValue, -3.4, -3.764E-11, 
DataValue, -3.3000000000000003, -3.465E-11, 
DataValue, -3.2, -3.084E-11, 
DataValue, -3.1, -2.796E-11, 
DataValue, -3, -2.41E-11, 
DataValue, -2.9, -2.146E-11, 
DataValue, -2.8000000000000003, -1.854E-11, 
DataValue, -2.7, -1.537E-11, 
DataValue, -2.6, -1.193E-11, 
DataValue, -2.5, -9.82E-12, 
DataValue, -2.4, -5.88E-12, 
DataValue, -2.3000000000000003, -5.69E-12, 
DataValue, -2.2, -3.17E-12, 
DataValue, -2.1, -6.3E-13, 
DataValue, -2, 1.19E-12, 
DataValue, -1.9000000000000001, 2.75E-12, 
DataValue, -1.8, 6.22E-12, 
DataValue, -1.7, 7.11E-12, 
DataValue, -1.6, 8.53E-12, 
DataValue, -1.5, 1.127E-11, 
DataValue, -1.4000000000000001, 1.338E-11, 
DataValue, -1.3, 1.382E-11, 
DataValue, -1.2, 1.678E-11, 
DataValue, -1.1, 1.791E-11, 
DataValue, -1, 2.014E-11, 
DataValue, -0.9, 2.163E-11, 
DataValue, -0.8, 2.399E-11, 
DataValue, -0.70000000000000007, 2.439E-11, 
DataValue, -0.6, 2.709E-11, 
DataValue, -0.5, 2.739E-11, 
DataValue, -0.4, 3.103E-11, 
DataValue, -0.3, 3.151E-11, 
DataValue, -0.2, 3.246E-11, 
DataValue, -0.1, 3.318E-11, 
DataValue, 0, 3.571E-11, 
DataValue, 0.1, 3.592E-11, 
DataValue, 0.2, 3.865E-11, 
DataValue, 0.3, 3.9339999999999997E-11, 
DataValue, 0.4, 4.277E-11, 
DataValue, 0.5, 4.227E-11, 
DataValue, 0.6, 4.501E-11, 
DataValue, 0.70000000000000007, 4.443E-11, 
DataValue, 0.8, 4.791E-11, 
DataValue, 0.9, 4.794E-11, 
DataValue, 1, 4.996E-11, 
DataValue, 1.1, 5.018E-11, 
DataValue, 1.2, 5.347E-11, 
DataValue, 1.3, 5.21E-11, 
DataValue, 1.4000000000000001, 5.659E-11, 
DataValue, 1.5, 5.557E-11, 
DataValue, 1.6, 5.69E-11, 
DataValue, 1.7, 5.852E-11, 
DataValue, 1.8, 6.038E-11, 
DataValue, 1.9000000000000001, 5.977E-11, 
DataValue, 2, 6.224E-11, 
DataValue, 2.1, 6.295E-11, 
DataValue, 2.2, 6.564E-11, 
DataValue, 2.3000000000000003, 6.564E-11, 
DataValue, 2.4, 6.767E-11, 
DataValue, 2.5, 6.765E-11, 
DataValue, 2.6, 7.112E-11, 
DataValue, 2.7, 7.061E-11, 
DataValue, 2.8000000000000003, 7.236E-11, 
DataValue, 2.9, 7.32E-11, 
DataValue, 3, 7.712E-11, 
DataValue, 3.1, 7.602E-11, 
DataValue, 3.2, 7.785E-11, 
DataValue, 3.3000000000000003, 7.778E-11, 
DataValue, 3.4, 8.123E-11, 
DataValue, 3.5, 8.066E-11, 
DataValue, 3.6, 8.153E-11, 
DataValue, 3.7, 8.267E-11, 
DataValue, 3.8000000000000003, 8.582E-11, 
DataValue, 3.9, 8.548E-11, 
DataValue, 4, 8.858E-11, 
DataValue, 4.1, 8.853E-11, 
DataValue, 4.2, 9.175E-11, 
DataValue, 4.3, 9.099E-11, 
DataValue, 4.4, 9.31E-11, 
DataValue, 4.5, 9.341E-11, 
DataValue, 4.6000000000000005, 9.554E-11, 
DataValue, 4.7, 9.662E-11, 
DataValue, 4.8, 1.0064E-10, 
DataValue, 4.9, 9.887E-11, 
DataValue, 5, 1.0255E-10, 