
SetupTitle, WW
PrimitiveTest, I/V Sweep
TestParameter, Context.MainFrame, B1500A
TestParameter, Channel.UnitType, SMU, SMU
TestParameter, Channel.Unit, SMU2:HP, SMU1:HP
TestParameter, Channel.IName, I1, I4
TestParameter, Channel.VName, V1, V4
TestParameter, Channel.Mode, V, COMMON
TestParameter, Channel.Func, VAR1, CONST
TestParameter, Channel.Index, 
TestParameter, Channel.Time, 
TestParameter, Measurement.Port.Unit, SMU2:HP, SMU1:HP
TestParameter, Measurement.Port.SeriesResistor, NONE, NONE
TestParameter, Measurement.Port.Filter, ON, ON
TestParameter, Measurement.Port.OutputVoltageComparison, 0, 0
TestParameter, Measurement.Primary.Locus, Single
TestParameter, Measurement.Primary.Scale, LINEAR
TestParameter, Measurement.Primary.Start, -5
TestParameter, Measurement.Primary.Stop, 5
TestParameter, Measurement.Primary.Step, 0.1
TestParameter, Measurement.Primary.Compliance, 0.1
TestParameter, Measurement.Primary.PowerCompliance, 0
TestParameter, Measurement.Aborting.Condition, CONTINUE AT ANY
TestParameter, Measurement.PostOutput.Value, START
TestParameter, Measurement.PostOutput.Retention, OFF
TestParameter, Measurement.Bias.Source, -5, 0
TestParameter, Measurement.Bias.Compliance, 0.1, 1
TestParameter, Measurement.Monitor.Unit, SMU2:HP, SMU1:HP
TestParameter, Measurement.Monitor.Adc, HR ADC, HR ADC
TestParameter, Measurement.Monitor.Measurement, Compliance Side, Compliance Side
TestParameter, Measurement.Monitor.RangingMode, AUTO, AUTO
TestParameter, Measurement.Monitor.RangeBoundary, , 
TestParameter, Measurement.Monitor.RangeRating, BY FULL RANGE, BY FULL RANGE
TestParameter, Measurement.Monitor.RangeRatingCoeff, 50, 50
TestParameter, Measurement.Timing.Hold, 0
TestParameter, Measurement.Timing.Delay, 0.001
TestParameter, Measurement.Adc.HighSpeed.Mode, AUTO
TestParameter, Measurement.Adc.HighSpeed.Coeff, 1
TestParameter, Measurement.Adc.HighResolution.AutoZero, OFF
TestParameter, Measurement.Adc.HighResolution.Mode, PLC
TestParameter, Measurement.Adc.HighResolution.Coeff, 1
TestParameter, Measurement.WaitTime.Source.Coeff, 1
TestParameter, Measurement.WaitTime.Source.Offset, 0
TestParameter, Measurement.WaitTime.Monitor.Coeff, 1
TestParameter, Measurement.WaitTime.Monitor.Offset, 0
TestParameter, Function.User.Name, Ohmic
TestParameter, Function.User.Unit, ohm
TestParameter, Function.User.Definition, avg(V1/I1)
TestParameter, Output.Graph.Enabled, true
TestParameter, Output.Graph.XAxis.Data, V1
TestParameter, Output.Graph.XAxis.Scale, Linear
TestParameter, Output.Graph.XAxis.Left, -5
TestParameter, Output.Graph.XAxis.Right, 5
TestParameter, Output.Graph.YAxis.Data, I1
TestParameter, Output.Graph.YAxis.Scale, Linear
TestParameter, Output.Graph.YAxis.Bottom, -0.001
TestParameter, Output.Graph.YAxis.Top, 0.001
TestParameter, Output.Graph.YAxis.Group, 
TestParameter, Output.Scalar.Data, Ohmic
TestParameter, AutoAnalysis.Interpolation, false
TestParameter, AutoAnalysis.Line1.Enabled, false
TestParameter, AutoAnalysis.Line1.Type, 1
TestParameter, AutoAnalysis.Line1.Fix, True
TestParameter, AutoAnalysis.Line1.YAxis, 0
TestParameter, AutoAnalysis.Line1.Point1.Type, 0
TestParameter, AutoAnalysis.Line1.Point1.XY.X, 
TestParameter, AutoAnalysis.Line1.Point1.XY.Y, 
TestParameter, AutoAnalysis.Line1.Point1.Data.Var, 
TestParameter, AutoAnalysis.Line1.Point1.Data.Condition, 
TestParameter, AutoAnalysis.Line1.Point1.Data.Start, false
TestParameter, AutoAnalysis.Line1.Point1.Data.StartVar, 
TestParameter, AutoAnalysis.Line1.Point1.Data.StartCondition, 
TestParameter, AutoAnalysis.Line1.Point2.Type, 0
TestParameter, AutoAnalysis.Line1.Point2.XY.X, 
TestParameter, AutoAnalysis.Line1.Point2.XY.Y, 
TestParameter, AutoAnalysis.Line1.Point2.Data.Var, 
TestParameter, AutoAnalysis.Line1.Point2.Data.Condition, 
TestParameter, AutoAnalysis.Line1.Point2.Data.Start, false
TestParameter, AutoAnalysis.Line1.Point2.Data.StartVar, 
TestParameter, AutoAnalysis.Line1.Point2.Data.StartCondition, 
TestParameter, AutoAnalysis.Line1.GradientExpr, 0
TestParameter, AutoAnalysis.Line2.Enabled, false
TestParameter, AutoAnalysis.Line2.Type, 1
TestParameter, AutoAnalysis.Line2.Fix, True
TestParameter, AutoAnalysis.Line2.YAxis, 0
TestParameter, AutoAnalysis.Line2.Point1.Type, 0
TestParameter, AutoAnalysis.Line2.Point1.XY.X, 
TestParameter, AutoAnalysis.Line2.Point1.XY.Y, 
TestParameter, AutoAnalysis.Line2.Point1.Data.Var, 
TestParameter, AutoAnalysis.Line2.Point1.Data.Condition, 
TestParameter, AutoAnalysis.Line2.Point1.Data.Start, false
TestParameter, AutoAnalysis.Line2.Point1.Data.StartVar, 
TestParameter, AutoAnalysis.Line2.Point1.Data.StartCondition, 
TestParameter, AutoAnalysis.Line2.Point2.Type, 0
TestParameter, AutoAnalysis.Line2.Point2.XY.X, 
TestParameter, AutoAnalysis.Line2.Point2.XY.Y, 
TestParameter, AutoAnalysis.Line2.Point2.Data.Var, 
TestParameter, AutoAnalysis.Line2.Point2.Data.Condition, 
TestParameter, AutoAnalysis.Line2.Point2.Data.Start, false
TestParameter, AutoAnalysis.Line2.Point2.Data.StartVar, 
TestParameter, AutoAnalysis.Line2.Point2.Data.StartCondition, 
TestParameter, AutoAnalysis.Line2.GradientExpr, 0
TestParameter, AutoAnalysis.Marker.Enabled, false
TestParameter, AutoAnalysis.Marker.Data.Var, 
TestParameter, AutoAnalysis.Marker.Data.Condition, 
TestParameter, AutoAnalysis.Marker.Data.Start, false
TestParameter, AutoAnalysis.Marker.Data.StartVar, 
TestParameter, AutoAnalysis.Marker.Data.StartCondition, 
MetaData, TestRecord.EntryPoint, true
MetaData, TestRecord.RecordTime, 07/05/2020 18:09:42
MetaData, TestRecord.TestTarget, 
MetaData, TestRecord.IterationIndex, 74
MetaData, TestRecord.Preservation, true
MetaData, TestRecord.Flag, 
MetaData, TestRecord.Remarks, 
MetaData, TestRecord.LinkKey, 53300127-938f-4888-8f17-82c7d79d23fd
Dimension1, 101, 101, 101
Dimension2, 1, 1, 1
DataName, V1, I1, Ohmic
DataValue, -5, -2.2675E-10, 12357566734.637426
DataValue, -4.9, -1.8969E-10, 
DataValue, -4.8, -1.6447E-10, 
DataValue, -4.7, -1.4625E-10, 
DataValue, -4.6000000000000005, -1.3075E-10, 
DataValue, -4.5, -1.185E-10, 
DataValue, -4.4, -1.0684E-10, 
DataValue, -4.3, -9.718E-11, 
DataValue, -4.2, -8.905E-11, 
DataValue, -4.1, -8.179E-11, 
DataValue, -4, -7.492E-11, 
DataValue, -3.9, -6.825E-11, 
DataValue, -3.8000000000000003, -6.284E-11, 
DataValue, -3.7, -5.714E-11, 
DataValue, -3.6, -5.284E-11, 
DataValue, -3.5, -4.917E-11, 
DataValue, -3.4, -4.347E-11, 
DataValue, -3.3000000000000003, -4.046E-11, 
DataValue, -3.2, -3.548E-11, 
DataValue, -3.1, -3.212E-11, 
DataValue, -3, -2.916E-11, 
DataValue, -2.9, -2.726E-11, 
DataValue, -2.8000000000000003, -2.257E-11, 
DataValue, -2.7, -1.955E-11, 
DataValue, -2.6, -1.759E-11, 
DataValue, -2.5, -1.309E-11, 
DataValue, -2.4, -1.124E-11, 
DataValue, -2.3000000000000003, -8.41E-12, 
DataValue, -2.2, -6.8E-12, 
DataValue, -2.1, -5.26E-12, 
DataValue, -2, -2.79E-12, 
DataValue, -1.9000000000000001, 1.03E-12, 
DataValue, -1.8, 2.29E-12, 
DataValue, -1.7, 3.82E-12, 
DataValue, -1.6, 6.68E-12, 
DataValue, -1.5, 7.77E-12, 
DataValue, -1.4000000000000001, 1.051E-11, 
DataValue, -1.3, 1.246E-11, 
DataValue, -1.2, 1.42E-11, 
DataValue, -1.1, 1.59E-11, 
DataValue, -1, 1.82E-11, 
DataValue, -0.9, 1.935E-11, 
DataValue, -0.8, 2.263E-11, 
DataValue, -0.70000000000000007, 2.466E-11, 
DataValue, -0.6, 2.55E-11, 
DataValue, -0.5, 2.688E-11, 
DataValue, -0.4, 2.916E-11, 
DataValue, -0.3, 3.264E-11, 
DataValue, -0.2, 3.366E-11, 
DataValue, -0.1, 3.358E-11, 
DataValue, 0, 3.614E-11, 
DataValue, 0.1, 3.79E-11, 
DataValue, 0.2, 3.902E-11, 
DataValue, 0.3, 4.014E-11, 
DataValue, 0.4, 4.231E-11, 
DataValue, 0.5, 4.404E-11, 
DataValue, 0.6, 4.564E-11, 
DataValue, 0.70000000000000007, 4.704E-11, 
DataValue, 0.8, 4.828E-11, 
DataValue, 0.9, 5.037E-11, 
DataValue, 1, 5.129E-11, 
DataValue, 1.1, 5.276E-11, 
DataValue, 1.2, 5.43E-11, 
DataValue, 1.3, 5.385E-11, 
DataValue, 1.4000000000000001, 5.733E-11, 
DataValue, 1.5, 5.782E-11, 
DataValue, 1.6, 6.081E-11, 
DataValue, 1.7, 6.06E-11, 
DataValue, 1.8, 6.3E-11, 
DataValue, 1.9000000000000001, 6.505E-11, 
DataValue, 2, 6.63E-11, 
DataValue, 2.1, 6.727E-11, 
DataValue, 2.2, 6.841E-11, 
DataValue, 2.3000000000000003, 6.853E-11, 
DataValue, 2.4, 7.155E-11, 
DataValue, 2.5, 7.17E-11, 
DataValue, 2.6, 7.437E-11, 
DataValue, 2.7, 7.689E-11, 
DataValue, 2.8000000000000003, 7.754E-11, 
DataValue, 2.9, 7.869E-11, 
DataValue, 3, 8.154E-11, 
DataValue, 3.1, 8.208E-11, 
DataValue, 3.2, 8.421E-11, 
DataValue, 3.3000000000000003, 8.551E-11, 
DataValue, 3.4, 8.644E-11, 
DataValue, 3.5, 8.761E-11, 
DataValue, 3.6, 8.885E-11, 
DataValue, 3.7, 8.894E-11, 
DataValue, 3.8000000000000003, 9.306E-11, 
DataValue, 3.9, 9.229E-11, 
DataValue, 4, 9.655E-11, 
DataValue, 4.1, 9.589E-11, 
DataValue, 4.2, 9.806E-11, 
DataValue, 4.3, 9.964E-11, 
DataValue, 4.4, 1.0161E-10, 
DataValue, 4.5, 1.0077E-10, 
DataValue, 4.6000000000000005, 1.0494E-10, 
DataValue, 4.7, 1.0507E-10, 
DataValue, 4.8, 1.0797E-10, 
DataValue, 4.9, 1.08E-10, 
DataValue, 5, 1.1119E-10, 