
SetupTitle, WW
PrimitiveTest, I/V Sweep
TestParameter, Context.MainFrame, B1500A
TestParameter, Channel.UnitType, SMU, SMU
TestParameter, Channel.Unit, SMU2:HP, SMU1:HP
TestParameter, Channel.IName, I1, I4
TestParameter, Channel.VName, V1, V4
TestParameter, Channel.Mode, V, COMMON
TestParameter, Channel.Func, VAR1, CONST
TestParameter, Channel.Index, 
TestParameter, Channel.Time, 
TestParameter, Measurement.Port.Unit, SMU2:HP, SMU1:HP
TestParameter, Measurement.Port.SeriesResistor, NONE, NONE
TestParameter, Measurement.Port.Filter, ON, ON
TestParameter, Measurement.Port.OutputVoltageComparison, 0, 0
TestParameter, Measurement.Primary.Locus, Single
TestParameter, Measurement.Primary.Scale, LINEAR
TestParameter, Measurement.Primary.Start, -5
TestParameter, Measurement.Primary.Stop, 5
TestParameter, Measurement.Primary.Step, 0.1
TestParameter, Measurement.Primary.Compliance, 0.1
TestParameter, Measurement.Primary.PowerCompliance, 0
TestParameter, Measurement.Aborting.Condition, CONTINUE AT ANY
TestParameter, Measurement.PostOutput.Value, START
TestParameter, Measurement.PostOutput.Retention, OFF
TestParameter, Measurement.Bias.Source, -5, 0
TestParameter, Measurement.Bias.Compliance, 0.1, 1
TestParameter, Measurement.Monitor.Unit, SMU2:HP, SMU1:HP
TestParameter, Measurement.Monitor.Adc, HR ADC, HR ADC
TestParameter, Measurement.Monitor.Measurement, Compliance Side, Compliance Side
TestParameter, Measurement.Monitor.RangingMode, AUTO, AUTO
TestParameter, Measurement.Monitor.RangeBoundary, , 
TestParameter, Measurement.Monitor.RangeRating, BY FULL RANGE, BY FULL RANGE
TestParameter, Measurement.Monitor.RangeRatingCoeff, 50, 50
TestParameter, Measurement.Timing.Hold, 0
TestParameter, Measurement.Timing.Delay, 0.001
TestParameter, Measurement.Adc.HighSpeed.Mode, AUTO
TestParameter, Measurement.Adc.HighSpeed.Coeff, 1
TestParameter, Measurement.Adc.HighResolution.AutoZero, OFF
TestParameter, Measurement.Adc.HighResolution.Mode, PLC
TestParameter, Measurement.Adc.HighResolution.Coeff, 1
TestParameter, Measurement.WaitTime.Source.Coeff, 1
TestParameter, Measurement.WaitTime.Source.Offset, 0
TestParameter, Measurement.WaitTime.Monitor.Coeff, 1
TestParameter, Measurement.WaitTime.Monitor.Offset, 0
TestParameter, Function.User.Name, Ohmic
TestParameter, Function.User.Unit, ohm
TestParameter, Function.User.Definition, avg(V1/I1)
TestParameter, Output.Graph.Enabled, true
TestParameter, Output.Graph.XAxis.Data, V1
TestParameter, Output.Graph.XAxis.Scale, Linear
TestParameter, Output.Graph.XAxis.Left, -5
TestParameter, Output.Graph.XAxis.Right, 5
TestParameter, Output.Graph.YAxis.Data, I1
TestParameter, Output.Graph.YAxis.Scale, Linear
TestParameter, Output.Graph.YAxis.Bottom, -0.001
TestParameter, Output.Graph.YAxis.Top, 0.001
TestParameter, Output.Graph.YAxis.Group, 
TestParameter, Output.Scalar.Data, Ohmic
TestParameter, AutoAnalysis.Interpolation, false
TestParameter, AutoAnalysis.Line1.Enabled, false
TestParameter, AutoAnalysis.Line1.Type, 1
TestParameter, AutoAnalysis.Line1.Fix, True
TestParameter, AutoAnalysis.Line1.YAxis, 0
TestParameter, AutoAnalysis.Line1.Point1.Type, 0
TestParameter, AutoAnalysis.Line1.Point1.XY.X, 
TestParameter, AutoAnalysis.Line1.Point1.XY.Y, 
TestParameter, AutoAnalysis.Line1.Point1.Data.Var, 
TestParameter, AutoAnalysis.Line1.Point1.Data.Condition, 
TestParameter, AutoAnalysis.Line1.Point1.Data.Start, false
TestParameter, AutoAnalysis.Line1.Point1.Data.StartVar, 
TestParameter, AutoAnalysis.Line1.Point1.Data.StartCondition, 
TestParameter, AutoAnalysis.Line1.Point2.Type, 0
TestParameter, AutoAnalysis.Line1.Point2.XY.X, 
TestParameter, AutoAnalysis.Line1.Point2.XY.Y, 
TestParameter, AutoAnalysis.Line1.Point2.Data.Var, 
TestParameter, AutoAnalysis.Line1.Point2.Data.Condition, 
TestParameter, AutoAnalysis.Line1.Point2.Data.Start, false
TestParameter, AutoAnalysis.Line1.Point2.Data.StartVar, 
TestParameter, AutoAnalysis.Line1.Point2.Data.StartCondition, 
TestParameter, AutoAnalysis.Line1.GradientExpr, 0
TestParameter, AutoAnalysis.Line2.Enabled, false
TestParameter, AutoAnalysis.Line2.Type, 1
TestParameter, AutoAnalysis.Line2.Fix, True
TestParameter, AutoAnalysis.Line2.YAxis, 0
TestParameter, AutoAnalysis.Line2.Point1.Type, 0
TestParameter, AutoAnalysis.Line2.Point1.XY.X, 
TestParameter, AutoAnalysis.Line2.Point1.XY.Y, 
TestParameter, AutoAnalysis.Line2.Point1.Data.Var, 
TestParameter, AutoAnalysis.Line2.Point1.Data.Condition, 
TestParameter, AutoAnalysis.Line2.Point1.Data.Start, false
TestParameter, AutoAnalysis.Line2.Point1.Data.StartVar, 
TestParameter, AutoAnalysis.Line2.Point1.Data.StartCondition, 
TestParameter, AutoAnalysis.Line2.Point2.Type, 0
TestParameter, AutoAnalysis.Line2.Point2.XY.X, 
TestParameter, AutoAnalysis.Line2.Point2.XY.Y, 
TestParameter, AutoAnalysis.Line2.Point2.Data.Var, 
TestParameter, AutoAnalysis.Line2.Point2.Data.Condition, 
TestParameter, AutoAnalysis.Line2.Point2.Data.Start, false
TestParameter, AutoAnalysis.Line2.Point2.Data.StartVar, 
TestParameter, AutoAnalysis.Line2.Point2.Data.StartCondition, 
TestParameter, AutoAnalysis.Line2.GradientExpr, 0
TestParameter, AutoAnalysis.Marker.Enabled, false
TestParameter, AutoAnalysis.Marker.Data.Var, 
TestParameter, AutoAnalysis.Marker.Data.Condition, 
TestParameter, AutoAnalysis.Marker.Data.Start, false
TestParameter, AutoAnalysis.Marker.Data.StartVar, 
TestParameter, AutoAnalysis.Marker.Data.StartCondition, 
MetaData, TestRecord.EntryPoint, true
MetaData, TestRecord.RecordTime, 07/05/2020 18:06:41
MetaData, TestRecord.TestTarget, 
MetaData, TestRecord.IterationIndex, 68
MetaData, TestRecord.Preservation, true
MetaData, TestRecord.Flag, 
MetaData, TestRecord.Remarks, 
MetaData, TestRecord.LinkKey, 6e6c2bcb-7475-4b50-bf08-eafa9ac992c3
Dimension1, 101, 101, 101
Dimension2, 1, 1, 1
DataName, V1, I1, Ohmic
DataValue, -5, -2.168E-10, 56493897858.265656
DataValue, -4.9, -1.8332E-10, 
DataValue, -4.8, -1.5741E-10, 
DataValue, -4.7, -1.4023E-10, 
DataValue, -4.6000000000000005, -1.2321E-10, 
DataValue, -4.5, -1.1309E-10, 
DataValue, -4.4, -1.0161E-10, 
DataValue, -4.3, -9.38E-11, 
DataValue, -4.2, -8.336E-11, 
DataValue, -4.1, -7.787E-11, 
DataValue, -4, -6.992E-11, 
DataValue, -3.9, -6.486E-11, 
DataValue, -3.8000000000000003, -5.951E-11, 
DataValue, -3.7, -5.45E-11, 
DataValue, -3.6, -4.751E-11, 
DataValue, -3.5, -4.542E-11, 
DataValue, -3.4, -3.952E-11, 
DataValue, -3.3000000000000003, -3.866E-11, 
DataValue, -3.2, -3.251E-11, 
DataValue, -3.1, -3.081E-11, 
DataValue, -3, -2.69E-11, 
DataValue, -2.9, -2.474E-11, 
DataValue, -2.8000000000000003, -2.055E-11, 
DataValue, -2.7, -1.987E-11, 
DataValue, -2.6, -1.562E-11, 
DataValue, -2.5, -1.424E-11, 
DataValue, -2.4, -1.071E-11, 
DataValue, -2.3000000000000003, -1.024E-11, 
DataValue, -2.2, -6.71E-12, 
DataValue, -2.1, -6.22E-12, 
DataValue, -2, -1.28E-12, 
DataValue, -1.9000000000000001, -1.27E-12, 
DataValue, -1.8, 4.01E-12, 
DataValue, -1.7, 3.72E-12, 
DataValue, -1.6, 6.25E-12, 
DataValue, -1.5, 6.02E-12, 
DataValue, -1.4000000000000001, 1.165E-11, 
DataValue, -1.3, 1.037E-11, 
DataValue, -1.2, 1.391E-11, 
DataValue, -1.1, 1.306E-11, 
DataValue, -1, 1.82E-11, 
DataValue, -0.9, 1.711E-11, 
DataValue, -0.8, 2.122E-11, 
DataValue, -0.70000000000000007, 2.111E-11, 
DataValue, -0.6, 2.28E-11, 
DataValue, -0.5, 2.312E-11, 
DataValue, -0.4, 2.705E-11, 
DataValue, -0.3, 2.705E-11, 
DataValue, -0.2, 3.156E-11, 
DataValue, -0.1, 2.956E-11, 
DataValue, 0, 3.39E-11, 
DataValue, 0.1, 3.389E-11, 
DataValue, 0.2, 3.771E-11, 
DataValue, 0.3, 3.607E-11, 
DataValue, 0.4, 3.979E-11, 
DataValue, 0.5, 3.984E-11, 
DataValue, 0.6, 4.475E-11, 
DataValue, 0.70000000000000007, 4.307E-11, 
DataValue, 0.8, 4.741E-11, 
DataValue, 0.9, 4.558E-11, 
DataValue, 1, 4.938E-11, 
DataValue, 1.1, 4.829E-11, 
DataValue, 1.2, 5.348E-11, 
DataValue, 1.3, 5.191E-11, 
DataValue, 1.4000000000000001, 5.568E-11, 
DataValue, 1.5, 5.5E-11, 
DataValue, 1.6, 5.912E-11, 
DataValue, 1.7, 5.837E-11, 
DataValue, 1.8, 6.141E-11, 
DataValue, 1.9000000000000001, 6.13E-11, 
DataValue, 2, 6.454E-11, 
DataValue, 2.1, 6.313E-11, 
DataValue, 2.2, 6.426E-11, 
DataValue, 2.3000000000000003, 6.756E-11, 
DataValue, 2.4, 6.985E-11, 
DataValue, 2.5, 6.962E-11, 
DataValue, 2.6, 7.407E-11, 
DataValue, 2.7, 7.295E-11, 
DataValue, 2.8000000000000003, 7.586E-11, 
DataValue, 2.9, 7.629E-11, 
DataValue, 3, 7.849E-11, 
DataValue, 3.1, 7.785E-11, 
DataValue, 3.2, 7.98E-11, 
DataValue, 3.3000000000000003, 8.169E-11, 
DataValue, 3.4, 8.219E-11, 
DataValue, 3.5, 8.463E-11, 
DataValue, 3.6, 8.789E-11, 
DataValue, 3.7, 8.765E-11, 
DataValue, 3.8000000000000003, 8.932E-11, 
DataValue, 3.9, 9.063E-11, 
DataValue, 4, 9.217E-11, 
DataValue, 4.1, 9.226E-11, 
DataValue, 4.2, 9.321E-11, 
DataValue, 4.3, 9.527E-11, 
DataValue, 4.4, 9.9E-11, 
DataValue, 4.5, 9.888E-11, 
DataValue, 4.6000000000000005, 1.0082E-10, 
DataValue, 4.7, 1.0203E-10, 
DataValue, 4.8, 1.0373E-10, 
DataValue, 4.9, 1.0512E-10, 
DataValue, 5, 1.0754E-10, 