
SetupTitle, WW
PrimitiveTest, I/V Sweep
TestParameter, Context.MainFrame, B1500A
TestParameter, Channel.UnitType, SMU, SMU
TestParameter, Channel.Unit, SMU2:HP, SMU1:HP
TestParameter, Channel.IName, I1, I4
TestParameter, Channel.VName, V1, V4
TestParameter, Channel.Mode, V, COMMON
TestParameter, Channel.Func, VAR1, CONST
TestParameter, Channel.Index, 
TestParameter, Channel.Time, 
TestParameter, Measurement.Port.Unit, SMU2:HP, SMU1:HP
TestParameter, Measurement.Port.SeriesResistor, NONE, NONE
TestParameter, Measurement.Port.Filter, ON, ON
TestParameter, Measurement.Port.OutputVoltageComparison, 0, 0
TestParameter, Measurement.Primary.Locus, Single
TestParameter, Measurement.Primary.Scale, LINEAR
TestParameter, Measurement.Primary.Start, -5
TestParameter, Measurement.Primary.Stop, 5
TestParameter, Measurement.Primary.Step, 0.1
TestParameter, Measurement.Primary.Compliance, 0.1
TestParameter, Measurement.Primary.PowerCompliance, 0
TestParameter, Measurement.Aborting.Condition, CONTINUE AT ANY
TestParameter, Measurement.PostOutput.Value, START
TestParameter, Measurement.PostOutput.Retention, OFF
TestParameter, Measurement.Bias.Source, -5, 0
TestParameter, Measurement.Bias.Compliance, 0.1, 1
TestParameter, Measurement.Monitor.Unit, SMU2:HP, SMU1:HP
TestParameter, Measurement.Monitor.Adc, HR ADC, HR ADC
TestParameter, Measurement.Monitor.Measurement, Compliance Side, Compliance Side
TestParameter, Measurement.Monitor.RangingMode, AUTO, AUTO
TestParameter, Measurement.Monitor.RangeBoundary, , 
TestParameter, Measurement.Monitor.RangeRating, BY FULL RANGE, BY FULL RANGE
TestParameter, Measurement.Monitor.RangeRatingCoeff, 50, 50
TestParameter, Measurement.Timing.Hold, 0
TestParameter, Measurement.Timing.Delay, 0.001
TestParameter, Measurement.Adc.HighSpeed.Mode, AUTO
TestParameter, Measurement.Adc.HighSpeed.Coeff, 1
TestParameter, Measurement.Adc.HighResolution.AutoZero, OFF
TestParameter, Measurement.Adc.HighResolution.Mode, PLC
TestParameter, Measurement.Adc.HighResolution.Coeff, 1
TestParameter, Measurement.WaitTime.Source.Coeff, 1
TestParameter, Measurement.WaitTime.Source.Offset, 0
TestParameter, Measurement.WaitTime.Monitor.Coeff, 1
TestParameter, Measurement.WaitTime.Monitor.Offset, 0
TestParameter, Function.User.Name, Ohmic
TestParameter, Function.User.Unit, ohm
TestParameter, Function.User.Definition, avg(V1/I1)
TestParameter, Output.Graph.Enabled, true
TestParameter, Output.Graph.XAxis.Data, V1
TestParameter, Output.Graph.XAxis.Scale, Linear
TestParameter, Output.Graph.XAxis.Left, -5
TestParameter, Output.Graph.XAxis.Right, 5
TestParameter, Output.Graph.YAxis.Data, I1
TestParameter, Output.Graph.YAxis.Scale, Linear
TestParameter, Output.Graph.YAxis.Bottom, -0.001
TestParameter, Output.Graph.YAxis.Top, 0.001
TestParameter, Output.Graph.YAxis.Group, 
TestParameter, Output.Scalar.Data, Ohmic
TestParameter, AutoAnalysis.Interpolation, false
TestParameter, AutoAnalysis.Line1.Enabled, false
TestParameter, AutoAnalysis.Line1.Type, 1
TestParameter, AutoAnalysis.Line1.Fix, True
TestParameter, AutoAnalysis.Line1.YAxis, 0
TestParameter, AutoAnalysis.Line1.Point1.Type, 0
TestParameter, AutoAnalysis.Line1.Point1.XY.X, 
TestParameter, AutoAnalysis.Line1.Point1.XY.Y, 
TestParameter, AutoAnalysis.Line1.Point1.Data.Var, 
TestParameter, AutoAnalysis.Line1.Point1.Data.Condition, 
TestParameter, AutoAnalysis.Line1.Point1.Data.Start, false
TestParameter, AutoAnalysis.Line1.Point1.Data.StartVar, 
TestParameter, AutoAnalysis.Line1.Point1.Data.StartCondition, 
TestParameter, AutoAnalysis.Line1.Point2.Type, 0
TestParameter, AutoAnalysis.Line1.Point2.XY.X, 
TestParameter, AutoAnalysis.Line1.Point2.XY.Y, 
TestParameter, AutoAnalysis.Line1.Point2.Data.Var, 
TestParameter, AutoAnalysis.Line1.Point2.Data.Condition, 
TestParameter, AutoAnalysis.Line1.Point2.Data.Start, false
TestParameter, AutoAnalysis.Line1.Point2.Data.StartVar, 
TestParameter, AutoAnalysis.Line1.Point2.Data.StartCondition, 
TestParameter, AutoAnalysis.Line1.GradientExpr, 0
TestParameter, AutoAnalysis.Line2.Enabled, false
TestParameter, AutoAnalysis.Line2.Type, 1
TestParameter, AutoAnalysis.Line2.Fix, True
TestParameter, AutoAnalysis.Line2.YAxis, 0
TestParameter, AutoAnalysis.Line2.Point1.Type, 0
TestParameter, AutoAnalysis.Line2.Point1.XY.X, 
TestParameter, AutoAnalysis.Line2.Point1.XY.Y, 
TestParameter, AutoAnalysis.Line2.Point1.Data.Var, 
TestParameter, AutoAnalysis.Line2.Point1.Data.Condition, 
TestParameter, AutoAnalysis.Line2.Point1.Data.Start, false
TestParameter, AutoAnalysis.Line2.Point1.Data.StartVar, 
TestParameter, AutoAnalysis.Line2.Point1.Data.StartCondition, 
TestParameter, AutoAnalysis.Line2.Point2.Type, 0
TestParameter, AutoAnalysis.Line2.Point2.XY.X, 
TestParameter, AutoAnalysis.Line2.Point2.XY.Y, 
TestParameter, AutoAnalysis.Line2.Point2.Data.Var, 
TestParameter, AutoAnalysis.Line2.Point2.Data.Condition, 
TestParameter, AutoAnalysis.Line2.Point2.Data.Start, false
TestParameter, AutoAnalysis.Line2.Point2.Data.StartVar, 
TestParameter, AutoAnalysis.Line2.Point2.Data.StartCondition, 
TestParameter, AutoAnalysis.Line2.GradientExpr, 0
TestParameter, AutoAnalysis.Marker.Enabled, false
TestParameter, AutoAnalysis.Marker.Data.Var, 
TestParameter, AutoAnalysis.Marker.Data.Condition, 
TestParameter, AutoAnalysis.Marker.Data.Start, false
TestParameter, AutoAnalysis.Marker.Data.StartVar, 
TestParameter, AutoAnalysis.Marker.Data.StartCondition, 
MetaData, TestRecord.EntryPoint, true
MetaData, TestRecord.RecordTime, 07/05/2020 18:06:10
MetaData, TestRecord.TestTarget, 
MetaData, TestRecord.IterationIndex, 67
MetaData, TestRecord.Preservation, true
MetaData, TestRecord.Flag, 
MetaData, TestRecord.Remarks, 
MetaData, TestRecord.LinkKey, 9a2d94fa-de7f-40e3-a90d-8e5cae5dd51c
Dimension1, 101, 101, 101
Dimension2, 1, 1, 1
DataName, V1, I1, Ohmic
DataValue, -5, -2.1357E-10, 66702695663.683205
DataValue, -4.9, -1.8086E-10, 
DataValue, -4.8, -1.5489E-10, 
DataValue, -4.7, -1.3791E-10, 
DataValue, -4.6000000000000005, -1.2185E-10, 
DataValue, -4.5, -1.096E-10, 
DataValue, -4.4, -9.932E-11, 
DataValue, -4.3, -9.161E-11, 
DataValue, -4.2, -8.156E-11, 
DataValue, -4.1, -7.599E-11, 
DataValue, -4, -6.762E-11, 
DataValue, -3.9, -6.142E-11, 
DataValue, -3.8000000000000003, -5.599E-11, 
DataValue, -3.7, -5.187E-11, 
DataValue, -3.6, -4.707E-11, 
DataValue, -3.5, -4.285E-11, 
DataValue, -3.4, -3.837E-11, 
DataValue, -3.3000000000000003, -3.495E-11, 
DataValue, -3.2, -3.037E-11, 
DataValue, -3.1, -2.959E-11, 
DataValue, -3, -2.448E-11, 
DataValue, -2.9, -2.262E-11, 
DataValue, -2.8000000000000003, -1.808E-11, 
DataValue, -2.7, -1.697E-11, 
DataValue, -2.6, -1.381E-11, 
DataValue, -2.5, -1.142E-11, 
DataValue, -2.4, -9.13E-12, 
DataValue, -2.3000000000000003, -6.97E-12, 
DataValue, -2.2, -5.12E-12, 
DataValue, -2.1, -5.39E-12, 
DataValue, -2, -7.1E-13, 
DataValue, -1.9000000000000001, -2.16E-12, 
DataValue, -1.8, 2.78E-12, 
DataValue, -1.7, 4.01E-12, 
DataValue, -1.6, 6.8E-12, 
DataValue, -1.5, 7.92E-12, 
DataValue, -1.4000000000000001, 1.014E-11, 
DataValue, -1.3, 1.061E-11, 
DataValue, -1.2, 1.417E-11, 
DataValue, -1.1, 1.395E-11, 
DataValue, -1, 1.713E-11, 
DataValue, -0.9, 1.894E-11, 
DataValue, -0.8, 2.036E-11, 
DataValue, -0.70000000000000007, 2.131E-11, 
DataValue, -0.6, 2.389E-11, 
DataValue, -0.5, 2.35E-11, 
DataValue, -0.4, 2.612E-11, 
DataValue, -0.3, 2.704E-11, 
DataValue, -0.2, 2.99E-11, 
DataValue, -0.1, 3.137E-11, 
DataValue, 0, 3.329E-11, 
DataValue, 0.1, 3.336E-11, 
DataValue, 0.2, 3.631E-11, 
DataValue, 0.3, 3.721E-11, 
DataValue, 0.4, 3.872E-11, 
DataValue, 0.5, 3.945E-11, 
DataValue, 0.6, 4.199E-11, 
DataValue, 0.70000000000000007, 4.264E-11, 
DataValue, 0.8, 4.521E-11, 
DataValue, 0.9, 4.448E-11, 
DataValue, 1, 4.8E-11, 
DataValue, 1.1, 5.002E-11, 
DataValue, 1.2, 4.984E-11, 
DataValue, 1.3, 5.201E-11, 
DataValue, 1.4000000000000001, 5.377E-11, 
DataValue, 1.5, 5.384E-11, 
DataValue, 1.6, 5.635E-11, 
DataValue, 1.7, 5.676E-11, 
DataValue, 1.8, 6.02E-11, 
DataValue, 1.9000000000000001, 6.093E-11, 
DataValue, 2, 6.3E-11, 
DataValue, 2.1, 6.342E-11, 
DataValue, 2.2, 6.606E-11, 
DataValue, 2.3000000000000003, 6.719E-11, 
DataValue, 2.4, 6.873E-11, 
DataValue, 2.5, 6.883E-11, 
DataValue, 2.6, 7.153E-11, 
DataValue, 2.7, 7.14E-11, 
DataValue, 2.8000000000000003, 7.487E-11, 
DataValue, 2.9, 7.781E-11, 
DataValue, 3, 7.765E-11, 
DataValue, 3.1, 7.824E-11, 
DataValue, 3.2, 8.024E-11, 
DataValue, 3.3000000000000003, 8.087E-11, 
DataValue, 3.4, 8.331E-11, 
DataValue, 3.5, 8.429E-11, 
DataValue, 3.6, 8.73E-11, 
DataValue, 3.7, 8.804E-11, 
DataValue, 3.8000000000000003, 8.896E-11, 
DataValue, 3.9, 8.825E-11, 
DataValue, 4, 9.198E-11, 
DataValue, 4.1, 9.553E-11, 
DataValue, 4.2, 9.642E-11, 
DataValue, 4.3, 9.579E-11, 
DataValue, 4.4, 9.842E-11, 
DataValue, 4.5, 9.916E-11, 
DataValue, 4.6000000000000005, 1.0048E-10, 
DataValue, 4.7, 1.0245E-10, 
DataValue, 4.8, 1.0408E-10, 
DataValue, 4.9, 1.0494E-10, 
DataValue, 5, 1.0793E-10, 