
SetupTitle, WW
PrimitiveTest, I/V Sweep
TestParameter, Context.MainFrame, B1500A
TestParameter, Channel.UnitType, SMU, SMU
TestParameter, Channel.Unit, SMU2:HP, SMU1:HP
TestParameter, Channel.IName, I1, I4
TestParameter, Channel.VName, V1, V4
TestParameter, Channel.Mode, V, COMMON
TestParameter, Channel.Func, VAR1, CONST
TestParameter, Channel.Index, 
TestParameter, Channel.Time, 
TestParameter, Measurement.Port.Unit, SMU2:HP, SMU1:HP
TestParameter, Measurement.Port.SeriesResistor, NONE, NONE
TestParameter, Measurement.Port.Filter, ON, ON
TestParameter, Measurement.Port.OutputVoltageComparison, 0, 0
TestParameter, Measurement.Primary.Locus, Single
TestParameter, Measurement.Primary.Scale, LINEAR
TestParameter, Measurement.Primary.Start, -5
TestParameter, Measurement.Primary.Stop, 5
TestParameter, Measurement.Primary.Step, 0.1
TestParameter, Measurement.Primary.Compliance, 0.1
TestParameter, Measurement.Primary.PowerCompliance, 0
TestParameter, Measurement.Aborting.Condition, CONTINUE AT ANY
TestParameter, Measurement.PostOutput.Value, START
TestParameter, Measurement.PostOutput.Retention, OFF
TestParameter, Measurement.Bias.Source, -5, 0
TestParameter, Measurement.Bias.Compliance, 0.1, 1
TestParameter, Measurement.Monitor.Unit, SMU2:HP, SMU1:HP
TestParameter, Measurement.Monitor.Adc, HR ADC, HR ADC
TestParameter, Measurement.Monitor.Measurement, Compliance Side, Compliance Side
TestParameter, Measurement.Monitor.RangingMode, AUTO, AUTO
TestParameter, Measurement.Monitor.RangeBoundary, , 
TestParameter, Measurement.Monitor.RangeRating, BY FULL RANGE, BY FULL RANGE
TestParameter, Measurement.Monitor.RangeRatingCoeff, 50, 50
TestParameter, Measurement.Timing.Hold, 0
TestParameter, Measurement.Timing.Delay, 0.001
TestParameter, Measurement.Adc.HighSpeed.Mode, AUTO
TestParameter, Measurement.Adc.HighSpeed.Coeff, 1
TestParameter, Measurement.Adc.HighResolution.AutoZero, OFF
TestParameter, Measurement.Adc.HighResolution.Mode, PLC
TestParameter, Measurement.Adc.HighResolution.Coeff, 1
TestParameter, Measurement.WaitTime.Source.Coeff, 1
TestParameter, Measurement.WaitTime.Source.Offset, 0
TestParameter, Measurement.WaitTime.Monitor.Coeff, 1
TestParameter, Measurement.WaitTime.Monitor.Offset, 0
TestParameter, Function.User.Name, Ohmic
TestParameter, Function.User.Unit, ohm
TestParameter, Function.User.Definition, avg(V1/I1)
TestParameter, Output.Graph.Enabled, true
TestParameter, Output.Graph.XAxis.Data, V1
TestParameter, Output.Graph.XAxis.Scale, Linear
TestParameter, Output.Graph.XAxis.Left, -5
TestParameter, Output.Graph.XAxis.Right, 5
TestParameter, Output.Graph.YAxis.Data, I1
TestParameter, Output.Graph.YAxis.Scale, Linear
TestParameter, Output.Graph.YAxis.Bottom, -0.001
TestParameter, Output.Graph.YAxis.Top, 0.001
TestParameter, Output.Graph.YAxis.Group, 
TestParameter, Output.Scalar.Data, Ohmic
TestParameter, AutoAnalysis.Interpolation, false
TestParameter, AutoAnalysis.Line1.Enabled, false
TestParameter, AutoAnalysis.Line1.Type, 1
TestParameter, AutoAnalysis.Line1.Fix, True
TestParameter, AutoAnalysis.Line1.YAxis, 0
TestParameter, AutoAnalysis.Line1.Point1.Type, 0
TestParameter, AutoAnalysis.Line1.Point1.XY.X, 
TestParameter, AutoAnalysis.Line1.Point1.XY.Y, 
TestParameter, AutoAnalysis.Line1.Point1.Data.Var, 
TestParameter, AutoAnalysis.Line1.Point1.Data.Condition, 
TestParameter, AutoAnalysis.Line1.Point1.Data.Start, false
TestParameter, AutoAnalysis.Line1.Point1.Data.StartVar, 
TestParameter, AutoAnalysis.Line1.Point1.Data.StartCondition, 
TestParameter, AutoAnalysis.Line1.Point2.Type, 0
TestParameter, AutoAnalysis.Line1.Point2.XY.X, 
TestParameter, AutoAnalysis.Line1.Point2.XY.Y, 
TestParameter, AutoAnalysis.Line1.Point2.Data.Var, 
TestParameter, AutoAnalysis.Line1.Point2.Data.Condition, 
TestParameter, AutoAnalysis.Line1.Point2.Data.Start, false
TestParameter, AutoAnalysis.Line1.Point2.Data.StartVar, 
TestParameter, AutoAnalysis.Line1.Point2.Data.StartCondition, 
TestParameter, AutoAnalysis.Line1.GradientExpr, 0
TestParameter, AutoAnalysis.Line2.Enabled, false
TestParameter, AutoAnalysis.Line2.Type, 1
TestParameter, AutoAnalysis.Line2.Fix, True
TestParameter, AutoAnalysis.Line2.YAxis, 0
TestParameter, AutoAnalysis.Line2.Point1.Type, 0
TestParameter, AutoAnalysis.Line2.Point1.XY.X, 
TestParameter, AutoAnalysis.Line2.Point1.XY.Y, 
TestParameter, AutoAnalysis.Line2.Point1.Data.Var, 
TestParameter, AutoAnalysis.Line2.Point1.Data.Condition, 
TestParameter, AutoAnalysis.Line2.Point1.Data.Start, false
TestParameter, AutoAnalysis.Line2.Point1.Data.StartVar, 
TestParameter, AutoAnalysis.Line2.Point1.Data.StartCondition, 
TestParameter, AutoAnalysis.Line2.Point2.Type, 0
TestParameter, AutoAnalysis.Line2.Point2.XY.X, 
TestParameter, AutoAnalysis.Line2.Point2.XY.Y, 
TestParameter, AutoAnalysis.Line2.Point2.Data.Var, 
TestParameter, AutoAnalysis.Line2.Point2.Data.Condition, 
TestParameter, AutoAnalysis.Line2.Point2.Data.Start, false
TestParameter, AutoAnalysis.Line2.Point2.Data.StartVar, 
TestParameter, AutoAnalysis.Line2.Point2.Data.StartCondition, 
TestParameter, AutoAnalysis.Line2.GradientExpr, 0
TestParameter, AutoAnalysis.Marker.Enabled, false
TestParameter, AutoAnalysis.Marker.Data.Var, 
TestParameter, AutoAnalysis.Marker.Data.Condition, 
TestParameter, AutoAnalysis.Marker.Data.Start, false
TestParameter, AutoAnalysis.Marker.Data.StartVar, 
TestParameter, AutoAnalysis.Marker.Data.StartCondition, 
MetaData, TestRecord.EntryPoint, true
MetaData, TestRecord.RecordTime, 07/05/2020 18:05:40
MetaData, TestRecord.TestTarget, 
MetaData, TestRecord.IterationIndex, 66
MetaData, TestRecord.Preservation, true
MetaData, TestRecord.Flag, 
MetaData, TestRecord.Remarks, 
MetaData, TestRecord.LinkKey, 19deb3c9-8779-44bc-bf3f-ffa6bffbdf0b
Dimension1, 101, 101, 101
Dimension2, 1, 1, 1
DataName, V1, I1, Ohmic
DataValue, -5, -2.1411E-10, 31216911603.106464
DataValue, -4.9, -1.7943E-10, 
DataValue, -4.8, -1.533E-10, 
DataValue, -4.7, -1.3712E-10, 
DataValue, -4.6000000000000005, -1.2119E-10, 
DataValue, -4.5, -1.0947E-10, 
DataValue, -4.4, -9.7E-11, 
DataValue, -4.3, -8.936E-11, 
DataValue, -4.2, -8.109E-11, 
DataValue, -4.1, -7.335E-11, 
DataValue, -4, -6.522E-11, 
DataValue, -3.9, -6.079E-11, 
DataValue, -3.8000000000000003, -5.348E-11, 
DataValue, -3.7, -5.069E-11, 
DataValue, -3.6, -4.474E-11, 
DataValue, -3.5, -4.166E-11, 
DataValue, -3.4, -3.679E-11, 
DataValue, -3.3000000000000003, -3.355E-11, 
DataValue, -3.2, -2.795E-11, 
DataValue, -3.1, -2.692E-11, 
DataValue, -3, -2.122E-11, 
DataValue, -2.9, -2.082E-11, 
DataValue, -2.8000000000000003, -1.661E-11, 
DataValue, -2.7, -1.566E-11, 
DataValue, -2.6, -1.167E-11, 
DataValue, -2.5, -1.062E-11, 
DataValue, -2.4, -7.11E-12, 
DataValue, -2.3000000000000003, -6.15E-12, 
DataValue, -2.2, -7E-13, 
DataValue, -2.1, -2.31E-12, 
DataValue, -2, 8.8E-13, 
DataValue, -1.9000000000000001, 1.33E-12, 
DataValue, -1.8, 2.99E-12, 
DataValue, -1.7, 5.5E-12, 
DataValue, -1.6, 9.04E-12, 
DataValue, -1.5, 8.49E-12, 
DataValue, -1.4000000000000001, 1.292E-11, 
DataValue, -1.3, 1.282E-11, 
DataValue, -1.2, 1.521E-11, 
DataValue, -1.1, 1.57E-11, 
DataValue, -1, 1.625E-11, 
DataValue, -0.9, 1.919E-11, 
DataValue, -0.8, 2.034E-11, 
DataValue, -0.70000000000000007, 2.103E-11, 
DataValue, -0.6, 2.434E-11, 
DataValue, -0.5, 2.411E-11, 
DataValue, -0.4, 2.784E-11, 
DataValue, -0.3, 2.736E-11, 
DataValue, -0.2, 3.067E-11, 
DataValue, -0.1, 2.979E-11, 
DataValue, 0, 3.242E-11, 
DataValue, 0.1, 3.354E-11, 
DataValue, 0.2, 3.715E-11, 
DataValue, 0.3, 3.564E-11, 
DataValue, 0.4, 3.844E-11, 
DataValue, 0.5, 3.74E-11, 
DataValue, 0.6, 4.034E-11, 
DataValue, 0.70000000000000007, 4.174E-11, 
DataValue, 0.8, 4.564E-11, 
DataValue, 0.9, 4.468E-11, 
DataValue, 1, 4.727E-11, 
DataValue, 1.1, 4.765E-11, 
DataValue, 1.2, 5.247E-11, 
DataValue, 1.3, 5.046E-11, 
DataValue, 1.4000000000000001, 5.423E-11, 
DataValue, 1.5, 5.438E-11, 
DataValue, 1.6, 5.616E-11, 
DataValue, 1.7, 5.645E-11, 
DataValue, 1.8, 6.008E-11, 
DataValue, 1.9000000000000001, 6.019E-11, 
DataValue, 2, 6.423E-11, 
DataValue, 2.1, 6.292E-11, 
DataValue, 2.2, 6.674E-11, 
DataValue, 2.3000000000000003, 6.606E-11, 
DataValue, 2.4, 6.828E-11, 
DataValue, 2.5, 6.866E-11, 
DataValue, 2.6, 7.064E-11, 
DataValue, 2.7, 7.062E-11, 
DataValue, 2.8000000000000003, 7.201E-11, 
DataValue, 2.9, 7.395E-11, 
DataValue, 3, 7.852E-11, 
DataValue, 3.1, 7.739E-11, 
DataValue, 3.2, 7.836E-11, 
DataValue, 3.3000000000000003, 8.034E-11, 
DataValue, 3.4, 8.481E-11, 
DataValue, 3.5, 8.313E-11, 
DataValue, 3.6, 8.605E-11, 
DataValue, 3.7, 8.608E-11, 
DataValue, 3.8000000000000003, 8.98E-11, 
DataValue, 3.9, 8.853E-11, 
DataValue, 4, 9.183E-11, 
DataValue, 4.1, 9.175E-11, 
DataValue, 4.2, 9.531E-11, 
DataValue, 4.3, 9.555E-11, 
DataValue, 4.4, 9.854E-11, 
DataValue, 4.5, 9.79E-11, 
DataValue, 4.6000000000000005, 1.0257E-10, 
DataValue, 4.7, 1.02E-10, 
DataValue, 4.8, 1.038E-10, 
DataValue, 4.9, 1.0485E-10, 
DataValue, 5, 1.0768E-10, 