
SetupTitle, WW
PrimitiveTest, I/V Sweep
TestParameter, Context.MainFrame, B1500A
TestParameter, Channel.UnitType, SMU, SMU
TestParameter, Channel.Unit, SMU2:HP, SMU1:HP
TestParameter, Channel.IName, I1, I4
TestParameter, Channel.VName, V1, V4
TestParameter, Channel.Mode, V, COMMON
TestParameter, Channel.Func, VAR1, CONST
TestParameter, Channel.Index, 
TestParameter, Channel.Time, 
TestParameter, Measurement.Port.Unit, SMU2:HP, SMU1:HP
TestParameter, Measurement.Port.SeriesResistor, NONE, NONE
TestParameter, Measurement.Port.Filter, ON, ON
TestParameter, Measurement.Port.OutputVoltageComparison, 0, 0
TestParameter, Measurement.Primary.Locus, Single
TestParameter, Measurement.Primary.Scale, LINEAR
TestParameter, Measurement.Primary.Start, -5
TestParameter, Measurement.Primary.Stop, 5
TestParameter, Measurement.Primary.Step, 0.1
TestParameter, Measurement.Primary.Compliance, 0.1
TestParameter, Measurement.Primary.PowerCompliance, 0
TestParameter, Measurement.Aborting.Condition, CONTINUE AT ANY
TestParameter, Measurement.PostOutput.Value, START
TestParameter, Measurement.PostOutput.Retention, OFF
TestParameter, Measurement.Bias.Source, -5, 0
TestParameter, Measurement.Bias.Compliance, 0.1, 1
TestParameter, Measurement.Monitor.Unit, SMU2:HP, SMU1:HP
TestParameter, Measurement.Monitor.Adc, HR ADC, HR ADC
TestParameter, Measurement.Monitor.Measurement, Compliance Side, Compliance Side
TestParameter, Measurement.Monitor.RangingMode, AUTO, AUTO
TestParameter, Measurement.Monitor.RangeBoundary, , 
TestParameter, Measurement.Monitor.RangeRating, BY FULL RANGE, BY FULL RANGE
TestParameter, Measurement.Monitor.RangeRatingCoeff, 50, 50
TestParameter, Measurement.Timing.Hold, 0
TestParameter, Measurement.Timing.Delay, 0.001
TestParameter, Measurement.Adc.HighSpeed.Mode, AUTO
TestParameter, Measurement.Adc.HighSpeed.Coeff, 1
TestParameter, Measurement.Adc.HighResolution.AutoZero, OFF
TestParameter, Measurement.Adc.HighResolution.Mode, PLC
TestParameter, Measurement.Adc.HighResolution.Coeff, 1
TestParameter, Measurement.WaitTime.Source.Coeff, 1
TestParameter, Measurement.WaitTime.Source.Offset, 0
TestParameter, Measurement.WaitTime.Monitor.Coeff, 1
TestParameter, Measurement.WaitTime.Monitor.Offset, 0
TestParameter, Function.User.Name, Ohmic
TestParameter, Function.User.Unit, ohm
TestParameter, Function.User.Definition, avg(V1/I1)
TestParameter, Output.Graph.Enabled, true
TestParameter, Output.Graph.XAxis.Data, V1
TestParameter, Output.Graph.XAxis.Scale, Linear
TestParameter, Output.Graph.XAxis.Left, -5
TestParameter, Output.Graph.XAxis.Right, 5
TestParameter, Output.Graph.YAxis.Data, I1
TestParameter, Output.Graph.YAxis.Scale, Linear
TestParameter, Output.Graph.YAxis.Bottom, -0.001
TestParameter, Output.Graph.YAxis.Top, 0.001
TestParameter, Output.Graph.YAxis.Group, 
TestParameter, Output.Scalar.Data, Ohmic
TestParameter, AutoAnalysis.Interpolation, false
TestParameter, AutoAnalysis.Line1.Enabled, false
TestParameter, AutoAnalysis.Line1.Type, 1
TestParameter, AutoAnalysis.Line1.Fix, True
TestParameter, AutoAnalysis.Line1.YAxis, 0
TestParameter, AutoAnalysis.Line1.Point1.Type, 0
TestParameter, AutoAnalysis.Line1.Point1.XY.X, 
TestParameter, AutoAnalysis.Line1.Point1.XY.Y, 
TestParameter, AutoAnalysis.Line1.Point1.Data.Var, 
TestParameter, AutoAnalysis.Line1.Point1.Data.Condition, 
TestParameter, AutoAnalysis.Line1.Point1.Data.Start, false
TestParameter, AutoAnalysis.Line1.Point1.Data.StartVar, 
TestParameter, AutoAnalysis.Line1.Point1.Data.StartCondition, 
TestParameter, AutoAnalysis.Line1.Point2.Type, 0
TestParameter, AutoAnalysis.Line1.Point2.XY.X, 
TestParameter, AutoAnalysis.Line1.Point2.XY.Y, 
TestParameter, AutoAnalysis.Line1.Point2.Data.Var, 
TestParameter, AutoAnalysis.Line1.Point2.Data.Condition, 
TestParameter, AutoAnalysis.Line1.Point2.Data.Start, false
TestParameter, AutoAnalysis.Line1.Point2.Data.StartVar, 
TestParameter, AutoAnalysis.Line1.Point2.Data.StartCondition, 
TestParameter, AutoAnalysis.Line1.GradientExpr, 0
TestParameter, AutoAnalysis.Line2.Enabled, false
TestParameter, AutoAnalysis.Line2.Type, 1
TestParameter, AutoAnalysis.Line2.Fix, True
TestParameter, AutoAnalysis.Line2.YAxis, 0
TestParameter, AutoAnalysis.Line2.Point1.Type, 0
TestParameter, AutoAnalysis.Line2.Point1.XY.X, 
TestParameter, AutoAnalysis.Line2.Point1.XY.Y, 
TestParameter, AutoAnalysis.Line2.Point1.Data.Var, 
TestParameter, AutoAnalysis.Line2.Point1.Data.Condition, 
TestParameter, AutoAnalysis.Line2.Point1.Data.Start, false
TestParameter, AutoAnalysis.Line2.Point1.Data.StartVar, 
TestParameter, AutoAnalysis.Line2.Point1.Data.StartCondition, 
TestParameter, AutoAnalysis.Line2.Point2.Type, 0
TestParameter, AutoAnalysis.Line2.Point2.XY.X, 
TestParameter, AutoAnalysis.Line2.Point2.XY.Y, 
TestParameter, AutoAnalysis.Line2.Point2.Data.Var, 
TestParameter, AutoAnalysis.Line2.Point2.Data.Condition, 
TestParameter, AutoAnalysis.Line2.Point2.Data.Start, false
TestParameter, AutoAnalysis.Line2.Point2.Data.StartVar, 
TestParameter, AutoAnalysis.Line2.Point2.Data.StartCondition, 
TestParameter, AutoAnalysis.Line2.GradientExpr, 0
TestParameter, AutoAnalysis.Marker.Enabled, false
TestParameter, AutoAnalysis.Marker.Data.Var, 
TestParameter, AutoAnalysis.Marker.Data.Condition, 
TestParameter, AutoAnalysis.Marker.Data.Start, false
TestParameter, AutoAnalysis.Marker.Data.StartVar, 
TestParameter, AutoAnalysis.Marker.Data.StartCondition, 
MetaData, TestRecord.EntryPoint, true
MetaData, TestRecord.RecordTime, 07/05/2020 18:04:40
MetaData, TestRecord.TestTarget, 
MetaData, TestRecord.IterationIndex, 64
MetaData, TestRecord.Preservation, true
MetaData, TestRecord.Flag, 
MetaData, TestRecord.Remarks, 
MetaData, TestRecord.LinkKey, 13eba937-a851-4f4d-b391-70e64b9a1665
Dimension1, 101, 101, 101
Dimension2, 1, 1, 1
DataName, V1, I1, Ohmic
DataValue, -5, -2.0567E-10, 100816972725.18619
DataValue, -4.9, -1.7514E-10, 
DataValue, -4.8, -1.5378E-10, 
DataValue, -4.7, -1.3578E-10, 
DataValue, -4.6000000000000005, -1.2083E-10, 
DataValue, -4.5, -1.0906E-10, 
DataValue, -4.4, -9.715E-11, 
DataValue, -4.3, -8.782E-11, 
DataValue, -4.2, -7.916E-11, 
DataValue, -4.1, -7.359E-11, 
DataValue, -4, -6.442E-11, 
DataValue, -3.9, -5.817E-11, 
DataValue, -3.8000000000000003, -5.198E-11, 
DataValue, -3.7, -4.598E-11, 
DataValue, -3.6, -4.143E-11, 
DataValue, -3.5, -3.775E-11, 
DataValue, -3.4, -3.282E-11, 
DataValue, -3.3000000000000003, -2.977E-11, 
DataValue, -3.2, -2.613E-11, 
DataValue, -3.1, -2.277E-11, 
DataValue, -3, -1.941E-11, 
DataValue, -2.9, -1.525E-11, 
DataValue, -2.8000000000000003, -1.389E-11, 
DataValue, -2.7, -9.4E-12, 
DataValue, -2.6, -8.64E-12, 
DataValue, -2.5, -6.39E-12, 
DataValue, -2.4, -4.99E-12, 
DataValue, -2.3000000000000003, -2.78E-12, 
DataValue, -2.2, -3E-13, 
DataValue, -2.1, 2.49E-12, 
DataValue, -2, 3.38E-12, 
DataValue, -1.9000000000000001, 6.45E-12, 
DataValue, -1.8, 7.71E-12, 
DataValue, -1.7, 8.71E-12, 
DataValue, -1.6, 1.093E-11, 
DataValue, -1.5, 1.213E-11, 
DataValue, -1.4000000000000001, 1.385E-11, 
DataValue, -1.3, 1.538E-11, 
DataValue, -1.2, 1.658E-11, 
DataValue, -1.1, 1.773E-11, 
DataValue, -1, 1.879E-11, 
DataValue, -0.9, 2.04E-11, 
DataValue, -0.8, 2.305E-11, 
DataValue, -0.70000000000000007, 2.289E-11, 
DataValue, -0.6, 2.582E-11, 
DataValue, -0.5, 2.824E-11, 
DataValue, -0.4, 2.752E-11, 
DataValue, -0.3, 3.127E-11, 
DataValue, -0.2, 2.904E-11, 
DataValue, -0.1, 3.237E-11, 
DataValue, 0, 3.279E-11, 
DataValue, 0.1, 3.351E-11, 
DataValue, 0.2, 3.581E-11, 
DataValue, 0.3, 3.64E-11, 
DataValue, 0.4, 3.834E-11, 
DataValue, 0.5, 4.07E-11, 
DataValue, 0.6, 4.072E-11, 
DataValue, 0.70000000000000007, 4.153E-11, 
DataValue, 0.8, 4.277E-11, 
DataValue, 0.9, 4.555E-11, 
DataValue, 1, 4.639E-11, 
DataValue, 1.1, 4.774E-11, 
DataValue, 1.2, 4.836E-11, 
DataValue, 1.3, 5.253E-11, 
DataValue, 1.4000000000000001, 5.087E-11, 
DataValue, 1.5, 5.525E-11, 
DataValue, 1.6, 5.487E-11, 
DataValue, 1.7, 5.588E-11, 
DataValue, 1.8, 5.758E-11, 
DataValue, 1.9000000000000001, 5.846E-11, 
DataValue, 2, 6.089E-11, 
DataValue, 2.1, 6.218E-11, 
DataValue, 2.2, 6.425E-11, 
DataValue, 2.3000000000000003, 6.539E-11, 
DataValue, 2.4, 6.674E-11, 
DataValue, 2.5, 6.762E-11, 
DataValue, 2.6, 6.997E-11, 
DataValue, 2.7, 7.114E-11, 
DataValue, 2.8000000000000003, 7.206E-11, 
DataValue, 2.9, 7.343E-11, 
DataValue, 3, 7.498E-11, 
DataValue, 3.1, 7.818E-11, 
DataValue, 3.2, 7.793E-11, 
DataValue, 3.3000000000000003, 8.068E-11, 
DataValue, 3.4, 8.178E-11, 
DataValue, 3.5, 8.33E-11, 
DataValue, 3.6, 8.36E-11, 
DataValue, 3.7, 8.834E-11, 
DataValue, 3.8000000000000003, 8.71E-11, 
DataValue, 3.9, 8.845E-11, 
DataValue, 4, 9.092E-11, 
DataValue, 4.1, 9.123E-11, 
DataValue, 4.2, 9.364E-11, 
DataValue, 4.3, 9.6E-11, 
DataValue, 4.4, 9.687E-11, 
DataValue, 4.5, 9.793E-11, 
DataValue, 4.6000000000000005, 9.879E-11, 
DataValue, 4.7, 1.0137E-10, 
DataValue, 4.8, 1.0279E-10, 
DataValue, 4.9, 1.0546E-10, 
DataValue, 5, 1.0578E-10, 