
SetupTitle, WW
PrimitiveTest, I/V Sweep
TestParameter, Context.MainFrame, B1500A
TestParameter, Channel.UnitType, SMU, SMU
TestParameter, Channel.Unit, SMU2:HP, SMU1:HP
TestParameter, Channel.IName, I1, I4
TestParameter, Channel.VName, V1, V4
TestParameter, Channel.Mode, V, COMMON
TestParameter, Channel.Func, VAR1, CONST
TestParameter, Channel.Index, 
TestParameter, Channel.Time, 
TestParameter, Measurement.Port.Unit, SMU2:HP, SMU1:HP
TestParameter, Measurement.Port.SeriesResistor, NONE, NONE
TestParameter, Measurement.Port.Filter, ON, ON
TestParameter, Measurement.Port.OutputVoltageComparison, 0, 0
TestParameter, Measurement.Primary.Locus, Single
TestParameter, Measurement.Primary.Scale, LINEAR
TestParameter, Measurement.Primary.Start, -5
TestParameter, Measurement.Primary.Stop, 5
TestParameter, Measurement.Primary.Step, 0.1
TestParameter, Measurement.Primary.Compliance, 0.1
TestParameter, Measurement.Primary.PowerCompliance, 0
TestParameter, Measurement.Aborting.Condition, CONTINUE AT ANY
TestParameter, Measurement.PostOutput.Value, START
TestParameter, Measurement.PostOutput.Retention, OFF
TestParameter, Measurement.Bias.Source, -5, 0
TestParameter, Measurement.Bias.Compliance, 0.1, 1
TestParameter, Measurement.Monitor.Unit, SMU2:HP, SMU1:HP
TestParameter, Measurement.Monitor.Adc, HR ADC, HR ADC
TestParameter, Measurement.Monitor.Measurement, Compliance Side, Compliance Side
TestParameter, Measurement.Monitor.RangingMode, AUTO, AUTO
TestParameter, Measurement.Monitor.RangeBoundary, , 
TestParameter, Measurement.Monitor.RangeRating, BY FULL RANGE, BY FULL RANGE
TestParameter, Measurement.Monitor.RangeRatingCoeff, 50, 50
TestParameter, Measurement.Timing.Hold, 0
TestParameter, Measurement.Timing.Delay, 0.001
TestParameter, Measurement.Adc.HighSpeed.Mode, AUTO
TestParameter, Measurement.Adc.HighSpeed.Coeff, 1
TestParameter, Measurement.Adc.HighResolution.AutoZero, OFF
TestParameter, Measurement.Adc.HighResolution.Mode, PLC
TestParameter, Measurement.Adc.HighResolution.Coeff, 1
TestParameter, Measurement.WaitTime.Source.Coeff, 1
TestParameter, Measurement.WaitTime.Source.Offset, 0
TestParameter, Measurement.WaitTime.Monitor.Coeff, 1
TestParameter, Measurement.WaitTime.Monitor.Offset, 0
TestParameter, Function.User.Name, Ohmic
TestParameter, Function.User.Unit, ohm
TestParameter, Function.User.Definition, avg(V1/I1)
TestParameter, Output.Graph.Enabled, true
TestParameter, Output.Graph.XAxis.Data, V1
TestParameter, Output.Graph.XAxis.Scale, Linear
TestParameter, Output.Graph.XAxis.Left, -5
TestParameter, Output.Graph.XAxis.Right, 5
TestParameter, Output.Graph.YAxis.Data, I1
TestParameter, Output.Graph.YAxis.Scale, Linear
TestParameter, Output.Graph.YAxis.Bottom, -0.001
TestParameter, Output.Graph.YAxis.Top, 0.001
TestParameter, Output.Graph.YAxis.Group, 
TestParameter, Output.Scalar.Data, Ohmic
TestParameter, AutoAnalysis.Interpolation, false
TestParameter, AutoAnalysis.Line1.Enabled, false
TestParameter, AutoAnalysis.Line1.Type, 1
TestParameter, AutoAnalysis.Line1.Fix, True
TestParameter, AutoAnalysis.Line1.YAxis, 0
TestParameter, AutoAnalysis.Line1.Point1.Type, 0
TestParameter, AutoAnalysis.Line1.Point1.XY.X, 
TestParameter, AutoAnalysis.Line1.Point1.XY.Y, 
TestParameter, AutoAnalysis.Line1.Point1.Data.Var, 
TestParameter, AutoAnalysis.Line1.Point1.Data.Condition, 
TestParameter, AutoAnalysis.Line1.Point1.Data.Start, false
TestParameter, AutoAnalysis.Line1.Point1.Data.StartVar, 
TestParameter, AutoAnalysis.Line1.Point1.Data.StartCondition, 
TestParameter, AutoAnalysis.Line1.Point2.Type, 0
TestParameter, AutoAnalysis.Line1.Point2.XY.X, 
TestParameter, AutoAnalysis.Line1.Point2.XY.Y, 
TestParameter, AutoAnalysis.Line1.Point2.Data.Var, 
TestParameter, AutoAnalysis.Line1.Point2.Data.Condition, 
TestParameter, AutoAnalysis.Line1.Point2.Data.Start, false
TestParameter, AutoAnalysis.Line1.Point2.Data.StartVar, 
TestParameter, AutoAnalysis.Line1.Point2.Data.StartCondition, 
TestParameter, AutoAnalysis.Line1.GradientExpr, 0
TestParameter, AutoAnalysis.Line2.Enabled, false
TestParameter, AutoAnalysis.Line2.Type, 1
TestParameter, AutoAnalysis.Line2.Fix, True
TestParameter, AutoAnalysis.Line2.YAxis, 0
TestParameter, AutoAnalysis.Line2.Point1.Type, 0
TestParameter, AutoAnalysis.Line2.Point1.XY.X, 
TestParameter, AutoAnalysis.Line2.Point1.XY.Y, 
TestParameter, AutoAnalysis.Line2.Point1.Data.Var, 
TestParameter, AutoAnalysis.Line2.Point1.Data.Condition, 
TestParameter, AutoAnalysis.Line2.Point1.Data.Start, false
TestParameter, AutoAnalysis.Line2.Point1.Data.StartVar, 
TestParameter, AutoAnalysis.Line2.Point1.Data.StartCondition, 
TestParameter, AutoAnalysis.Line2.Point2.Type, 0
TestParameter, AutoAnalysis.Line2.Point2.XY.X, 
TestParameter, AutoAnalysis.Line2.Point2.XY.Y, 
TestParameter, AutoAnalysis.Line2.Point2.Data.Var, 
TestParameter, AutoAnalysis.Line2.Point2.Data.Condition, 
TestParameter, AutoAnalysis.Line2.Point2.Data.Start, false
TestParameter, AutoAnalysis.Line2.Point2.Data.StartVar, 
TestParameter, AutoAnalysis.Line2.Point2.Data.StartCondition, 
TestParameter, AutoAnalysis.Line2.GradientExpr, 0
TestParameter, AutoAnalysis.Marker.Enabled, false
TestParameter, AutoAnalysis.Marker.Data.Var, 
TestParameter, AutoAnalysis.Marker.Data.Condition, 
TestParameter, AutoAnalysis.Marker.Data.Start, false
TestParameter, AutoAnalysis.Marker.Data.StartVar, 
TestParameter, AutoAnalysis.Marker.Data.StartCondition, 
MetaData, TestRecord.EntryPoint, true
MetaData, TestRecord.RecordTime, 07/05/2020 18:04:01
MetaData, TestRecord.TestTarget, 
MetaData, TestRecord.IterationIndex, 63
MetaData, TestRecord.Preservation, true
MetaData, TestRecord.Flag, 
MetaData, TestRecord.Remarks, 
MetaData, TestRecord.LinkKey, 9963c732-053b-4997-a911-3479a5a0f639
Dimension1, 101, 101, 101
Dimension2, 1, 1, 1
DataName, V1, I1, Ohmic
DataValue, -5, -1.8836E-10, 41237755839.02494
DataValue, -4.9, -1.6829E-10, 
DataValue, -4.8, -1.4951E-10, 
DataValue, -4.7, -1.36E-10, 
DataValue, -4.6000000000000005, -1.2081E-10, 
DataValue, -4.5, -1.0869E-10, 
DataValue, -4.4, -9.796E-11, 
DataValue, -4.3, -9.002E-11, 
DataValue, -4.2, -7.909E-11, 
DataValue, -4.1, -7.352E-11, 
DataValue, -4, -6.355E-11, 
DataValue, -3.9, -5.784E-11, 
DataValue, -3.8000000000000003, -5.124E-11, 
DataValue, -3.7, -4.725E-11, 
DataValue, -3.6, -4.043E-11, 
DataValue, -3.5, -3.757E-11, 
DataValue, -3.4, -3.14E-11, 
DataValue, -3.3000000000000003, -2.92E-11, 
DataValue, -3.2, -2.367E-11, 
DataValue, -3.1, -2.421E-11, 
DataValue, -3, -1.809E-11, 
DataValue, -2.9, -1.481E-11, 
DataValue, -2.8000000000000003, -1.2E-11, 
DataValue, -2.7, -1.118E-11, 
DataValue, -2.6, -7.44E-12, 
DataValue, -2.5, -5.4E-12, 
DataValue, -2.4, -1.56E-12, 
DataValue, -2.3000000000000003, -1.65E-12, 
DataValue, -2.2, 2.19E-12, 
DataValue, -2.1, 3.81E-12, 
DataValue, -2, 5.18E-12, 
DataValue, -1.9000000000000001, 6.09E-12, 
DataValue, -1.8, 9.44E-12, 
DataValue, -1.7, 7.75E-12, 
DataValue, -1.6, 1.263E-11, 
DataValue, -1.5, 1.161E-11, 
DataValue, -1.4000000000000001, 1.631E-11, 
DataValue, -1.3, 1.56E-11, 
DataValue, -1.2, 1.894E-11, 
DataValue, -1.1, 1.83E-11, 
DataValue, -1, 2.097E-11, 
DataValue, -0.9, 2.233E-11, 
DataValue, -0.8, 2.391E-11, 
DataValue, -0.70000000000000007, 2.315E-11, 
DataValue, -0.6, 2.692E-11, 
DataValue, -0.5, 2.649E-11, 
DataValue, -0.4, 2.874E-11, 
DataValue, -0.3, 2.863E-11, 
DataValue, -0.2, 3.042E-11, 
DataValue, -0.1, 3.188E-11, 
DataValue, 0, 3.415E-11, 
DataValue, 0.1, 3.028E-11, 
DataValue, 0.2, 3.621E-11, 
DataValue, 0.3, 3.676E-11, 
DataValue, 0.4, 3.884E-11, 
DataValue, 0.5, 3.811E-11, 
DataValue, 0.6, 4.194E-11, 
DataValue, 0.70000000000000007, 4.295E-11, 
DataValue, 0.8, 4.44E-11, 
DataValue, 0.9, 4.435E-11, 
DataValue, 1, 4.647E-11, 
DataValue, 1.1, 4.707E-11, 
DataValue, 1.2, 5.008E-11, 
DataValue, 1.3, 4.91E-11, 
DataValue, 1.4000000000000001, 5.383E-11, 
DataValue, 1.5, 5.117E-11, 
DataValue, 1.6, 5.55E-11, 
DataValue, 1.7, 5.3939999999999997E-11, 
DataValue, 1.8, 5.903E-11, 
DataValue, 1.9000000000000001, 5.807E-11, 
DataValue, 2, 6.086E-11, 
DataValue, 2.1, 6.059E-11, 
DataValue, 2.2, 6.454E-11, 
DataValue, 2.3000000000000003, 6.468E-11, 
DataValue, 2.4, 6.768E-11, 
DataValue, 2.5, 6.867E-11, 
DataValue, 2.6, 7.081E-11, 
DataValue, 2.7, 6.862E-11, 
DataValue, 2.8000000000000003, 7.374E-11, 
DataValue, 2.9, 7.379E-11, 
DataValue, 3, 7.644E-11, 
DataValue, 3.1, 7.603E-11, 
DataValue, 3.2, 7.905E-11, 
DataValue, 3.3000000000000003, 7.936E-11, 
DataValue, 3.4, 8.188E-11, 
DataValue, 3.5, 8.354E-11, 
DataValue, 3.6, 8.481E-11, 
DataValue, 3.7, 8.413E-11, 
DataValue, 3.8000000000000003, 8.794E-11, 
DataValue, 3.9, 8.776E-11, 
DataValue, 4, 9.139E-11, 
DataValue, 4.1, 8.992E-11, 
DataValue, 4.2, 9.452E-11, 
DataValue, 4.3, 9.284E-11, 
DataValue, 4.4, 9.727E-11, 
DataValue, 4.5, 9.671E-11, 
DataValue, 4.6000000000000005, 1.0037E-10, 
DataValue, 4.7, 1.0164E-10, 
DataValue, 4.8, 1.0358E-10, 
DataValue, 4.9, 1.0329E-10, 
DataValue, 5, 1.0661E-10, 