
SetupTitle, WW
PrimitiveTest, I/V Sweep
TestParameter, Context.MainFrame, B1500A
TestParameter, Channel.UnitType, SMU, SMU
TestParameter, Channel.Unit, SMU2:HP, SMU1:HP
TestParameter, Channel.IName, I1, I4
TestParameter, Channel.VName, V1, V4
TestParameter, Channel.Mode, V, COMMON
TestParameter, Channel.Func, VAR1, CONST
TestParameter, Channel.Index, 
TestParameter, Channel.Time, 
TestParameter, Measurement.Port.Unit, SMU2:HP, SMU1:HP
TestParameter, Measurement.Port.SeriesResistor, NONE, NONE
TestParameter, Measurement.Port.Filter, ON, ON
TestParameter, Measurement.Port.OutputVoltageComparison, 0, 0
TestParameter, Measurement.Primary.Locus, Single
TestParameter, Measurement.Primary.Scale, LINEAR
TestParameter, Measurement.Primary.Start, -5
TestParameter, Measurement.Primary.Stop, 5
TestParameter, Measurement.Primary.Step, 0.1
TestParameter, Measurement.Primary.Compliance, 0.1
TestParameter, Measurement.Primary.PowerCompliance, 0
TestParameter, Measurement.Aborting.Condition, CONTINUE AT ANY
TestParameter, Measurement.PostOutput.Value, START
TestParameter, Measurement.PostOutput.Retention, OFF
TestParameter, Measurement.Bias.Source, -5, 0
TestParameter, Measurement.Bias.Compliance, 0.1, 1
TestParameter, Measurement.Monitor.Unit, SMU2:HP, SMU1:HP
TestParameter, Measurement.Monitor.Adc, HR ADC, HR ADC
TestParameter, Measurement.Monitor.Measurement, Compliance Side, Compliance Side
TestParameter, Measurement.Monitor.RangingMode, AUTO, AUTO
TestParameter, Measurement.Monitor.RangeBoundary, , 
TestParameter, Measurement.Monitor.RangeRating, BY FULL RANGE, BY FULL RANGE
TestParameter, Measurement.Monitor.RangeRatingCoeff, 50, 50
TestParameter, Measurement.Timing.Hold, 0
TestParameter, Measurement.Timing.Delay, 0.001
TestParameter, Measurement.Adc.HighSpeed.Mode, AUTO
TestParameter, Measurement.Adc.HighSpeed.Coeff, 1
TestParameter, Measurement.Adc.HighResolution.AutoZero, OFF
TestParameter, Measurement.Adc.HighResolution.Mode, PLC
TestParameter, Measurement.Adc.HighResolution.Coeff, 1
TestParameter, Measurement.WaitTime.Source.Coeff, 1
TestParameter, Measurement.WaitTime.Source.Offset, 0
TestParameter, Measurement.WaitTime.Monitor.Coeff, 1
TestParameter, Measurement.WaitTime.Monitor.Offset, 0
TestParameter, Function.User.Name, Ohmic
TestParameter, Function.User.Unit, ohm
TestParameter, Function.User.Definition, avg(V1/I1)
TestParameter, Output.Graph.Enabled, true
TestParameter, Output.Graph.XAxis.Data, V1
TestParameter, Output.Graph.XAxis.Scale, Linear
TestParameter, Output.Graph.XAxis.Left, -5
TestParameter, Output.Graph.XAxis.Right, 5
TestParameter, Output.Graph.YAxis.Data, I1
TestParameter, Output.Graph.YAxis.Scale, Linear
TestParameter, Output.Graph.YAxis.Bottom, -0.001
TestParameter, Output.Graph.YAxis.Top, 0.001
TestParameter, Output.Graph.YAxis.Group, 
TestParameter, Output.Scalar.Data, Ohmic
TestParameter, AutoAnalysis.Interpolation, false
TestParameter, AutoAnalysis.Line1.Enabled, false
TestParameter, AutoAnalysis.Line1.Type, 1
TestParameter, AutoAnalysis.Line1.Fix, True
TestParameter, AutoAnalysis.Line1.YAxis, 0
TestParameter, AutoAnalysis.Line1.Point1.Type, 0
TestParameter, AutoAnalysis.Line1.Point1.XY.X, 
TestParameter, AutoAnalysis.Line1.Point1.XY.Y, 
TestParameter, AutoAnalysis.Line1.Point1.Data.Var, 
TestParameter, AutoAnalysis.Line1.Point1.Data.Condition, 
TestParameter, AutoAnalysis.Line1.Point1.Data.Start, false
TestParameter, AutoAnalysis.Line1.Point1.Data.StartVar, 
TestParameter, AutoAnalysis.Line1.Point1.Data.StartCondition, 
TestParameter, AutoAnalysis.Line1.Point2.Type, 0
TestParameter, AutoAnalysis.Line1.Point2.XY.X, 
TestParameter, AutoAnalysis.Line1.Point2.XY.Y, 
TestParameter, AutoAnalysis.Line1.Point2.Data.Var, 
TestParameter, AutoAnalysis.Line1.Point2.Data.Condition, 
TestParameter, AutoAnalysis.Line1.Point2.Data.Start, false
TestParameter, AutoAnalysis.Line1.Point2.Data.StartVar, 
TestParameter, AutoAnalysis.Line1.Point2.Data.StartCondition, 
TestParameter, AutoAnalysis.Line1.GradientExpr, 0
TestParameter, AutoAnalysis.Line2.Enabled, false
TestParameter, AutoAnalysis.Line2.Type, 1
TestParameter, AutoAnalysis.Line2.Fix, True
TestParameter, AutoAnalysis.Line2.YAxis, 0
TestParameter, AutoAnalysis.Line2.Point1.Type, 0
TestParameter, AutoAnalysis.Line2.Point1.XY.X, 
TestParameter, AutoAnalysis.Line2.Point1.XY.Y, 
TestParameter, AutoAnalysis.Line2.Point1.Data.Var, 
TestParameter, AutoAnalysis.Line2.Point1.Data.Condition, 
TestParameter, AutoAnalysis.Line2.Point1.Data.Start, false
TestParameter, AutoAnalysis.Line2.Point1.Data.StartVar, 
TestParameter, AutoAnalysis.Line2.Point1.Data.StartCondition, 
TestParameter, AutoAnalysis.Line2.Point2.Type, 0
TestParameter, AutoAnalysis.Line2.Point2.XY.X, 
TestParameter, AutoAnalysis.Line2.Point2.XY.Y, 
TestParameter, AutoAnalysis.Line2.Point2.Data.Var, 
TestParameter, AutoAnalysis.Line2.Point2.Data.Condition, 
TestParameter, AutoAnalysis.Line2.Point2.Data.Start, false
TestParameter, AutoAnalysis.Line2.Point2.Data.StartVar, 
TestParameter, AutoAnalysis.Line2.Point2.Data.StartCondition, 
TestParameter, AutoAnalysis.Line2.GradientExpr, 0
TestParameter, AutoAnalysis.Marker.Enabled, false
TestParameter, AutoAnalysis.Marker.Data.Var, 
TestParameter, AutoAnalysis.Marker.Data.Condition, 
TestParameter, AutoAnalysis.Marker.Data.Start, false
TestParameter, AutoAnalysis.Marker.Data.StartVar, 
TestParameter, AutoAnalysis.Marker.Data.StartCondition, 
MetaData, TestRecord.EntryPoint, true
MetaData, TestRecord.RecordTime, 07/05/2020 18:03:18
MetaData, TestRecord.TestTarget, 
MetaData, TestRecord.IterationIndex, 62
MetaData, TestRecord.Preservation, true
MetaData, TestRecord.Flag, 
MetaData, TestRecord.Remarks, 
MetaData, TestRecord.LinkKey, 4786ca08-c9a1-40dc-b462-52c6e5875b86
Dimension1, 101, 101, 101
Dimension2, 1, 1, 1
DataName, V1, I1, Ohmic
DataValue, -5, -1.7168E-10, -213729778932.24686
DataValue, -4.9, -1.5055E-10, 
DataValue, -4.8, -1.3931E-10, 
DataValue, -4.7, -1.2694E-10, 
DataValue, -4.6000000000000005, -1.1857E-10, 
DataValue, -4.5, -1.0625E-10, 
DataValue, -4.4, -9.82E-11, 
DataValue, -4.3, -8.815E-11, 
DataValue, -4.2, -8.113E-11, 
DataValue, -4.1, -7.279E-11, 
DataValue, -4, -6.674E-11, 
DataValue, -3.9, -5.968E-11, 
DataValue, -3.8000000000000003, -5.366E-11, 
DataValue, -3.7, -4.683E-11, 
DataValue, -3.6, -4.249E-11, 
DataValue, -3.5, -3.761E-11, 
DataValue, -3.4, -3.455E-11, 
DataValue, -3.3000000000000003, -2.94E-11, 
DataValue, -3.2, -2.718E-11, 
DataValue, -3.1, -2.075E-11, 
DataValue, -3, -2.083E-11, 
DataValue, -2.9, -1.501E-11, 
DataValue, -2.8000000000000003, -1.459E-11, 
DataValue, -2.7, -9.2E-12, 
DataValue, -2.6, -8.13E-12, 
DataValue, -2.5, -4.37E-12, 
DataValue, -2.4, -4.1E-12, 
DataValue, -2.3000000000000003, 7E-14, 
DataValue, -2.2, -2.6E-13, 
DataValue, -2.1, 4.47E-12, 
DataValue, -2, 2.91E-12, 
DataValue, -1.9000000000000001, 8.03E-12, 
DataValue, -1.8, 7.76E-12, 
DataValue, -1.7, 1.052E-11, 
DataValue, -1.6, 1.106E-11, 
DataValue, -1.5, 1.427E-11, 
DataValue, -1.4000000000000001, 1.386E-11, 
DataValue, -1.3, 1.771E-11, 
DataValue, -1.2, 1.922E-11, 
DataValue, -1.1, 2.034E-11, 
DataValue, -1, 2.08E-11, 
DataValue, -0.9, 2.282E-11, 
DataValue, -0.8, 2.201E-11, 
DataValue, -0.70000000000000007, 2.586E-11, 
DataValue, -0.6, 2.643E-11, 
DataValue, -0.5, 2.865E-11, 
DataValue, -0.4, 2.799E-11, 
DataValue, -0.3, 3.059E-11, 
DataValue, -0.2, 2.931E-11, 
DataValue, -0.1, 3.299E-11, 
DataValue, 0, 3.075E-11, 
DataValue, 0.1, 3.614E-11, 
DataValue, 0.2, 3.724E-11, 
DataValue, 0.3, 3.783E-11, 
DataValue, 0.4, 3.69E-11, 
DataValue, 0.5, 3.987E-11, 
DataValue, 0.6, 4.004E-11, 
DataValue, 0.70000000000000007, 4.304E-11, 
DataValue, 0.8, 4.249E-11, 
DataValue, 0.9, 4.43E-11, 
DataValue, 1, 4.452E-11, 
DataValue, 1.1, 4.788E-11, 
DataValue, 1.2, 4.394E-11, 
DataValue, 1.3, 5.019E-11, 
DataValue, 1.4000000000000001, 4.942E-11, 
DataValue, 1.5, 5.172E-11, 
DataValue, 1.6, 5.271E-11, 
DataValue, 1.7, 5.6269999999999997E-11, 
DataValue, 1.8, 5.525E-11, 
DataValue, 1.9000000000000001, 5.785E-11, 
DataValue, 2, 5.811E-11, 
DataValue, 2.1, 6.151E-11, 
DataValue, 2.2, 6.125E-11, 
DataValue, 2.3000000000000003, 6.423E-11, 
DataValue, 2.4, 6.484E-11, 
DataValue, 2.5, 6.64E-11, 
DataValue, 2.6, 6.621E-11, 
DataValue, 2.7, 6.891E-11, 
DataValue, 2.8000000000000003, 7.152E-11, 
DataValue, 2.9, 7.239E-11, 
DataValue, 3, 7.224E-11, 
DataValue, 3.1, 7.481E-11, 
DataValue, 3.2, 7.661E-11, 
DataValue, 3.3000000000000003, 7.91E-11, 
DataValue, 3.4, 7.794E-11, 
DataValue, 3.5, 8.202E-11, 
DataValue, 3.6, 8.035E-11, 
DataValue, 3.7, 8.51E-11, 
DataValue, 3.8000000000000003, 8.305E-11, 
DataValue, 3.9, 8.803E-11, 
DataValue, 4, 8.724E-11, 
DataValue, 4.1, 9.062E-11, 
DataValue, 4.2, 8.913E-11, 
DataValue, 4.3, 9.295E-11, 
DataValue, 4.4, 9.367E-11, 
DataValue, 4.5, 9.613E-11, 
DataValue, 4.6000000000000005, 9.553E-11, 
DataValue, 4.7, 1.0008E-10, 
DataValue, 4.8, 9.801E-11, 
DataValue, 4.9, 1.0185E-10, 
DataValue, 5, 1.0123E-10, 