
SetupTitle, WW
PrimitiveTest, I/V Sweep
TestParameter, Context.MainFrame, B1500A
TestParameter, Channel.UnitType, SMU, SMU
TestParameter, Channel.Unit, SMU2:HP, SMU1:HP
TestParameter, Channel.IName, I1, I4
TestParameter, Channel.VName, V1, V4
TestParameter, Channel.Mode, V, COMMON
TestParameter, Channel.Func, VAR1, CONST
TestParameter, Channel.Index, 
TestParameter, Channel.Time, 
TestParameter, Measurement.Port.Unit, SMU2:HP, SMU1:HP
TestParameter, Measurement.Port.SeriesResistor, NONE, NONE
TestParameter, Measurement.Port.Filter, ON, ON
TestParameter, Measurement.Port.OutputVoltageComparison, 0, 0
TestParameter, Measurement.Primary.Locus, Single
TestParameter, Measurement.Primary.Scale, LINEAR
TestParameter, Measurement.Primary.Start, -5
TestParameter, Measurement.Primary.Stop, 5
TestParameter, Measurement.Primary.Step, 0.1
TestParameter, Measurement.Primary.Compliance, 0.1
TestParameter, Measurement.Primary.PowerCompliance, 0
TestParameter, Measurement.Aborting.Condition, CONTINUE AT ANY
TestParameter, Measurement.PostOutput.Value, START
TestParameter, Measurement.PostOutput.Retention, OFF
TestParameter, Measurement.Bias.Source, -5, 0
TestParameter, Measurement.Bias.Compliance, 0.1, 1
TestParameter, Measurement.Monitor.Unit, SMU2:HP, SMU1:HP
TestParameter, Measurement.Monitor.Adc, HR ADC, HR ADC
TestParameter, Measurement.Monitor.Measurement, Compliance Side, Compliance Side
TestParameter, Measurement.Monitor.RangingMode, AUTO, AUTO
TestParameter, Measurement.Monitor.RangeBoundary, , 
TestParameter, Measurement.Monitor.RangeRating, BY FULL RANGE, BY FULL RANGE
TestParameter, Measurement.Monitor.RangeRatingCoeff, 50, 50
TestParameter, Measurement.Timing.Hold, 0
TestParameter, Measurement.Timing.Delay, 0.001
TestParameter, Measurement.Adc.HighSpeed.Mode, AUTO
TestParameter, Measurement.Adc.HighSpeed.Coeff, 1
TestParameter, Measurement.Adc.HighResolution.AutoZero, OFF
TestParameter, Measurement.Adc.HighResolution.Mode, PLC
TestParameter, Measurement.Adc.HighResolution.Coeff, 1
TestParameter, Measurement.WaitTime.Source.Coeff, 1
TestParameter, Measurement.WaitTime.Source.Offset, 0
TestParameter, Measurement.WaitTime.Monitor.Coeff, 1
TestParameter, Measurement.WaitTime.Monitor.Offset, 0
TestParameter, Function.User.Name, Ohmic
TestParameter, Function.User.Unit, ohm
TestParameter, Function.User.Definition, avg(V1/I1)
TestParameter, Output.Graph.Enabled, true
TestParameter, Output.Graph.XAxis.Data, V1
TestParameter, Output.Graph.XAxis.Scale, Linear
TestParameter, Output.Graph.XAxis.Left, -5
TestParameter, Output.Graph.XAxis.Right, 5
TestParameter, Output.Graph.YAxis.Data, I1
TestParameter, Output.Graph.YAxis.Scale, Linear
TestParameter, Output.Graph.YAxis.Bottom, -0.001
TestParameter, Output.Graph.YAxis.Top, 0.001
TestParameter, Output.Graph.YAxis.Group, 
TestParameter, Output.Scalar.Data, Ohmic
TestParameter, AutoAnalysis.Interpolation, false
TestParameter, AutoAnalysis.Line1.Enabled, false
TestParameter, AutoAnalysis.Line1.Type, 1
TestParameter, AutoAnalysis.Line1.Fix, True
TestParameter, AutoAnalysis.Line1.YAxis, 0
TestParameter, AutoAnalysis.Line1.Point1.Type, 0
TestParameter, AutoAnalysis.Line1.Point1.XY.X, 
TestParameter, AutoAnalysis.Line1.Point1.XY.Y, 
TestParameter, AutoAnalysis.Line1.Point1.Data.Var, 
TestParameter, AutoAnalysis.Line1.Point1.Data.Condition, 
TestParameter, AutoAnalysis.Line1.Point1.Data.Start, false
TestParameter, AutoAnalysis.Line1.Point1.Data.StartVar, 
TestParameter, AutoAnalysis.Line1.Point1.Data.StartCondition, 
TestParameter, AutoAnalysis.Line1.Point2.Type, 0
TestParameter, AutoAnalysis.Line1.Point2.XY.X, 
TestParameter, AutoAnalysis.Line1.Point2.XY.Y, 
TestParameter, AutoAnalysis.Line1.Point2.Data.Var, 
TestParameter, AutoAnalysis.Line1.Point2.Data.Condition, 
TestParameter, AutoAnalysis.Line1.Point2.Data.Start, false
TestParameter, AutoAnalysis.Line1.Point2.Data.StartVar, 
TestParameter, AutoAnalysis.Line1.Point2.Data.StartCondition, 
TestParameter, AutoAnalysis.Line1.GradientExpr, 0
TestParameter, AutoAnalysis.Line2.Enabled, false
TestParameter, AutoAnalysis.Line2.Type, 1
TestParameter, AutoAnalysis.Line2.Fix, True
TestParameter, AutoAnalysis.Line2.YAxis, 0
TestParameter, AutoAnalysis.Line2.Point1.Type, 0
TestParameter, AutoAnalysis.Line2.Point1.XY.X, 
TestParameter, AutoAnalysis.Line2.Point1.XY.Y, 
TestParameter, AutoAnalysis.Line2.Point1.Data.Var, 
TestParameter, AutoAnalysis.Line2.Point1.Data.Condition, 
TestParameter, AutoAnalysis.Line2.Point1.Data.Start, false
TestParameter, AutoAnalysis.Line2.Point1.Data.StartVar, 
TestParameter, AutoAnalysis.Line2.Point1.Data.StartCondition, 
TestParameter, AutoAnalysis.Line2.Point2.Type, 0
TestParameter, AutoAnalysis.Line2.Point2.XY.X, 
TestParameter, AutoAnalysis.Line2.Point2.XY.Y, 
TestParameter, AutoAnalysis.Line2.Point2.Data.Var, 
TestParameter, AutoAnalysis.Line2.Point2.Data.Condition, 
TestParameter, AutoAnalysis.Line2.Point2.Data.Start, false
TestParameter, AutoAnalysis.Line2.Point2.Data.StartVar, 
TestParameter, AutoAnalysis.Line2.Point2.Data.StartCondition, 
TestParameter, AutoAnalysis.Line2.GradientExpr, 0
TestParameter, AutoAnalysis.Marker.Enabled, false
TestParameter, AutoAnalysis.Marker.Data.Var, 
TestParameter, AutoAnalysis.Marker.Data.Condition, 
TestParameter, AutoAnalysis.Marker.Data.Start, false
TestParameter, AutoAnalysis.Marker.Data.StartVar, 
TestParameter, AutoAnalysis.Marker.Data.StartCondition, 
MetaData, TestRecord.EntryPoint, true
MetaData, TestRecord.RecordTime, 07/05/2020 18:02:25
MetaData, TestRecord.TestTarget, 
MetaData, TestRecord.IterationIndex, 61
MetaData, TestRecord.Preservation, true
MetaData, TestRecord.Flag, 
MetaData, TestRecord.Remarks, 
MetaData, TestRecord.LinkKey, 518a5b68-d5cd-49c6-8d4c-e2877d1925f9
Dimension1, 101, 101, 101
Dimension2, 1, 1, 1
DataName, V1, I1, Ohmic
DataValue, -5, -1.62E-10, 17122898385.742703
DataValue, -4.9, -1.4231E-10, 
DataValue, -4.8, -1.3073E-10, 
DataValue, -4.7, -1.2085E-10, 
DataValue, -4.6000000000000005, -1.1355E-10, 
DataValue, -4.5, -1.0443E-10, 
DataValue, -4.4, -9.613E-11, 
DataValue, -4.3, -8.871E-11, 
DataValue, -4.2, -8.132E-11, 
DataValue, -4.1, -7.398E-11, 
DataValue, -4, -6.782E-11, 
DataValue, -3.9, -6.162E-11, 
DataValue, -3.8000000000000003, -5.352E-11, 
DataValue, -3.7, -5.006E-11, 
DataValue, -3.6, -4.606E-11, 
DataValue, -3.5, -3.969E-11, 
DataValue, -3.4, -3.633E-11, 
DataValue, -3.3000000000000003, -3.153E-11, 
DataValue, -3.2, -2.764E-11, 
DataValue, -3.1, -2.387E-11, 
DataValue, -3, -2.225E-11, 
DataValue, -2.9, -1.748E-11, 
DataValue, -2.8000000000000003, -1.492E-11, 
DataValue, -2.7, -1.135E-11, 
DataValue, -2.6, -8.93E-12, 
DataValue, -2.5, -6.58E-12, 
DataValue, -2.4, -4.67E-12, 
DataValue, -2.3000000000000003, -1.98E-12, 
DataValue, -2.2, 1.41E-12, 
DataValue, -2.1, 2.61E-12, 
DataValue, -2, 3.35E-12, 
DataValue, -1.9000000000000001, 6.47E-12, 
DataValue, -1.8, 8.94E-12, 
DataValue, -1.7, 9.92E-12, 
DataValue, -1.6, 1.156E-11, 
DataValue, -1.5, 1.263E-11, 
DataValue, -1.4000000000000001, 1.541E-11, 
DataValue, -1.3, 1.563E-11, 
DataValue, -1.2, 1.848E-11, 
DataValue, -1.1, 1.836E-11, 
DataValue, -1, 1.884E-11, 
DataValue, -0.9, 2.147E-11, 
DataValue, -0.8, 2.33E-11, 
DataValue, -0.70000000000000007, 2.362E-11, 
DataValue, -0.6, 2.553E-11, 
DataValue, -0.5, 2.591E-11, 
DataValue, -0.4, 2.857E-11, 
DataValue, -0.3, 2.854E-11, 
DataValue, -0.2, 3.085E-11, 
DataValue, -0.1, 3.096E-11, 
DataValue, 0, 3.272E-11, 
DataValue, 0.1, 3.329E-11, 
DataValue, 0.2, 3.333E-11, 
DataValue, 0.3, 3.549E-11, 
DataValue, 0.4, 3.787E-11, 
DataValue, 0.5, 3.831E-11, 
DataValue, 0.6, 3.712E-11, 
DataValue, 0.70000000000000007, 4.002E-11, 
DataValue, 0.8, 4.129E-11, 
DataValue, 0.9, 4.13E-11, 
DataValue, 1, 4.3E-11, 
DataValue, 1.1, 4.394E-11, 
DataValue, 1.2, 4.557E-11, 
DataValue, 1.3, 4.666E-11, 
DataValue, 1.4000000000000001, 4.965E-11, 
DataValue, 1.5, 5.016E-11, 
DataValue, 1.6, 5.108E-11, 
DataValue, 1.7, 5.212E-11, 
DataValue, 1.8, 5.398E-11, 
DataValue, 1.9000000000000001, 5.447E-11, 
DataValue, 2, 5.675E-11, 
DataValue, 2.1, 5.807E-11, 
DataValue, 2.2, 5.831E-11, 
DataValue, 2.3000000000000003, 6.05E-11, 
DataValue, 2.4, 6.14E-11, 
DataValue, 2.5, 6.359E-11, 
DataValue, 2.6, 6.408E-11, 
DataValue, 2.7, 6.717E-11, 
DataValue, 2.8000000000000003, 6.782E-11, 
DataValue, 2.9, 6.944E-11, 
DataValue, 3, 6.964E-11, 
DataValue, 3.1, 7.165E-11, 
DataValue, 3.2, 7.186E-11, 
DataValue, 3.3000000000000003, 7.54E-11, 
DataValue, 3.4, 7.589E-11, 
DataValue, 3.5, 7.844E-11, 
DataValue, 3.6, 7.898E-11, 
DataValue, 3.7, 8.175E-11, 
DataValue, 3.8000000000000003, 8.264E-11, 
DataValue, 3.9, 8.362E-11, 
DataValue, 4, 8.54E-11, 
DataValue, 4.1, 8.702E-11, 
DataValue, 4.2, 8.838E-11, 
DataValue, 4.3, 9.113E-11, 
DataValue, 4.4, 9.199E-11, 
DataValue, 4.5, 9.399E-11, 
DataValue, 4.6000000000000005, 9.479E-11, 
DataValue, 4.7, 9.64E-11, 
DataValue, 4.8, 9.805E-11, 
DataValue, 4.9, 1.0013E-10, 
DataValue, 5, 1.0314E-10, 