
SetupTitle, WW
PrimitiveTest, I/V Sweep
TestParameter, Context.MainFrame, B1500A
TestParameter, Channel.UnitType, SMU, SMU
TestParameter, Channel.Unit, SMU2:HP, SMU1:HP
TestParameter, Channel.IName, I1, I4
TestParameter, Channel.VName, V1, V4
TestParameter, Channel.Mode, V, COMMON
TestParameter, Channel.Func, VAR1, CONST
TestParameter, Channel.Index, 
TestParameter, Channel.Time, 
TestParameter, Measurement.Port.Unit, SMU2:HP, SMU1:HP
TestParameter, Measurement.Port.SeriesResistor, NONE, NONE
TestParameter, Measurement.Port.Filter, ON, ON
TestParameter, Measurement.Port.OutputVoltageComparison, 0, 0
TestParameter, Measurement.Primary.Locus, Single
TestParameter, Measurement.Primary.Scale, LINEAR
TestParameter, Measurement.Primary.Start, -5
TestParameter, Measurement.Primary.Stop, 5
TestParameter, Measurement.Primary.Step, 0.1
TestParameter, Measurement.Primary.Compliance, 0.1
TestParameter, Measurement.Primary.PowerCompliance, 0
TestParameter, Measurement.Aborting.Condition, CONTINUE AT ANY
TestParameter, Measurement.PostOutput.Value, START
TestParameter, Measurement.PostOutput.Retention, OFF
TestParameter, Measurement.Bias.Source, -5, 0
TestParameter, Measurement.Bias.Compliance, 0.1, 1
TestParameter, Measurement.Monitor.Unit, SMU2:HP, SMU1:HP
TestParameter, Measurement.Monitor.Adc, HR ADC, HR ADC
TestParameter, Measurement.Monitor.Measurement, Compliance Side, Compliance Side
TestParameter, Measurement.Monitor.RangingMode, AUTO, AUTO
TestParameter, Measurement.Monitor.RangeBoundary, , 
TestParameter, Measurement.Monitor.RangeRating, BY FULL RANGE, BY FULL RANGE
TestParameter, Measurement.Monitor.RangeRatingCoeff, 50, 50
TestParameter, Measurement.Timing.Hold, 0
TestParameter, Measurement.Timing.Delay, 0.001
TestParameter, Measurement.Adc.HighSpeed.Mode, AUTO
TestParameter, Measurement.Adc.HighSpeed.Coeff, 1
TestParameter, Measurement.Adc.HighResolution.AutoZero, OFF
TestParameter, Measurement.Adc.HighResolution.Mode, PLC
TestParameter, Measurement.Adc.HighResolution.Coeff, 1
TestParameter, Measurement.WaitTime.Source.Coeff, 1
TestParameter, Measurement.WaitTime.Source.Offset, 0
TestParameter, Measurement.WaitTime.Monitor.Coeff, 1
TestParameter, Measurement.WaitTime.Monitor.Offset, 0
TestParameter, Function.User.Name, Ohmic
TestParameter, Function.User.Unit, ohm
TestParameter, Function.User.Definition, avg(V1/I1)
TestParameter, Output.Graph.Enabled, true
TestParameter, Output.Graph.XAxis.Data, V1
TestParameter, Output.Graph.XAxis.Scale, Linear
TestParameter, Output.Graph.XAxis.Left, -5
TestParameter, Output.Graph.XAxis.Right, 5
TestParameter, Output.Graph.YAxis.Data, I1
TestParameter, Output.Graph.YAxis.Scale, Linear
TestParameter, Output.Graph.YAxis.Bottom, -0.001
TestParameter, Output.Graph.YAxis.Top, 0.001
TestParameter, Output.Graph.YAxis.Group, 
TestParameter, Output.Scalar.Data, Ohmic
TestParameter, AutoAnalysis.Interpolation, false
TestParameter, AutoAnalysis.Line1.Enabled, false
TestParameter, AutoAnalysis.Line1.Type, 1
TestParameter, AutoAnalysis.Line1.Fix, True
TestParameter, AutoAnalysis.Line1.YAxis, 0
TestParameter, AutoAnalysis.Line1.Point1.Type, 0
TestParameter, AutoAnalysis.Line1.Point1.XY.X, 
TestParameter, AutoAnalysis.Line1.Point1.XY.Y, 
TestParameter, AutoAnalysis.Line1.Point1.Data.Var, 
TestParameter, AutoAnalysis.Line1.Point1.Data.Condition, 
TestParameter, AutoAnalysis.Line1.Point1.Data.Start, false
TestParameter, AutoAnalysis.Line1.Point1.Data.StartVar, 
TestParameter, AutoAnalysis.Line1.Point1.Data.StartCondition, 
TestParameter, AutoAnalysis.Line1.Point2.Type, 0
TestParameter, AutoAnalysis.Line1.Point2.XY.X, 
TestParameter, AutoAnalysis.Line1.Point2.XY.Y, 
TestParameter, AutoAnalysis.Line1.Point2.Data.Var, 
TestParameter, AutoAnalysis.Line1.Point2.Data.Condition, 
TestParameter, AutoAnalysis.Line1.Point2.Data.Start, false
TestParameter, AutoAnalysis.Line1.Point2.Data.StartVar, 
TestParameter, AutoAnalysis.Line1.Point2.Data.StartCondition, 
TestParameter, AutoAnalysis.Line1.GradientExpr, 0
TestParameter, AutoAnalysis.Line2.Enabled, false
TestParameter, AutoAnalysis.Line2.Type, 1
TestParameter, AutoAnalysis.Line2.Fix, True
TestParameter, AutoAnalysis.Line2.YAxis, 0
TestParameter, AutoAnalysis.Line2.Point1.Type, 0
TestParameter, AutoAnalysis.Line2.Point1.XY.X, 
TestParameter, AutoAnalysis.Line2.Point1.XY.Y, 
TestParameter, AutoAnalysis.Line2.Point1.Data.Var, 
TestParameter, AutoAnalysis.Line2.Point1.Data.Condition, 
TestParameter, AutoAnalysis.Line2.Point1.Data.Start, false
TestParameter, AutoAnalysis.Line2.Point1.Data.StartVar, 
TestParameter, AutoAnalysis.Line2.Point1.Data.StartCondition, 
TestParameter, AutoAnalysis.Line2.Point2.Type, 0
TestParameter, AutoAnalysis.Line2.Point2.XY.X, 
TestParameter, AutoAnalysis.Line2.Point2.XY.Y, 
TestParameter, AutoAnalysis.Line2.Point2.Data.Var, 
TestParameter, AutoAnalysis.Line2.Point2.Data.Condition, 
TestParameter, AutoAnalysis.Line2.Point2.Data.Start, false
TestParameter, AutoAnalysis.Line2.Point2.Data.StartVar, 
TestParameter, AutoAnalysis.Line2.Point2.Data.StartCondition, 
TestParameter, AutoAnalysis.Line2.GradientExpr, 0
TestParameter, AutoAnalysis.Marker.Enabled, false
TestParameter, AutoAnalysis.Marker.Data.Var, 
TestParameter, AutoAnalysis.Marker.Data.Condition, 
TestParameter, AutoAnalysis.Marker.Data.Start, false
TestParameter, AutoAnalysis.Marker.Data.StartVar, 
TestParameter, AutoAnalysis.Marker.Data.StartCondition, 
MetaData, TestRecord.EntryPoint, true
MetaData, TestRecord.RecordTime, 07/05/2020 18:01:14
MetaData, TestRecord.TestTarget, 
MetaData, TestRecord.IterationIndex, 60
MetaData, TestRecord.Preservation, true
MetaData, TestRecord.Flag, 
MetaData, TestRecord.Remarks, 
MetaData, TestRecord.LinkKey, 93aea755-bdb4-485b-88f6-a774776ab0fa
Dimension1, 101, 101, 101
Dimension2, 1, 1, 1
DataName, V1, I1, Ohmic
DataValue, -5, -9.012E-11, -74978248138.450088
DataValue, -4.9, -6.812E-11, 
DataValue, -4.8, -5.398E-11, 
DataValue, -4.7, -4.513E-11, 
DataValue, -4.6000000000000005, -3.691E-11, 
DataValue, -4.5, -3.23E-11, 
DataValue, -4.4, -2.579E-11, 
DataValue, -4.3, -2.427E-11, 
DataValue, -4.2, -2.007E-11, 
DataValue, -4.1, -1.849E-11, 
DataValue, -4, -1.578E-11, 
DataValue, -3.9, -1.435E-11, 
DataValue, -3.8000000000000003, -1.14E-11, 
DataValue, -3.7, -1.114E-11, 
DataValue, -3.6, -7.01E-12, 
DataValue, -3.5, -8.39E-12, 
DataValue, -3.4, -5.88E-12, 
DataValue, -3.3000000000000003, -6.02E-12, 
DataValue, -3.2, -3.44E-12, 
DataValue, -3.1, -4.18E-12, 
DataValue, -3, -1.82E-12, 
DataValue, -2.9, -2.58E-12, 
DataValue, -2.8000000000000003, -1.57E-12, 
DataValue, -2.7, -1.42E-12, 
DataValue, -2.6, 8.8E-13, 
DataValue, -2.5, 2E-13, 
DataValue, -2.4, 2.64E-12, 
DataValue, -2.3000000000000003, 1.23E-12, 
DataValue, -2.2, 4.59E-12, 
DataValue, -2.1, 2.57E-12, 
DataValue, -2, 4.54E-12, 
DataValue, -1.9000000000000001, 3.61E-12, 
DataValue, -1.8, 5.12E-12, 
DataValue, -1.7, 4.5E-12, 
DataValue, -1.6, 5.96E-12, 
DataValue, -1.5, 5.69E-12, 
DataValue, -1.4000000000000001, 7.61E-12, 
DataValue, -1.3, 6.76E-12, 
DataValue, -1.2, 7.31E-12, 
DataValue, -1.1, 7.19E-12, 
DataValue, -1, 8.82E-12, 
DataValue, -0.9, 8.08E-12, 
DataValue, -0.8, 9E-12, 
DataValue, -0.70000000000000007, 8.66E-12, 
DataValue, -0.6, 1.085E-11, 
DataValue, -0.5, 9.64E-12, 
DataValue, -0.4, 1.316E-11, 
DataValue, -0.3, 1.069E-11, 
DataValue, -0.2, 1.196E-11, 
DataValue, -0.1, 1.2E-11, 
DataValue, 0, 1.324E-11, 
DataValue, 0.1, 1.315E-11, 
DataValue, 0.2, 1.658E-11, 
DataValue, 0.3, 1.447E-11, 
DataValue, 0.4, 1.778E-11, 
DataValue, 0.5, 1.568E-11, 
DataValue, 0.6, 1.798E-11, 
DataValue, 0.70000000000000007, 1.742E-11, 
DataValue, 0.8, 2.092E-11, 
DataValue, 0.9, 2.002E-11, 
DataValue, 1, 2.104E-11, 
DataValue, 1.1, 2.205E-11, 
DataValue, 1.2, 2.362E-11, 
DataValue, 1.3, 2.354E-11, 
DataValue, 1.4000000000000001, 2.632E-11, 
DataValue, 1.5, 2.579E-11, 
DataValue, 1.6, 2.969E-11, 
DataValue, 1.7, 2.817E-11, 
DataValue, 1.8, 3.197E-11, 
DataValue, 1.9000000000000001, 3.116E-11, 
DataValue, 2, 3.437E-11, 
DataValue, 2.1, 3.352E-11, 
DataValue, 2.2, 3.627E-11, 
DataValue, 2.3000000000000003, 3.7E-11, 
DataValue, 2.4, 3.858E-11, 
DataValue, 2.5, 3.946E-11, 
DataValue, 2.6, 4.236E-11, 
DataValue, 2.7, 4.296E-11, 
DataValue, 2.8000000000000003, 4.697E-11, 
DataValue, 2.9, 4.595E-11, 
DataValue, 3, 4.908E-11, 
DataValue, 3.1, 4.905E-11, 
DataValue, 3.2, 5.17E-11, 
DataValue, 3.3000000000000003, 5.22E-11, 
DataValue, 3.4, 5.61E-11, 
DataValue, 3.5, 5.525E-11, 
DataValue, 3.6, 5.85E-11, 
DataValue, 3.7, 5.843E-11, 
DataValue, 3.8000000000000003, 6.109E-11, 
DataValue, 3.9, 6.2E-11, 
DataValue, 4, 6.471E-11, 
DataValue, 4.1, 6.444E-11, 
DataValue, 4.2, 6.908E-11, 
DataValue, 4.3, 6.818E-11, 
DataValue, 4.4, 7.225E-11, 
DataValue, 4.5, 7.071E-11, 
DataValue, 4.6000000000000005, 7.382E-11, 
DataValue, 4.7, 7.402E-11, 
DataValue, 4.8, 7.804E-11, 
DataValue, 4.9, 7.737E-11, 
DataValue, 5, 8.066E-11, 