
SetupTitle, WW
PrimitiveTest, I/V Sweep
TestParameter, Context.MainFrame, B1500A
TestParameter, Channel.UnitType, SMU, SMU
TestParameter, Channel.Unit, SMU1:HP, SMU2:HP
TestParameter, Channel.IName, I1, I4
TestParameter, Channel.VName, V1, V4
TestParameter, Channel.Mode, V, COMMON
TestParameter, Channel.Func, VAR1, CONST
TestParameter, Channel.Index, 
TestParameter, Channel.Time, 
TestParameter, Measurement.Port.Unit, SMU1:HP, SMU2:HP
TestParameter, Measurement.Port.SeriesResistor, NONE, NONE
TestParameter, Measurement.Port.Filter, ON, ON
TestParameter, Measurement.Port.OutputVoltageComparison, 0, 0
TestParameter, Measurement.Primary.Locus, Single
TestParameter, Measurement.Primary.Scale, LINEAR
TestParameter, Measurement.Primary.Start, -5
TestParameter, Measurement.Primary.Stop, 5
TestParameter, Measurement.Primary.Step, 0.1
TestParameter, Measurement.Primary.Compliance, 0.1
TestParameter, Measurement.Primary.PowerCompliance, 0
TestParameter, Measurement.Aborting.Condition, CONTINUE AT ANY
TestParameter, Measurement.PostOutput.Value, START
TestParameter, Measurement.PostOutput.Retention, OFF
TestParameter, Measurement.Bias.Source, -5, 0
TestParameter, Measurement.Bias.Compliance, 0.1, 1
TestParameter, Measurement.Monitor.Unit, SMU1:HP, SMU2:HP
TestParameter, Measurement.Monitor.Adc, HR ADC, HR ADC
TestParameter, Measurement.Monitor.Measurement, Compliance Side, Compliance Side
TestParameter, Measurement.Monitor.RangingMode, AUTO, AUTO
TestParameter, Measurement.Monitor.RangeBoundary, , 
TestParameter, Measurement.Monitor.RangeRating, BY FULL RANGE, BY FULL RANGE
TestParameter, Measurement.Monitor.RangeRatingCoeff, 50, 50
TestParameter, Measurement.Timing.Hold, 0
TestParameter, Measurement.Timing.Delay, 0.001
TestParameter, Measurement.Adc.HighSpeed.Mode, AUTO
TestParameter, Measurement.Adc.HighSpeed.Coeff, 1
TestParameter, Measurement.Adc.HighResolution.AutoZero, OFF
TestParameter, Measurement.Adc.HighResolution.Mode, PLC
TestParameter, Measurement.Adc.HighResolution.Coeff, 1
TestParameter, Measurement.WaitTime.Source.Coeff, 1
TestParameter, Measurement.WaitTime.Source.Offset, 0
TestParameter, Measurement.WaitTime.Monitor.Coeff, 1
TestParameter, Measurement.WaitTime.Monitor.Offset, 0
TestParameter, Function.User.Name, Ohmic
TestParameter, Function.User.Unit, ohm
TestParameter, Function.User.Definition, avg(V1/I1)
TestParameter, Output.Graph.Enabled, true
TestParameter, Output.Graph.XAxis.Data, V1
TestParameter, Output.Graph.XAxis.Scale, Linear
TestParameter, Output.Graph.XAxis.Left, -5
TestParameter, Output.Graph.XAxis.Right, 5
TestParameter, Output.Graph.YAxis.Data, I1
TestParameter, Output.Graph.YAxis.Scale, Linear
TestParameter, Output.Graph.YAxis.Bottom, -0.001
TestParameter, Output.Graph.YAxis.Top, 0.001
TestParameter, Output.Graph.YAxis.Group, 
TestParameter, Output.Scalar.Data, Ohmic
TestParameter, AutoAnalysis.Interpolation, false
TestParameter, AutoAnalysis.Line1.Enabled, false
TestParameter, AutoAnalysis.Line1.Type, 1
TestParameter, AutoAnalysis.Line1.Fix, True
TestParameter, AutoAnalysis.Line1.YAxis, 0
TestParameter, AutoAnalysis.Line1.Point1.Type, 0
TestParameter, AutoAnalysis.Line1.Point1.XY.X, 
TestParameter, AutoAnalysis.Line1.Point1.XY.Y, 
TestParameter, AutoAnalysis.Line1.Point1.Data.Var, 
TestParameter, AutoAnalysis.Line1.Point1.Data.Condition, 
TestParameter, AutoAnalysis.Line1.Point1.Data.Start, false
TestParameter, AutoAnalysis.Line1.Point1.Data.StartVar, 
TestParameter, AutoAnalysis.Line1.Point1.Data.StartCondition, 
TestParameter, AutoAnalysis.Line1.Point2.Type, 0
TestParameter, AutoAnalysis.Line1.Point2.XY.X, 
TestParameter, AutoAnalysis.Line1.Point2.XY.Y, 
TestParameter, AutoAnalysis.Line1.Point2.Data.Var, 
TestParameter, AutoAnalysis.Line1.Point2.Data.Condition, 
TestParameter, AutoAnalysis.Line1.Point2.Data.Start, false
TestParameter, AutoAnalysis.Line1.Point2.Data.StartVar, 
TestParameter, AutoAnalysis.Line1.Point2.Data.StartCondition, 
TestParameter, AutoAnalysis.Line1.GradientExpr, 0
TestParameter, AutoAnalysis.Line2.Enabled, false
TestParameter, AutoAnalysis.Line2.Type, 1
TestParameter, AutoAnalysis.Line2.Fix, True
TestParameter, AutoAnalysis.Line2.YAxis, 0
TestParameter, AutoAnalysis.Line2.Point1.Type, 0
TestParameter, AutoAnalysis.Line2.Point1.XY.X, 
TestParameter, AutoAnalysis.Line2.Point1.XY.Y, 
TestParameter, AutoAnalysis.Line2.Point1.Data.Var, 
TestParameter, AutoAnalysis.Line2.Point1.Data.Condition, 
TestParameter, AutoAnalysis.Line2.Point1.Data.Start, false
TestParameter, AutoAnalysis.Line2.Point1.Data.StartVar, 
TestParameter, AutoAnalysis.Line2.Point1.Data.StartCondition, 
TestParameter, AutoAnalysis.Line2.Point2.Type, 0
TestParameter, AutoAnalysis.Line2.Point2.XY.X, 
TestParameter, AutoAnalysis.Line2.Point2.XY.Y, 
TestParameter, AutoAnalysis.Line2.Point2.Data.Var, 
TestParameter, AutoAnalysis.Line2.Point2.Data.Condition, 
TestParameter, AutoAnalysis.Line2.Point2.Data.Start, false
TestParameter, AutoAnalysis.Line2.Point2.Data.StartVar, 
TestParameter, AutoAnalysis.Line2.Point2.Data.StartCondition, 
TestParameter, AutoAnalysis.Line2.GradientExpr, 0
TestParameter, AutoAnalysis.Marker.Enabled, false
TestParameter, AutoAnalysis.Marker.Data.Var, 
TestParameter, AutoAnalysis.Marker.Data.Condition, 
TestParameter, AutoAnalysis.Marker.Data.Start, false
TestParameter, AutoAnalysis.Marker.Data.StartVar, 
TestParameter, AutoAnalysis.Marker.Data.StartCondition, 
MetaData, TestRecord.EntryPoint, true
MetaData, TestRecord.RecordTime, 09/11/2020 16:05:58
MetaData, TestRecord.TestTarget, 
MetaData, TestRecord.IterationIndex, 49
MetaData, TestRecord.Preservation, true
MetaData, TestRecord.Flag, 
MetaData, TestRecord.Remarks, 
MetaData, TestRecord.LinkKey, c15c8e7a-ec01-403d-bda6-c3649d431f98
Dimension1, 101, 101, 101
Dimension2, 1, 1, 1
DataName, V1, I1, Ohmic
DataValue, -5, -6.1602999999999991E-09, 466997343.61667615
DataValue, -4.9, -5.9776E-09, 
DataValue, -4.8, -5.7711999999999993E-09, 
DataValue, -4.7, -5.6499999999999993E-09, 
DataValue, -4.6000000000000005, -5.452E-09, 
DataValue, -4.5, -5.3732999999999992E-09, 
DataValue, -4.4, -5.177E-09, 
DataValue, -4.3, -5.0796999999999993E-09, 
DataValue, -4.2, -4.9489E-09, 
DataValue, -4.1, -4.8674999999999996E-09, 
DataValue, -4, -4.7329999999999993E-09, 
DataValue, -3.9, -4.6536E-09, 
DataValue, -3.8000000000000003, -4.543E-09, 
DataValue, -3.7, -4.4265999999999996E-09, 
DataValue, -3.6, -4.3313999999999993E-09, 
DataValue, -3.5, -4.2071E-09, 
DataValue, -3.4, -4.212E-09, 
DataValue, -3.3000000000000003, -4.0889999999999994E-09, 
DataValue, -3.2, -4.0105E-09, 
DataValue, -3.1, -3.8949999999999995E-09, 
DataValue, -3, -3.9144E-09, 
DataValue, -2.9, -3.7387999999999995E-09, 
DataValue, -2.8000000000000003, -3.7128999999999995E-09, 
DataValue, -2.7, -3.5608999999999996E-09, 
DataValue, -2.6, -3.5484E-09, 
DataValue, -2.5, -3.4567999999999995E-09, 
DataValue, -2.4, -3.3861999999999997E-09, 
DataValue, -2.3000000000000003, -3.3455999999999997E-09, 
DataValue, -2.2, -3.2170999999999996E-09, 
DataValue, -2.1, -3.1494E-09, 
DataValue, -2, -3.032E-09, 
DataValue, -1.9000000000000001, -3.0583999999999997E-09, 
DataValue, -1.8, -2.958E-09, 
DataValue, -1.7, -2.8922999999999996E-09, 
DataValue, -1.6, -2.7733E-09, 
DataValue, -1.5, -2.7609E-09, 
DataValue, -1.4000000000000001, -2.6723999999999996E-09, 
DataValue, -1.3, -2.6035999999999996E-09, 
DataValue, -1.2, -2.568E-09, 
DataValue, -1.1, -2.4621999999999996E-09, 
DataValue, -1, -2.4712E-09, 
DataValue, -0.9, -2.3376E-09, 
DataValue, -0.8, -2.3384999999999997E-09, 
DataValue, -0.70000000000000007, -2.2215E-09, 
DataValue, -0.6, -2.1444999999999998E-09, 
DataValue, -0.5, -2.0356E-09, 
DataValue, -0.4, -1.9155E-09, 
DataValue, -0.3, -1.7090999999999998E-09, 
DataValue, -0.2, -1.4389999999999999E-09, 
DataValue, -0.1, -3.156E-10, 
DataValue, 0, 2.8391E-09, 
DataValue, 0.1, 5.0997E-09, 
DataValue, 0.2, 5.9441999999999994E-09, 
DataValue, 0.3, 6.2895999999999995E-09, 
DataValue, 0.4, 6.4608999999999995E-09, 
DataValue, 0.5, 6.5434999999999992E-09, 
DataValue, 0.6, 6.6384E-09, 
DataValue, 0.70000000000000007, 6.801699999999999E-09, 
DataValue, 0.8, 6.9082999999999994E-09, 
DataValue, 0.9, 7.0031999999999991E-09, 
DataValue, 1, 7.0744999999999991E-09, 
DataValue, 1.1, 7.1849999999999995E-09, 
DataValue, 1.2, 7.2333999999999994E-09, 
DataValue, 1.3, 7.3414999999999991E-09, 
DataValue, 1.4000000000000001, 7.399199999999999E-09, 
DataValue, 1.5, 7.4554E-09, 
DataValue, 1.6, 7.5205E-09, 
DataValue, 1.7, 7.6182E-09, 
DataValue, 1.8, 7.6624E-09, 
DataValue, 1.9000000000000001, 7.7128E-09, 
DataValue, 2, 7.8136E-09, 
DataValue, 2.1, 7.871199999999999E-09, 
DataValue, 2.2, 7.9182E-09, 
DataValue, 2.3000000000000003, 8.024E-09, 
DataValue, 2.4, 8.0516999999999986E-09, 
DataValue, 2.5, 8.0922E-09, 
DataValue, 2.6, 8.1559E-09, 
DataValue, 2.7, 8.2209E-09, 
DataValue, 2.8000000000000003, 8.271499999999999E-09, 
DataValue, 2.9, 8.3392999999999991E-09, 
DataValue, 3, 8.3898999999999989E-09, 
DataValue, 3.1, 8.4661E-09, 
DataValue, 3.2, 8.5260999999999985E-09, 
DataValue, 3.3000000000000003, 8.5852E-09, 
DataValue, 3.4, 8.5945E-09, 
DataValue, 3.5, 8.6482E-09, 
DataValue, 3.6, 8.7119999999999989E-09, 
DataValue, 3.7, 8.7729E-09, 
DataValue, 3.8000000000000003, 8.8428E-09, 
DataValue, 3.9, 8.9208999999999988E-09, 
DataValue, 4, 8.9364E-09, 
DataValue, 4.1, 9.012E-09, 
DataValue, 4.2, 9.0793E-09, 
DataValue, 4.3, 9.1527E-09, 
DataValue, 4.4, 9.2197999999999983E-09, 
DataValue, 4.5, 9.3100999999999991E-09, 
DataValue, 4.6000000000000005, 9.3669999999999988E-09, 
DataValue, 4.7, 9.3512999999999985E-09, 
DataValue, 4.8, 9.4487E-09, 
DataValue, 4.9, 9.5162E-09, 
DataValue, 5, 9.5266999999999985E-09, 