
SetupTitle, WW
PrimitiveTest, I/V Sweep
TestParameter, Context.MainFrame, B1500A
TestParameter, Channel.UnitType, SMU, SMU
TestParameter, Channel.Unit, SMU1:HP, SMU2:HP
TestParameter, Channel.IName, I1, I4
TestParameter, Channel.VName, V1, V4
TestParameter, Channel.Mode, V, COMMON
TestParameter, Channel.Func, VAR1, CONST
TestParameter, Channel.Index, 
TestParameter, Channel.Time, 
TestParameter, Measurement.Port.Unit, SMU1:HP, SMU2:HP
TestParameter, Measurement.Port.SeriesResistor, NONE, NONE
TestParameter, Measurement.Port.Filter, ON, ON
TestParameter, Measurement.Port.OutputVoltageComparison, 0, 0
TestParameter, Measurement.Primary.Locus, Single
TestParameter, Measurement.Primary.Scale, LINEAR
TestParameter, Measurement.Primary.Start, -5
TestParameter, Measurement.Primary.Stop, 5
TestParameter, Measurement.Primary.Step, 0.1
TestParameter, Measurement.Primary.Compliance, 0.1
TestParameter, Measurement.Primary.PowerCompliance, 0
TestParameter, Measurement.Aborting.Condition, CONTINUE AT ANY
TestParameter, Measurement.PostOutput.Value, START
TestParameter, Measurement.PostOutput.Retention, OFF
TestParameter, Measurement.Bias.Source, -5, 0
TestParameter, Measurement.Bias.Compliance, 0.1, 1
TestParameter, Measurement.Monitor.Unit, SMU1:HP, SMU2:HP
TestParameter, Measurement.Monitor.Adc, HR ADC, HR ADC
TestParameter, Measurement.Monitor.Measurement, Compliance Side, Compliance Side
TestParameter, Measurement.Monitor.RangingMode, AUTO, AUTO
TestParameter, Measurement.Monitor.RangeBoundary, , 
TestParameter, Measurement.Monitor.RangeRating, BY FULL RANGE, BY FULL RANGE
TestParameter, Measurement.Monitor.RangeRatingCoeff, 50, 50
TestParameter, Measurement.Timing.Hold, 0
TestParameter, Measurement.Timing.Delay, 0.001
TestParameter, Measurement.Adc.HighSpeed.Mode, AUTO
TestParameter, Measurement.Adc.HighSpeed.Coeff, 1
TestParameter, Measurement.Adc.HighResolution.AutoZero, OFF
TestParameter, Measurement.Adc.HighResolution.Mode, PLC
TestParameter, Measurement.Adc.HighResolution.Coeff, 1
TestParameter, Measurement.WaitTime.Source.Coeff, 1
TestParameter, Measurement.WaitTime.Source.Offset, 0
TestParameter, Measurement.WaitTime.Monitor.Coeff, 1
TestParameter, Measurement.WaitTime.Monitor.Offset, 0
TestParameter, Function.User.Name, Ohmic
TestParameter, Function.User.Unit, ohm
TestParameter, Function.User.Definition, avg(V1/I1)
TestParameter, Output.Graph.Enabled, true
TestParameter, Output.Graph.XAxis.Data, V1
TestParameter, Output.Graph.XAxis.Scale, Linear
TestParameter, Output.Graph.XAxis.Left, -5
TestParameter, Output.Graph.XAxis.Right, 5
TestParameter, Output.Graph.YAxis.Data, I1
TestParameter, Output.Graph.YAxis.Scale, Linear
TestParameter, Output.Graph.YAxis.Bottom, -0.001
TestParameter, Output.Graph.YAxis.Top, 0.001
TestParameter, Output.Graph.YAxis.Group, 
TestParameter, Output.Scalar.Data, Ohmic
TestParameter, AutoAnalysis.Interpolation, false
TestParameter, AutoAnalysis.Line1.Enabled, false
TestParameter, AutoAnalysis.Line1.Type, 1
TestParameter, AutoAnalysis.Line1.Fix, True
TestParameter, AutoAnalysis.Line1.YAxis, 0
TestParameter, AutoAnalysis.Line1.Point1.Type, 0
TestParameter, AutoAnalysis.Line1.Point1.XY.X, 
TestParameter, AutoAnalysis.Line1.Point1.XY.Y, 
TestParameter, AutoAnalysis.Line1.Point1.Data.Var, 
TestParameter, AutoAnalysis.Line1.Point1.Data.Condition, 
TestParameter, AutoAnalysis.Line1.Point1.Data.Start, false
TestParameter, AutoAnalysis.Line1.Point1.Data.StartVar, 
TestParameter, AutoAnalysis.Line1.Point1.Data.StartCondition, 
TestParameter, AutoAnalysis.Line1.Point2.Type, 0
TestParameter, AutoAnalysis.Line1.Point2.XY.X, 
TestParameter, AutoAnalysis.Line1.Point2.XY.Y, 
TestParameter, AutoAnalysis.Line1.Point2.Data.Var, 
TestParameter, AutoAnalysis.Line1.Point2.Data.Condition, 
TestParameter, AutoAnalysis.Line1.Point2.Data.Start, false
TestParameter, AutoAnalysis.Line1.Point2.Data.StartVar, 
TestParameter, AutoAnalysis.Line1.Point2.Data.StartCondition, 
TestParameter, AutoAnalysis.Line1.GradientExpr, 0
TestParameter, AutoAnalysis.Line2.Enabled, false
TestParameter, AutoAnalysis.Line2.Type, 1
TestParameter, AutoAnalysis.Line2.Fix, True
TestParameter, AutoAnalysis.Line2.YAxis, 0
TestParameter, AutoAnalysis.Line2.Point1.Type, 0
TestParameter, AutoAnalysis.Line2.Point1.XY.X, 
TestParameter, AutoAnalysis.Line2.Point1.XY.Y, 
TestParameter, AutoAnalysis.Line2.Point1.Data.Var, 
TestParameter, AutoAnalysis.Line2.Point1.Data.Condition, 
TestParameter, AutoAnalysis.Line2.Point1.Data.Start, false
TestParameter, AutoAnalysis.Line2.Point1.Data.StartVar, 
TestParameter, AutoAnalysis.Line2.Point1.Data.StartCondition, 
TestParameter, AutoAnalysis.Line2.Point2.Type, 0
TestParameter, AutoAnalysis.Line2.Point2.XY.X, 
TestParameter, AutoAnalysis.Line2.Point2.XY.Y, 
TestParameter, AutoAnalysis.Line2.Point2.Data.Var, 
TestParameter, AutoAnalysis.Line2.Point2.Data.Condition, 
TestParameter, AutoAnalysis.Line2.Point2.Data.Start, false
TestParameter, AutoAnalysis.Line2.Point2.Data.StartVar, 
TestParameter, AutoAnalysis.Line2.Point2.Data.StartCondition, 
TestParameter, AutoAnalysis.Line2.GradientExpr, 0
TestParameter, AutoAnalysis.Marker.Enabled, false
TestParameter, AutoAnalysis.Marker.Data.Var, 
TestParameter, AutoAnalysis.Marker.Data.Condition, 
TestParameter, AutoAnalysis.Marker.Data.Start, false
TestParameter, AutoAnalysis.Marker.Data.StartVar, 
TestParameter, AutoAnalysis.Marker.Data.StartCondition, 
MetaData, TestRecord.EntryPoint, true
MetaData, TestRecord.RecordTime, 09/11/2020 16:03:47
MetaData, TestRecord.TestTarget, 
MetaData, TestRecord.IterationIndex, 45
MetaData, TestRecord.Preservation, true
MetaData, TestRecord.Flag, 
MetaData, TestRecord.Remarks, 
MetaData, TestRecord.LinkKey, 9561e131-06bc-4a25-b8f5-4581c336eecd
Dimension1, 101, 101, 101
Dimension2, 1, 1, 1
DataName, V1, I1, Ohmic
DataValue, -5, -4.654E-09, 569203998.72720242
DataValue, -4.9, -4.5328999999999995E-09, 
DataValue, -4.8, -4.3492E-09, 
DataValue, -4.7, -4.2969999999999995E-09, 
DataValue, -4.6000000000000005, -4.2002999999999992E-09, 
DataValue, -4.5, -4.1427E-09, 
DataValue, -4.4, -4.0362999999999994E-09, 
DataValue, -4.3, -4.0053E-09, 
DataValue, -4.2, -3.9172E-09, 
DataValue, -4.1, -3.8636999999999994E-09, 
DataValue, -4, -3.8005999999999995E-09, 
DataValue, -3.9, -3.7601E-09, 
DataValue, -3.8000000000000003, -3.6502999999999997E-09, 
DataValue, -3.7, -3.6111999999999997E-09, 
DataValue, -3.6, -3.5061999999999997E-09, 
DataValue, -3.5, -3.5093999999999995E-09, 
DataValue, -3.4, -3.4156999999999997E-09, 
DataValue, -3.3000000000000003, -3.4110999999999995E-09, 
DataValue, -3.2, -3.3184999999999997E-09, 
DataValue, -3.1, -3.3024999999999997E-09, 
DataValue, -3, -3.2021999999999996E-09, 
DataValue, -2.9, -3.2061999999999995E-09, 
DataValue, -2.8000000000000003, -3.1286999999999998E-09, 
DataValue, -2.7, -3.0658E-09, 
DataValue, -2.6, -3.021E-09, 
DataValue, -2.5, -3.009E-09, 
DataValue, -2.4, -2.9370999999999997E-09, 
DataValue, -2.3000000000000003, -2.9146E-09, 
DataValue, -2.2, -2.8085999999999996E-09, 
DataValue, -2.1, -2.8088999999999997E-09, 
DataValue, -2, -2.7403999999999998E-09, 
DataValue, -1.9000000000000001, -2.741E-09, 
DataValue, -1.8, -2.6506E-09, 
DataValue, -1.7, -2.6317E-09, 
DataValue, -1.6, -2.5738E-09, 
DataValue, -1.5, -2.5644999999999996E-09, 
DataValue, -1.4000000000000001, -2.4732999999999997E-09, 
DataValue, -1.3, -2.4839999999999997E-09, 
DataValue, -1.2, -2.4205999999999997E-09, 
DataValue, -1.1, -2.3722999999999998E-09, 
DataValue, -1, -2.3522E-09, 
DataValue, -0.9, -2.2596E-09, 
DataValue, -0.8, -2.2311E-09, 
DataValue, -0.70000000000000007, -2.146E-09, 
DataValue, -0.6, -2.0882E-09, 
DataValue, -0.5, -1.9059E-09, 
DataValue, -0.4, -1.8139E-09, 
DataValue, -0.3, -1.6293999999999998E-09, 
DataValue, -0.2, -1.1783E-09, 
DataValue, -0.1, -1.9089999999999998E-10, 
DataValue, 0, 2.2396999999999996E-09, 
DataValue, 0.1, 3.8381E-09, 
DataValue, 0.2, 4.5281E-09, 
DataValue, 0.3, 4.8631E-09, 
DataValue, 0.4, 5.0688E-09, 
DataValue, 0.5, 5.1455E-09, 
DataValue, 0.6, 5.309E-09, 
DataValue, 0.70000000000000007, 5.3719999999999992E-09, 
DataValue, 0.8, 5.4557E-09, 
DataValue, 0.9, 5.5347999999999995E-09, 
DataValue, 1, 5.6074999999999991E-09, 
DataValue, 1.1, 5.6819999999999992E-09, 
DataValue, 1.2, 5.7168999999999996E-09, 
DataValue, 1.3, 5.8575E-09, 
DataValue, 1.4000000000000001, 5.8502999999999991E-09, 
DataValue, 1.5, 5.9387E-09, 
DataValue, 1.6, 5.9886E-09, 
DataValue, 1.7, 6.0124E-09, 
DataValue, 1.8, 6.1202999999999992E-09, 
DataValue, 1.9000000000000001, 6.1545E-09, 
DataValue, 2, 6.2081E-09, 
DataValue, 2.1, 6.2372999999999995E-09, 
DataValue, 2.2, 6.2910999999999995E-09, 
DataValue, 2.3000000000000003, 6.359699999999999E-09, 
DataValue, 2.4, 6.3719999999999991E-09, 
DataValue, 2.5, 6.4412999999999993E-09, 
DataValue, 2.6, 6.4535E-09, 
DataValue, 2.7, 6.5049E-09, 
DataValue, 2.8000000000000003, 6.5714999999999995E-09, 
DataValue, 2.9, 6.6300999999999993E-09, 
DataValue, 3, 6.5915999999999994E-09, 
DataValue, 3.1, 6.6598E-09, 
DataValue, 3.2, 6.6980999999999994E-09, 
DataValue, 3.3000000000000003, 6.7637E-09, 
DataValue, 3.4, 6.8101999999999995E-09, 
DataValue, 3.5, 6.807299999999999E-09, 
DataValue, 3.6, 6.8224999999999995E-09, 
DataValue, 3.7, 6.9136999999999994E-09, 
DataValue, 3.8000000000000003, 6.9575E-09, 
DataValue, 3.9, 7.0279999999999993E-09, 
DataValue, 4, 7.0646999999999994E-09, 
DataValue, 4.1, 7.0832E-09, 
DataValue, 4.2, 7.1309999999999995E-09, 
DataValue, 4.3, 7.1977999999999993E-09, 
DataValue, 4.4, 7.2351999999999992E-09, 
DataValue, 4.5, 7.2813E-09, 
DataValue, 4.6000000000000005, 7.2776999999999994E-09, 
DataValue, 4.7, 7.3292999999999995E-09, 
DataValue, 4.8, 7.3481999999999991E-09, 
DataValue, 4.9, 7.3698999999999995E-09, 
DataValue, 5, 7.461199999999999E-09, 