
SetupTitle, WW
PrimitiveTest, I/V Sweep
TestParameter, Context.MainFrame, B1500A
TestParameter, Channel.UnitType, SMU, SMU
TestParameter, Channel.Unit, SMU1:HP, SMU2:HP
TestParameter, Channel.IName, I1, I4
TestParameter, Channel.VName, V1, V4
TestParameter, Channel.Mode, V, COMMON
TestParameter, Channel.Func, VAR1, CONST
TestParameter, Channel.Index, 
TestParameter, Channel.Time, 
TestParameter, Measurement.Port.Unit, SMU1:HP, SMU2:HP
TestParameter, Measurement.Port.SeriesResistor, NONE, NONE
TestParameter, Measurement.Port.Filter, ON, ON
TestParameter, Measurement.Port.OutputVoltageComparison, 0, 0
TestParameter, Measurement.Primary.Locus, Single
TestParameter, Measurement.Primary.Scale, LINEAR
TestParameter, Measurement.Primary.Start, -5
TestParameter, Measurement.Primary.Stop, 5
TestParameter, Measurement.Primary.Step, 0.1
TestParameter, Measurement.Primary.Compliance, 0.1
TestParameter, Measurement.Primary.PowerCompliance, 0
TestParameter, Measurement.Aborting.Condition, CONTINUE AT ANY
TestParameter, Measurement.PostOutput.Value, START
TestParameter, Measurement.PostOutput.Retention, OFF
TestParameter, Measurement.Bias.Source, -5, 0
TestParameter, Measurement.Bias.Compliance, 0.1, 1
TestParameter, Measurement.Monitor.Unit, SMU1:HP, SMU2:HP
TestParameter, Measurement.Monitor.Adc, HR ADC, HR ADC
TestParameter, Measurement.Monitor.Measurement, Compliance Side, Compliance Side
TestParameter, Measurement.Monitor.RangingMode, AUTO, AUTO
TestParameter, Measurement.Monitor.RangeBoundary, , 
TestParameter, Measurement.Monitor.RangeRating, BY FULL RANGE, BY FULL RANGE
TestParameter, Measurement.Monitor.RangeRatingCoeff, 50, 50
TestParameter, Measurement.Timing.Hold, 0
TestParameter, Measurement.Timing.Delay, 0.001
TestParameter, Measurement.Adc.HighSpeed.Mode, AUTO
TestParameter, Measurement.Adc.HighSpeed.Coeff, 1
TestParameter, Measurement.Adc.HighResolution.AutoZero, OFF
TestParameter, Measurement.Adc.HighResolution.Mode, PLC
TestParameter, Measurement.Adc.HighResolution.Coeff, 1
TestParameter, Measurement.WaitTime.Source.Coeff, 1
TestParameter, Measurement.WaitTime.Source.Offset, 0
TestParameter, Measurement.WaitTime.Monitor.Coeff, 1
TestParameter, Measurement.WaitTime.Monitor.Offset, 0
TestParameter, Function.User.Name, Ohmic
TestParameter, Function.User.Unit, ohm
TestParameter, Function.User.Definition, avg(V1/I1)
TestParameter, Output.Graph.Enabled, true
TestParameter, Output.Graph.XAxis.Data, V1
TestParameter, Output.Graph.XAxis.Scale, Linear
TestParameter, Output.Graph.XAxis.Left, -5
TestParameter, Output.Graph.XAxis.Right, 5
TestParameter, Output.Graph.YAxis.Data, I1
TestParameter, Output.Graph.YAxis.Scale, Linear
TestParameter, Output.Graph.YAxis.Bottom, -0.001
TestParameter, Output.Graph.YAxis.Top, 0.001
TestParameter, Output.Graph.YAxis.Group, 
TestParameter, Output.Scalar.Data, Ohmic
TestParameter, AutoAnalysis.Interpolation, false
TestParameter, AutoAnalysis.Line1.Enabled, false
TestParameter, AutoAnalysis.Line1.Type, 1
TestParameter, AutoAnalysis.Line1.Fix, True
TestParameter, AutoAnalysis.Line1.YAxis, 0
TestParameter, AutoAnalysis.Line1.Point1.Type, 0
TestParameter, AutoAnalysis.Line1.Point1.XY.X, 
TestParameter, AutoAnalysis.Line1.Point1.XY.Y, 
TestParameter, AutoAnalysis.Line1.Point1.Data.Var, 
TestParameter, AutoAnalysis.Line1.Point1.Data.Condition, 
TestParameter, AutoAnalysis.Line1.Point1.Data.Start, false
TestParameter, AutoAnalysis.Line1.Point1.Data.StartVar, 
TestParameter, AutoAnalysis.Line1.Point1.Data.StartCondition, 
TestParameter, AutoAnalysis.Line1.Point2.Type, 0
TestParameter, AutoAnalysis.Line1.Point2.XY.X, 
TestParameter, AutoAnalysis.Line1.Point2.XY.Y, 
TestParameter, AutoAnalysis.Line1.Point2.Data.Var, 
TestParameter, AutoAnalysis.Line1.Point2.Data.Condition, 
TestParameter, AutoAnalysis.Line1.Point2.Data.Start, false
TestParameter, AutoAnalysis.Line1.Point2.Data.StartVar, 
TestParameter, AutoAnalysis.Line1.Point2.Data.StartCondition, 
TestParameter, AutoAnalysis.Line1.GradientExpr, 0
TestParameter, AutoAnalysis.Line2.Enabled, false
TestParameter, AutoAnalysis.Line2.Type, 1
TestParameter, AutoAnalysis.Line2.Fix, True
TestParameter, AutoAnalysis.Line2.YAxis, 0
TestParameter, AutoAnalysis.Line2.Point1.Type, 0
TestParameter, AutoAnalysis.Line2.Point1.XY.X, 
TestParameter, AutoAnalysis.Line2.Point1.XY.Y, 
TestParameter, AutoAnalysis.Line2.Point1.Data.Var, 
TestParameter, AutoAnalysis.Line2.Point1.Data.Condition, 
TestParameter, AutoAnalysis.Line2.Point1.Data.Start, false
TestParameter, AutoAnalysis.Line2.Point1.Data.StartVar, 
TestParameter, AutoAnalysis.Line2.Point1.Data.StartCondition, 
TestParameter, AutoAnalysis.Line2.Point2.Type, 0
TestParameter, AutoAnalysis.Line2.Point2.XY.X, 
TestParameter, AutoAnalysis.Line2.Point2.XY.Y, 
TestParameter, AutoAnalysis.Line2.Point2.Data.Var, 
TestParameter, AutoAnalysis.Line2.Point2.Data.Condition, 
TestParameter, AutoAnalysis.Line2.Point2.Data.Start, false
TestParameter, AutoAnalysis.Line2.Point2.Data.StartVar, 
TestParameter, AutoAnalysis.Line2.Point2.Data.StartCondition, 
TestParameter, AutoAnalysis.Line2.GradientExpr, 0
TestParameter, AutoAnalysis.Marker.Enabled, false
TestParameter, AutoAnalysis.Marker.Data.Var, 
TestParameter, AutoAnalysis.Marker.Data.Condition, 
TestParameter, AutoAnalysis.Marker.Data.Start, false
TestParameter, AutoAnalysis.Marker.Data.StartVar, 
TestParameter, AutoAnalysis.Marker.Data.StartCondition, 
MetaData, TestRecord.EntryPoint, true
MetaData, TestRecord.RecordTime, 09/11/2020 16:03:19
MetaData, TestRecord.TestTarget, 
MetaData, TestRecord.IterationIndex, 44
MetaData, TestRecord.Preservation, true
MetaData, TestRecord.Flag, 
MetaData, TestRecord.Remarks, 
MetaData, TestRecord.LinkKey, 94f12583-ada6-43c4-80d0-142f202b8b68
Dimension1, 101, 101, 101
Dimension2, 1, 1, 1
DataName, V1, I1, Ohmic
DataValue, -5, -3.648E-09, 743048233.04092467
DataValue, -4.9, -3.5675999999999996E-09, 
DataValue, -4.8, -3.4737999999999997E-09, 
DataValue, -4.7, -3.4101999999999997E-09, 
DataValue, -4.6000000000000005, -3.3465999999999996E-09, 
DataValue, -4.5, -3.3206E-09, 
DataValue, -4.4, -3.2015999999999998E-09, 
DataValue, -4.3, -3.2051999999999996E-09, 
DataValue, -4.2, -3.1499999999999997E-09, 
DataValue, -4.1, -3.0701999999999996E-09, 
DataValue, -4, -3.0222999999999998E-09, 
DataValue, -3.9, -2.9813999999999997E-09, 
DataValue, -3.8000000000000003, -2.9698E-09, 
DataValue, -3.7, -2.9100999999999997E-09, 
DataValue, -3.6, -2.8661E-09, 
DataValue, -3.5, -2.8056E-09, 
DataValue, -3.4, -2.8034999999999997E-09, 
DataValue, -3.3000000000000003, -2.7723999999999996E-09, 
DataValue, -3.2, -2.7353E-09, 
DataValue, -3.1, -2.7357999999999996E-09, 
DataValue, -3, -2.6540999999999998E-09, 
DataValue, -2.9, -2.6638E-09, 
DataValue, -2.8000000000000003, -2.5751E-09, 
DataValue, -2.7, -2.5988999999999998E-09, 
DataValue, -2.6, -2.5452E-09, 
DataValue, -2.5, -2.5624999999999998E-09, 
DataValue, -2.4, -2.4766E-09, 
DataValue, -2.3000000000000003, -2.4508E-09, 
DataValue, -2.2, -2.4341999999999997E-09, 
DataValue, -2.1, -2.4191999999999997E-09, 
DataValue, -2, -2.3284E-09, 
DataValue, -1.9000000000000001, -2.3236999999999997E-09, 
DataValue, -1.8, -2.2898999999999997E-09, 
DataValue, -1.7, -2.2980999999999997E-09, 
DataValue, -1.6, -2.2332999999999997E-09, 
DataValue, -1.5, -2.1982999999999997E-09, 
DataValue, -1.4000000000000001, -2.1625E-09, 
DataValue, -1.3, -2.1567E-09, 
DataValue, -1.2, -2.1090999999999997E-09, 
DataValue, -1.1, -2.0732E-09, 
DataValue, -1, -1.983E-09, 
DataValue, -0.9, -1.9448999999999998E-09, 
DataValue, -0.8, -1.9095999999999997E-09, 
DataValue, -0.70000000000000007, -1.8417999999999998E-09, 
DataValue, -0.6, -1.7623999999999998E-09, 
DataValue, -0.5, -1.7089999999999998E-09, 
DataValue, -0.4, -1.5796999999999998E-09, 
DataValue, -0.3, -1.3468E-09, 
DataValue, -0.2, -1.042E-09, 
DataValue, -0.1, -3.328E-10, 
DataValue, 0, 1.2439999999999998E-09, 
DataValue, 0.1, 2.2983E-09, 
DataValue, 0.2, 2.6774E-09, 
DataValue, 0.3, 2.9275999999999997E-09, 
DataValue, 0.4, 3.0659999999999995E-09, 
DataValue, 0.5, 3.1726999999999996E-09, 
DataValue, 0.6, 3.2443999999999997E-09, 
DataValue, 0.70000000000000007, 3.3064999999999997E-09, 
DataValue, 0.8, 3.4275999999999996E-09, 
DataValue, 0.9, 3.4831999999999997E-09, 
DataValue, 1, 3.5525999999999995E-09, 
DataValue, 1.1, 3.6639999999999998E-09, 
DataValue, 1.2, 3.6729999999999996E-09, 
DataValue, 1.3, 3.7692E-09, 
DataValue, 1.4000000000000001, 3.8169999999999995E-09, 
DataValue, 1.5, 3.8716E-09, 
DataValue, 1.6, 3.9411E-09, 
DataValue, 1.7, 3.9993999999999992E-09, 
DataValue, 1.8, 3.9584999999999995E-09, 
DataValue, 1.9000000000000001, 4.0589E-09, 
DataValue, 2, 4.1163E-09, 
DataValue, 2.1, 4.1403999999999995E-09, 
DataValue, 2.2, 4.1641E-09, 
DataValue, 2.3000000000000003, 4.1922999999999993E-09, 
DataValue, 2.4, 4.2751E-09, 
DataValue, 2.5, 4.2997999999999996E-09, 
DataValue, 2.6, 4.3354999999999993E-09, 
DataValue, 2.7, 4.2954E-09, 
DataValue, 2.8000000000000003, 4.3628E-09, 
DataValue, 2.9, 4.4158999999999992E-09, 
DataValue, 3, 4.3831999999999995E-09, 
DataValue, 3.1, 4.4000999999999993E-09, 
DataValue, 3.2, 4.4482999999999992E-09, 
DataValue, 3.3000000000000003, 4.465E-09, 
DataValue, 3.4, 4.5171E-09, 
DataValue, 3.5, 4.5791E-09, 
DataValue, 3.6, 4.6231999999999995E-09, 
DataValue, 3.7, 4.6564E-09, 
DataValue, 3.8000000000000003, 4.6508E-09, 
DataValue, 3.9, 4.6791E-09, 
DataValue, 4, 4.7150999999999992E-09, 
DataValue, 4.1, 4.7467999999999994E-09, 
DataValue, 4.2, 4.7234999999999992E-09, 
DataValue, 4.3, 4.7117E-09, 
DataValue, 4.4, 4.8359E-09, 
DataValue, 4.5, 4.867E-09, 
DataValue, 4.6000000000000005, 4.8623999999999993E-09, 
DataValue, 4.7, 4.9256999999999992E-09, 
DataValue, 4.8, 4.9206E-09, 
DataValue, 4.9, 4.9802999999999994E-09, 
DataValue, 5, 4.9863999999999992E-09, 