
SetupTitle, WW
PrimitiveTest, I/V Sweep
TestParameter, Context.MainFrame, B1500A
TestParameter, Channel.UnitType, SMU, SMU
TestParameter, Channel.Unit, SMU1:HP, SMU2:HP
TestParameter, Channel.IName, I1, I4
TestParameter, Channel.VName, V1, V4
TestParameter, Channel.Mode, V, COMMON
TestParameter, Channel.Func, VAR1, CONST
TestParameter, Channel.Index, 
TestParameter, Channel.Time, 
TestParameter, Measurement.Port.Unit, SMU1:HP, SMU2:HP
TestParameter, Measurement.Port.SeriesResistor, NONE, NONE
TestParameter, Measurement.Port.Filter, ON, ON
TestParameter, Measurement.Port.OutputVoltageComparison, 0, 0
TestParameter, Measurement.Primary.Locus, Single
TestParameter, Measurement.Primary.Scale, LINEAR
TestParameter, Measurement.Primary.Start, -5
TestParameter, Measurement.Primary.Stop, 5
TestParameter, Measurement.Primary.Step, 0.1
TestParameter, Measurement.Primary.Compliance, 0.1
TestParameter, Measurement.Primary.PowerCompliance, 0
TestParameter, Measurement.Aborting.Condition, CONTINUE AT ANY
TestParameter, Measurement.PostOutput.Value, START
TestParameter, Measurement.PostOutput.Retention, OFF
TestParameter, Measurement.Bias.Source, -5, 0
TestParameter, Measurement.Bias.Compliance, 0.1, 1
TestParameter, Measurement.Monitor.Unit, SMU1:HP, SMU2:HP
TestParameter, Measurement.Monitor.Adc, HR ADC, HR ADC
TestParameter, Measurement.Monitor.Measurement, Compliance Side, Compliance Side
TestParameter, Measurement.Monitor.RangingMode, AUTO, AUTO
TestParameter, Measurement.Monitor.RangeBoundary, , 
TestParameter, Measurement.Monitor.RangeRating, BY FULL RANGE, BY FULL RANGE
TestParameter, Measurement.Monitor.RangeRatingCoeff, 50, 50
TestParameter, Measurement.Timing.Hold, 0
TestParameter, Measurement.Timing.Delay, 0.001
TestParameter, Measurement.Adc.HighSpeed.Mode, AUTO
TestParameter, Measurement.Adc.HighSpeed.Coeff, 1
TestParameter, Measurement.Adc.HighResolution.AutoZero, OFF
TestParameter, Measurement.Adc.HighResolution.Mode, PLC
TestParameter, Measurement.Adc.HighResolution.Coeff, 1
TestParameter, Measurement.WaitTime.Source.Coeff, 1
TestParameter, Measurement.WaitTime.Source.Offset, 0
TestParameter, Measurement.WaitTime.Monitor.Coeff, 1
TestParameter, Measurement.WaitTime.Monitor.Offset, 0
TestParameter, Function.User.Name, Ohmic
TestParameter, Function.User.Unit, ohm
TestParameter, Function.User.Definition, avg(V1/I1)
TestParameter, Output.Graph.Enabled, true
TestParameter, Output.Graph.XAxis.Data, V1
TestParameter, Output.Graph.XAxis.Scale, Linear
TestParameter, Output.Graph.XAxis.Left, -5
TestParameter, Output.Graph.XAxis.Right, 5
TestParameter, Output.Graph.YAxis.Data, I1
TestParameter, Output.Graph.YAxis.Scale, Linear
TestParameter, Output.Graph.YAxis.Bottom, -0.001
TestParameter, Output.Graph.YAxis.Top, 0.001
TestParameter, Output.Graph.YAxis.Group, 
TestParameter, Output.Scalar.Data, Ohmic
TestParameter, AutoAnalysis.Interpolation, false
TestParameter, AutoAnalysis.Line1.Enabled, false
TestParameter, AutoAnalysis.Line1.Type, 1
TestParameter, AutoAnalysis.Line1.Fix, True
TestParameter, AutoAnalysis.Line1.YAxis, 0
TestParameter, AutoAnalysis.Line1.Point1.Type, 0
TestParameter, AutoAnalysis.Line1.Point1.XY.X, 
TestParameter, AutoAnalysis.Line1.Point1.XY.Y, 
TestParameter, AutoAnalysis.Line1.Point1.Data.Var, 
TestParameter, AutoAnalysis.Line1.Point1.Data.Condition, 
TestParameter, AutoAnalysis.Line1.Point1.Data.Start, false
TestParameter, AutoAnalysis.Line1.Point1.Data.StartVar, 
TestParameter, AutoAnalysis.Line1.Point1.Data.StartCondition, 
TestParameter, AutoAnalysis.Line1.Point2.Type, 0
TestParameter, AutoAnalysis.Line1.Point2.XY.X, 
TestParameter, AutoAnalysis.Line1.Point2.XY.Y, 
TestParameter, AutoAnalysis.Line1.Point2.Data.Var, 
TestParameter, AutoAnalysis.Line1.Point2.Data.Condition, 
TestParameter, AutoAnalysis.Line1.Point2.Data.Start, false
TestParameter, AutoAnalysis.Line1.Point2.Data.StartVar, 
TestParameter, AutoAnalysis.Line1.Point2.Data.StartCondition, 
TestParameter, AutoAnalysis.Line1.GradientExpr, 0
TestParameter, AutoAnalysis.Line2.Enabled, false
TestParameter, AutoAnalysis.Line2.Type, 1
TestParameter, AutoAnalysis.Line2.Fix, True
TestParameter, AutoAnalysis.Line2.YAxis, 0
TestParameter, AutoAnalysis.Line2.Point1.Type, 0
TestParameter, AutoAnalysis.Line2.Point1.XY.X, 
TestParameter, AutoAnalysis.Line2.Point1.XY.Y, 
TestParameter, AutoAnalysis.Line2.Point1.Data.Var, 
TestParameter, AutoAnalysis.Line2.Point1.Data.Condition, 
TestParameter, AutoAnalysis.Line2.Point1.Data.Start, false
TestParameter, AutoAnalysis.Line2.Point1.Data.StartVar, 
TestParameter, AutoAnalysis.Line2.Point1.Data.StartCondition, 
TestParameter, AutoAnalysis.Line2.Point2.Type, 0
TestParameter, AutoAnalysis.Line2.Point2.XY.X, 
TestParameter, AutoAnalysis.Line2.Point2.XY.Y, 
TestParameter, AutoAnalysis.Line2.Point2.Data.Var, 
TestParameter, AutoAnalysis.Line2.Point2.Data.Condition, 
TestParameter, AutoAnalysis.Line2.Point2.Data.Start, false
TestParameter, AutoAnalysis.Line2.Point2.Data.StartVar, 
TestParameter, AutoAnalysis.Line2.Point2.Data.StartCondition, 
TestParameter, AutoAnalysis.Line2.GradientExpr, 0
TestParameter, AutoAnalysis.Marker.Enabled, false
TestParameter, AutoAnalysis.Marker.Data.Var, 
TestParameter, AutoAnalysis.Marker.Data.Condition, 
TestParameter, AutoAnalysis.Marker.Data.Start, false
TestParameter, AutoAnalysis.Marker.Data.StartVar, 
TestParameter, AutoAnalysis.Marker.Data.StartCondition, 
MetaData, TestRecord.EntryPoint, true
MetaData, TestRecord.RecordTime, 09/11/2020 16:02:52
MetaData, TestRecord.TestTarget, 
MetaData, TestRecord.IterationIndex, 43
MetaData, TestRecord.Preservation, true
MetaData, TestRecord.Flag, 
MetaData, TestRecord.Remarks, 
MetaData, TestRecord.LinkKey, 824e7bd5-c607-4451-ba1e-465f2eef85c5
Dimension1, 101, 101, 101
Dimension2, 1, 1, 1
DataName, V1, I1, Ohmic
DataValue, -5, -3.2790999999999996E-09, 902081914.01068282
DataValue, -4.9, -3.1390999999999996E-09, 
DataValue, -4.8, -3.079E-09, 
DataValue, -4.7, -3.0298999999999996E-09, 
DataValue, -4.6000000000000005, -2.9825999999999996E-09, 
DataValue, -4.5, -2.9283E-09, 
DataValue, -4.4, -2.8226999999999998E-09, 
DataValue, -4.3, -2.8559999999999996E-09, 
DataValue, -4.2, -2.8010999999999998E-09, 
DataValue, -4.1, -2.7467999999999997E-09, 
DataValue, -4, -2.6696999999999996E-09, 
DataValue, -3.9, -2.6915999999999997E-09, 
DataValue, -3.8000000000000003, -2.6647999999999997E-09, 
DataValue, -3.7, -2.6325999999999998E-09, 
DataValue, -3.6, -2.5834999999999996E-09, 
DataValue, -3.5, -2.5616E-09, 
DataValue, -3.4, -2.5472999999999997E-09, 
DataValue, -3.3000000000000003, -2.4968E-09, 
DataValue, -3.2, -2.4779E-09, 
DataValue, -3.1, -2.4766E-09, 
DataValue, -3, -2.4103E-09, 
DataValue, -2.9, -2.4013999999999996E-09, 
DataValue, -2.8000000000000003, -2.3699E-09, 
DataValue, -2.7, -2.3439999999999998E-09, 
DataValue, -2.6, -2.2919E-09, 
DataValue, -2.5, -2.3269E-09, 
DataValue, -2.4, -2.2686E-09, 
DataValue, -2.3000000000000003, -2.2354E-09, 
DataValue, -2.2, -2.2355999999999996E-09, 
DataValue, -2.1, -2.1635E-09, 
DataValue, -2, -2.1459E-09, 
DataValue, -1.9000000000000001, -2.1453999999999996E-09, 
DataValue, -1.8, -2.1009999999999997E-09, 
DataValue, -1.7, -2.0616E-09, 
DataValue, -1.6, -2.0577999999999997E-09, 
DataValue, -1.5, -2.0479E-09, 
DataValue, -1.4000000000000001, -1.9699E-09, 
DataValue, -1.3, -1.9658E-09, 
DataValue, -1.2, -1.9669E-09, 
DataValue, -1.1, -1.9152999999999998E-09, 
DataValue, -1, -1.8768E-09, 
DataValue, -0.9, -1.8113999999999998E-09, 
DataValue, -0.8, -1.7546E-09, 
DataValue, -0.70000000000000007, -1.7083999999999998E-09, 
DataValue, -0.6, -1.6726999999999998E-09, 
DataValue, -0.5, -1.5777999999999999E-09, 
DataValue, -0.4, -1.4442999999999999E-09, 
DataValue, -0.3, -1.2674999999999998E-09, 
DataValue, -0.2, -9.586E-10, 
DataValue, -0.1, -4.4889999999999997E-10, 
DataValue, 0, 7.661999999999999E-10, 
DataValue, 0.1, 1.5175999999999998E-09, 
DataValue, 0.2, 1.8566999999999998E-09, 
DataValue, 0.3, 2.0315E-09, 
DataValue, 0.4, 2.1878E-09, 
DataValue, 0.5, 2.2583E-09, 
DataValue, 0.6, 2.3011E-09, 
DataValue, 0.70000000000000007, 2.3838999999999996E-09, 
DataValue, 0.8, 2.4351999999999996E-09, 
DataValue, 0.9, 2.4918999999999996E-09, 
DataValue, 1, 2.5637999999999998E-09, 
DataValue, 1.1, 2.5931999999999997E-09, 
DataValue, 1.2, 2.6446999999999998E-09, 
DataValue, 1.3, 2.6742999999999998E-09, 
DataValue, 1.4000000000000001, 2.7128999999999996E-09, 
DataValue, 1.5, 2.7572999999999996E-09, 
DataValue, 1.6, 2.7706E-09, 
DataValue, 1.7, 2.8049999999999997E-09, 
DataValue, 1.8, 2.8353999999999995E-09, 
DataValue, 1.9000000000000001, 2.8811999999999995E-09, 
DataValue, 2, 2.8906E-09, 
DataValue, 2.1, 2.9175E-09, 
DataValue, 2.2, 2.9577E-09, 
DataValue, 2.3000000000000003, 2.9912999999999998E-09, 
DataValue, 2.4, 3.0124999999999997E-09, 
DataValue, 2.5, 3.0773999999999997E-09, 
DataValue, 2.6, 3.0837999999999996E-09, 
DataValue, 2.7, 3.0781999999999996E-09, 
DataValue, 2.8000000000000003, 3.1476999999999998E-09, 
DataValue, 2.9, 3.1724999999999995E-09, 
DataValue, 3, 3.21192E-09, 
DataValue, 3.1, 3.1867999999999998E-09, 
DataValue, 3.2, 3.30056E-09, 
DataValue, 3.3000000000000003, 3.29389E-09, 
DataValue, 3.4, 3.31119E-09, 
DataValue, 3.5, 3.28795E-09, 
DataValue, 3.6, 3.32619E-09, 
DataValue, 3.7, 3.31779E-09, 
DataValue, 3.8000000000000003, 3.34746E-09, 
DataValue, 3.9, 3.36032E-09, 
DataValue, 4, 3.39674E-09, 
DataValue, 4.1, 3.38314E-09, 
DataValue, 4.2, 3.40631E-09, 
DataValue, 4.3, 3.45376E-09, 
DataValue, 4.4, 3.44429E-09, 
DataValue, 4.5, 3.50727E-09, 
DataValue, 4.6000000000000005, 3.50125E-09, 
DataValue, 4.7, 3.58847E-09, 
DataValue, 4.8, 3.5721E-09, 
DataValue, 4.9, 3.59389E-09, 
DataValue, 5, 3.61548E-09, 