
SetupTitle, WW
PrimitiveTest, I/V Sweep
TestParameter, Context.MainFrame, B1500A
TestParameter, Channel.UnitType, SMU, SMU
TestParameter, Channel.Unit, SMU1:HP, SMU2:HP
TestParameter, Channel.IName, I1, I4
TestParameter, Channel.VName, V1, V4
TestParameter, Channel.Mode, V, COMMON
TestParameter, Channel.Func, VAR1, CONST
TestParameter, Channel.Index, 
TestParameter, Channel.Time, 
TestParameter, Measurement.Port.Unit, SMU1:HP, SMU2:HP
TestParameter, Measurement.Port.SeriesResistor, NONE, NONE
TestParameter, Measurement.Port.Filter, ON, ON
TestParameter, Measurement.Port.OutputVoltageComparison, 0, 0
TestParameter, Measurement.Primary.Locus, Single
TestParameter, Measurement.Primary.Scale, LINEAR
TestParameter, Measurement.Primary.Start, -5
TestParameter, Measurement.Primary.Stop, 5
TestParameter, Measurement.Primary.Step, 0.1
TestParameter, Measurement.Primary.Compliance, 0.1
TestParameter, Measurement.Primary.PowerCompliance, 0
TestParameter, Measurement.Aborting.Condition, CONTINUE AT ANY
TestParameter, Measurement.PostOutput.Value, START
TestParameter, Measurement.PostOutput.Retention, OFF
TestParameter, Measurement.Bias.Source, -5, 0
TestParameter, Measurement.Bias.Compliance, 0.1, 1
TestParameter, Measurement.Monitor.Unit, SMU1:HP, SMU2:HP
TestParameter, Measurement.Monitor.Adc, HR ADC, HR ADC
TestParameter, Measurement.Monitor.Measurement, Compliance Side, Compliance Side
TestParameter, Measurement.Monitor.RangingMode, AUTO, AUTO
TestParameter, Measurement.Monitor.RangeBoundary, , 
TestParameter, Measurement.Monitor.RangeRating, BY FULL RANGE, BY FULL RANGE
TestParameter, Measurement.Monitor.RangeRatingCoeff, 50, 50
TestParameter, Measurement.Timing.Hold, 0
TestParameter, Measurement.Timing.Delay, 0.001
TestParameter, Measurement.Adc.HighSpeed.Mode, AUTO
TestParameter, Measurement.Adc.HighSpeed.Coeff, 1
TestParameter, Measurement.Adc.HighResolution.AutoZero, OFF
TestParameter, Measurement.Adc.HighResolution.Mode, PLC
TestParameter, Measurement.Adc.HighResolution.Coeff, 1
TestParameter, Measurement.WaitTime.Source.Coeff, 1
TestParameter, Measurement.WaitTime.Source.Offset, 0
TestParameter, Measurement.WaitTime.Monitor.Coeff, 1
TestParameter, Measurement.WaitTime.Monitor.Offset, 0
TestParameter, Function.User.Name, Ohmic
TestParameter, Function.User.Unit, ohm
TestParameter, Function.User.Definition, avg(V1/I1)
TestParameter, Output.Graph.Enabled, true
TestParameter, Output.Graph.XAxis.Data, V1
TestParameter, Output.Graph.XAxis.Scale, Linear
TestParameter, Output.Graph.XAxis.Left, -5
TestParameter, Output.Graph.XAxis.Right, 5
TestParameter, Output.Graph.YAxis.Data, I1
TestParameter, Output.Graph.YAxis.Scale, Linear
TestParameter, Output.Graph.YAxis.Bottom, -0.001
TestParameter, Output.Graph.YAxis.Top, 0.001
TestParameter, Output.Graph.YAxis.Group, 
TestParameter, Output.Scalar.Data, Ohmic
TestParameter, AutoAnalysis.Interpolation, false
TestParameter, AutoAnalysis.Line1.Enabled, false
TestParameter, AutoAnalysis.Line1.Type, 1
TestParameter, AutoAnalysis.Line1.Fix, True
TestParameter, AutoAnalysis.Line1.YAxis, 0
TestParameter, AutoAnalysis.Line1.Point1.Type, 0
TestParameter, AutoAnalysis.Line1.Point1.XY.X, 
TestParameter, AutoAnalysis.Line1.Point1.XY.Y, 
TestParameter, AutoAnalysis.Line1.Point1.Data.Var, 
TestParameter, AutoAnalysis.Line1.Point1.Data.Condition, 
TestParameter, AutoAnalysis.Line1.Point1.Data.Start, false
TestParameter, AutoAnalysis.Line1.Point1.Data.StartVar, 
TestParameter, AutoAnalysis.Line1.Point1.Data.StartCondition, 
TestParameter, AutoAnalysis.Line1.Point2.Type, 0
TestParameter, AutoAnalysis.Line1.Point2.XY.X, 
TestParameter, AutoAnalysis.Line1.Point2.XY.Y, 
TestParameter, AutoAnalysis.Line1.Point2.Data.Var, 
TestParameter, AutoAnalysis.Line1.Point2.Data.Condition, 
TestParameter, AutoAnalysis.Line1.Point2.Data.Start, false
TestParameter, AutoAnalysis.Line1.Point2.Data.StartVar, 
TestParameter, AutoAnalysis.Line1.Point2.Data.StartCondition, 
TestParameter, AutoAnalysis.Line1.GradientExpr, 0
TestParameter, AutoAnalysis.Line2.Enabled, false
TestParameter, AutoAnalysis.Line2.Type, 1
TestParameter, AutoAnalysis.Line2.Fix, True
TestParameter, AutoAnalysis.Line2.YAxis, 0
TestParameter, AutoAnalysis.Line2.Point1.Type, 0
TestParameter, AutoAnalysis.Line2.Point1.XY.X, 
TestParameter, AutoAnalysis.Line2.Point1.XY.Y, 
TestParameter, AutoAnalysis.Line2.Point1.Data.Var, 
TestParameter, AutoAnalysis.Line2.Point1.Data.Condition, 
TestParameter, AutoAnalysis.Line2.Point1.Data.Start, false
TestParameter, AutoAnalysis.Line2.Point1.Data.StartVar, 
TestParameter, AutoAnalysis.Line2.Point1.Data.StartCondition, 
TestParameter, AutoAnalysis.Line2.Point2.Type, 0
TestParameter, AutoAnalysis.Line2.Point2.XY.X, 
TestParameter, AutoAnalysis.Line2.Point2.XY.Y, 
TestParameter, AutoAnalysis.Line2.Point2.Data.Var, 
TestParameter, AutoAnalysis.Line2.Point2.Data.Condition, 
TestParameter, AutoAnalysis.Line2.Point2.Data.Start, false
TestParameter, AutoAnalysis.Line2.Point2.Data.StartVar, 
TestParameter, AutoAnalysis.Line2.Point2.Data.StartCondition, 
TestParameter, AutoAnalysis.Line2.GradientExpr, 0
TestParameter, AutoAnalysis.Marker.Enabled, false
TestParameter, AutoAnalysis.Marker.Data.Var, 
TestParameter, AutoAnalysis.Marker.Data.Condition, 
TestParameter, AutoAnalysis.Marker.Data.Start, false
TestParameter, AutoAnalysis.Marker.Data.StartVar, 
TestParameter, AutoAnalysis.Marker.Data.StartCondition, 
MetaData, TestRecord.EntryPoint, true
MetaData, TestRecord.RecordTime, 09/11/2020 15:59:48
MetaData, TestRecord.TestTarget, 
MetaData, TestRecord.IterationIndex, 37
MetaData, TestRecord.Preservation, true
MetaData, TestRecord.Flag, 
MetaData, TestRecord.Remarks, 
MetaData, TestRecord.LinkKey, b6bc2f6a-7ed0-404d-8ee2-a6c295cb044f
Dimension1, 101, 101, 101
Dimension2, 1, 1, 1
DataName, V1, I1, Ohmic
DataValue, -5, -4.4175999999999993E-09, 591485028.475784
DataValue, -4.9, -4.3103E-09, 
DataValue, -4.8, -4.3047999999999994E-09, 
DataValue, -4.7, -4.161E-09, 
DataValue, -4.6000000000000005, -4.0986999999999995E-09, 
DataValue, -4.5, -4.0228E-09, 
DataValue, -4.4, -3.9628999999999992E-09, 
DataValue, -4.3, -3.9066E-09, 
DataValue, -4.2, -3.8502E-09, 
DataValue, -4.1, -3.8282E-09, 
DataValue, -4, -3.7592E-09, 
DataValue, -3.9, -3.6582999999999997E-09, 
DataValue, -3.8000000000000003, -3.6561E-09, 
DataValue, -3.7, -3.5858999999999998E-09, 
DataValue, -3.6, -3.5718999999999996E-09, 
DataValue, -3.5, -3.5139999999999997E-09, 
DataValue, -3.4, -3.4981999999999998E-09, 
DataValue, -3.3000000000000003, -3.4527E-09, 
DataValue, -3.2, -3.4357999999999997E-09, 
DataValue, -3.1, -3.3842999999999996E-09, 
DataValue, -3, -3.3381E-09, 
DataValue, -2.9, -3.2833999999999996E-09, 
DataValue, -2.8000000000000003, -3.2791999999999996E-09, 
DataValue, -2.7, -3.2055999999999998E-09, 
DataValue, -2.6, -3.1932999999999997E-09, 
DataValue, -2.5, -3.1265999999999995E-09, 
DataValue, -2.4, -3.0536E-09, 
DataValue, -2.3000000000000003, -3.0442E-09, 
DataValue, -2.2, -3.0758999999999997E-09, 
DataValue, -2.1, -2.9770999999999996E-09, 
DataValue, -2, -2.9720999999999997E-09, 
DataValue, -1.9000000000000001, -2.9051E-09, 
DataValue, -1.8, -2.8504999999999996E-09, 
DataValue, -1.7, -2.8771E-09, 
DataValue, -1.6, -2.8082E-09, 
DataValue, -1.5, -2.7288999999999995E-09, 
DataValue, -1.4000000000000001, -2.7435E-09, 
DataValue, -1.3, -2.6897E-09, 
DataValue, -1.2, -2.6358999999999996E-09, 
DataValue, -1.1, -2.606E-09, 
DataValue, -1, -2.5246999999999998E-09, 
DataValue, -0.9, -2.4798999999999997E-09, 
DataValue, -0.8, -2.3964999999999997E-09, 
DataValue, -0.70000000000000007, -2.3059999999999997E-09, 
DataValue, -0.6, -2.1703E-09, 
DataValue, -0.5, -2.0584E-09, 
DataValue, -0.4, -1.8540999999999998E-09, 
DataValue, -0.3, -1.6164E-09, 
DataValue, -0.2, -1.2222999999999998E-09, 
DataValue, -0.1, -4.6039999999999993E-10, 
DataValue, 0, 1.3213E-09, 
DataValue, 0.1, 2.5015999999999997E-09, 
DataValue, 0.2, 3.0468E-09, 
DataValue, 0.3, 3.2673999999999997E-09, 
DataValue, 0.4, 3.5322E-09, 
DataValue, 0.5, 3.6454999999999995E-09, 
DataValue, 0.6, 3.7618E-09, 
DataValue, 0.70000000000000007, 3.9122999999999994E-09, 
DataValue, 0.8, 4.0692E-09, 
DataValue, 0.9, 4.1669E-09, 
DataValue, 1, 4.1917999999999995E-09, 
DataValue, 1.1, 4.3265999999999995E-09, 
DataValue, 1.2, 4.4624E-09, 
DataValue, 1.3, 4.5564E-09, 
DataValue, 1.4000000000000001, 4.5737E-09, 
DataValue, 1.5, 4.6651999999999992E-09, 
DataValue, 1.6, 4.6841999999999992E-09, 
DataValue, 1.7, 4.7676E-09, 
DataValue, 1.8, 4.9035999999999995E-09, 
DataValue, 1.9000000000000001, 4.9545E-09, 
DataValue, 2, 4.9796999999999993E-09, 
DataValue, 2.1, 5.1673999999999993E-09, 
DataValue, 2.2, 5.1736E-09, 
DataValue, 2.3000000000000003, 5.2006999999999992E-09, 
DataValue, 2.4, 5.2764999999999993E-09, 
DataValue, 2.5, 5.3758999999999992E-09, 
DataValue, 2.6, 5.4332E-09, 
DataValue, 2.7, 5.4782999999999992E-09, 
DataValue, 2.8000000000000003, 5.5304E-09, 
DataValue, 2.9, 5.5186999999999992E-09, 
DataValue, 3, 5.6480999999999991E-09, 
DataValue, 3.1, 5.7257E-09, 
DataValue, 3.2, 5.7365E-09, 
DataValue, 3.3000000000000003, 5.7947999999999991E-09, 
DataValue, 3.4, 5.8648E-09, 
DataValue, 3.5, 5.8739999999999994E-09, 
DataValue, 3.6, 5.8957E-09, 
DataValue, 3.7, 6.0446999999999992E-09, 
DataValue, 3.8000000000000003, 6.053599999999999E-09, 
DataValue, 3.9, 6.125099999999999E-09, 
DataValue, 4, 6.1567E-09, 
DataValue, 4.1, 6.2252999999999992E-09, 
DataValue, 4.2, 6.3459E-09, 
DataValue, 4.3, 6.3746999999999995E-09, 
DataValue, 4.4, 6.4714999999999994E-09, 
DataValue, 4.5, 6.5801999999999993E-09, 
DataValue, 4.6000000000000005, 6.6069E-09, 
DataValue, 4.7, 6.706199999999999E-09, 
DataValue, 4.8, 6.7745E-09, 
DataValue, 4.9, 6.8175E-09, 
DataValue, 5, 6.8974999999999994E-09, 