
SetupTitle, WW
PrimitiveTest, I/V Sweep
TestParameter, Context.MainFrame, B1500A
TestParameter, Channel.UnitType, SMU, SMU
TestParameter, Channel.Unit, SMU1:HP, SMU2:HP
TestParameter, Channel.IName, I1, I4
TestParameter, Channel.VName, V1, V4
TestParameter, Channel.Mode, V, COMMON
TestParameter, Channel.Func, VAR1, CONST
TestParameter, Channel.Index, 
TestParameter, Channel.Time, 
TestParameter, Measurement.Port.Unit, SMU1:HP, SMU2:HP
TestParameter, Measurement.Port.SeriesResistor, NONE, NONE
TestParameter, Measurement.Port.Filter, ON, ON
TestParameter, Measurement.Port.OutputVoltageComparison, 0, 0
TestParameter, Measurement.Primary.Locus, Single
TestParameter, Measurement.Primary.Scale, LINEAR
TestParameter, Measurement.Primary.Start, -5
TestParameter, Measurement.Primary.Stop, 5
TestParameter, Measurement.Primary.Step, 0.1
TestParameter, Measurement.Primary.Compliance, 0.1
TestParameter, Measurement.Primary.PowerCompliance, 0
TestParameter, Measurement.Aborting.Condition, CONTINUE AT ANY
TestParameter, Measurement.PostOutput.Value, START
TestParameter, Measurement.PostOutput.Retention, OFF
TestParameter, Measurement.Bias.Source, -5, 0
TestParameter, Measurement.Bias.Compliance, 0.1, 1
TestParameter, Measurement.Monitor.Unit, SMU1:HP, SMU2:HP
TestParameter, Measurement.Monitor.Adc, HR ADC, HR ADC
TestParameter, Measurement.Monitor.Measurement, Compliance Side, Compliance Side
TestParameter, Measurement.Monitor.RangingMode, AUTO, AUTO
TestParameter, Measurement.Monitor.RangeBoundary, , 
TestParameter, Measurement.Monitor.RangeRating, BY FULL RANGE, BY FULL RANGE
TestParameter, Measurement.Monitor.RangeRatingCoeff, 50, 50
TestParameter, Measurement.Timing.Hold, 0
TestParameter, Measurement.Timing.Delay, 0.001
TestParameter, Measurement.Adc.HighSpeed.Mode, AUTO
TestParameter, Measurement.Adc.HighSpeed.Coeff, 1
TestParameter, Measurement.Adc.HighResolution.AutoZero, OFF
TestParameter, Measurement.Adc.HighResolution.Mode, PLC
TestParameter, Measurement.Adc.HighResolution.Coeff, 1
TestParameter, Measurement.WaitTime.Source.Coeff, 1
TestParameter, Measurement.WaitTime.Source.Offset, 0
TestParameter, Measurement.WaitTime.Monitor.Coeff, 1
TestParameter, Measurement.WaitTime.Monitor.Offset, 0
TestParameter, Function.User.Name, Ohmic
TestParameter, Function.User.Unit, ohm
TestParameter, Function.User.Definition, avg(V1/I1)
TestParameter, Output.Graph.Enabled, true
TestParameter, Output.Graph.XAxis.Data, V1
TestParameter, Output.Graph.XAxis.Scale, Linear
TestParameter, Output.Graph.XAxis.Left, -5
TestParameter, Output.Graph.XAxis.Right, 5
TestParameter, Output.Graph.YAxis.Data, I1
TestParameter, Output.Graph.YAxis.Scale, Linear
TestParameter, Output.Graph.YAxis.Bottom, -0.001
TestParameter, Output.Graph.YAxis.Top, 0.001
TestParameter, Output.Graph.YAxis.Group, 
TestParameter, Output.Scalar.Data, Ohmic
TestParameter, AutoAnalysis.Interpolation, false
TestParameter, AutoAnalysis.Line1.Enabled, false
TestParameter, AutoAnalysis.Line1.Type, 1
TestParameter, AutoAnalysis.Line1.Fix, True
TestParameter, AutoAnalysis.Line1.YAxis, 0
TestParameter, AutoAnalysis.Line1.Point1.Type, 0
TestParameter, AutoAnalysis.Line1.Point1.XY.X, 
TestParameter, AutoAnalysis.Line1.Point1.XY.Y, 
TestParameter, AutoAnalysis.Line1.Point1.Data.Var, 
TestParameter, AutoAnalysis.Line1.Point1.Data.Condition, 
TestParameter, AutoAnalysis.Line1.Point1.Data.Start, false
TestParameter, AutoAnalysis.Line1.Point1.Data.StartVar, 
TestParameter, AutoAnalysis.Line1.Point1.Data.StartCondition, 
TestParameter, AutoAnalysis.Line1.Point2.Type, 0
TestParameter, AutoAnalysis.Line1.Point2.XY.X, 
TestParameter, AutoAnalysis.Line1.Point2.XY.Y, 
TestParameter, AutoAnalysis.Line1.Point2.Data.Var, 
TestParameter, AutoAnalysis.Line1.Point2.Data.Condition, 
TestParameter, AutoAnalysis.Line1.Point2.Data.Start, false
TestParameter, AutoAnalysis.Line1.Point2.Data.StartVar, 
TestParameter, AutoAnalysis.Line1.Point2.Data.StartCondition, 
TestParameter, AutoAnalysis.Line1.GradientExpr, 0
TestParameter, AutoAnalysis.Line2.Enabled, false
TestParameter, AutoAnalysis.Line2.Type, 1
TestParameter, AutoAnalysis.Line2.Fix, True
TestParameter, AutoAnalysis.Line2.YAxis, 0
TestParameter, AutoAnalysis.Line2.Point1.Type, 0
TestParameter, AutoAnalysis.Line2.Point1.XY.X, 
TestParameter, AutoAnalysis.Line2.Point1.XY.Y, 
TestParameter, AutoAnalysis.Line2.Point1.Data.Var, 
TestParameter, AutoAnalysis.Line2.Point1.Data.Condition, 
TestParameter, AutoAnalysis.Line2.Point1.Data.Start, false
TestParameter, AutoAnalysis.Line2.Point1.Data.StartVar, 
TestParameter, AutoAnalysis.Line2.Point1.Data.StartCondition, 
TestParameter, AutoAnalysis.Line2.Point2.Type, 0
TestParameter, AutoAnalysis.Line2.Point2.XY.X, 
TestParameter, AutoAnalysis.Line2.Point2.XY.Y, 
TestParameter, AutoAnalysis.Line2.Point2.Data.Var, 
TestParameter, AutoAnalysis.Line2.Point2.Data.Condition, 
TestParameter, AutoAnalysis.Line2.Point2.Data.Start, false
TestParameter, AutoAnalysis.Line2.Point2.Data.StartVar, 
TestParameter, AutoAnalysis.Line2.Point2.Data.StartCondition, 
TestParameter, AutoAnalysis.Line2.GradientExpr, 0
TestParameter, AutoAnalysis.Marker.Enabled, false
TestParameter, AutoAnalysis.Marker.Data.Var, 
TestParameter, AutoAnalysis.Marker.Data.Condition, 
TestParameter, AutoAnalysis.Marker.Data.Start, false
TestParameter, AutoAnalysis.Marker.Data.StartVar, 
TestParameter, AutoAnalysis.Marker.Data.StartCondition, 
MetaData, TestRecord.EntryPoint, true
MetaData, TestRecord.RecordTime, 09/11/2020 15:59:21
MetaData, TestRecord.TestTarget, 
MetaData, TestRecord.IterationIndex, 36
MetaData, TestRecord.Preservation, true
MetaData, TestRecord.Flag, 
MetaData, TestRecord.Remarks, 
MetaData, TestRecord.LinkKey, 85dc9b12-412a-4b2b-8822-e590691c71b3
Dimension1, 101, 101, 101
Dimension2, 1, 1, 1
DataName, V1, I1, Ohmic
DataValue, -5, -4.5981E-09, 571156791.58224308
DataValue, -4.9, -4.4764E-09, 
DataValue, -4.8, -4.3654E-09, 
DataValue, -4.7, -4.2863E-09, 
DataValue, -4.6000000000000005, -4.1926999999999994E-09, 
DataValue, -4.5, -4.0954E-09, 
DataValue, -4.4, -4.0355E-09, 
DataValue, -4.3, -4.0289999999999992E-09, 
DataValue, -4.2, -4.0299E-09, 
DataValue, -4.1, -3.9291E-09, 
DataValue, -4, -3.8614999999999995E-09, 
DataValue, -3.9, -3.7761E-09, 
DataValue, -3.8000000000000003, -3.7977E-09, 
DataValue, -3.7, -3.7383999999999994E-09, 
DataValue, -3.6, -3.6766999999999995E-09, 
DataValue, -3.5, -3.6248999999999998E-09, 
DataValue, -3.4, -3.5947999999999996E-09, 
DataValue, -3.3000000000000003, -3.5037E-09, 
DataValue, -3.2, -3.4535999999999997E-09, 
DataValue, -3.1, -3.4288999999999996E-09, 
DataValue, -3, -3.4219999999999996E-09, 
DataValue, -2.9, -3.3588999999999996E-09, 
DataValue, -2.8000000000000003, -3.3334999999999997E-09, 
DataValue, -2.7, -3.2358999999999995E-09, 
DataValue, -2.6, -3.2572E-09, 
DataValue, -2.5, -3.2160999999999997E-09, 
DataValue, -2.4, -3.2354E-09, 
DataValue, -2.3000000000000003, -3.2052999999999997E-09, 
DataValue, -2.2, -3.1125999999999998E-09, 
DataValue, -2.1, -3.0864999999999996E-09, 
DataValue, -2, -3.0604999999999995E-09, 
DataValue, -1.9000000000000001, -3.0347E-09, 
DataValue, -1.8, -2.9613999999999997E-09, 
DataValue, -1.7, -2.9073999999999997E-09, 
DataValue, -1.6, -2.8889E-09, 
DataValue, -1.5, -2.8412999999999997E-09, 
DataValue, -1.4000000000000001, -2.7908E-09, 
DataValue, -1.3, -2.7293999999999997E-09, 
DataValue, -1.2, -2.7045E-09, 
DataValue, -1.1, -2.6498999999999997E-09, 
DataValue, -1, -2.5909E-09, 
DataValue, -0.9, -2.5200999999999996E-09, 
DataValue, -0.8, -2.4772999999999997E-09, 
DataValue, -0.70000000000000007, -2.3345999999999998E-09, 
DataValue, -0.6, -2.2400999999999997E-09, 
DataValue, -0.5, -2.0867E-09, 
DataValue, -0.4, -1.8974999999999997E-09, 
DataValue, -0.3, -1.6866999999999998E-09, 
DataValue, -0.2, -1.2440999999999999E-09, 
DataValue, -0.1, -4.641E-10, 
DataValue, 0, 1.4393999999999998E-09, 
DataValue, 0.1, 2.6797999999999998E-09, 
DataValue, 0.2, 3.2278999999999996E-09, 
DataValue, 0.3, 3.5582999999999996E-09, 
DataValue, 0.4, 3.7565E-09, 
DataValue, 0.5, 3.9362E-09, 
DataValue, 0.6, 4.0362999999999994E-09, 
DataValue, 0.70000000000000007, 4.128E-09, 
DataValue, 0.8, 4.2416999999999995E-09, 
DataValue, 0.9, 4.4125E-09, 
DataValue, 1, 4.5056E-09, 
DataValue, 1.1, 4.6035999999999993E-09, 
DataValue, 1.2, 4.6679999999999992E-09, 
DataValue, 1.3, 4.7165999999999992E-09, 
DataValue, 1.4000000000000001, 4.8580999999999992E-09, 
DataValue, 1.5, 4.8945E-09, 
DataValue, 1.6, 4.9936E-09, 
DataValue, 1.7, 5.039E-09, 
DataValue, 1.8, 5.1325E-09, 
DataValue, 1.9000000000000001, 5.2161E-09, 
DataValue, 2, 5.2775999999999992E-09, 
DataValue, 2.1, 5.3537E-09, 
DataValue, 2.2, 5.3764999999999994E-09, 
DataValue, 2.3000000000000003, 5.484E-09, 
DataValue, 2.4, 5.5348999999999992E-09, 
DataValue, 2.5, 5.5667999999999994E-09, 
DataValue, 2.6, 5.5875999999999992E-09, 
DataValue, 2.7, 5.8056999999999995E-09, 
DataValue, 2.8000000000000003, 5.7553999999999994E-09, 
DataValue, 2.9, 5.8614E-09, 
DataValue, 3, 5.8973999999999991E-09, 
DataValue, 3.1, 5.9405999999999991E-09, 
DataValue, 3.2, 6.0020999999999994E-09, 
DataValue, 3.3000000000000003, 6.0740999999999991E-09, 
DataValue, 3.4, 6.1863999999999992E-09, 
DataValue, 3.5, 6.1986999999999993E-09, 
DataValue, 3.6, 6.2783999999999993E-09, 
DataValue, 3.7, 6.3774999999999995E-09, 
DataValue, 3.8000000000000003, 6.4334E-09, 
DataValue, 3.9, 6.4137999999999995E-09, 
DataValue, 4, 6.476799999999999E-09, 
DataValue, 4.1, 6.5587999999999993E-09, 
DataValue, 4.2, 6.6721E-09, 
DataValue, 4.3, 6.7166999999999994E-09, 
DataValue, 4.4, 6.7935999999999994E-09, 
DataValue, 4.5, 6.7743E-09, 
DataValue, 4.6000000000000005, 6.8910999999999991E-09, 
DataValue, 4.7, 6.9951999999999992E-09, 
DataValue, 4.8, 7.0638999999999992E-09, 
DataValue, 4.9, 7.1288E-09, 
DataValue, 5, 7.194199999999999E-09, 