
SetupTitle, WW
PrimitiveTest, I/V Sweep
TestParameter, Context.MainFrame, B1500A
TestParameter, Channel.UnitType, SMU, SMU
TestParameter, Channel.Unit, SMU1:HP, SMU2:HP
TestParameter, Channel.IName, I1, I4
TestParameter, Channel.VName, V1, V4
TestParameter, Channel.Mode, V, COMMON
TestParameter, Channel.Func, VAR1, CONST
TestParameter, Channel.Index, 
TestParameter, Channel.Time, 
TestParameter, Measurement.Port.Unit, SMU1:HP, SMU2:HP
TestParameter, Measurement.Port.SeriesResistor, NONE, NONE
TestParameter, Measurement.Port.Filter, ON, ON
TestParameter, Measurement.Port.OutputVoltageComparison, 0, 0
TestParameter, Measurement.Primary.Locus, Single
TestParameter, Measurement.Primary.Scale, LINEAR
TestParameter, Measurement.Primary.Start, -5
TestParameter, Measurement.Primary.Stop, 5
TestParameter, Measurement.Primary.Step, 0.1
TestParameter, Measurement.Primary.Compliance, 0.1
TestParameter, Measurement.Primary.PowerCompliance, 0
TestParameter, Measurement.Aborting.Condition, CONTINUE AT ANY
TestParameter, Measurement.PostOutput.Value, START
TestParameter, Measurement.PostOutput.Retention, OFF
TestParameter, Measurement.Bias.Source, -5, 0
TestParameter, Measurement.Bias.Compliance, 0.1, 1
TestParameter, Measurement.Monitor.Unit, SMU1:HP, SMU2:HP
TestParameter, Measurement.Monitor.Adc, HR ADC, HR ADC
TestParameter, Measurement.Monitor.Measurement, Compliance Side, Compliance Side
TestParameter, Measurement.Monitor.RangingMode, AUTO, AUTO
TestParameter, Measurement.Monitor.RangeBoundary, , 
TestParameter, Measurement.Monitor.RangeRating, BY FULL RANGE, BY FULL RANGE
TestParameter, Measurement.Monitor.RangeRatingCoeff, 50, 50
TestParameter, Measurement.Timing.Hold, 0
TestParameter, Measurement.Timing.Delay, 0.001
TestParameter, Measurement.Adc.HighSpeed.Mode, AUTO
TestParameter, Measurement.Adc.HighSpeed.Coeff, 1
TestParameter, Measurement.Adc.HighResolution.AutoZero, OFF
TestParameter, Measurement.Adc.HighResolution.Mode, PLC
TestParameter, Measurement.Adc.HighResolution.Coeff, 1
TestParameter, Measurement.WaitTime.Source.Coeff, 1
TestParameter, Measurement.WaitTime.Source.Offset, 0
TestParameter, Measurement.WaitTime.Monitor.Coeff, 1
TestParameter, Measurement.WaitTime.Monitor.Offset, 0
TestParameter, Function.User.Name, Ohmic
TestParameter, Function.User.Unit, ohm
TestParameter, Function.User.Definition, avg(V1/I1)
TestParameter, Output.Graph.Enabled, true
TestParameter, Output.Graph.XAxis.Data, V1
TestParameter, Output.Graph.XAxis.Scale, Linear
TestParameter, Output.Graph.XAxis.Left, -5
TestParameter, Output.Graph.XAxis.Right, 5
TestParameter, Output.Graph.YAxis.Data, I1
TestParameter, Output.Graph.YAxis.Scale, Linear
TestParameter, Output.Graph.YAxis.Bottom, -0.001
TestParameter, Output.Graph.YAxis.Top, 0.001
TestParameter, Output.Graph.YAxis.Group, 
TestParameter, Output.Scalar.Data, Ohmic
TestParameter, AutoAnalysis.Interpolation, false
TestParameter, AutoAnalysis.Line1.Enabled, false
TestParameter, AutoAnalysis.Line1.Type, 1
TestParameter, AutoAnalysis.Line1.Fix, True
TestParameter, AutoAnalysis.Line1.YAxis, 0
TestParameter, AutoAnalysis.Line1.Point1.Type, 0
TestParameter, AutoAnalysis.Line1.Point1.XY.X, 
TestParameter, AutoAnalysis.Line1.Point1.XY.Y, 
TestParameter, AutoAnalysis.Line1.Point1.Data.Var, 
TestParameter, AutoAnalysis.Line1.Point1.Data.Condition, 
TestParameter, AutoAnalysis.Line1.Point1.Data.Start, false
TestParameter, AutoAnalysis.Line1.Point1.Data.StartVar, 
TestParameter, AutoAnalysis.Line1.Point1.Data.StartCondition, 
TestParameter, AutoAnalysis.Line1.Point2.Type, 0
TestParameter, AutoAnalysis.Line1.Point2.XY.X, 
TestParameter, AutoAnalysis.Line1.Point2.XY.Y, 
TestParameter, AutoAnalysis.Line1.Point2.Data.Var, 
TestParameter, AutoAnalysis.Line1.Point2.Data.Condition, 
TestParameter, AutoAnalysis.Line1.Point2.Data.Start, false
TestParameter, AutoAnalysis.Line1.Point2.Data.StartVar, 
TestParameter, AutoAnalysis.Line1.Point2.Data.StartCondition, 
TestParameter, AutoAnalysis.Line1.GradientExpr, 0
TestParameter, AutoAnalysis.Line2.Enabled, false
TestParameter, AutoAnalysis.Line2.Type, 1
TestParameter, AutoAnalysis.Line2.Fix, True
TestParameter, AutoAnalysis.Line2.YAxis, 0
TestParameter, AutoAnalysis.Line2.Point1.Type, 0
TestParameter, AutoAnalysis.Line2.Point1.XY.X, 
TestParameter, AutoAnalysis.Line2.Point1.XY.Y, 
TestParameter, AutoAnalysis.Line2.Point1.Data.Var, 
TestParameter, AutoAnalysis.Line2.Point1.Data.Condition, 
TestParameter, AutoAnalysis.Line2.Point1.Data.Start, false
TestParameter, AutoAnalysis.Line2.Point1.Data.StartVar, 
TestParameter, AutoAnalysis.Line2.Point1.Data.StartCondition, 
TestParameter, AutoAnalysis.Line2.Point2.Type, 0
TestParameter, AutoAnalysis.Line2.Point2.XY.X, 
TestParameter, AutoAnalysis.Line2.Point2.XY.Y, 
TestParameter, AutoAnalysis.Line2.Point2.Data.Var, 
TestParameter, AutoAnalysis.Line2.Point2.Data.Condition, 
TestParameter, AutoAnalysis.Line2.Point2.Data.Start, false
TestParameter, AutoAnalysis.Line2.Point2.Data.StartVar, 
TestParameter, AutoAnalysis.Line2.Point2.Data.StartCondition, 
TestParameter, AutoAnalysis.Line2.GradientExpr, 0
TestParameter, AutoAnalysis.Marker.Enabled, false
TestParameter, AutoAnalysis.Marker.Data.Var, 
TestParameter, AutoAnalysis.Marker.Data.Condition, 
TestParameter, AutoAnalysis.Marker.Data.Start, false
TestParameter, AutoAnalysis.Marker.Data.StartVar, 
TestParameter, AutoAnalysis.Marker.Data.StartCondition, 
MetaData, TestRecord.EntryPoint, true
MetaData, TestRecord.RecordTime, 09/11/2020 15:58:18
MetaData, TestRecord.TestTarget, 
MetaData, TestRecord.IterationIndex, 34
MetaData, TestRecord.Preservation, true
MetaData, TestRecord.Flag, 
MetaData, TestRecord.Remarks, 
MetaData, TestRecord.LinkKey, 3ab0a9bf-21d3-4bc7-afdc-87e3c86d6c3e
Dimension1, 101, 101, 101
Dimension2, 1, 1, 1
DataName, V1, I1, Ohmic
DataValue, -5, -4.7346999999999994E-09, 543084875.97160184
DataValue, -4.9, -4.5858999999999992E-09, 
DataValue, -4.8, -4.506E-09, 
DataValue, -4.7, -4.4333999999999992E-09, 
DataValue, -4.6000000000000005, -4.3684E-09, 
DataValue, -4.5, -4.2742E-09, 
DataValue, -4.4, -4.2377999999999996E-09, 
DataValue, -4.3, -4.1485999999999995E-09, 
DataValue, -4.2, -4.1425999999999993E-09, 
DataValue, -4.1, -4.1003E-09, 
DataValue, -4, -4.025E-09, 
DataValue, -3.9, -3.9362E-09, 
DataValue, -3.8000000000000003, -3.9275E-09, 
DataValue, -3.7, -3.8124E-09, 
DataValue, -3.6, -3.8202E-09, 
DataValue, -3.5, -3.7908999999999994E-09, 
DataValue, -3.4, -3.7387E-09, 
DataValue, -3.3000000000000003, -3.679E-09, 
DataValue, -3.2, -3.6364999999999996E-09, 
DataValue, -3.1, -3.5898999999999998E-09, 
DataValue, -3, -3.5831999999999998E-09, 
DataValue, -2.9, -3.5170999999999998E-09, 
DataValue, -2.8000000000000003, -3.4963999999999996E-09, 
DataValue, -2.7, -3.4078999999999998E-09, 
DataValue, -2.6, -3.3950999999999996E-09, 
DataValue, -2.5, -3.3339E-09, 
DataValue, -2.4, -3.2962E-09, 
DataValue, -2.3000000000000003, -3.2909E-09, 
DataValue, -2.2, -3.2079999999999997E-09, 
DataValue, -2.1, -3.2406999999999998E-09, 
DataValue, -2, -3.1572E-09, 
DataValue, -1.9000000000000001, -3.1189999999999997E-09, 
DataValue, -1.8, -3.0041999999999996E-09, 
DataValue, -1.7, -3.0351999999999996E-09, 
DataValue, -1.6, -2.9879999999999996E-09, 
DataValue, -1.5, -2.9729999999999996E-09, 
DataValue, -1.4000000000000001, -2.8208999999999996E-09, 
DataValue, -1.3, -2.8243E-09, 
DataValue, -1.2, -2.7946E-09, 
DataValue, -1.1, -2.6903999999999997E-09, 
DataValue, -1, -2.6581999999999998E-09, 
DataValue, -0.9, -2.6197999999999996E-09, 
DataValue, -0.8, -2.5221E-09, 
DataValue, -0.70000000000000007, -2.3894999999999997E-09, 
DataValue, -0.6, -2.3024E-09, 
DataValue, -0.5, -2.1357999999999996E-09, 
DataValue, -0.4, -1.9495E-09, 
DataValue, -0.3, -1.6251E-09, 
DataValue, -0.2, -1.317E-09, 
DataValue, -0.1, -4.614E-10, 
DataValue, 0, 1.5383999999999998E-09, 
DataValue, 0.1, 2.935E-09, 
DataValue, 0.2, 3.4793999999999998E-09, 
DataValue, 0.3, 3.8208E-09, 
DataValue, 0.4, 4.0654E-09, 
DataValue, 0.5, 4.2576999999999995E-09, 
DataValue, 0.6, 4.354E-09, 
DataValue, 0.70000000000000007, 4.4875999999999993E-09, 
DataValue, 0.8, 4.6264999999999993E-09, 
DataValue, 0.9, 4.7044E-09, 
DataValue, 1, 4.8007E-09, 
DataValue, 1.1, 4.9599999999999994E-09, 
DataValue, 1.2, 5.0714E-09, 
DataValue, 1.3, 5.1262999999999996E-09, 
DataValue, 1.4000000000000001, 5.2407E-09, 
DataValue, 1.5, 5.2621999999999995E-09, 
DataValue, 1.6, 5.3633999999999991E-09, 
DataValue, 1.7, 5.5037999999999991E-09, 
DataValue, 1.8, 5.5568999999999993E-09, 
DataValue, 1.9000000000000001, 5.6980999999999996E-09, 
DataValue, 2, 5.7071E-09, 
DataValue, 2.1, 5.6765999999999992E-09, 
DataValue, 2.2, 5.7797999999999994E-09, 
DataValue, 2.3000000000000003, 5.8986999999999991E-09, 
DataValue, 2.4, 6.0456999999999995E-09, 
DataValue, 2.5, 6.1003999999999993E-09, 
DataValue, 2.6, 6.0835999999999991E-09, 
DataValue, 2.7, 6.1029E-09, 
DataValue, 2.8000000000000003, 6.2053999999999993E-09, 
DataValue, 2.9, 6.2388999999999992E-09, 
DataValue, 3, 6.3969999999999993E-09, 
DataValue, 3.1, 6.4481E-09, 
DataValue, 3.2, 6.4948999999999992E-09, 
DataValue, 3.3000000000000003, 6.5105999999999994E-09, 
DataValue, 3.4, 6.6300999999999993E-09, 
DataValue, 3.5, 6.645299999999999E-09, 
DataValue, 3.6, 6.716999999999999E-09, 
DataValue, 3.7, 6.8203999999999993E-09, 
DataValue, 3.8000000000000003, 6.8722999999999991E-09, 
DataValue, 3.9, 6.9667999999999996E-09, 
DataValue, 4, 7.0480999999999993E-09, 
DataValue, 4.1, 7.0655999999999993E-09, 
DataValue, 4.2, 7.1790999999999989E-09, 
DataValue, 4.3, 7.2528999999999992E-09, 
DataValue, 4.4, 7.3247999999999994E-09, 
DataValue, 4.5, 7.4107E-09, 
DataValue, 4.6000000000000005, 7.4866E-09, 
DataValue, 4.7, 7.5694E-09, 
DataValue, 4.8, 7.6506999999999988E-09, 
DataValue, 4.9, 7.6944E-09, 
DataValue, 5, 7.8085E-09, 