
SetupTitle, WW
PrimitiveTest, I/V Sweep
TestParameter, Context.MainFrame, B1500A
TestParameter, Channel.UnitType, SMU, SMU
TestParameter, Channel.Unit, SMU1:HP, SMU2:HP
TestParameter, Channel.IName, I1, I4
TestParameter, Channel.VName, V1, V4
TestParameter, Channel.Mode, V, COMMON
TestParameter, Channel.Func, VAR1, CONST
TestParameter, Channel.Index, 
TestParameter, Channel.Time, 
TestParameter, Measurement.Port.Unit, SMU1:HP, SMU2:HP
TestParameter, Measurement.Port.SeriesResistor, NONE, NONE
TestParameter, Measurement.Port.Filter, ON, ON
TestParameter, Measurement.Port.OutputVoltageComparison, 0, 0
TestParameter, Measurement.Primary.Locus, Single
TestParameter, Measurement.Primary.Scale, LINEAR
TestParameter, Measurement.Primary.Start, -5
TestParameter, Measurement.Primary.Stop, 5
TestParameter, Measurement.Primary.Step, 0.1
TestParameter, Measurement.Primary.Compliance, 0.1
TestParameter, Measurement.Primary.PowerCompliance, 0
TestParameter, Measurement.Aborting.Condition, CONTINUE AT ANY
TestParameter, Measurement.PostOutput.Value, START
TestParameter, Measurement.PostOutput.Retention, OFF
TestParameter, Measurement.Bias.Source, -5, 0
TestParameter, Measurement.Bias.Compliance, 0.1, 1
TestParameter, Measurement.Monitor.Unit, SMU1:HP, SMU2:HP
TestParameter, Measurement.Monitor.Adc, HR ADC, HR ADC
TestParameter, Measurement.Monitor.Measurement, Compliance Side, Compliance Side
TestParameter, Measurement.Monitor.RangingMode, AUTO, AUTO
TestParameter, Measurement.Monitor.RangeBoundary, , 
TestParameter, Measurement.Monitor.RangeRating, BY FULL RANGE, BY FULL RANGE
TestParameter, Measurement.Monitor.RangeRatingCoeff, 50, 50
TestParameter, Measurement.Timing.Hold, 0
TestParameter, Measurement.Timing.Delay, 0.001
TestParameter, Measurement.Adc.HighSpeed.Mode, AUTO
TestParameter, Measurement.Adc.HighSpeed.Coeff, 1
TestParameter, Measurement.Adc.HighResolution.AutoZero, OFF
TestParameter, Measurement.Adc.HighResolution.Mode, PLC
TestParameter, Measurement.Adc.HighResolution.Coeff, 1
TestParameter, Measurement.WaitTime.Source.Coeff, 1
TestParameter, Measurement.WaitTime.Source.Offset, 0
TestParameter, Measurement.WaitTime.Monitor.Coeff, 1
TestParameter, Measurement.WaitTime.Monitor.Offset, 0
TestParameter, Function.User.Name, Ohmic
TestParameter, Function.User.Unit, ohm
TestParameter, Function.User.Definition, avg(V1/I1)
TestParameter, Output.Graph.Enabled, true
TestParameter, Output.Graph.XAxis.Data, V1
TestParameter, Output.Graph.XAxis.Scale, Linear
TestParameter, Output.Graph.XAxis.Left, -5
TestParameter, Output.Graph.XAxis.Right, 5
TestParameter, Output.Graph.YAxis.Data, I1
TestParameter, Output.Graph.YAxis.Scale, Linear
TestParameter, Output.Graph.YAxis.Bottom, -0.001
TestParameter, Output.Graph.YAxis.Top, 0.001
TestParameter, Output.Graph.YAxis.Group, 
TestParameter, Output.Scalar.Data, Ohmic
TestParameter, AutoAnalysis.Interpolation, false
TestParameter, AutoAnalysis.Line1.Enabled, false
TestParameter, AutoAnalysis.Line1.Type, 1
TestParameter, AutoAnalysis.Line1.Fix, True
TestParameter, AutoAnalysis.Line1.YAxis, 0
TestParameter, AutoAnalysis.Line1.Point1.Type, 0
TestParameter, AutoAnalysis.Line1.Point1.XY.X, 
TestParameter, AutoAnalysis.Line1.Point1.XY.Y, 
TestParameter, AutoAnalysis.Line1.Point1.Data.Var, 
TestParameter, AutoAnalysis.Line1.Point1.Data.Condition, 
TestParameter, AutoAnalysis.Line1.Point1.Data.Start, false
TestParameter, AutoAnalysis.Line1.Point1.Data.StartVar, 
TestParameter, AutoAnalysis.Line1.Point1.Data.StartCondition, 
TestParameter, AutoAnalysis.Line1.Point2.Type, 0
TestParameter, AutoAnalysis.Line1.Point2.XY.X, 
TestParameter, AutoAnalysis.Line1.Point2.XY.Y, 
TestParameter, AutoAnalysis.Line1.Point2.Data.Var, 
TestParameter, AutoAnalysis.Line1.Point2.Data.Condition, 
TestParameter, AutoAnalysis.Line1.Point2.Data.Start, false
TestParameter, AutoAnalysis.Line1.Point2.Data.StartVar, 
TestParameter, AutoAnalysis.Line1.Point2.Data.StartCondition, 
TestParameter, AutoAnalysis.Line1.GradientExpr, 0
TestParameter, AutoAnalysis.Line2.Enabled, false
TestParameter, AutoAnalysis.Line2.Type, 1
TestParameter, AutoAnalysis.Line2.Fix, True
TestParameter, AutoAnalysis.Line2.YAxis, 0
TestParameter, AutoAnalysis.Line2.Point1.Type, 0
TestParameter, AutoAnalysis.Line2.Point1.XY.X, 
TestParameter, AutoAnalysis.Line2.Point1.XY.Y, 
TestParameter, AutoAnalysis.Line2.Point1.Data.Var, 
TestParameter, AutoAnalysis.Line2.Point1.Data.Condition, 
TestParameter, AutoAnalysis.Line2.Point1.Data.Start, false
TestParameter, AutoAnalysis.Line2.Point1.Data.StartVar, 
TestParameter, AutoAnalysis.Line2.Point1.Data.StartCondition, 
TestParameter, AutoAnalysis.Line2.Point2.Type, 0
TestParameter, AutoAnalysis.Line2.Point2.XY.X, 
TestParameter, AutoAnalysis.Line2.Point2.XY.Y, 
TestParameter, AutoAnalysis.Line2.Point2.Data.Var, 
TestParameter, AutoAnalysis.Line2.Point2.Data.Condition, 
TestParameter, AutoAnalysis.Line2.Point2.Data.Start, false
TestParameter, AutoAnalysis.Line2.Point2.Data.StartVar, 
TestParameter, AutoAnalysis.Line2.Point2.Data.StartCondition, 
TestParameter, AutoAnalysis.Line2.GradientExpr, 0
TestParameter, AutoAnalysis.Marker.Enabled, false
TestParameter, AutoAnalysis.Marker.Data.Var, 
TestParameter, AutoAnalysis.Marker.Data.Condition, 
TestParameter, AutoAnalysis.Marker.Data.Start, false
TestParameter, AutoAnalysis.Marker.Data.StartVar, 
TestParameter, AutoAnalysis.Marker.Data.StartCondition, 
MetaData, TestRecord.EntryPoint, true
MetaData, TestRecord.RecordTime, 09/11/2020 15:57:49
MetaData, TestRecord.TestTarget, 
MetaData, TestRecord.IterationIndex, 33
MetaData, TestRecord.Preservation, true
MetaData, TestRecord.Flag, 
MetaData, TestRecord.Remarks, 
MetaData, TestRecord.LinkKey, 2bc71dca-88bd-4c41-a71a-21e29cbce00c
Dimension1, 101, 101, 101
Dimension2, 1, 1, 1
DataName, V1, I1, Ohmic
DataValue, -5, -4.6296E-09, 542833405.43737137
DataValue, -4.9, -4.5583E-09, 
DataValue, -4.8, -4.427E-09, 
DataValue, -4.7, -4.3609999999999993E-09, 
DataValue, -4.6000000000000005, -4.2112999999999993E-09, 
DataValue, -4.5, -4.2243E-09, 
DataValue, -4.4, -4.1941E-09, 
DataValue, -4.3, -4.1237E-09, 
DataValue, -4.2, -4.0638999999999996E-09, 
DataValue, -4.1, -4.0448E-09, 
DataValue, -4, -3.9677E-09, 
DataValue, -3.9, -3.9584999999999995E-09, 
DataValue, -3.8000000000000003, -3.8774E-09, 
DataValue, -3.7, -3.8614E-09, 
DataValue, -3.6, -3.8442E-09, 
DataValue, -3.5, -3.7547E-09, 
DataValue, -3.4, -3.7061999999999995E-09, 
DataValue, -3.3000000000000003, -3.6757999999999997E-09, 
DataValue, -3.2, -3.6318E-09, 
DataValue, -3.1, -3.5943999999999995E-09, 
DataValue, -3, -3.5297999999999995E-09, 
DataValue, -2.9, -3.5169999999999997E-09, 
DataValue, -2.8000000000000003, -3.4247999999999996E-09, 
DataValue, -2.7, -3.4019999999999996E-09, 
DataValue, -2.6, -3.3680999999999996E-09, 
DataValue, -2.5, -3.3773999999999995E-09, 
DataValue, -2.4, -3.2662999999999998E-09, 
DataValue, -2.3000000000000003, -3.2721999999999995E-09, 
DataValue, -2.2, -3.2284999999999998E-09, 
DataValue, -2.1, -3.1936E-09, 
DataValue, -2, -3.1731999999999998E-09, 
DataValue, -1.9000000000000001, -3.1365999999999997E-09, 
DataValue, -1.8, -3.0570999999999997E-09, 
DataValue, -1.7, -3.0731999999999997E-09, 
DataValue, -1.6, -2.9435999999999996E-09, 
DataValue, -1.5, -2.9545999999999997E-09, 
DataValue, -1.4000000000000001, -2.881E-09, 
DataValue, -1.3, -2.8670999999999997E-09, 
DataValue, -1.2, -2.8274999999999996E-09, 
DataValue, -1.1, -2.7367E-09, 
DataValue, -1, -2.6781999999999997E-09, 
DataValue, -0.9, -2.6081999999999997E-09, 
DataValue, -0.8, -2.5646999999999996E-09, 
DataValue, -0.70000000000000007, -2.4323E-09, 
DataValue, -0.6, -2.3167999999999997E-09, 
DataValue, -0.5, -2.1143999999999996E-09, 
DataValue, -0.4, -1.9828E-09, 
DataValue, -0.3, -1.7128E-09, 
DataValue, -0.2, -1.2876E-09, 
DataValue, -0.1, -4.6259999999999993E-10, 
DataValue, 0, 1.6577999999999998E-09, 
DataValue, 0.1, 3.0045999999999997E-09, 
DataValue, 0.2, 3.6080999999999996E-09, 
DataValue, 0.3, 3.9046E-09, 
DataValue, 0.4, 4.0913999999999993E-09, 
DataValue, 0.5, 4.2829999999999994E-09, 
DataValue, 0.6, 4.4244E-09, 
DataValue, 0.70000000000000007, 4.5693999999999995E-09, 
DataValue, 0.8, 4.7011E-09, 
DataValue, 0.9, 4.9085E-09, 
DataValue, 1, 5.0228999999999993E-09, 
DataValue, 1.1, 5.0930999999999993E-09, 
DataValue, 1.2, 5.1878999999999994E-09, 
DataValue, 1.3, 5.1820999999999993E-09, 
DataValue, 1.4000000000000001, 5.2582E-09, 
DataValue, 1.5, 5.3836999999999991E-09, 
DataValue, 1.6, 5.4364999999999996E-09, 
DataValue, 1.7, 5.5941999999999996E-09, 
DataValue, 1.8, 5.6661999999999993E-09, 
DataValue, 1.9000000000000001, 5.7415999999999993E-09, 
DataValue, 2, 5.7763999999999992E-09, 
DataValue, 2.1, 5.8251E-09, 
DataValue, 2.2, 5.856E-09, 
DataValue, 2.3000000000000003, 5.9457999999999991E-09, 
DataValue, 2.4, 5.9931999999999995E-09, 
DataValue, 2.5, 6.0649E-09, 
DataValue, 2.6, 6.1520999999999991E-09, 
DataValue, 2.7, 6.2453999999999991E-09, 
DataValue, 2.8000000000000003, 6.3325E-09, 
DataValue, 2.9, 6.3839999999999995E-09, 
DataValue, 3, 6.4118999999999993E-09, 
DataValue, 3.1, 6.4708E-09, 
DataValue, 3.2, 6.4771999999999991E-09, 
DataValue, 3.3000000000000003, 6.563E-09, 
DataValue, 3.4, 6.6537999999999995E-09, 
DataValue, 3.5, 6.7806999999999991E-09, 
DataValue, 3.6, 6.7678E-09, 
DataValue, 3.7, 6.8445999999999993E-09, 
DataValue, 3.8000000000000003, 6.9011999999999993E-09, 
DataValue, 3.9, 6.9431999999999989E-09, 
DataValue, 4, 7.0482999999999993E-09, 
DataValue, 4.1, 7.1279999999999994E-09, 
DataValue, 4.2, 7.1905999999999996E-09, 
DataValue, 4.3, 7.2958999999999992E-09, 
DataValue, 4.4, 7.3798999999999993E-09, 
DataValue, 4.5, 7.4332999999999991E-09, 
DataValue, 4.6000000000000005, 7.558399999999999E-09, 
DataValue, 4.7, 7.6323E-09, 
DataValue, 4.8, 7.6968999999999989E-09, 
DataValue, 4.9, 7.8390999999999987E-09, 
DataValue, 5, 7.9235999999999986E-09, 