
SetupTitle, WW
PrimitiveTest, I/V Sweep
TestParameter, Context.MainFrame, B1500A
TestParameter, Channel.UnitType, SMU, SMU
TestParameter, Channel.Unit, SMU1:HP, SMU2:HP
TestParameter, Channel.IName, I1, I4
TestParameter, Channel.VName, V1, V4
TestParameter, Channel.Mode, V, COMMON
TestParameter, Channel.Func, VAR1, CONST
TestParameter, Channel.Index, 
TestParameter, Channel.Time, 
TestParameter, Measurement.Port.Unit, SMU1:HP, SMU2:HP
TestParameter, Measurement.Port.SeriesResistor, NONE, NONE
TestParameter, Measurement.Port.Filter, ON, ON
TestParameter, Measurement.Port.OutputVoltageComparison, 0, 0
TestParameter, Measurement.Primary.Locus, Single
TestParameter, Measurement.Primary.Scale, LINEAR
TestParameter, Measurement.Primary.Start, -5
TestParameter, Measurement.Primary.Stop, 5
TestParameter, Measurement.Primary.Step, 0.1
TestParameter, Measurement.Primary.Compliance, 0.1
TestParameter, Measurement.Primary.PowerCompliance, 0
TestParameter, Measurement.Aborting.Condition, CONTINUE AT ANY
TestParameter, Measurement.PostOutput.Value, START
TestParameter, Measurement.PostOutput.Retention, OFF
TestParameter, Measurement.Bias.Source, -5, 0
TestParameter, Measurement.Bias.Compliance, 0.1, 1
TestParameter, Measurement.Monitor.Unit, SMU1:HP, SMU2:HP
TestParameter, Measurement.Monitor.Adc, HR ADC, HR ADC
TestParameter, Measurement.Monitor.Measurement, Compliance Side, Compliance Side
TestParameter, Measurement.Monitor.RangingMode, AUTO, AUTO
TestParameter, Measurement.Monitor.RangeBoundary, , 
TestParameter, Measurement.Monitor.RangeRating, BY FULL RANGE, BY FULL RANGE
TestParameter, Measurement.Monitor.RangeRatingCoeff, 50, 50
TestParameter, Measurement.Timing.Hold, 0
TestParameter, Measurement.Timing.Delay, 0.001
TestParameter, Measurement.Adc.HighSpeed.Mode, AUTO
TestParameter, Measurement.Adc.HighSpeed.Coeff, 1
TestParameter, Measurement.Adc.HighResolution.AutoZero, OFF
TestParameter, Measurement.Adc.HighResolution.Mode, PLC
TestParameter, Measurement.Adc.HighResolution.Coeff, 1
TestParameter, Measurement.WaitTime.Source.Coeff, 1
TestParameter, Measurement.WaitTime.Source.Offset, 0
TestParameter, Measurement.WaitTime.Monitor.Coeff, 1
TestParameter, Measurement.WaitTime.Monitor.Offset, 0
TestParameter, Function.User.Name, Ohmic
TestParameter, Function.User.Unit, ohm
TestParameter, Function.User.Definition, avg(V1/I1)
TestParameter, Output.Graph.Enabled, true
TestParameter, Output.Graph.XAxis.Data, V1
TestParameter, Output.Graph.XAxis.Scale, Linear
TestParameter, Output.Graph.XAxis.Left, -5
TestParameter, Output.Graph.XAxis.Right, 5
TestParameter, Output.Graph.YAxis.Data, I1
TestParameter, Output.Graph.YAxis.Scale, Linear
TestParameter, Output.Graph.YAxis.Bottom, -0.001
TestParameter, Output.Graph.YAxis.Top, 0.001
TestParameter, Output.Graph.YAxis.Group, 
TestParameter, Output.Scalar.Data, Ohmic
TestParameter, AutoAnalysis.Interpolation, false
TestParameter, AutoAnalysis.Line1.Enabled, false
TestParameter, AutoAnalysis.Line1.Type, 1
TestParameter, AutoAnalysis.Line1.Fix, True
TestParameter, AutoAnalysis.Line1.YAxis, 0
TestParameter, AutoAnalysis.Line1.Point1.Type, 0
TestParameter, AutoAnalysis.Line1.Point1.XY.X, 
TestParameter, AutoAnalysis.Line1.Point1.XY.Y, 
TestParameter, AutoAnalysis.Line1.Point1.Data.Var, 
TestParameter, AutoAnalysis.Line1.Point1.Data.Condition, 
TestParameter, AutoAnalysis.Line1.Point1.Data.Start, false
TestParameter, AutoAnalysis.Line1.Point1.Data.StartVar, 
TestParameter, AutoAnalysis.Line1.Point1.Data.StartCondition, 
TestParameter, AutoAnalysis.Line1.Point2.Type, 0
TestParameter, AutoAnalysis.Line1.Point2.XY.X, 
TestParameter, AutoAnalysis.Line1.Point2.XY.Y, 
TestParameter, AutoAnalysis.Line1.Point2.Data.Var, 
TestParameter, AutoAnalysis.Line1.Point2.Data.Condition, 
TestParameter, AutoAnalysis.Line1.Point2.Data.Start, false
TestParameter, AutoAnalysis.Line1.Point2.Data.StartVar, 
TestParameter, AutoAnalysis.Line1.Point2.Data.StartCondition, 
TestParameter, AutoAnalysis.Line1.GradientExpr, 0
TestParameter, AutoAnalysis.Line2.Enabled, false
TestParameter, AutoAnalysis.Line2.Type, 1
TestParameter, AutoAnalysis.Line2.Fix, True
TestParameter, AutoAnalysis.Line2.YAxis, 0
TestParameter, AutoAnalysis.Line2.Point1.Type, 0
TestParameter, AutoAnalysis.Line2.Point1.XY.X, 
TestParameter, AutoAnalysis.Line2.Point1.XY.Y, 
TestParameter, AutoAnalysis.Line2.Point1.Data.Var, 
TestParameter, AutoAnalysis.Line2.Point1.Data.Condition, 
TestParameter, AutoAnalysis.Line2.Point1.Data.Start, false
TestParameter, AutoAnalysis.Line2.Point1.Data.StartVar, 
TestParameter, AutoAnalysis.Line2.Point1.Data.StartCondition, 
TestParameter, AutoAnalysis.Line2.Point2.Type, 0
TestParameter, AutoAnalysis.Line2.Point2.XY.X, 
TestParameter, AutoAnalysis.Line2.Point2.XY.Y, 
TestParameter, AutoAnalysis.Line2.Point2.Data.Var, 
TestParameter, AutoAnalysis.Line2.Point2.Data.Condition, 
TestParameter, AutoAnalysis.Line2.Point2.Data.Start, false
TestParameter, AutoAnalysis.Line2.Point2.Data.StartVar, 
TestParameter, AutoAnalysis.Line2.Point2.Data.StartCondition, 
TestParameter, AutoAnalysis.Line2.GradientExpr, 0
TestParameter, AutoAnalysis.Marker.Enabled, false
TestParameter, AutoAnalysis.Marker.Data.Var, 
TestParameter, AutoAnalysis.Marker.Data.Condition, 
TestParameter, AutoAnalysis.Marker.Data.Start, false
TestParameter, AutoAnalysis.Marker.Data.StartVar, 
TestParameter, AutoAnalysis.Marker.Data.StartCondition, 
MetaData, TestRecord.EntryPoint, true
MetaData, TestRecord.RecordTime, 09/11/2020 15:56:49
MetaData, TestRecord.TestTarget, 
MetaData, TestRecord.IterationIndex, 31
MetaData, TestRecord.Preservation, true
MetaData, TestRecord.Flag, 
MetaData, TestRecord.Remarks, 
MetaData, TestRecord.LinkKey, 9b4e28ad-a3c4-4637-929e-251c990af55c
Dimension1, 101, 101, 101
Dimension2, 1, 1, 1
DataName, V1, I1, Ohmic
DataValue, -5, -4.4354E-09, 559159105.13013244
DataValue, -4.9, -4.3535999999999995E-09, 
DataValue, -4.8, -4.2183999999999994E-09, 
DataValue, -4.7, -4.1589999999999994E-09, 
DataValue, -4.6000000000000005, -4.0902E-09, 
DataValue, -4.5, -4.0867E-09, 
DataValue, -4.4, -3.9606999999999994E-09, 
DataValue, -4.3, -3.9746E-09, 
DataValue, -4.2, -3.8809999999999993E-09, 
DataValue, -4.1, -3.8528999999999994E-09, 
DataValue, -4, -3.753E-09, 
DataValue, -3.9, -3.7189999999999997E-09, 
DataValue, -3.8000000000000003, -3.6713999999999995E-09, 
DataValue, -3.7, -3.6787999999999997E-09, 
DataValue, -3.6, -3.6018999999999997E-09, 
DataValue, -3.5, -3.5482E-09, 
DataValue, -3.4, -3.4711999999999998E-09, 
DataValue, -3.3000000000000003, -3.4625999999999996E-09, 
DataValue, -3.2, -3.4082999999999995E-09, 
DataValue, -3.1, -3.3012999999999998E-09, 
DataValue, -3, -3.3677E-09, 
DataValue, -2.9, -3.2818999999999996E-09, 
DataValue, -2.8000000000000003, -3.3361999999999997E-09, 
DataValue, -2.7, -3.2185999999999996E-09, 
DataValue, -2.6, -3.2125E-09, 
DataValue, -2.5, -3.1447999999999997E-09, 
DataValue, -2.4, -3.1131999999999995E-09, 
DataValue, -2.3000000000000003, -3.0702999999999996E-09, 
DataValue, -2.2, -3.028E-09, 
DataValue, -2.1, -2.9503999999999997E-09, 
DataValue, -2, -2.9829999999999997E-09, 
DataValue, -1.9000000000000001, -2.8991999999999997E-09, 
DataValue, -1.8, -2.8020999999999997E-09, 
DataValue, -1.7, -2.8349E-09, 
DataValue, -1.6, -2.7383999999999996E-09, 
DataValue, -1.5, -2.7467999999999997E-09, 
DataValue, -1.4000000000000001, -2.6759E-09, 
DataValue, -1.3, -2.6566999999999997E-09, 
DataValue, -1.2, -2.5700999999999996E-09, 
DataValue, -1.1, -2.5121999999999997E-09, 
DataValue, -1, -2.4676999999999997E-09, 
DataValue, -0.9, -2.5222E-09, 
DataValue, -0.8, -2.3237999999999998E-09, 
DataValue, -0.70000000000000007, -2.2767E-09, 
DataValue, -0.6, -2.1299E-09, 
DataValue, -0.5, -2.0248E-09, 
DataValue, -0.4, -1.8711E-09, 
DataValue, -0.3, -1.5690999999999999E-09, 
DataValue, -0.2, -1.2869999999999998E-09, 
DataValue, -0.1, -3.8729999999999994E-10, 
DataValue, 0, 1.7777999999999998E-09, 
DataValue, 0.1, 3.1073E-09, 
DataValue, 0.2, 3.8025999999999993E-09, 
DataValue, 0.3, 4.0863999999999995E-09, 
DataValue, 0.4, 4.2715999999999992E-09, 
DataValue, 0.5, 4.4153999999999995E-09, 
DataValue, 0.6, 4.5763E-09, 
DataValue, 0.70000000000000007, 4.7428E-09, 
DataValue, 0.8, 4.8664999999999993E-09, 
DataValue, 0.9, 4.8262999999999994E-09, 
DataValue, 1, 4.9897E-09, 
DataValue, 1.1, 5.0988999999999994E-09, 
DataValue, 1.2, 5.169E-09, 
DataValue, 1.3, 5.2496999999999994E-09, 
DataValue, 1.4000000000000001, 5.3695E-09, 
DataValue, 1.5, 5.4166999999999993E-09, 
DataValue, 1.6, 5.4905999999999992E-09, 
DataValue, 1.7, 5.6199E-09, 
DataValue, 1.8, 5.7447E-09, 
DataValue, 1.9000000000000001, 5.7111999999999991E-09, 
DataValue, 2, 5.8865999999999991E-09, 
DataValue, 2.1, 5.9487999999999991E-09, 
DataValue, 2.2, 5.9899999999999994E-09, 
DataValue, 2.3000000000000003, 6.1241999999999992E-09, 
DataValue, 2.4, 6.2089999999999995E-09, 
DataValue, 2.5, 6.3098999999999995E-09, 
DataValue, 2.6, 6.3295E-09, 
DataValue, 2.7, 6.5108999999999991E-09, 
DataValue, 2.8000000000000003, 6.5248999999999993E-09, 
DataValue, 2.9, 6.5721E-09, 
DataValue, 3, 6.6127E-09, 
DataValue, 3.1, 6.6542999999999992E-09, 
DataValue, 3.2, 6.7324999999999992E-09, 
DataValue, 3.3000000000000003, 6.7779999999999995E-09, 
DataValue, 3.4, 6.8855999999999995E-09, 
DataValue, 3.5, 6.9715999999999994E-09, 
DataValue, 3.6, 7.0856999999999992E-09, 
DataValue, 3.7, 7.1124999999999992E-09, 
DataValue, 3.8000000000000003, 7.1002999999999996E-09, 
DataValue, 3.9, 7.2361999999999995E-09, 
DataValue, 4, 7.3269E-09, 
DataValue, 4.1, 7.346499999999999E-09, 
DataValue, 4.2, 7.3923999999999994E-09, 
DataValue, 4.3, 7.4911E-09, 
DataValue, 4.4, 7.5884999999999988E-09, 
DataValue, 4.5, 7.598599999999999E-09, 
DataValue, 4.6000000000000005, 7.7273E-09, 
DataValue, 4.7, 7.799E-09, 
DataValue, 4.8, 7.8155999999999985E-09, 
DataValue, 4.9, 7.8591999999999987E-09, 
DataValue, 5, 7.9368E-09, 