
SetupTitle, WW
PrimitiveTest, I/V Sweep
TestParameter, Context.MainFrame, B1500A
TestParameter, Channel.UnitType, SMU, SMU
TestParameter, Channel.Unit, SMU1:HP, SMU2:HP
TestParameter, Channel.IName, I1, I4
TestParameter, Channel.VName, V1, V4
TestParameter, Channel.Mode, V, COMMON
TestParameter, Channel.Func, VAR1, CONST
TestParameter, Channel.Index, 
TestParameter, Channel.Time, 
TestParameter, Measurement.Port.Unit, SMU1:HP, SMU2:HP
TestParameter, Measurement.Port.SeriesResistor, NONE, NONE
TestParameter, Measurement.Port.Filter, ON, ON
TestParameter, Measurement.Port.OutputVoltageComparison, 0, 0
TestParameter, Measurement.Primary.Locus, Single
TestParameter, Measurement.Primary.Scale, LINEAR
TestParameter, Measurement.Primary.Start, -5
TestParameter, Measurement.Primary.Stop, 5
TestParameter, Measurement.Primary.Step, 0.1
TestParameter, Measurement.Primary.Compliance, 0.1
TestParameter, Measurement.Primary.PowerCompliance, 0
TestParameter, Measurement.Aborting.Condition, CONTINUE AT ANY
TestParameter, Measurement.PostOutput.Value, START
TestParameter, Measurement.PostOutput.Retention, OFF
TestParameter, Measurement.Bias.Source, -5, 0
TestParameter, Measurement.Bias.Compliance, 0.1, 1
TestParameter, Measurement.Monitor.Unit, SMU1:HP, SMU2:HP
TestParameter, Measurement.Monitor.Adc, HR ADC, HR ADC
TestParameter, Measurement.Monitor.Measurement, Compliance Side, Compliance Side
TestParameter, Measurement.Monitor.RangingMode, AUTO, AUTO
TestParameter, Measurement.Monitor.RangeBoundary, , 
TestParameter, Measurement.Monitor.RangeRating, BY FULL RANGE, BY FULL RANGE
TestParameter, Measurement.Monitor.RangeRatingCoeff, 50, 50
TestParameter, Measurement.Timing.Hold, 0
TestParameter, Measurement.Timing.Delay, 0.001
TestParameter, Measurement.Adc.HighSpeed.Mode, AUTO
TestParameter, Measurement.Adc.HighSpeed.Coeff, 1
TestParameter, Measurement.Adc.HighResolution.AutoZero, OFF
TestParameter, Measurement.Adc.HighResolution.Mode, PLC
TestParameter, Measurement.Adc.HighResolution.Coeff, 1
TestParameter, Measurement.WaitTime.Source.Coeff, 1
TestParameter, Measurement.WaitTime.Source.Offset, 0
TestParameter, Measurement.WaitTime.Monitor.Coeff, 1
TestParameter, Measurement.WaitTime.Monitor.Offset, 0
TestParameter, Function.User.Name, Ohmic
TestParameter, Function.User.Unit, ohm
TestParameter, Function.User.Definition, avg(V1/I1)
TestParameter, Output.Graph.Enabled, true
TestParameter, Output.Graph.XAxis.Data, V1
TestParameter, Output.Graph.XAxis.Scale, Linear
TestParameter, Output.Graph.XAxis.Left, -5
TestParameter, Output.Graph.XAxis.Right, 5
TestParameter, Output.Graph.YAxis.Data, I1
TestParameter, Output.Graph.YAxis.Scale, Linear
TestParameter, Output.Graph.YAxis.Bottom, -0.001
TestParameter, Output.Graph.YAxis.Top, 0.001
TestParameter, Output.Graph.YAxis.Group, 
TestParameter, Output.Scalar.Data, Ohmic
TestParameter, AutoAnalysis.Interpolation, false
TestParameter, AutoAnalysis.Line1.Enabled, false
TestParameter, AutoAnalysis.Line1.Type, 1
TestParameter, AutoAnalysis.Line1.Fix, True
TestParameter, AutoAnalysis.Line1.YAxis, 0
TestParameter, AutoAnalysis.Line1.Point1.Type, 0
TestParameter, AutoAnalysis.Line1.Point1.XY.X, 
TestParameter, AutoAnalysis.Line1.Point1.XY.Y, 
TestParameter, AutoAnalysis.Line1.Point1.Data.Var, 
TestParameter, AutoAnalysis.Line1.Point1.Data.Condition, 
TestParameter, AutoAnalysis.Line1.Point1.Data.Start, false
TestParameter, AutoAnalysis.Line1.Point1.Data.StartVar, 
TestParameter, AutoAnalysis.Line1.Point1.Data.StartCondition, 
TestParameter, AutoAnalysis.Line1.Point2.Type, 0
TestParameter, AutoAnalysis.Line1.Point2.XY.X, 
TestParameter, AutoAnalysis.Line1.Point2.XY.Y, 
TestParameter, AutoAnalysis.Line1.Point2.Data.Var, 
TestParameter, AutoAnalysis.Line1.Point2.Data.Condition, 
TestParameter, AutoAnalysis.Line1.Point2.Data.Start, false
TestParameter, AutoAnalysis.Line1.Point2.Data.StartVar, 
TestParameter, AutoAnalysis.Line1.Point2.Data.StartCondition, 
TestParameter, AutoAnalysis.Line1.GradientExpr, 0
TestParameter, AutoAnalysis.Line2.Enabled, false
TestParameter, AutoAnalysis.Line2.Type, 1
TestParameter, AutoAnalysis.Line2.Fix, True
TestParameter, AutoAnalysis.Line2.YAxis, 0
TestParameter, AutoAnalysis.Line2.Point1.Type, 0
TestParameter, AutoAnalysis.Line2.Point1.XY.X, 
TestParameter, AutoAnalysis.Line2.Point1.XY.Y, 
TestParameter, AutoAnalysis.Line2.Point1.Data.Var, 
TestParameter, AutoAnalysis.Line2.Point1.Data.Condition, 
TestParameter, AutoAnalysis.Line2.Point1.Data.Start, false
TestParameter, AutoAnalysis.Line2.Point1.Data.StartVar, 
TestParameter, AutoAnalysis.Line2.Point1.Data.StartCondition, 
TestParameter, AutoAnalysis.Line2.Point2.Type, 0
TestParameter, AutoAnalysis.Line2.Point2.XY.X, 
TestParameter, AutoAnalysis.Line2.Point2.XY.Y, 
TestParameter, AutoAnalysis.Line2.Point2.Data.Var, 
TestParameter, AutoAnalysis.Line2.Point2.Data.Condition, 
TestParameter, AutoAnalysis.Line2.Point2.Data.Start, false
TestParameter, AutoAnalysis.Line2.Point2.Data.StartVar, 
TestParameter, AutoAnalysis.Line2.Point2.Data.StartCondition, 
TestParameter, AutoAnalysis.Line2.GradientExpr, 0
TestParameter, AutoAnalysis.Marker.Enabled, false
TestParameter, AutoAnalysis.Marker.Data.Var, 
TestParameter, AutoAnalysis.Marker.Data.Condition, 
TestParameter, AutoAnalysis.Marker.Data.Start, false
TestParameter, AutoAnalysis.Marker.Data.StartVar, 
TestParameter, AutoAnalysis.Marker.Data.StartCondition, 
MetaData, TestRecord.EntryPoint, true
MetaData, TestRecord.RecordTime, 09/11/2020 15:56:21
MetaData, TestRecord.TestTarget, 
MetaData, TestRecord.IterationIndex, 30
MetaData, TestRecord.Preservation, true
MetaData, TestRecord.Flag, 
MetaData, TestRecord.Remarks, 
MetaData, TestRecord.LinkKey, 4f96a8e1-3ebd-49dc-b816-ddac23e1f683
Dimension1, 101, 101, 101
Dimension2, 1, 1, 1
DataName, V1, I1, Ohmic
DataValue, -5, -4.3110999999999993E-09, 575072543.5233891
DataValue, -4.9, -4.2243E-09, 
DataValue, -4.8, -4.1969E-09, 
DataValue, -4.7, -4.0904999999999995E-09, 
DataValue, -4.6000000000000005, -4.0289E-09, 
DataValue, -4.5, -3.9355999999999995E-09, 
DataValue, -4.4, -3.9116E-09, 
DataValue, -4.3, -3.7856E-09, 
DataValue, -4.2, -3.7768999999999992E-09, 
DataValue, -4.1, -3.6975999999999997E-09, 
DataValue, -4, -3.6966999999999994E-09, 
DataValue, -3.9, -3.6084999999999997E-09, 
DataValue, -3.8000000000000003, -3.5745999999999996E-09, 
DataValue, -3.7, -3.5121999999999995E-09, 
DataValue, -3.6, -3.5295E-09, 
DataValue, -3.5, -3.3839999999999995E-09, 
DataValue, -3.4, -3.3887999999999997E-09, 
DataValue, -3.3000000000000003, -3.3203E-09, 
DataValue, -3.2, -3.3285E-09, 
DataValue, -3.1, -3.2665E-09, 
DataValue, -3, -3.2464999999999995E-09, 
DataValue, -2.9, -3.2227999999999997E-09, 
DataValue, -2.8000000000000003, -3.2133999999999997E-09, 
DataValue, -2.7, -3.0874E-09, 
DataValue, -2.6, -3.0672999999999995E-09, 
DataValue, -2.5, -2.9850999999999995E-09, 
DataValue, -2.4, -2.9969E-09, 
DataValue, -2.3000000000000003, -2.9619E-09, 
DataValue, -2.2, -2.9307E-09, 
DataValue, -2.1, -2.838E-09, 
DataValue, -2, -2.8723999999999997E-09, 
DataValue, -1.9000000000000001, -2.7767999999999998E-09, 
DataValue, -1.8, -2.7639E-09, 
DataValue, -1.7, -2.6857E-09, 
DataValue, -1.6, -2.5890999999999997E-09, 
DataValue, -1.5, -2.6644999999999996E-09, 
DataValue, -1.4000000000000001, -2.5565999999999996E-09, 
DataValue, -1.3, -2.5696E-09, 
DataValue, -1.2, -2.5111999999999998E-09, 
DataValue, -1.1, -2.494E-09, 
DataValue, -1, -2.3693999999999997E-09, 
DataValue, -0.9, -2.3441E-09, 
DataValue, -0.8, -2.2711999999999998E-09, 
DataValue, -0.70000000000000007, -2.1827E-09, 
DataValue, -0.6, -2.0233E-09, 
DataValue, -0.5, -1.948E-09, 
DataValue, -0.4, -1.7934999999999999E-09, 
DataValue, -0.3, -1.5127999999999998E-09, 
DataValue, -0.2, -1.1777999999999998E-09, 
DataValue, -0.1, -3.3959999999999994E-10, 
DataValue, 0, 1.7445E-09, 
DataValue, 0.1, 3.0801999999999998E-09, 
DataValue, 0.2, 3.6449999999999997E-09, 
DataValue, 0.3, 3.9662999999999994E-09, 
DataValue, 0.4, 4.1749999999999993E-09, 
DataValue, 0.5, 4.2861999999999995E-09, 
DataValue, 0.6, 4.4205E-09, 
DataValue, 0.70000000000000007, 4.548E-09, 
DataValue, 0.8, 4.6786999999999996E-09, 
DataValue, 0.9, 4.7778E-09, 
DataValue, 1, 4.8405999999999992E-09, 
DataValue, 1.1, 4.9392E-09, 
DataValue, 1.2, 5.1032999999999991E-09, 
DataValue, 1.3, 5.1839999999999995E-09, 
DataValue, 1.4000000000000001, 5.2399E-09, 
DataValue, 1.5, 5.2859E-09, 
DataValue, 1.6, 5.4270999999999992E-09, 
DataValue, 1.7, 5.482E-09, 
DataValue, 1.8, 5.5417999999999992E-09, 
DataValue, 1.9000000000000001, 5.6799999999999994E-09, 
DataValue, 2, 5.7618E-09, 
DataValue, 2.1, 5.8082999999999995E-09, 
DataValue, 2.2, 5.9214999999999995E-09, 
DataValue, 2.3000000000000003, 5.9692999999999992E-09, 
DataValue, 2.4, 6.0439E-09, 
DataValue, 2.5, 6.1548999999999991E-09, 
DataValue, 2.6, 6.2057999999999994E-09, 
DataValue, 2.7, 6.2857999999999991E-09, 
DataValue, 2.8000000000000003, 6.3403E-09, 
DataValue, 2.9, 6.3930999999999994E-09, 
DataValue, 3, 6.4883999999999992E-09, 
DataValue, 3.1, 6.5622999999999991E-09, 
DataValue, 3.2, 6.6609999999999992E-09, 
DataValue, 3.3000000000000003, 6.656299999999999E-09, 
DataValue, 3.4, 6.7322999999999992E-09, 
DataValue, 3.5, 6.7909999999999994E-09, 
DataValue, 3.6, 6.8151999999999994E-09, 
DataValue, 3.7, 6.9478999999999991E-09, 
DataValue, 3.8000000000000003, 7.0380999999999995E-09, 
DataValue, 3.9, 7.0912E-09, 
DataValue, 4, 7.2105999999999991E-09, 
DataValue, 4.1, 7.2251999999999994E-09, 
DataValue, 4.2, 7.2569E-09, 
DataValue, 4.3, 7.4558999999999986E-09, 
DataValue, 4.4, 7.505E-09, 
DataValue, 4.5, 7.5417E-09, 
DataValue, 4.6000000000000005, 7.6493E-09, 
DataValue, 4.7, 7.6379E-09, 
DataValue, 4.8, 7.772E-09, 
DataValue, 4.9, 7.8595E-09, 
DataValue, 5, 7.8699E-09, 