
SetupTitle, WW
PrimitiveTest, I/V Sweep
TestParameter, Context.MainFrame, B1500A
TestParameter, Channel.UnitType, SMU, SMU
TestParameter, Channel.Unit, SMU1:HP, SMU2:HP
TestParameter, Channel.IName, I1, I4
TestParameter, Channel.VName, V1, V4
TestParameter, Channel.Mode, V, COMMON
TestParameter, Channel.Func, VAR1, CONST
TestParameter, Channel.Index, 
TestParameter, Channel.Time, 
TestParameter, Measurement.Port.Unit, SMU1:HP, SMU2:HP
TestParameter, Measurement.Port.SeriesResistor, NONE, NONE
TestParameter, Measurement.Port.Filter, ON, ON
TestParameter, Measurement.Port.OutputVoltageComparison, 0, 0
TestParameter, Measurement.Primary.Locus, Single
TestParameter, Measurement.Primary.Scale, LINEAR
TestParameter, Measurement.Primary.Start, -5
TestParameter, Measurement.Primary.Stop, 5
TestParameter, Measurement.Primary.Step, 0.1
TestParameter, Measurement.Primary.Compliance, 0.1
TestParameter, Measurement.Primary.PowerCompliance, 0
TestParameter, Measurement.Aborting.Condition, CONTINUE AT ANY
TestParameter, Measurement.PostOutput.Value, START
TestParameter, Measurement.PostOutput.Retention, OFF
TestParameter, Measurement.Bias.Source, -5, 0
TestParameter, Measurement.Bias.Compliance, 0.1, 1
TestParameter, Measurement.Monitor.Unit, SMU1:HP, SMU2:HP
TestParameter, Measurement.Monitor.Adc, HR ADC, HR ADC
TestParameter, Measurement.Monitor.Measurement, Compliance Side, Compliance Side
TestParameter, Measurement.Monitor.RangingMode, AUTO, AUTO
TestParameter, Measurement.Monitor.RangeBoundary, , 
TestParameter, Measurement.Monitor.RangeRating, BY FULL RANGE, BY FULL RANGE
TestParameter, Measurement.Monitor.RangeRatingCoeff, 50, 50
TestParameter, Measurement.Timing.Hold, 0
TestParameter, Measurement.Timing.Delay, 0.001
TestParameter, Measurement.Adc.HighSpeed.Mode, AUTO
TestParameter, Measurement.Adc.HighSpeed.Coeff, 1
TestParameter, Measurement.Adc.HighResolution.AutoZero, OFF
TestParameter, Measurement.Adc.HighResolution.Mode, PLC
TestParameter, Measurement.Adc.HighResolution.Coeff, 1
TestParameter, Measurement.WaitTime.Source.Coeff, 1
TestParameter, Measurement.WaitTime.Source.Offset, 0
TestParameter, Measurement.WaitTime.Monitor.Coeff, 1
TestParameter, Measurement.WaitTime.Monitor.Offset, 0
TestParameter, Function.User.Name, Ohmic
TestParameter, Function.User.Unit, ohm
TestParameter, Function.User.Definition, avg(V1/I1)
TestParameter, Output.Graph.Enabled, true
TestParameter, Output.Graph.XAxis.Data, V1
TestParameter, Output.Graph.XAxis.Scale, Linear
TestParameter, Output.Graph.XAxis.Left, -5
TestParameter, Output.Graph.XAxis.Right, 5
TestParameter, Output.Graph.YAxis.Data, I1
TestParameter, Output.Graph.YAxis.Scale, Linear
TestParameter, Output.Graph.YAxis.Bottom, -0.001
TestParameter, Output.Graph.YAxis.Top, 0.001
TestParameter, Output.Graph.YAxis.Group, 
TestParameter, Output.Scalar.Data, Ohmic
TestParameter, AutoAnalysis.Interpolation, false
TestParameter, AutoAnalysis.Line1.Enabled, false
TestParameter, AutoAnalysis.Line1.Type, 1
TestParameter, AutoAnalysis.Line1.Fix, True
TestParameter, AutoAnalysis.Line1.YAxis, 0
TestParameter, AutoAnalysis.Line1.Point1.Type, 0
TestParameter, AutoAnalysis.Line1.Point1.XY.X, 
TestParameter, AutoAnalysis.Line1.Point1.XY.Y, 
TestParameter, AutoAnalysis.Line1.Point1.Data.Var, 
TestParameter, AutoAnalysis.Line1.Point1.Data.Condition, 
TestParameter, AutoAnalysis.Line1.Point1.Data.Start, false
TestParameter, AutoAnalysis.Line1.Point1.Data.StartVar, 
TestParameter, AutoAnalysis.Line1.Point1.Data.StartCondition, 
TestParameter, AutoAnalysis.Line1.Point2.Type, 0
TestParameter, AutoAnalysis.Line1.Point2.XY.X, 
TestParameter, AutoAnalysis.Line1.Point2.XY.Y, 
TestParameter, AutoAnalysis.Line1.Point2.Data.Var, 
TestParameter, AutoAnalysis.Line1.Point2.Data.Condition, 
TestParameter, AutoAnalysis.Line1.Point2.Data.Start, false
TestParameter, AutoAnalysis.Line1.Point2.Data.StartVar, 
TestParameter, AutoAnalysis.Line1.Point2.Data.StartCondition, 
TestParameter, AutoAnalysis.Line1.GradientExpr, 0
TestParameter, AutoAnalysis.Line2.Enabled, false
TestParameter, AutoAnalysis.Line2.Type, 1
TestParameter, AutoAnalysis.Line2.Fix, True
TestParameter, AutoAnalysis.Line2.YAxis, 0
TestParameter, AutoAnalysis.Line2.Point1.Type, 0
TestParameter, AutoAnalysis.Line2.Point1.XY.X, 
TestParameter, AutoAnalysis.Line2.Point1.XY.Y, 
TestParameter, AutoAnalysis.Line2.Point1.Data.Var, 
TestParameter, AutoAnalysis.Line2.Point1.Data.Condition, 
TestParameter, AutoAnalysis.Line2.Point1.Data.Start, false
TestParameter, AutoAnalysis.Line2.Point1.Data.StartVar, 
TestParameter, AutoAnalysis.Line2.Point1.Data.StartCondition, 
TestParameter, AutoAnalysis.Line2.Point2.Type, 0
TestParameter, AutoAnalysis.Line2.Point2.XY.X, 
TestParameter, AutoAnalysis.Line2.Point2.XY.Y, 
TestParameter, AutoAnalysis.Line2.Point2.Data.Var, 
TestParameter, AutoAnalysis.Line2.Point2.Data.Condition, 
TestParameter, AutoAnalysis.Line2.Point2.Data.Start, false
TestParameter, AutoAnalysis.Line2.Point2.Data.StartVar, 
TestParameter, AutoAnalysis.Line2.Point2.Data.StartCondition, 
TestParameter, AutoAnalysis.Line2.GradientExpr, 0
TestParameter, AutoAnalysis.Marker.Enabled, false
TestParameter, AutoAnalysis.Marker.Data.Var, 
TestParameter, AutoAnalysis.Marker.Data.Condition, 
TestParameter, AutoAnalysis.Marker.Data.Start, false
TestParameter, AutoAnalysis.Marker.Data.StartVar, 
TestParameter, AutoAnalysis.Marker.Data.StartCondition, 
MetaData, TestRecord.EntryPoint, true
MetaData, TestRecord.RecordTime, 09/11/2020 15:55:53
MetaData, TestRecord.TestTarget, 
MetaData, TestRecord.IterationIndex, 29
MetaData, TestRecord.Preservation, true
MetaData, TestRecord.Flag, 
MetaData, TestRecord.Remarks, 
MetaData, TestRecord.LinkKey, c10f9b71-2b75-446f-acf6-ed539e70d55a
Dimension1, 101, 101, 101
Dimension2, 1, 1, 1
DataName, V1, I1, Ohmic
DataValue, -5, -4.142E-09, 590611342.08406353
DataValue, -4.9, -4.0708999999999992E-09, 
DataValue, -4.8, -3.9465999999999996E-09, 
DataValue, -4.7, -3.9165E-09, 
DataValue, -4.6000000000000005, -3.8316E-09, 
DataValue, -4.5, -3.7258999999999993E-09, 
DataValue, -4.4, -3.6712999999999995E-09, 
DataValue, -4.3, -3.6493E-09, 
DataValue, -4.2, -3.5506999999999997E-09, 
DataValue, -4.1, -3.5888E-09, 
DataValue, -4, -3.4735999999999997E-09, 
DataValue, -3.9, -3.4095E-09, 
DataValue, -3.8000000000000003, -3.3702E-09, 
DataValue, -3.7, -3.3722999999999996E-09, 
DataValue, -3.6, -3.3709999999999996E-09, 
DataValue, -3.5, -3.2795999999999997E-09, 
DataValue, -3.4, -3.257E-09, 
DataValue, -3.3000000000000003, -3.1875999999999996E-09, 
DataValue, -3.2, -3.1939E-09, 
DataValue, -3.1, -3.0884E-09, 
DataValue, -3, -3.079E-09, 
DataValue, -2.9, -3.0332E-09, 
DataValue, -2.8000000000000003, -2.9318999999999998E-09, 
DataValue, -2.7, -2.9720999999999997E-09, 
DataValue, -2.6, -2.8782E-09, 
DataValue, -2.5, -2.8743E-09, 
DataValue, -2.4, -2.8193999999999996E-09, 
DataValue, -2.3000000000000003, -2.8081E-09, 
DataValue, -2.2, -2.7966999999999997E-09, 
DataValue, -2.1, -2.7174999999999998E-09, 
DataValue, -2, -2.7228999999999998E-09, 
DataValue, -1.9000000000000001, -2.6644999999999996E-09, 
DataValue, -1.8, -2.6345999999999996E-09, 
DataValue, -1.7, -2.5735E-09, 
DataValue, -1.6, -2.5415999999999996E-09, 
DataValue, -1.5, -2.5358E-09, 
DataValue, -1.4000000000000001, -2.4644E-09, 
DataValue, -1.3, -2.4582999999999997E-09, 
DataValue, -1.2, -2.3823E-09, 
DataValue, -1.1, -2.377E-09, 
DataValue, -1, -2.2936999999999996E-09, 
DataValue, -0.9, -2.235E-09, 
DataValue, -0.8, -2.1455999999999997E-09, 
DataValue, -0.70000000000000007, -2.0726999999999997E-09, 
DataValue, -0.6, -2.0240999999999997E-09, 
DataValue, -0.5, -1.8589999999999999E-09, 
DataValue, -0.4, -1.7047999999999997E-09, 
DataValue, -0.3, -1.5053999999999998E-09, 
DataValue, -0.2, -1.1642E-09, 
DataValue, -0.1, -2.8369999999999996E-10, 
DataValue, 0, 1.8611999999999997E-09, 
DataValue, 0.1, 3.2565999999999997E-09, 
DataValue, 0.2, 3.8353E-09, 
DataValue, 0.3, 4.1671E-09, 
DataValue, 0.4, 4.3805E-09, 
DataValue, 0.5, 4.5138999999999995E-09, 
DataValue, 0.6, 4.6624999999999996E-09, 
DataValue, 0.70000000000000007, 4.7439999999999993E-09, 
DataValue, 0.8, 4.8197E-09, 
DataValue, 0.9, 4.9703999999999993E-09, 
DataValue, 1, 5.0861999999999992E-09, 
DataValue, 1.1, 5.1712999999999993E-09, 
DataValue, 1.2, 5.3485999999999995E-09, 
DataValue, 1.3, 5.3999999999999996E-09, 
DataValue, 1.4000000000000001, 5.4736999999999994E-09, 
DataValue, 1.5, 5.5965999999999995E-09, 
DataValue, 1.6, 5.7015999999999994E-09, 
DataValue, 1.7, 5.7307E-09, 
DataValue, 1.8, 5.7964999999999992E-09, 
DataValue, 1.9000000000000001, 5.8653E-09, 
DataValue, 2, 6.0286999999999993E-09, 
DataValue, 2.1, 6.0873999999999995E-09, 
DataValue, 2.2, 6.0983999999999995E-09, 
DataValue, 2.3000000000000003, 6.1595999999999993E-09, 
DataValue, 2.4, 6.239E-09, 
DataValue, 2.5, 6.3020999999999996E-09, 
DataValue, 2.6, 6.4298999999999991E-09, 
DataValue, 2.7, 6.4576E-09, 
DataValue, 2.8000000000000003, 6.452599999999999E-09, 
DataValue, 2.9, 6.5245999999999996E-09, 
DataValue, 3, 6.5356E-09, 
DataValue, 3.1, 6.6442999999999995E-09, 
DataValue, 3.2, 6.7447999999999993E-09, 
DataValue, 3.3000000000000003, 6.749399999999999E-09, 
DataValue, 3.4, 6.8294999999999992E-09, 
DataValue, 3.5, 6.912299999999999E-09, 
DataValue, 3.6, 6.9302999999999995E-09, 
DataValue, 3.7, 7.0005999999999992E-09, 
DataValue, 3.8000000000000003, 7.0737999999999993E-09, 
DataValue, 3.9, 7.122899999999999E-09, 
DataValue, 4, 7.202199999999999E-09, 
DataValue, 4.1, 7.324899999999999E-09, 
DataValue, 4.2, 7.3595999999999993E-09, 
DataValue, 4.3, 7.4362999999999992E-09, 
DataValue, 4.4, 7.5063E-09, 
DataValue, 4.5, 7.569E-09, 
DataValue, 4.6000000000000005, 7.6469999999999989E-09, 
DataValue, 4.7, 7.6878E-09, 
DataValue, 4.8, 7.8107999999999987E-09, 
DataValue, 4.9, 7.9060999999999986E-09, 
DataValue, 5, 7.966E-09, 