
SetupTitle, WW
PrimitiveTest, I/V Sweep
TestParameter, Context.MainFrame, B1500A
TestParameter, Channel.UnitType, SMU, SMU
TestParameter, Channel.Unit, SMU1:HP, SMU2:HP
TestParameter, Channel.IName, I1, I4
TestParameter, Channel.VName, V1, V4
TestParameter, Channel.Mode, V, COMMON
TestParameter, Channel.Func, VAR1, CONST
TestParameter, Channel.Index, 
TestParameter, Channel.Time, 
TestParameter, Measurement.Port.Unit, SMU1:HP, SMU2:HP
TestParameter, Measurement.Port.SeriesResistor, NONE, NONE
TestParameter, Measurement.Port.Filter, ON, ON
TestParameter, Measurement.Port.OutputVoltageComparison, 0, 0
TestParameter, Measurement.Primary.Locus, Single
TestParameter, Measurement.Primary.Scale, LINEAR
TestParameter, Measurement.Primary.Start, -5
TestParameter, Measurement.Primary.Stop, 5
TestParameter, Measurement.Primary.Step, 0.1
TestParameter, Measurement.Primary.Compliance, 0.1
TestParameter, Measurement.Primary.PowerCompliance, 0
TestParameter, Measurement.Aborting.Condition, CONTINUE AT ANY
TestParameter, Measurement.PostOutput.Value, START
TestParameter, Measurement.PostOutput.Retention, OFF
TestParameter, Measurement.Bias.Source, -5, 0
TestParameter, Measurement.Bias.Compliance, 0.1, 1
TestParameter, Measurement.Monitor.Unit, SMU1:HP, SMU2:HP
TestParameter, Measurement.Monitor.Adc, HR ADC, HR ADC
TestParameter, Measurement.Monitor.Measurement, Compliance Side, Compliance Side
TestParameter, Measurement.Monitor.RangingMode, AUTO, AUTO
TestParameter, Measurement.Monitor.RangeBoundary, , 
TestParameter, Measurement.Monitor.RangeRating, BY FULL RANGE, BY FULL RANGE
TestParameter, Measurement.Monitor.RangeRatingCoeff, 50, 50
TestParameter, Measurement.Timing.Hold, 0
TestParameter, Measurement.Timing.Delay, 0.001
TestParameter, Measurement.Adc.HighSpeed.Mode, AUTO
TestParameter, Measurement.Adc.HighSpeed.Coeff, 1
TestParameter, Measurement.Adc.HighResolution.AutoZero, OFF
TestParameter, Measurement.Adc.HighResolution.Mode, PLC
TestParameter, Measurement.Adc.HighResolution.Coeff, 1
TestParameter, Measurement.WaitTime.Source.Coeff, 1
TestParameter, Measurement.WaitTime.Source.Offset, 0
TestParameter, Measurement.WaitTime.Monitor.Coeff, 1
TestParameter, Measurement.WaitTime.Monitor.Offset, 0
TestParameter, Function.User.Name, Ohmic
TestParameter, Function.User.Unit, ohm
TestParameter, Function.User.Definition, avg(V1/I1)
TestParameter, Output.Graph.Enabled, true
TestParameter, Output.Graph.XAxis.Data, V1
TestParameter, Output.Graph.XAxis.Scale, Linear
TestParameter, Output.Graph.XAxis.Left, -5
TestParameter, Output.Graph.XAxis.Right, 5
TestParameter, Output.Graph.YAxis.Data, I1
TestParameter, Output.Graph.YAxis.Scale, Linear
TestParameter, Output.Graph.YAxis.Bottom, -0.001
TestParameter, Output.Graph.YAxis.Top, 0.001
TestParameter, Output.Graph.YAxis.Group, 
TestParameter, Output.Scalar.Data, Ohmic
TestParameter, AutoAnalysis.Interpolation, false
TestParameter, AutoAnalysis.Line1.Enabled, false
TestParameter, AutoAnalysis.Line1.Type, 1
TestParameter, AutoAnalysis.Line1.Fix, True
TestParameter, AutoAnalysis.Line1.YAxis, 0
TestParameter, AutoAnalysis.Line1.Point1.Type, 0
TestParameter, AutoAnalysis.Line1.Point1.XY.X, 
TestParameter, AutoAnalysis.Line1.Point1.XY.Y, 
TestParameter, AutoAnalysis.Line1.Point1.Data.Var, 
TestParameter, AutoAnalysis.Line1.Point1.Data.Condition, 
TestParameter, AutoAnalysis.Line1.Point1.Data.Start, false
TestParameter, AutoAnalysis.Line1.Point1.Data.StartVar, 
TestParameter, AutoAnalysis.Line1.Point1.Data.StartCondition, 
TestParameter, AutoAnalysis.Line1.Point2.Type, 0
TestParameter, AutoAnalysis.Line1.Point2.XY.X, 
TestParameter, AutoAnalysis.Line1.Point2.XY.Y, 
TestParameter, AutoAnalysis.Line1.Point2.Data.Var, 
TestParameter, AutoAnalysis.Line1.Point2.Data.Condition, 
TestParameter, AutoAnalysis.Line1.Point2.Data.Start, false
TestParameter, AutoAnalysis.Line1.Point2.Data.StartVar, 
TestParameter, AutoAnalysis.Line1.Point2.Data.StartCondition, 
TestParameter, AutoAnalysis.Line1.GradientExpr, 0
TestParameter, AutoAnalysis.Line2.Enabled, false
TestParameter, AutoAnalysis.Line2.Type, 1
TestParameter, AutoAnalysis.Line2.Fix, True
TestParameter, AutoAnalysis.Line2.YAxis, 0
TestParameter, AutoAnalysis.Line2.Point1.Type, 0
TestParameter, AutoAnalysis.Line2.Point1.XY.X, 
TestParameter, AutoAnalysis.Line2.Point1.XY.Y, 
TestParameter, AutoAnalysis.Line2.Point1.Data.Var, 
TestParameter, AutoAnalysis.Line2.Point1.Data.Condition, 
TestParameter, AutoAnalysis.Line2.Point1.Data.Start, false
TestParameter, AutoAnalysis.Line2.Point1.Data.StartVar, 
TestParameter, AutoAnalysis.Line2.Point1.Data.StartCondition, 
TestParameter, AutoAnalysis.Line2.Point2.Type, 0
TestParameter, AutoAnalysis.Line2.Point2.XY.X, 
TestParameter, AutoAnalysis.Line2.Point2.XY.Y, 
TestParameter, AutoAnalysis.Line2.Point2.Data.Var, 
TestParameter, AutoAnalysis.Line2.Point2.Data.Condition, 
TestParameter, AutoAnalysis.Line2.Point2.Data.Start, false
TestParameter, AutoAnalysis.Line2.Point2.Data.StartVar, 
TestParameter, AutoAnalysis.Line2.Point2.Data.StartCondition, 
TestParameter, AutoAnalysis.Line2.GradientExpr, 0
TestParameter, AutoAnalysis.Marker.Enabled, false
TestParameter, AutoAnalysis.Marker.Data.Var, 
TestParameter, AutoAnalysis.Marker.Data.Condition, 
TestParameter, AutoAnalysis.Marker.Data.Start, false
TestParameter, AutoAnalysis.Marker.Data.StartVar, 
TestParameter, AutoAnalysis.Marker.Data.StartCondition, 
MetaData, TestRecord.EntryPoint, true
MetaData, TestRecord.RecordTime, 09/11/2020 15:54:39
MetaData, TestRecord.TestTarget, 
MetaData, TestRecord.IterationIndex, 27
MetaData, TestRecord.Preservation, true
MetaData, TestRecord.Flag, 
MetaData, TestRecord.Remarks, 
MetaData, TestRecord.LinkKey, e79873e4-e56c-4148-b019-532696dd525a
Dimension1, 101, 101, 101
Dimension2, 1, 1, 1
DataName, V1, I1, Ohmic
DataValue, -5, -3.7752999999999996E-09, 451049053.7997216
DataValue, -4.9, -3.6476999999999997E-09, 
DataValue, -4.8, -3.5371999999999997E-09, 
DataValue, -4.7, -3.4681999999999997E-09, 
DataValue, -4.6000000000000005, -3.4181999999999996E-09, 
DataValue, -4.5, -3.3522999999999997E-09, 
DataValue, -4.4, -3.3348999999999997E-09, 
DataValue, -4.3, -3.2263999999999995E-09, 
DataValue, -4.2, -3.2247E-09, 
DataValue, -4.1, -3.1167E-09, 
DataValue, -4, -3.0376999999999996E-09, 
DataValue, -3.9, -3.0174999999999996E-09, 
DataValue, -3.8000000000000003, -2.9795999999999995E-09, 
DataValue, -3.7, -2.9064E-09, 
DataValue, -3.6, -2.9257999999999996E-09, 
DataValue, -3.5, -2.8935999999999996E-09, 
DataValue, -3.4, -2.8161E-09, 
DataValue, -3.3000000000000003, -2.7791999999999997E-09, 
DataValue, -3.2, -2.7504999999999995E-09, 
DataValue, -3.1, -2.7308999999999997E-09, 
DataValue, -3, -2.6452999999999995E-09, 
DataValue, -2.9, -2.6571E-09, 
DataValue, -2.8000000000000003, -2.5543999999999998E-09, 
DataValue, -2.7, -2.5299999999999997E-09, 
DataValue, -2.6, -2.56E-09, 
DataValue, -2.5, -2.4752E-09, 
DataValue, -2.4, -2.4310999999999996E-09, 
DataValue, -2.3000000000000003, -2.3662E-09, 
DataValue, -2.2, -2.3512E-09, 
DataValue, -2.1, -2.3693999999999997E-09, 
DataValue, -2, -2.2948E-09, 
DataValue, -1.9000000000000001, -2.2997E-09, 
DataValue, -1.8, -2.2081E-09, 
DataValue, -1.7, -2.2474E-09, 
DataValue, -1.6, -2.0893E-09, 
DataValue, -1.5, -2.1039999999999998E-09, 
DataValue, -1.4000000000000001, -2.0394E-09, 
DataValue, -1.3, -2.04E-09, 
DataValue, -1.2, -2.0084E-09, 
DataValue, -1.1, -1.994E-09, 
DataValue, -1, -1.8548999999999999E-09, 
DataValue, -0.9, -1.8387999999999999E-09, 
DataValue, -0.8, -1.7876999999999997E-09, 
DataValue, -0.70000000000000007, -1.7016999999999998E-09, 
DataValue, -0.6, -1.6495E-09, 
DataValue, -0.5, -1.5676999999999999E-09, 
DataValue, -0.4, -1.4507999999999998E-09, 
DataValue, -0.3, -1.2303E-09, 
DataValue, -0.2, -9.063E-10, 
DataValue, -0.1, 5.4E-12, 
DataValue, 0, 2.3959999999999996E-09, 
DataValue, 0.1, 3.8496999999999992E-09, 
DataValue, 0.2, 4.4283E-09, 
DataValue, 0.3, 4.7541999999999992E-09, 
DataValue, 0.4, 4.9958999999999993E-09, 
DataValue, 0.5, 5.1131999999999993E-09, 
DataValue, 0.6, 5.1584999999999995E-09, 
DataValue, 0.70000000000000007, 5.3267999999999994E-09, 
DataValue, 0.8, 5.4749E-09, 
DataValue, 0.9, 5.5177999999999993E-09, 
DataValue, 1, 5.6248E-09, 
DataValue, 1.1, 5.7519999999999992E-09, 
DataValue, 1.2, 5.8447999999999995E-09, 
DataValue, 1.3, 5.9540999999999995E-09, 
DataValue, 1.4000000000000001, 6.0007999999999994E-09, 
DataValue, 1.5, 6.0586999999999994E-09, 
DataValue, 1.6, 6.1413999999999995E-09, 
DataValue, 1.7, 6.2349E-09, 
DataValue, 1.8, 6.2926999999999992E-09, 
DataValue, 1.9000000000000001, 6.4016999999999995E-09, 
DataValue, 2, 6.4870999999999992E-09, 
DataValue, 2.1, 6.546999999999999E-09, 
DataValue, 2.2, 6.6006999999999993E-09, 
DataValue, 2.3000000000000003, 6.6531E-09, 
DataValue, 2.4, 6.7473999999999993E-09, 
DataValue, 2.5, 6.7859999999999995E-09, 
DataValue, 2.6, 6.809899999999999E-09, 
DataValue, 2.7, 6.9361999999999993E-09, 
DataValue, 2.8000000000000003, 7.023099999999999E-09, 
DataValue, 2.9, 7.0563999999999989E-09, 
DataValue, 3, 7.1558E-09, 
DataValue, 3.1, 7.1864999999999995E-09, 
DataValue, 3.2, 7.2363999999999995E-09, 
DataValue, 3.3000000000000003, 7.257699999999999E-09, 
DataValue, 3.4, 7.3515E-09, 
DataValue, 3.5, 7.400499999999999E-09, 
DataValue, 3.6, 7.4741E-09, 
DataValue, 3.7, 7.4714E-09, 
DataValue, 3.8000000000000003, 7.5705E-09, 
DataValue, 3.9, 7.6673E-09, 
DataValue, 4, 7.7294E-09, 
DataValue, 4.1, 7.7321E-09, 
DataValue, 4.2, 7.8230999999999988E-09, 
DataValue, 4.3, 7.860399999999999E-09, 
DataValue, 4.4, 7.9906999999999989E-09, 
DataValue, 4.5, 8.0326999999999985E-09, 
DataValue, 4.6000000000000005, 8.0609999999999985E-09, 
DataValue, 4.7, 8.0948E-09, 
DataValue, 4.8, 8.1627999999999992E-09, 
DataValue, 4.9, 8.2165E-09, 
DataValue, 5, 8.356399999999999E-09, 