
SetupTitle, WW
PrimitiveTest, I/V Sweep
TestParameter, Context.MainFrame, B1500A
TestParameter, Channel.UnitType, SMU, SMU
TestParameter, Channel.Unit, SMU1:HP, SMU2:HP
TestParameter, Channel.IName, I1, I4
TestParameter, Channel.VName, V1, V4
TestParameter, Channel.Mode, V, COMMON
TestParameter, Channel.Func, VAR1, CONST
TestParameter, Channel.Index, 
TestParameter, Channel.Time, 
TestParameter, Measurement.Port.Unit, SMU1:HP, SMU2:HP
TestParameter, Measurement.Port.SeriesResistor, NONE, NONE
TestParameter, Measurement.Port.Filter, ON, ON
TestParameter, Measurement.Port.OutputVoltageComparison, 0, 0
TestParameter, Measurement.Primary.Locus, Single
TestParameter, Measurement.Primary.Scale, LINEAR
TestParameter, Measurement.Primary.Start, -5
TestParameter, Measurement.Primary.Stop, 5
TestParameter, Measurement.Primary.Step, 0.1
TestParameter, Measurement.Primary.Compliance, 0.1
TestParameter, Measurement.Primary.PowerCompliance, 0
TestParameter, Measurement.Aborting.Condition, CONTINUE AT ANY
TestParameter, Measurement.PostOutput.Value, START
TestParameter, Measurement.PostOutput.Retention, OFF
TestParameter, Measurement.Bias.Source, -5, 0
TestParameter, Measurement.Bias.Compliance, 0.1, 1
TestParameter, Measurement.Monitor.Unit, SMU1:HP, SMU2:HP
TestParameter, Measurement.Monitor.Adc, HR ADC, HR ADC
TestParameter, Measurement.Monitor.Measurement, Compliance Side, Compliance Side
TestParameter, Measurement.Monitor.RangingMode, AUTO, AUTO
TestParameter, Measurement.Monitor.RangeBoundary, , 
TestParameter, Measurement.Monitor.RangeRating, BY FULL RANGE, BY FULL RANGE
TestParameter, Measurement.Monitor.RangeRatingCoeff, 50, 50
TestParameter, Measurement.Timing.Hold, 0
TestParameter, Measurement.Timing.Delay, 0.001
TestParameter, Measurement.Adc.HighSpeed.Mode, AUTO
TestParameter, Measurement.Adc.HighSpeed.Coeff, 1
TestParameter, Measurement.Adc.HighResolution.AutoZero, OFF
TestParameter, Measurement.Adc.HighResolution.Mode, PLC
TestParameter, Measurement.Adc.HighResolution.Coeff, 1
TestParameter, Measurement.WaitTime.Source.Coeff, 1
TestParameter, Measurement.WaitTime.Source.Offset, 0
TestParameter, Measurement.WaitTime.Monitor.Coeff, 1
TestParameter, Measurement.WaitTime.Monitor.Offset, 0
TestParameter, Function.User.Name, Ohmic
TestParameter, Function.User.Unit, ohm
TestParameter, Function.User.Definition, avg(V1/I1)
TestParameter, Output.Graph.Enabled, true
TestParameter, Output.Graph.XAxis.Data, V1
TestParameter, Output.Graph.XAxis.Scale, Linear
TestParameter, Output.Graph.XAxis.Left, -5
TestParameter, Output.Graph.XAxis.Right, 5
TestParameter, Output.Graph.YAxis.Data, I1
TestParameter, Output.Graph.YAxis.Scale, Linear
TestParameter, Output.Graph.YAxis.Bottom, -0.001
TestParameter, Output.Graph.YAxis.Top, 0.001
TestParameter, Output.Graph.YAxis.Group, 
TestParameter, Output.Scalar.Data, Ohmic
TestParameter, AutoAnalysis.Interpolation, false
TestParameter, AutoAnalysis.Line1.Enabled, false
TestParameter, AutoAnalysis.Line1.Type, 1
TestParameter, AutoAnalysis.Line1.Fix, True
TestParameter, AutoAnalysis.Line1.YAxis, 0
TestParameter, AutoAnalysis.Line1.Point1.Type, 0
TestParameter, AutoAnalysis.Line1.Point1.XY.X, 
TestParameter, AutoAnalysis.Line1.Point1.XY.Y, 
TestParameter, AutoAnalysis.Line1.Point1.Data.Var, 
TestParameter, AutoAnalysis.Line1.Point1.Data.Condition, 
TestParameter, AutoAnalysis.Line1.Point1.Data.Start, false
TestParameter, AutoAnalysis.Line1.Point1.Data.StartVar, 
TestParameter, AutoAnalysis.Line1.Point1.Data.StartCondition, 
TestParameter, AutoAnalysis.Line1.Point2.Type, 0
TestParameter, AutoAnalysis.Line1.Point2.XY.X, 
TestParameter, AutoAnalysis.Line1.Point2.XY.Y, 
TestParameter, AutoAnalysis.Line1.Point2.Data.Var, 
TestParameter, AutoAnalysis.Line1.Point2.Data.Condition, 
TestParameter, AutoAnalysis.Line1.Point2.Data.Start, false
TestParameter, AutoAnalysis.Line1.Point2.Data.StartVar, 
TestParameter, AutoAnalysis.Line1.Point2.Data.StartCondition, 
TestParameter, AutoAnalysis.Line1.GradientExpr, 0
TestParameter, AutoAnalysis.Line2.Enabled, false
TestParameter, AutoAnalysis.Line2.Type, 1
TestParameter, AutoAnalysis.Line2.Fix, True
TestParameter, AutoAnalysis.Line2.YAxis, 0
TestParameter, AutoAnalysis.Line2.Point1.Type, 0
TestParameter, AutoAnalysis.Line2.Point1.XY.X, 
TestParameter, AutoAnalysis.Line2.Point1.XY.Y, 
TestParameter, AutoAnalysis.Line2.Point1.Data.Var, 
TestParameter, AutoAnalysis.Line2.Point1.Data.Condition, 
TestParameter, AutoAnalysis.Line2.Point1.Data.Start, false
TestParameter, AutoAnalysis.Line2.Point1.Data.StartVar, 
TestParameter, AutoAnalysis.Line2.Point1.Data.StartCondition, 
TestParameter, AutoAnalysis.Line2.Point2.Type, 0
TestParameter, AutoAnalysis.Line2.Point2.XY.X, 
TestParameter, AutoAnalysis.Line2.Point2.XY.Y, 
TestParameter, AutoAnalysis.Line2.Point2.Data.Var, 
TestParameter, AutoAnalysis.Line2.Point2.Data.Condition, 
TestParameter, AutoAnalysis.Line2.Point2.Data.Start, false
TestParameter, AutoAnalysis.Line2.Point2.Data.StartVar, 
TestParameter, AutoAnalysis.Line2.Point2.Data.StartCondition, 
TestParameter, AutoAnalysis.Line2.GradientExpr, 0
TestParameter, AutoAnalysis.Marker.Enabled, false
TestParameter, AutoAnalysis.Marker.Data.Var, 
TestParameter, AutoAnalysis.Marker.Data.Condition, 
TestParameter, AutoAnalysis.Marker.Data.Start, false
TestParameter, AutoAnalysis.Marker.Data.StartVar, 
TestParameter, AutoAnalysis.Marker.Data.StartCondition, 
MetaData, TestRecord.EntryPoint, true
MetaData, TestRecord.RecordTime, 09/11/2020 15:54:12
MetaData, TestRecord.TestTarget, 
MetaData, TestRecord.IterationIndex, 26
MetaData, TestRecord.Preservation, true
MetaData, TestRecord.Flag, 
MetaData, TestRecord.Remarks, 
MetaData, TestRecord.LinkKey, b85255c0-74f8-4cdb-8c41-496239130884
Dimension1, 101, 101, 101
Dimension2, 1, 1, 1
DataName, V1, I1, Ohmic
DataValue, -5, -3.3093999999999998E-09, 718415264.86178875
DataValue, -4.9, -3.1753999999999996E-09, 
DataValue, -4.8, -3.1075E-09, 
DataValue, -4.7, -3.0329999999999998E-09, 
DataValue, -4.6000000000000005, -2.9755999999999995E-09, 
DataValue, -4.5, -2.9156999999999998E-09, 
DataValue, -4.4, -2.8606E-09, 
DataValue, -4.3, -2.772E-09, 
DataValue, -4.2, -2.7601999999999996E-09, 
DataValue, -4.1, -2.6552999999999997E-09, 
DataValue, -4, -2.6381E-09, 
DataValue, -3.9, -2.6363999999999997E-09, 
DataValue, -3.8000000000000003, -2.5977E-09, 
DataValue, -3.7, -2.4782999999999996E-09, 
DataValue, -3.6, -2.521E-09, 
DataValue, -3.5, -2.4490999999999997E-09, 
DataValue, -3.4, -2.4038E-09, 
DataValue, -3.3000000000000003, -2.3409999999999997E-09, 
DataValue, -3.2, -2.3284E-09, 
DataValue, -3.1, -2.3690999999999996E-09, 
DataValue, -3, -2.2606E-09, 
DataValue, -2.9, -2.2197999999999997E-09, 
DataValue, -2.8000000000000003, -2.1223999999999996E-09, 
DataValue, -2.7, -2.1743E-09, 
DataValue, -2.6, -2.0508E-09, 
DataValue, -2.5, -2.1036999999999997E-09, 
DataValue, -2.4, -2.0791999999999996E-09, 
DataValue, -2.3000000000000003, -2.0228999999999997E-09, 
DataValue, -2.2, -2.0166E-09, 
DataValue, -2.1, -1.9138999999999998E-09, 
DataValue, -2, -1.9627E-09, 
DataValue, -1.9000000000000001, -1.8921999999999997E-09, 
DataValue, -1.8, -1.8611999999999997E-09, 
DataValue, -1.7, -1.8027999999999998E-09, 
DataValue, -1.6, -1.7944E-09, 
DataValue, -1.5, -1.8029999999999999E-09, 
DataValue, -1.4000000000000001, -1.7321999999999999E-09, 
DataValue, -1.3, -1.7542999999999998E-09, 
DataValue, -1.2, -1.6819999999999998E-09, 
DataValue, -1.1, -1.6133999999999998E-09, 
DataValue, -1, -1.6447E-09, 
DataValue, -0.9, -1.5931999999999998E-09, 
DataValue, -0.8, -1.5654999999999998E-09, 
DataValue, -0.70000000000000007, -1.526E-09, 
DataValue, -0.6, -1.4391E-09, 
DataValue, -0.5, -1.3335999999999998E-09, 
DataValue, -0.4, -1.2521999999999999E-09, 
DataValue, -0.3, -1.0674999999999999E-09, 
DataValue, -0.2, -6.619E-10, 
DataValue, -0.1, 1.386E-10, 
DataValue, 0, 2.3647E-09, 
DataValue, 0.1, 3.7256999999999992E-09, 
DataValue, 0.2, 4.2177999999999992E-09, 
DataValue, 0.3, 4.4706E-09, 
DataValue, 0.4, 4.6590999999999993E-09, 
DataValue, 0.5, 4.8374E-09, 
DataValue, 0.6, 5.0018999999999994E-09, 
DataValue, 0.70000000000000007, 5.0392999999999993E-09, 
DataValue, 0.8, 5.1694999999999996E-09, 
DataValue, 0.9, 5.2954999999999993E-09, 
DataValue, 1, 5.3429999999999994E-09, 
DataValue, 1.1, 5.4384999999999994E-09, 
DataValue, 1.2, 5.527E-09, 
DataValue, 1.3, 5.5486E-09, 
DataValue, 1.4000000000000001, 5.6250999999999995E-09, 
DataValue, 1.5, 5.6726E-09, 
DataValue, 1.6, 5.7287999999999995E-09, 
DataValue, 1.7, 5.7821E-09, 
DataValue, 1.8, 5.8717999999999995E-09, 
DataValue, 1.9000000000000001, 5.9769999999999995E-09, 
DataValue, 2, 6.0580999999999992E-09, 
DataValue, 2.1, 6.0899E-09, 
DataValue, 2.2, 6.1236999999999994E-09, 
DataValue, 2.3000000000000003, 6.1815999999999994E-09, 
DataValue, 2.4, 6.2537E-09, 
DataValue, 2.5, 6.2926999999999992E-09, 
DataValue, 2.6, 6.3665999999999991E-09, 
DataValue, 2.7, 6.4340999999999995E-09, 
DataValue, 2.8000000000000003, 6.551099999999999E-09, 
DataValue, 2.9, 6.5265E-09, 
DataValue, 3, 6.6188999999999991E-09, 
DataValue, 3.1, 6.6706E-09, 
DataValue, 3.2, 6.7821999999999992E-09, 
DataValue, 3.3000000000000003, 6.7978999999999994E-09, 
DataValue, 3.4, 6.8817999999999991E-09, 
DataValue, 3.5, 6.947499999999999E-09, 
DataValue, 3.6, 6.9605999999999993E-09, 
DataValue, 3.7, 6.9966E-09, 
DataValue, 3.8000000000000003, 7.0683E-09, 
DataValue, 3.9, 7.1007999999999993E-09, 
DataValue, 4, 7.1569999999999992E-09, 
DataValue, 4.1, 7.2270999999999996E-09, 
DataValue, 4.2, 7.316899999999999E-09, 
DataValue, 4.3, 7.2841999999999993E-09, 
DataValue, 4.4, 7.4196999999999991E-09, 
DataValue, 4.5, 7.4633E-09, 
DataValue, 4.6000000000000005, 7.4224999999999991E-09, 
DataValue, 4.7, 7.6117E-09, 
DataValue, 4.8, 7.6275999999999988E-09, 
DataValue, 4.9, 7.6107999999999986E-09, 
DataValue, 5, 7.7048E-09, 