
SetupTitle, WW
PrimitiveTest, I/V Sweep
TestParameter, Context.MainFrame, B1500A
TestParameter, Channel.UnitType, SMU, SMU
TestParameter, Channel.Unit, SMU1:HP, SMU2:HP
TestParameter, Channel.IName, I1, I4
TestParameter, Channel.VName, V1, V4
TestParameter, Channel.Mode, V, COMMON
TestParameter, Channel.Func, VAR1, CONST
TestParameter, Channel.Index, 
TestParameter, Channel.Time, 
TestParameter, Measurement.Port.Unit, SMU1:HP, SMU2:HP
TestParameter, Measurement.Port.SeriesResistor, NONE, NONE
TestParameter, Measurement.Port.Filter, ON, ON
TestParameter, Measurement.Port.OutputVoltageComparison, 0, 0
TestParameter, Measurement.Primary.Locus, Single
TestParameter, Measurement.Primary.Scale, LINEAR
TestParameter, Measurement.Primary.Start, -5
TestParameter, Measurement.Primary.Stop, 5
TestParameter, Measurement.Primary.Step, 0.1
TestParameter, Measurement.Primary.Compliance, 0.1
TestParameter, Measurement.Primary.PowerCompliance, 0
TestParameter, Measurement.Aborting.Condition, CONTINUE AT ANY
TestParameter, Measurement.PostOutput.Value, START
TestParameter, Measurement.PostOutput.Retention, OFF
TestParameter, Measurement.Bias.Source, -5, 0
TestParameter, Measurement.Bias.Compliance, 0.1, 1
TestParameter, Measurement.Monitor.Unit, SMU1:HP, SMU2:HP
TestParameter, Measurement.Monitor.Adc, HR ADC, HR ADC
TestParameter, Measurement.Monitor.Measurement, Compliance Side, Compliance Side
TestParameter, Measurement.Monitor.RangingMode, AUTO, AUTO
TestParameter, Measurement.Monitor.RangeBoundary, , 
TestParameter, Measurement.Monitor.RangeRating, BY FULL RANGE, BY FULL RANGE
TestParameter, Measurement.Monitor.RangeRatingCoeff, 50, 50
TestParameter, Measurement.Timing.Hold, 0
TestParameter, Measurement.Timing.Delay, 0.001
TestParameter, Measurement.Adc.HighSpeed.Mode, AUTO
TestParameter, Measurement.Adc.HighSpeed.Coeff, 1
TestParameter, Measurement.Adc.HighResolution.AutoZero, OFF
TestParameter, Measurement.Adc.HighResolution.Mode, PLC
TestParameter, Measurement.Adc.HighResolution.Coeff, 1
TestParameter, Measurement.WaitTime.Source.Coeff, 1
TestParameter, Measurement.WaitTime.Source.Offset, 0
TestParameter, Measurement.WaitTime.Monitor.Coeff, 1
TestParameter, Measurement.WaitTime.Monitor.Offset, 0
TestParameter, Function.User.Name, Ohmic
TestParameter, Function.User.Unit, ohm
TestParameter, Function.User.Definition, avg(V1/I1)
TestParameter, Output.Graph.Enabled, true
TestParameter, Output.Graph.XAxis.Data, V1
TestParameter, Output.Graph.XAxis.Scale, Linear
TestParameter, Output.Graph.XAxis.Left, -5
TestParameter, Output.Graph.XAxis.Right, 5
TestParameter, Output.Graph.YAxis.Data, I1
TestParameter, Output.Graph.YAxis.Scale, Linear
TestParameter, Output.Graph.YAxis.Bottom, -0.001
TestParameter, Output.Graph.YAxis.Top, 0.001
TestParameter, Output.Graph.YAxis.Group, 
TestParameter, Output.Scalar.Data, Ohmic
TestParameter, AutoAnalysis.Interpolation, false
TestParameter, AutoAnalysis.Line1.Enabled, false
TestParameter, AutoAnalysis.Line1.Type, 1
TestParameter, AutoAnalysis.Line1.Fix, True
TestParameter, AutoAnalysis.Line1.YAxis, 0
TestParameter, AutoAnalysis.Line1.Point1.Type, 0
TestParameter, AutoAnalysis.Line1.Point1.XY.X, 
TestParameter, AutoAnalysis.Line1.Point1.XY.Y, 
TestParameter, AutoAnalysis.Line1.Point1.Data.Var, 
TestParameter, AutoAnalysis.Line1.Point1.Data.Condition, 
TestParameter, AutoAnalysis.Line1.Point1.Data.Start, false
TestParameter, AutoAnalysis.Line1.Point1.Data.StartVar, 
TestParameter, AutoAnalysis.Line1.Point1.Data.StartCondition, 
TestParameter, AutoAnalysis.Line1.Point2.Type, 0
TestParameter, AutoAnalysis.Line1.Point2.XY.X, 
TestParameter, AutoAnalysis.Line1.Point2.XY.Y, 
TestParameter, AutoAnalysis.Line1.Point2.Data.Var, 
TestParameter, AutoAnalysis.Line1.Point2.Data.Condition, 
TestParameter, AutoAnalysis.Line1.Point2.Data.Start, false
TestParameter, AutoAnalysis.Line1.Point2.Data.StartVar, 
TestParameter, AutoAnalysis.Line1.Point2.Data.StartCondition, 
TestParameter, AutoAnalysis.Line1.GradientExpr, 0
TestParameter, AutoAnalysis.Line2.Enabled, false
TestParameter, AutoAnalysis.Line2.Type, 1
TestParameter, AutoAnalysis.Line2.Fix, True
TestParameter, AutoAnalysis.Line2.YAxis, 0
TestParameter, AutoAnalysis.Line2.Point1.Type, 0
TestParameter, AutoAnalysis.Line2.Point1.XY.X, 
TestParameter, AutoAnalysis.Line2.Point1.XY.Y, 
TestParameter, AutoAnalysis.Line2.Point1.Data.Var, 
TestParameter, AutoAnalysis.Line2.Point1.Data.Condition, 
TestParameter, AutoAnalysis.Line2.Point1.Data.Start, false
TestParameter, AutoAnalysis.Line2.Point1.Data.StartVar, 
TestParameter, AutoAnalysis.Line2.Point1.Data.StartCondition, 
TestParameter, AutoAnalysis.Line2.Point2.Type, 0
TestParameter, AutoAnalysis.Line2.Point2.XY.X, 
TestParameter, AutoAnalysis.Line2.Point2.XY.Y, 
TestParameter, AutoAnalysis.Line2.Point2.Data.Var, 
TestParameter, AutoAnalysis.Line2.Point2.Data.Condition, 
TestParameter, AutoAnalysis.Line2.Point2.Data.Start, false
TestParameter, AutoAnalysis.Line2.Point2.Data.StartVar, 
TestParameter, AutoAnalysis.Line2.Point2.Data.StartCondition, 
TestParameter, AutoAnalysis.Line2.GradientExpr, 0
TestParameter, AutoAnalysis.Marker.Enabled, false
TestParameter, AutoAnalysis.Marker.Data.Var, 
TestParameter, AutoAnalysis.Marker.Data.Condition, 
TestParameter, AutoAnalysis.Marker.Data.Start, false
TestParameter, AutoAnalysis.Marker.Data.StartVar, 
TestParameter, AutoAnalysis.Marker.Data.StartCondition, 
MetaData, TestRecord.EntryPoint, true
MetaData, TestRecord.RecordTime, 09/11/2020 15:53:44
MetaData, TestRecord.TestTarget, 
MetaData, TestRecord.IterationIndex, 25
MetaData, TestRecord.Preservation, true
MetaData, TestRecord.Flag, 
MetaData, TestRecord.Remarks, 
MetaData, TestRecord.LinkKey, bddd9381-4df1-4e33-8130-e9f45769b145
Dimension1, 101, 101, 101
Dimension2, 1, 1, 1
DataName, V1, I1, Ohmic
DataValue, -5, -2.661E-09, 869243873.71293139
DataValue, -4.9, -2.5936E-09, 
DataValue, -4.8, -2.5091E-09, 
DataValue, -4.7, -2.4808E-09, 
DataValue, -4.6000000000000005, -2.4085999999999997E-09, 
DataValue, -4.5, -2.3736999999999998E-09, 
DataValue, -4.4, -2.3210999999999998E-09, 
DataValue, -4.3, -2.3179999999999996E-09, 
DataValue, -4.2, -2.2471E-09, 
DataValue, -4.1, -2.2952999999999997E-09, 
DataValue, -4, -2.2018E-09, 
DataValue, -3.9, -2.1627999999999996E-09, 
DataValue, -3.8000000000000003, -2.1328E-09, 
DataValue, -3.7, -2.1233E-09, 
DataValue, -3.6, -2.1194E-09, 
DataValue, -3.5, -2.0208E-09, 
DataValue, -3.4, -2.0494E-09, 
DataValue, -3.3000000000000003, -2.065E-09, 
DataValue, -3.2, -1.9394999999999998E-09, 
DataValue, -3.1, -1.9352999999999997E-09, 
DataValue, -3, -1.9068999999999997E-09, 
DataValue, -2.9, -1.8577E-09, 
DataValue, -2.8000000000000003, -1.8148999999999998E-09, 
DataValue, -2.7, -1.791E-09, 
DataValue, -2.6, -1.8148999999999998E-09, 
DataValue, -2.5, -1.7169999999999998E-09, 
DataValue, -2.4, -1.7223999999999998E-09, 
DataValue, -2.3000000000000003, -1.7192999999999998E-09, 
DataValue, -2.2, -1.7016999999999998E-09, 
DataValue, -2.1, -1.6148999999999999E-09, 
DataValue, -2, -1.6316999999999999E-09, 
DataValue, -1.9000000000000001, -1.6252E-09, 
DataValue, -1.8, -1.5332999999999999E-09, 
DataValue, -1.7, -1.5350999999999998E-09, 
DataValue, -1.6, -1.5211999999999999E-09, 
DataValue, -1.5, -1.4715999999999998E-09, 
DataValue, -1.4000000000000001, -1.5276999999999998E-09, 
DataValue, -1.3, -1.4432999999999998E-09, 
DataValue, -1.2, -1.4215E-09, 
DataValue, -1.1, -1.3961999999999998E-09, 
DataValue, -1, -1.3853999999999998E-09, 
DataValue, -0.9, -1.3530999999999998E-09, 
DataValue, -0.8, -1.3279E-09, 
DataValue, -0.70000000000000007, -1.2721E-09, 
DataValue, -0.6, -1.2373999999999999E-09, 
DataValue, -0.5, -1.1732999999999999E-09, 
DataValue, -0.4, -1.0309999999999999E-09, 
DataValue, -0.3, -8.0899999999999989E-10, 
DataValue, -0.2, -5.1619999999999993E-10, 
DataValue, -0.1, 2.5759999999999997E-10, 
DataValue, 0, 1.9999999999999997E-09, 
DataValue, 0.1, 3.0572999999999998E-09, 
DataValue, 0.2, 3.4378999999999995E-09, 
DataValue, 0.3, 3.7074E-09, 
DataValue, 0.4, 3.8783999999999993E-09, 
DataValue, 0.5, 3.9809999999999994E-09, 
DataValue, 0.6, 4.1287E-09, 
DataValue, 0.70000000000000007, 4.1965999999999993E-09, 
DataValue, 0.8, 4.3537999999999996E-09, 
DataValue, 0.9, 4.3862E-09, 
DataValue, 1, 4.4019999999999995E-09, 
DataValue, 1.1, 4.4810999999999993E-09, 
DataValue, 1.2, 4.535E-09, 
DataValue, 1.3, 4.6154999999999992E-09, 
DataValue, 1.4000000000000001, 4.6886E-09, 
DataValue, 1.5, 4.7223E-09, 
DataValue, 1.6, 4.8655999999999994E-09, 
DataValue, 1.7, 4.8545E-09, 
DataValue, 1.8, 4.9528999999999993E-09, 
DataValue, 1.9000000000000001, 4.9697999999999991E-09, 
DataValue, 2, 4.977E-09, 
DataValue, 2.1, 5.0602999999999992E-09, 
DataValue, 2.2, 5.1062999999999992E-09, 
DataValue, 2.3000000000000003, 5.1671E-09, 
DataValue, 2.4, 5.1511E-09, 
DataValue, 2.5, 5.2118999999999993E-09, 
DataValue, 2.6, 5.26E-09, 
DataValue, 2.7, 5.3155999999999993E-09, 
DataValue, 2.8000000000000003, 5.3753E-09, 
DataValue, 2.9, 5.4576E-09, 
DataValue, 3, 5.4537999999999995E-09, 
DataValue, 3.1, 5.5298999999999993E-09, 
DataValue, 3.2, 5.5548999999999995E-09, 
DataValue, 3.3000000000000003, 5.5849E-09, 
DataValue, 3.4, 5.5751999999999995E-09, 
DataValue, 3.5, 5.6786E-09, 
DataValue, 3.6, 5.7536999999999993E-09, 
DataValue, 3.7, 5.7784999999999994E-09, 
DataValue, 3.8000000000000003, 5.7603E-09, 
DataValue, 3.9, 5.8355999999999992E-09, 
DataValue, 4, 5.9262E-09, 
DataValue, 4.1, 5.9029999999999992E-09, 
DataValue, 4.2, 5.8977E-09, 
DataValue, 4.3, 5.9968E-09, 
DataValue, 4.4, 6.0426999999999994E-09, 
DataValue, 4.5, 6.0286999999999993E-09, 
DataValue, 4.6000000000000005, 6.1001E-09, 
DataValue, 4.7, 6.122299999999999E-09, 
DataValue, 4.8, 6.1567E-09, 
DataValue, 4.9, 6.2133E-09, 
DataValue, 5, 6.2170999999999991E-09, 