
SetupTitle, WW
PrimitiveTest, I/V Sweep
TestParameter, Context.MainFrame, B1500A
TestParameter, Channel.UnitType, SMU, SMU
TestParameter, Channel.Unit, SMU1:HP, SMU2:HP
TestParameter, Channel.IName, I1, I4
TestParameter, Channel.VName, V1, V4
TestParameter, Channel.Mode, V, COMMON
TestParameter, Channel.Func, VAR1, CONST
TestParameter, Channel.Index, 
TestParameter, Channel.Time, 
TestParameter, Measurement.Port.Unit, SMU1:HP, SMU2:HP
TestParameter, Measurement.Port.SeriesResistor, NONE, NONE
TestParameter, Measurement.Port.Filter, ON, ON
TestParameter, Measurement.Port.OutputVoltageComparison, 0, 0
TestParameter, Measurement.Primary.Locus, Single
TestParameter, Measurement.Primary.Scale, LINEAR
TestParameter, Measurement.Primary.Start, -5
TestParameter, Measurement.Primary.Stop, 5
TestParameter, Measurement.Primary.Step, 0.1
TestParameter, Measurement.Primary.Compliance, 0.1
TestParameter, Measurement.Primary.PowerCompliance, 0
TestParameter, Measurement.Aborting.Condition, CONTINUE AT ANY
TestParameter, Measurement.PostOutput.Value, START
TestParameter, Measurement.PostOutput.Retention, OFF
TestParameter, Measurement.Bias.Source, -5, 0
TestParameter, Measurement.Bias.Compliance, 0.1, 1
TestParameter, Measurement.Monitor.Unit, SMU1:HP, SMU2:HP
TestParameter, Measurement.Monitor.Adc, HR ADC, HR ADC
TestParameter, Measurement.Monitor.Measurement, Compliance Side, Compliance Side
TestParameter, Measurement.Monitor.RangingMode, AUTO, AUTO
TestParameter, Measurement.Monitor.RangeBoundary, , 
TestParameter, Measurement.Monitor.RangeRating, BY FULL RANGE, BY FULL RANGE
TestParameter, Measurement.Monitor.RangeRatingCoeff, 50, 50
TestParameter, Measurement.Timing.Hold, 0
TestParameter, Measurement.Timing.Delay, 0.001
TestParameter, Measurement.Adc.HighSpeed.Mode, AUTO
TestParameter, Measurement.Adc.HighSpeed.Coeff, 1
TestParameter, Measurement.Adc.HighResolution.AutoZero, OFF
TestParameter, Measurement.Adc.HighResolution.Mode, PLC
TestParameter, Measurement.Adc.HighResolution.Coeff, 1
TestParameter, Measurement.WaitTime.Source.Coeff, 1
TestParameter, Measurement.WaitTime.Source.Offset, 0
TestParameter, Measurement.WaitTime.Monitor.Coeff, 1
TestParameter, Measurement.WaitTime.Monitor.Offset, 0
TestParameter, Function.User.Name, Ohmic
TestParameter, Function.User.Unit, ohm
TestParameter, Function.User.Definition, avg(V1/I1)
TestParameter, Output.Graph.Enabled, true
TestParameter, Output.Graph.XAxis.Data, V1
TestParameter, Output.Graph.XAxis.Scale, Linear
TestParameter, Output.Graph.XAxis.Left, -5
TestParameter, Output.Graph.XAxis.Right, 5
TestParameter, Output.Graph.YAxis.Data, I1
TestParameter, Output.Graph.YAxis.Scale, Linear
TestParameter, Output.Graph.YAxis.Bottom, -0.001
TestParameter, Output.Graph.YAxis.Top, 0.001
TestParameter, Output.Graph.YAxis.Group, 
TestParameter, Output.Scalar.Data, Ohmic
TestParameter, AutoAnalysis.Interpolation, false
TestParameter, AutoAnalysis.Line1.Enabled, false
TestParameter, AutoAnalysis.Line1.Type, 1
TestParameter, AutoAnalysis.Line1.Fix, True
TestParameter, AutoAnalysis.Line1.YAxis, 0
TestParameter, AutoAnalysis.Line1.Point1.Type, 0
TestParameter, AutoAnalysis.Line1.Point1.XY.X, 
TestParameter, AutoAnalysis.Line1.Point1.XY.Y, 
TestParameter, AutoAnalysis.Line1.Point1.Data.Var, 
TestParameter, AutoAnalysis.Line1.Point1.Data.Condition, 
TestParameter, AutoAnalysis.Line1.Point1.Data.Start, false
TestParameter, AutoAnalysis.Line1.Point1.Data.StartVar, 
TestParameter, AutoAnalysis.Line1.Point1.Data.StartCondition, 
TestParameter, AutoAnalysis.Line1.Point2.Type, 0
TestParameter, AutoAnalysis.Line1.Point2.XY.X, 
TestParameter, AutoAnalysis.Line1.Point2.XY.Y, 
TestParameter, AutoAnalysis.Line1.Point2.Data.Var, 
TestParameter, AutoAnalysis.Line1.Point2.Data.Condition, 
TestParameter, AutoAnalysis.Line1.Point2.Data.Start, false
TestParameter, AutoAnalysis.Line1.Point2.Data.StartVar, 
TestParameter, AutoAnalysis.Line1.Point2.Data.StartCondition, 
TestParameter, AutoAnalysis.Line1.GradientExpr, 0
TestParameter, AutoAnalysis.Line2.Enabled, false
TestParameter, AutoAnalysis.Line2.Type, 1
TestParameter, AutoAnalysis.Line2.Fix, True
TestParameter, AutoAnalysis.Line2.YAxis, 0
TestParameter, AutoAnalysis.Line2.Point1.Type, 0
TestParameter, AutoAnalysis.Line2.Point1.XY.X, 
TestParameter, AutoAnalysis.Line2.Point1.XY.Y, 
TestParameter, AutoAnalysis.Line2.Point1.Data.Var, 
TestParameter, AutoAnalysis.Line2.Point1.Data.Condition, 
TestParameter, AutoAnalysis.Line2.Point1.Data.Start, false
TestParameter, AutoAnalysis.Line2.Point1.Data.StartVar, 
TestParameter, AutoAnalysis.Line2.Point1.Data.StartCondition, 
TestParameter, AutoAnalysis.Line2.Point2.Type, 0
TestParameter, AutoAnalysis.Line2.Point2.XY.X, 
TestParameter, AutoAnalysis.Line2.Point2.XY.Y, 
TestParameter, AutoAnalysis.Line2.Point2.Data.Var, 
TestParameter, AutoAnalysis.Line2.Point2.Data.Condition, 
TestParameter, AutoAnalysis.Line2.Point2.Data.Start, false
TestParameter, AutoAnalysis.Line2.Point2.Data.StartVar, 
TestParameter, AutoAnalysis.Line2.Point2.Data.StartCondition, 
TestParameter, AutoAnalysis.Line2.GradientExpr, 0
TestParameter, AutoAnalysis.Marker.Enabled, false
TestParameter, AutoAnalysis.Marker.Data.Var, 
TestParameter, AutoAnalysis.Marker.Data.Condition, 
TestParameter, AutoAnalysis.Marker.Data.Start, false
TestParameter, AutoAnalysis.Marker.Data.StartVar, 
TestParameter, AutoAnalysis.Marker.Data.StartCondition, 
MetaData, TestRecord.EntryPoint, true
MetaData, TestRecord.RecordTime, 09/11/2020 15:52:42
MetaData, TestRecord.TestTarget, 
MetaData, TestRecord.IterationIndex, 23
MetaData, TestRecord.Preservation, true
MetaData, TestRecord.Flag, 
MetaData, TestRecord.Remarks, 
MetaData, TestRecord.LinkKey, 9916bff4-28cd-4afe-8ab3-a5736c029b47
Dimension1, 101, 101, 101
Dimension2, 1, 1, 1
DataName, V1, I1, Ohmic
DataValue, -5, -1.8291999999999999E-09, 1313854223.1858733
DataValue, -4.9, -1.7576999999999998E-09, 
DataValue, -4.8, -1.6939E-09, 
DataValue, -4.7, -1.6809999999999999E-09, 
DataValue, -4.6000000000000005, -1.6653999999999999E-09, 
DataValue, -4.5, -1.6152999999999998E-09, 
DataValue, -4.4, -1.6117E-09, 
DataValue, -4.3, -1.5852999999999999E-09, 
DataValue, -4.2, -1.5722999999999998E-09, 
DataValue, -4.1, -1.4737999999999998E-09, 
DataValue, -4, -1.4960999999999998E-09, 
DataValue, -3.9, -1.4837999999999998E-09, 
DataValue, -3.8000000000000003, -1.5072E-09, 
DataValue, -3.7, -1.4588999999999998E-09, 
DataValue, -3.6, -1.3906E-09, 
DataValue, -3.5, -1.4514999999999998E-09, 
DataValue, -3.4, -1.3984999999999999E-09, 
DataValue, -3.3000000000000003, -1.4052999999999999E-09, 
DataValue, -3.2, -1.3878E-09, 
DataValue, -3.1, -1.3487E-09, 
DataValue, -3, -1.3017999999999998E-09, 
DataValue, -2.9, -1.3428999999999998E-09, 
DataValue, -2.8000000000000003, -1.2932999999999999E-09, 
DataValue, -2.7, -1.2811999999999999E-09, 
DataValue, -2.6, -1.2335E-09, 
DataValue, -2.5, -1.2795E-09, 
DataValue, -2.4, -1.1751999999999998E-09, 
DataValue, -2.3000000000000003, -1.2183999999999999E-09, 
DataValue, -2.2, -1.2083999999999999E-09, 
DataValue, -2.1, -1.1873999999999999E-09, 
DataValue, -2, -1.1736E-09, 
DataValue, -1.9000000000000001, -1.1374999999999999E-09, 
DataValue, -1.8, -1.133E-09, 
DataValue, -1.7, -1.0964999999999999E-09, 
DataValue, -1.6, -1.0603E-09, 
DataValue, -1.5, -1.0438999999999999E-09, 
DataValue, -1.4000000000000001, -1.0139E-09, 
DataValue, -1.3, -1.0428E-09, 
DataValue, -1.2, -1.0202999999999999E-09, 
DataValue, -1.1, -9.9669999999999988E-10, 
DataValue, -1, -1.0544E-09, 
DataValue, -0.9, -9.579E-10, 
DataValue, -0.8, -9.76E-10, 
DataValue, -0.70000000000000007, -9.1239999999999987E-10, 
DataValue, -0.6, -8.5009999999999989E-10, 
DataValue, -0.5, -7.5449999999999993E-10, 
DataValue, -0.4, -6.7049999999999991E-10, 
DataValue, -0.3, -5.065E-10, 
DataValue, -0.2, -2.801E-10, 
DataValue, -0.1, 8.8799999999999993E-11, 
DataValue, 0, 9.943E-10, 
DataValue, 0.1, 1.5894E-09, 
DataValue, 0.2, 1.898E-09, 
DataValue, 0.3, 2.1011999999999997E-09, 
DataValue, 0.4, 2.1743E-09, 
DataValue, 0.5, 2.2898999999999997E-09, 
DataValue, 0.6, 2.3543999999999996E-09, 
DataValue, 0.70000000000000007, 2.3727E-09, 
DataValue, 0.8, 2.4109999999999996E-09, 
DataValue, 0.9, 2.4195999999999998E-09, 
DataValue, 1, 2.5164999999999997E-09, 
DataValue, 1.1, 2.6054999999999997E-09, 
DataValue, 1.2, 2.6534999999999996E-09, 
DataValue, 1.3, 2.6728999999999997E-09, 
DataValue, 1.4000000000000001, 2.6252999999999996E-09, 
DataValue, 1.5, 2.6948E-09, 
DataValue, 1.6, 2.6666E-09, 
DataValue, 1.7, 2.7113999999999995E-09, 
DataValue, 1.8, 2.7605999999999998E-09, 
DataValue, 1.9000000000000001, 2.8353E-09, 
DataValue, 2, 2.8170999999999997E-09, 
DataValue, 2.1, 2.8199999999999998E-09, 
DataValue, 2.2, 2.9406999999999996E-09, 
DataValue, 2.3000000000000003, 2.8886999999999998E-09, 
DataValue, 2.4, 2.9849999999999995E-09, 
DataValue, 2.5, 2.9983E-09, 
DataValue, 2.6, 3.0537E-09, 
DataValue, 2.7, 3.1055999999999997E-09, 
DataValue, 2.8000000000000003, 3.0712999999999995E-09, 
DataValue, 2.9, 3.0796999999999996E-09, 
DataValue, 3, 3.2025999999999997E-09, 
DataValue, 3.1, 3.16554E-09, 
DataValue, 3.2, 3.1937E-09, 
DataValue, 3.3000000000000003, 3.24542E-09, 
DataValue, 3.4, 3.20923E-09, 
DataValue, 3.5, 3.29646E-09, 
DataValue, 3.6, 3.30069E-09, 
DataValue, 3.7, 3.33412E-09, 
DataValue, 3.8000000000000003, 3.33326E-09, 
DataValue, 3.9, 3.37252E-09, 
DataValue, 4, 3.38858E-09, 
DataValue, 4.1, 3.41946E-09, 
DataValue, 4.2, 3.47544E-09, 
DataValue, 4.3, 3.42503E-09, 
DataValue, 4.4, 3.52041E-09, 
DataValue, 4.5, 3.5686E-09, 
DataValue, 4.6000000000000005, 3.6004E-09, 
DataValue, 4.7, 3.62694E-09, 
DataValue, 4.8, 3.66732E-09, 
DataValue, 4.9, 3.64869E-09, 
DataValue, 5, 3.70367E-09, 