
SetupTitle, WW
PrimitiveTest, I/V Sweep
TestParameter, Context.MainFrame, B1500A
TestParameter, Channel.UnitType, SMU, SMU
TestParameter, Channel.Unit, SMU1:HP, SMU2:HP
TestParameter, Channel.IName, I1, I4
TestParameter, Channel.VName, V1, V4
TestParameter, Channel.Mode, V, COMMON
TestParameter, Channel.Func, VAR1, CONST
TestParameter, Channel.Index, 
TestParameter, Channel.Time, 
TestParameter, Measurement.Port.Unit, SMU1:HP, SMU2:HP
TestParameter, Measurement.Port.SeriesResistor, NONE, NONE
TestParameter, Measurement.Port.Filter, ON, ON
TestParameter, Measurement.Port.OutputVoltageComparison, 0, 0
TestParameter, Measurement.Primary.Locus, Single
TestParameter, Measurement.Primary.Scale, LINEAR
TestParameter, Measurement.Primary.Start, -5
TestParameter, Measurement.Primary.Stop, 5
TestParameter, Measurement.Primary.Step, 0.1
TestParameter, Measurement.Primary.Compliance, 0.1
TestParameter, Measurement.Primary.PowerCompliance, 0
TestParameter, Measurement.Aborting.Condition, CONTINUE AT ANY
TestParameter, Measurement.PostOutput.Value, START
TestParameter, Measurement.PostOutput.Retention, OFF
TestParameter, Measurement.Bias.Source, -5, 0
TestParameter, Measurement.Bias.Compliance, 0.1, 1
TestParameter, Measurement.Monitor.Unit, SMU1:HP, SMU2:HP
TestParameter, Measurement.Monitor.Adc, HR ADC, HR ADC
TestParameter, Measurement.Monitor.Measurement, Compliance Side, Compliance Side
TestParameter, Measurement.Monitor.RangingMode, AUTO, AUTO
TestParameter, Measurement.Monitor.RangeBoundary, , 
TestParameter, Measurement.Monitor.RangeRating, BY FULL RANGE, BY FULL RANGE
TestParameter, Measurement.Monitor.RangeRatingCoeff, 50, 50
TestParameter, Measurement.Timing.Hold, 0
TestParameter, Measurement.Timing.Delay, 0.001
TestParameter, Measurement.Adc.HighSpeed.Mode, AUTO
TestParameter, Measurement.Adc.HighSpeed.Coeff, 1
TestParameter, Measurement.Adc.HighResolution.AutoZero, OFF
TestParameter, Measurement.Adc.HighResolution.Mode, PLC
TestParameter, Measurement.Adc.HighResolution.Coeff, 1
TestParameter, Measurement.WaitTime.Source.Coeff, 1
TestParameter, Measurement.WaitTime.Source.Offset, 0
TestParameter, Measurement.WaitTime.Monitor.Coeff, 1
TestParameter, Measurement.WaitTime.Monitor.Offset, 0
TestParameter, Function.User.Name, Ohmic
TestParameter, Function.User.Unit, ohm
TestParameter, Function.User.Definition, avg(V1/I1)
TestParameter, Output.Graph.Enabled, true
TestParameter, Output.Graph.XAxis.Data, V1
TestParameter, Output.Graph.XAxis.Scale, Linear
TestParameter, Output.Graph.XAxis.Left, -5
TestParameter, Output.Graph.XAxis.Right, 5
TestParameter, Output.Graph.YAxis.Data, I1
TestParameter, Output.Graph.YAxis.Scale, Linear
TestParameter, Output.Graph.YAxis.Bottom, -0.001
TestParameter, Output.Graph.YAxis.Top, 0.001
TestParameter, Output.Graph.YAxis.Group, 
TestParameter, Output.Scalar.Data, Ohmic
TestParameter, AutoAnalysis.Interpolation, false
TestParameter, AutoAnalysis.Line1.Enabled, false
TestParameter, AutoAnalysis.Line1.Type, 1
TestParameter, AutoAnalysis.Line1.Fix, True
TestParameter, AutoAnalysis.Line1.YAxis, 0
TestParameter, AutoAnalysis.Line1.Point1.Type, 0
TestParameter, AutoAnalysis.Line1.Point1.XY.X, 
TestParameter, AutoAnalysis.Line1.Point1.XY.Y, 
TestParameter, AutoAnalysis.Line1.Point1.Data.Var, 
TestParameter, AutoAnalysis.Line1.Point1.Data.Condition, 
TestParameter, AutoAnalysis.Line1.Point1.Data.Start, false
TestParameter, AutoAnalysis.Line1.Point1.Data.StartVar, 
TestParameter, AutoAnalysis.Line1.Point1.Data.StartCondition, 
TestParameter, AutoAnalysis.Line1.Point2.Type, 0
TestParameter, AutoAnalysis.Line1.Point2.XY.X, 
TestParameter, AutoAnalysis.Line1.Point2.XY.Y, 
TestParameter, AutoAnalysis.Line1.Point2.Data.Var, 
TestParameter, AutoAnalysis.Line1.Point2.Data.Condition, 
TestParameter, AutoAnalysis.Line1.Point2.Data.Start, false
TestParameter, AutoAnalysis.Line1.Point2.Data.StartVar, 
TestParameter, AutoAnalysis.Line1.Point2.Data.StartCondition, 
TestParameter, AutoAnalysis.Line1.GradientExpr, 0
TestParameter, AutoAnalysis.Line2.Enabled, false
TestParameter, AutoAnalysis.Line2.Type, 1
TestParameter, AutoAnalysis.Line2.Fix, True
TestParameter, AutoAnalysis.Line2.YAxis, 0
TestParameter, AutoAnalysis.Line2.Point1.Type, 0
TestParameter, AutoAnalysis.Line2.Point1.XY.X, 
TestParameter, AutoAnalysis.Line2.Point1.XY.Y, 
TestParameter, AutoAnalysis.Line2.Point1.Data.Var, 
TestParameter, AutoAnalysis.Line2.Point1.Data.Condition, 
TestParameter, AutoAnalysis.Line2.Point1.Data.Start, false
TestParameter, AutoAnalysis.Line2.Point1.Data.StartVar, 
TestParameter, AutoAnalysis.Line2.Point1.Data.StartCondition, 
TestParameter, AutoAnalysis.Line2.Point2.Type, 0
TestParameter, AutoAnalysis.Line2.Point2.XY.X, 
TestParameter, AutoAnalysis.Line2.Point2.XY.Y, 
TestParameter, AutoAnalysis.Line2.Point2.Data.Var, 
TestParameter, AutoAnalysis.Line2.Point2.Data.Condition, 
TestParameter, AutoAnalysis.Line2.Point2.Data.Start, false
TestParameter, AutoAnalysis.Line2.Point2.Data.StartVar, 
TestParameter, AutoAnalysis.Line2.Point2.Data.StartCondition, 
TestParameter, AutoAnalysis.Line2.GradientExpr, 0
TestParameter, AutoAnalysis.Marker.Enabled, false
TestParameter, AutoAnalysis.Marker.Data.Var, 
TestParameter, AutoAnalysis.Marker.Data.Condition, 
TestParameter, AutoAnalysis.Marker.Data.Start, false
TestParameter, AutoAnalysis.Marker.Data.StartVar, 
TestParameter, AutoAnalysis.Marker.Data.StartCondition, 
MetaData, TestRecord.EntryPoint, true
MetaData, TestRecord.RecordTime, 09/11/2020 15:51:55
MetaData, TestRecord.TestTarget, 
MetaData, TestRecord.IterationIndex, 22
MetaData, TestRecord.Preservation, true
MetaData, TestRecord.Flag, 
MetaData, TestRecord.Remarks, 
MetaData, TestRecord.LinkKey, 51e015f8-1f2e-44b5-bed3-b47a8f7af126
Dimension1, 101, 101, 101
Dimension2, 1, 1, 1
DataName, V1, I1, Ohmic
DataValue, -5, -1.6406E-09, 1515532340.6776376
DataValue, -4.9, -1.6286999999999998E-09, 
DataValue, -4.8, -1.5697999999999999E-09, 
DataValue, -4.7, -1.5231999999999999E-09, 
DataValue, -4.6000000000000005, -1.5244999999999999E-09, 
DataValue, -4.5, -1.5342E-09, 
DataValue, -4.4, -1.5248999999999998E-09, 
DataValue, -4.3, -1.4588999999999998E-09, 
DataValue, -4.2, -1.4649999999999998E-09, 
DataValue, -4.1, -1.4223999999999998E-09, 
DataValue, -4, -1.4089E-09, 
DataValue, -3.9, -1.3556E-09, 
DataValue, -3.8000000000000003, -1.3688999999999999E-09, 
DataValue, -3.7, -1.3740999999999998E-09, 
DataValue, -3.6, -1.3019999999999999E-09, 
DataValue, -3.5, -1.3330999999999999E-09, 
DataValue, -3.4, -1.3268999999999998E-09, 
DataValue, -3.3000000000000003, -1.3019999999999999E-09, 
DataValue, -3.2, -1.278E-09, 
DataValue, -3.1, -1.2566E-09, 
DataValue, -3, -1.2796999999999998E-09, 
DataValue, -2.9, -1.2537E-09, 
DataValue, -2.8000000000000003, -1.2336999999999998E-09, 
DataValue, -2.7, -1.1992E-09, 
DataValue, -2.6, -1.1998E-09, 
DataValue, -2.5, -1.1798999999999998E-09, 
DataValue, -2.4, -1.1714E-09, 
DataValue, -2.3000000000000003, -1.1568E-09, 
DataValue, -2.2, -1.1068E-09, 
DataValue, -2.1, -1.1062E-09, 
DataValue, -2, -1.09E-09, 
DataValue, -1.9000000000000001, -1.0975999999999998E-09, 
DataValue, -1.8, -1.0866E-09, 
DataValue, -1.7, -9.9669999999999988E-10, 
DataValue, -1.6, -1.0108999999999999E-09, 
DataValue, -1.5, -1.0177E-09, 
DataValue, -1.4000000000000001, -1.0348E-09, 
DataValue, -1.3, -9.2369999999999992E-10, 
DataValue, -1.2, -9.74E-10, 
DataValue, -1.1, -9.349E-10, 
DataValue, -1, -9.3469999999999988E-10, 
DataValue, -0.9, -8.8079999999999989E-10, 
DataValue, -0.8, -9.3129999999999988E-10, 
DataValue, -0.70000000000000007, -8.712E-10, 
DataValue, -0.6, -8.446E-10, 
DataValue, -0.5, -8.0129999999999991E-10, 
DataValue, -0.4, -7.452E-10, 
DataValue, -0.3, -5.8419999999999991E-10, 
DataValue, -0.2, -3.6609999999999996E-10, 
DataValue, -0.1, -2.8399999999999997E-11, 
DataValue, 0, 8.0219999999999988E-10, 
DataValue, 0.1, 1.2849E-09, 
DataValue, 0.2, 1.4837999999999998E-09, 
DataValue, 0.3, 1.5985999999999998E-09, 
DataValue, 0.4, 1.7606E-09, 
DataValue, 0.5, 1.7672E-09, 
DataValue, 0.6, 1.89738E-09, 
DataValue, 0.70000000000000007, 1.91698E-09, 
DataValue, 0.8, 2.01532E-09, 
DataValue, 0.9, 2.08196E-09, 
DataValue, 1, 2.01859E-09, 
DataValue, 1.1, 2.05182E-09, 
DataValue, 1.2, 2.00818E-09, 
DataValue, 1.3, 2.08978E-09, 
DataValue, 1.4000000000000001, 2.21955E-09, 
DataValue, 1.5, 2.21599E-09, 
DataValue, 1.6, 2.24124E-09, 
DataValue, 1.7, 2.22985E-09, 
DataValue, 1.8, 2.30634E-09, 
DataValue, 1.9000000000000001, 2.25624E-09, 
DataValue, 2, 2.3744E-09, 
DataValue, 2.1, 2.34261E-09, 
DataValue, 2.2, 2.40294E-09, 
DataValue, 2.3000000000000003, 2.40431E-09, 
DataValue, 2.4, 2.43979E-09, 
DataValue, 2.5, 2.41475E-09, 
DataValue, 2.6, 2.45023E-09, 
DataValue, 2.7, 2.56536E-09, 
DataValue, 2.8000000000000003, 2.51175E-09, 
DataValue, 2.9, 2.56388E-09, 
DataValue, 3, 2.53208E-09, 
DataValue, 3.1, 2.52506E-09, 
DataValue, 3.2, 2.54721E-09, 
DataValue, 3.3000000000000003, 2.57129E-09, 
DataValue, 3.4, 2.55483E-09, 
DataValue, 3.5, 2.52468E-09, 
DataValue, 3.6, 2.57026E-09, 
DataValue, 3.7, 2.58937E-09, 
DataValue, 3.8000000000000003, 2.5907E-09, 
DataValue, 3.9, 2.67286E-09, 
DataValue, 4, 2.71699E-09, 
DataValue, 4.1, 2.71729E-09, 
DataValue, 4.2, 2.73736E-09, 
DataValue, 4.3, 2.79032E-09, 
DataValue, 4.4, 2.85344E-09, 
DataValue, 4.5, 2.79761E-09, 
DataValue, 4.6000000000000005, 2.81867E-09, 
DataValue, 4.7, 2.87809E-09, 
DataValue, 4.8, 2.92019E-09, 
DataValue, 4.9, 2.93038E-09, 
DataValue, 5, 3.00215E-09, 