
SetupTitle, WW
PrimitiveTest, I/V Sweep
TestParameter, Context.MainFrame, B1500A
TestParameter, Channel.UnitType, SMU, SMU
TestParameter, Channel.Unit, SMU1:HP, SMU2:HP
TestParameter, Channel.IName, I1, I4
TestParameter, Channel.VName, V1, V4
TestParameter, Channel.Mode, V, COMMON
TestParameter, Channel.Func, VAR1, CONST
TestParameter, Channel.Index, 
TestParameter, Channel.Time, 
TestParameter, Measurement.Port.Unit, SMU1:HP, SMU2:HP
TestParameter, Measurement.Port.SeriesResistor, NONE, NONE
TestParameter, Measurement.Port.Filter, ON, ON
TestParameter, Measurement.Port.OutputVoltageComparison, 0, 0
TestParameter, Measurement.Primary.Locus, Single
TestParameter, Measurement.Primary.Scale, LINEAR
TestParameter, Measurement.Primary.Start, -5
TestParameter, Measurement.Primary.Stop, 5
TestParameter, Measurement.Primary.Step, 0.1
TestParameter, Measurement.Primary.Compliance, 0.1
TestParameter, Measurement.Primary.PowerCompliance, 0
TestParameter, Measurement.Aborting.Condition, CONTINUE AT ANY
TestParameter, Measurement.PostOutput.Value, START
TestParameter, Measurement.PostOutput.Retention, OFF
TestParameter, Measurement.Bias.Source, -5, 0
TestParameter, Measurement.Bias.Compliance, 0.1, 1
TestParameter, Measurement.Monitor.Unit, SMU1:HP, SMU2:HP
TestParameter, Measurement.Monitor.Adc, HR ADC, HR ADC
TestParameter, Measurement.Monitor.Measurement, Compliance Side, Compliance Side
TestParameter, Measurement.Monitor.RangingMode, AUTO, AUTO
TestParameter, Measurement.Monitor.RangeBoundary, , 
TestParameter, Measurement.Monitor.RangeRating, BY FULL RANGE, BY FULL RANGE
TestParameter, Measurement.Monitor.RangeRatingCoeff, 50, 50
TestParameter, Measurement.Timing.Hold, 0
TestParameter, Measurement.Timing.Delay, 0.001
TestParameter, Measurement.Adc.HighSpeed.Mode, AUTO
TestParameter, Measurement.Adc.HighSpeed.Coeff, 1
TestParameter, Measurement.Adc.HighResolution.AutoZero, OFF
TestParameter, Measurement.Adc.HighResolution.Mode, PLC
TestParameter, Measurement.Adc.HighResolution.Coeff, 1
TestParameter, Measurement.WaitTime.Source.Coeff, 1
TestParameter, Measurement.WaitTime.Source.Offset, 0
TestParameter, Measurement.WaitTime.Monitor.Coeff, 1
TestParameter, Measurement.WaitTime.Monitor.Offset, 0
TestParameter, Function.User.Name, Ohmic
TestParameter, Function.User.Unit, ohm
TestParameter, Function.User.Definition, avg(V1/I1)
TestParameter, Output.Graph.Enabled, true
TestParameter, Output.Graph.XAxis.Data, V1
TestParameter, Output.Graph.XAxis.Scale, Linear
TestParameter, Output.Graph.XAxis.Left, -5
TestParameter, Output.Graph.XAxis.Right, 5
TestParameter, Output.Graph.YAxis.Data, I1
TestParameter, Output.Graph.YAxis.Scale, Linear
TestParameter, Output.Graph.YAxis.Bottom, -0.001
TestParameter, Output.Graph.YAxis.Top, 0.001
TestParameter, Output.Graph.YAxis.Group, 
TestParameter, Output.Scalar.Data, Ohmic
TestParameter, AutoAnalysis.Interpolation, false
TestParameter, AutoAnalysis.Line1.Enabled, false
TestParameter, AutoAnalysis.Line1.Type, 1
TestParameter, AutoAnalysis.Line1.Fix, True
TestParameter, AutoAnalysis.Line1.YAxis, 0
TestParameter, AutoAnalysis.Line1.Point1.Type, 0
TestParameter, AutoAnalysis.Line1.Point1.XY.X, 
TestParameter, AutoAnalysis.Line1.Point1.XY.Y, 
TestParameter, AutoAnalysis.Line1.Point1.Data.Var, 
TestParameter, AutoAnalysis.Line1.Point1.Data.Condition, 
TestParameter, AutoAnalysis.Line1.Point1.Data.Start, false
TestParameter, AutoAnalysis.Line1.Point1.Data.StartVar, 
TestParameter, AutoAnalysis.Line1.Point1.Data.StartCondition, 
TestParameter, AutoAnalysis.Line1.Point2.Type, 0
TestParameter, AutoAnalysis.Line1.Point2.XY.X, 
TestParameter, AutoAnalysis.Line1.Point2.XY.Y, 
TestParameter, AutoAnalysis.Line1.Point2.Data.Var, 
TestParameter, AutoAnalysis.Line1.Point2.Data.Condition, 
TestParameter, AutoAnalysis.Line1.Point2.Data.Start, false
TestParameter, AutoAnalysis.Line1.Point2.Data.StartVar, 
TestParameter, AutoAnalysis.Line1.Point2.Data.StartCondition, 
TestParameter, AutoAnalysis.Line1.GradientExpr, 0
TestParameter, AutoAnalysis.Line2.Enabled, false
TestParameter, AutoAnalysis.Line2.Type, 1
TestParameter, AutoAnalysis.Line2.Fix, True
TestParameter, AutoAnalysis.Line2.YAxis, 0
TestParameter, AutoAnalysis.Line2.Point1.Type, 0
TestParameter, AutoAnalysis.Line2.Point1.XY.X, 
TestParameter, AutoAnalysis.Line2.Point1.XY.Y, 
TestParameter, AutoAnalysis.Line2.Point1.Data.Var, 
TestParameter, AutoAnalysis.Line2.Point1.Data.Condition, 
TestParameter, AutoAnalysis.Line2.Point1.Data.Start, false
TestParameter, AutoAnalysis.Line2.Point1.Data.StartVar, 
TestParameter, AutoAnalysis.Line2.Point1.Data.StartCondition, 
TestParameter, AutoAnalysis.Line2.Point2.Type, 0
TestParameter, AutoAnalysis.Line2.Point2.XY.X, 
TestParameter, AutoAnalysis.Line2.Point2.XY.Y, 
TestParameter, AutoAnalysis.Line2.Point2.Data.Var, 
TestParameter, AutoAnalysis.Line2.Point2.Data.Condition, 
TestParameter, AutoAnalysis.Line2.Point2.Data.Start, false
TestParameter, AutoAnalysis.Line2.Point2.Data.StartVar, 
TestParameter, AutoAnalysis.Line2.Point2.Data.StartCondition, 
TestParameter, AutoAnalysis.Line2.GradientExpr, 0
TestParameter, AutoAnalysis.Marker.Enabled, false
TestParameter, AutoAnalysis.Marker.Data.Var, 
TestParameter, AutoAnalysis.Marker.Data.Condition, 
TestParameter, AutoAnalysis.Marker.Data.Start, false
TestParameter, AutoAnalysis.Marker.Data.StartVar, 
TestParameter, AutoAnalysis.Marker.Data.StartCondition, 
MetaData, TestRecord.EntryPoint, true
MetaData, TestRecord.RecordTime, 09/11/2020 15:46:23
MetaData, TestRecord.TestTarget, 
MetaData, TestRecord.IterationIndex, 15
MetaData, TestRecord.Preservation, true
MetaData, TestRecord.Flag, 
MetaData, TestRecord.Remarks, 
MetaData, TestRecord.LinkKey, ad9b04df-ab21-44e8-91d1-6fff8804502f
Dimension1, 101, 101, 101
Dimension2, 1, 1, 1
DataName, V1, I1, Ohmic
DataValue, -5, -1.0753E-09, 2766930507.68004
DataValue, -4.9, -1.0565999999999999E-09, 
DataValue, -4.8, -1.0164E-09, 
DataValue, -4.7, -1.0153999999999998E-09, 
DataValue, -4.6000000000000005, -1.0076E-09, 
DataValue, -4.5, -9.828E-10, 
DataValue, -4.4, -9.93E-10, 
DataValue, -4.3, -9.9399999999999988E-10, 
DataValue, -4.2, -9.728E-10, 
DataValue, -4.1, -9.4929999999999981E-10, 
DataValue, -4, -9.3539999999999989E-10, 
DataValue, -3.9, -9.4139999999999987E-10, 
DataValue, -3.8000000000000003, -9.2739999999999992E-10, 
DataValue, -3.7, -9.141999999999999E-10, 
DataValue, -3.6, -9.0309999999999991E-10, 
DataValue, -3.5, -8.7909999999999989E-10, 
DataValue, -3.4, -8.8719999999999989E-10, 
DataValue, -3.3000000000000003, -8.793E-10, 
DataValue, -3.2, -8.6539999999999993E-10, 
DataValue, -3.1, -8.5139999999999987E-10, 
DataValue, -3, -8.4219999999999995E-10, 
DataValue, -2.9, -8.7309999999999991E-10, 
DataValue, -2.8000000000000003, -8.3219999999999988E-10, 
DataValue, -2.7, -8.5019999999999992E-10, 
DataValue, -2.6, -8.0759999999999988E-10, 
DataValue, -2.5, -8.2659999999999992E-10, 
DataValue, -2.4, -8.274E-10, 
DataValue, -2.3000000000000003, -8.1869999999999987E-10, 
DataValue, -2.2, -7.850999999999999E-10, 
DataValue, -2.1, -7.785E-10, 
DataValue, -2, -7.9849999999999988E-10, 
DataValue, -1.9000000000000001, -7.7299999999999992E-10, 
DataValue, -1.8, -7.496E-10, 
DataValue, -1.7, -7.3669999999999995E-10, 
DataValue, -1.6, -7.121E-10, 
DataValue, -1.5, -7.428E-10, 
DataValue, -1.4000000000000001, -7.2319999999999994E-10, 
DataValue, -1.3, -7.0659999999999992E-10, 
DataValue, -1.2, -7.004E-10, 
DataValue, -1.1, -6.987E-10, 
DataValue, -1, -6.4559999999999992E-10, 
DataValue, -0.9, -6.532E-10, 
DataValue, -0.8, -6.7689999999999991E-10, 
DataValue, -0.70000000000000007, -6.4499999999999994E-10, 
DataValue, -0.6, -6.238E-10, 
DataValue, -0.5, -6.0479999999999992E-10, 
DataValue, -0.4, -5.912E-10, 
DataValue, -0.3, -5.237E-10, 
DataValue, -0.2, -4.0169999999999997E-10, 
DataValue, -0.1, -1.9679999999999998E-10, 
DataValue, 0, 2.0989999999999997E-10, 
DataValue, 0.1, 4.4849999999999995E-10, 
DataValue, 0.2, 5.51E-10, 
DataValue, 0.3, 6.2329999999999991E-10, 
DataValue, 0.4, 6.5032E-10, 
DataValue, 0.5, 6.6402E-10, 
DataValue, 0.6, 6.9617E-10, 
DataValue, 0.70000000000000007, 7.0506E-10, 
DataValue, 0.8, 7.2637E-10, 
DataValue, 0.9, 7.2843E-10, 
DataValue, 1, 7.4882E-10, 
DataValue, 1.1, 7.6474E-10, 
DataValue, 1.2, 7.8173E-10, 
DataValue, 1.3, 7.8673E-10, 
DataValue, 1.4000000000000001, 7.8306E-10, 
DataValue, 1.5, 8.1012E-10, 
DataValue, 1.6, 8.018E-10, 
DataValue, 1.7, 8.2978E-10, 
DataValue, 1.8, 8.1864E-10, 
DataValue, 1.9000000000000001, 8.5079E-10, 
DataValue, 2, 8.641E-10, 
DataValue, 2.1, 8.738E-10, 
DataValue, 2.2, 8.7277E-10, 
DataValue, 2.3000000000000003, 8.6073E-10, 
DataValue, 2.4, 8.6564E-10, 
DataValue, 2.5, 8.7055E-10, 
DataValue, 2.6, 8.9602E-10, 
DataValue, 2.7, 9.0766E-10, 
DataValue, 2.8000000000000003, 9.2325E-10, 
DataValue, 2.9, 9.3751E-10, 
DataValue, 3, 9.5299E-10, 
DataValue, 3.1, 9.3087E-10, 
DataValue, 3.2, 9.4848E-10, 
DataValue, 3.3000000000000003, 9.4253E-10, 
DataValue, 3.4, 9.5318E-10, 
DataValue, 3.5, 9.7054E-10, 
DataValue, 3.6, 1.02036E-09, 
DataValue, 3.7, 1.0267E-09, 
DataValue, 3.8000000000000003, 1.01043E-09, 
DataValue, 3.9, 1.02842E-09, 
DataValue, 4, 1.03059E-09, 
DataValue, 4.1, 1.02776E-09, 
DataValue, 4.2, 1.04643E-09, 
DataValue, 4.3, 1.04852E-09, 
DataValue, 4.4, 1.0295E-09, 
DataValue, 4.5, 1.06857E-09, 
DataValue, 4.6000000000000005, 1.07657E-09, 
DataValue, 4.7, 1.1032E-09, 
DataValue, 4.8, 1.09373E-09, 
DataValue, 4.9, 1.09983E-09, 
DataValue, 5, 1.13845E-09, 