
SetupTitle, WW
PrimitiveTest, I/V Sweep
TestParameter, Context.MainFrame, B1500A
TestParameter, Channel.UnitType, SMU, SMU
TestParameter, Channel.Unit, SMU1:HP, SMU2:HP
TestParameter, Channel.IName, I1, I4
TestParameter, Channel.VName, V1, V4
TestParameter, Channel.Mode, V, COMMON
TestParameter, Channel.Func, VAR1, CONST
TestParameter, Channel.Index, 
TestParameter, Channel.Time, 
TestParameter, Measurement.Port.Unit, SMU1:HP, SMU2:HP
TestParameter, Measurement.Port.SeriesResistor, NONE, NONE
TestParameter, Measurement.Port.Filter, ON, ON
TestParameter, Measurement.Port.OutputVoltageComparison, 0, 0
TestParameter, Measurement.Primary.Locus, Single
TestParameter, Measurement.Primary.Scale, LINEAR
TestParameter, Measurement.Primary.Start, -5
TestParameter, Measurement.Primary.Stop, 5
TestParameter, Measurement.Primary.Step, 0.1
TestParameter, Measurement.Primary.Compliance, 0.1
TestParameter, Measurement.Primary.PowerCompliance, 0
TestParameter, Measurement.Aborting.Condition, CONTINUE AT ANY
TestParameter, Measurement.PostOutput.Value, START
TestParameter, Measurement.PostOutput.Retention, OFF
TestParameter, Measurement.Bias.Source, -5, 0
TestParameter, Measurement.Bias.Compliance, 0.1, 1
TestParameter, Measurement.Monitor.Unit, SMU1:HP, SMU2:HP
TestParameter, Measurement.Monitor.Adc, HR ADC, HR ADC
TestParameter, Measurement.Monitor.Measurement, Compliance Side, Compliance Side
TestParameter, Measurement.Monitor.RangingMode, AUTO, AUTO
TestParameter, Measurement.Monitor.RangeBoundary, , 
TestParameter, Measurement.Monitor.RangeRating, BY FULL RANGE, BY FULL RANGE
TestParameter, Measurement.Monitor.RangeRatingCoeff, 50, 50
TestParameter, Measurement.Timing.Hold, 0
TestParameter, Measurement.Timing.Delay, 0.001
TestParameter, Measurement.Adc.HighSpeed.Mode, AUTO
TestParameter, Measurement.Adc.HighSpeed.Coeff, 1
TestParameter, Measurement.Adc.HighResolution.AutoZero, OFF
TestParameter, Measurement.Adc.HighResolution.Mode, PLC
TestParameter, Measurement.Adc.HighResolution.Coeff, 1
TestParameter, Measurement.WaitTime.Source.Coeff, 1
TestParameter, Measurement.WaitTime.Source.Offset, 0
TestParameter, Measurement.WaitTime.Monitor.Coeff, 1
TestParameter, Measurement.WaitTime.Monitor.Offset, 0
TestParameter, Function.User.Name, Ohmic
TestParameter, Function.User.Unit, ohm
TestParameter, Function.User.Definition, avg(V1/I1)
TestParameter, Output.Graph.Enabled, true
TestParameter, Output.Graph.XAxis.Data, V1
TestParameter, Output.Graph.XAxis.Scale, Linear
TestParameter, Output.Graph.XAxis.Left, -5
TestParameter, Output.Graph.XAxis.Right, 5
TestParameter, Output.Graph.YAxis.Data, I1
TestParameter, Output.Graph.YAxis.Scale, Linear
TestParameter, Output.Graph.YAxis.Bottom, -0.001
TestParameter, Output.Graph.YAxis.Top, 0.001
TestParameter, Output.Graph.YAxis.Group, 
TestParameter, Output.Scalar.Data, Ohmic
TestParameter, AutoAnalysis.Interpolation, false
TestParameter, AutoAnalysis.Line1.Enabled, false
TestParameter, AutoAnalysis.Line1.Type, 1
TestParameter, AutoAnalysis.Line1.Fix, True
TestParameter, AutoAnalysis.Line1.YAxis, 0
TestParameter, AutoAnalysis.Line1.Point1.Type, 0
TestParameter, AutoAnalysis.Line1.Point1.XY.X, 
TestParameter, AutoAnalysis.Line1.Point1.XY.Y, 
TestParameter, AutoAnalysis.Line1.Point1.Data.Var, 
TestParameter, AutoAnalysis.Line1.Point1.Data.Condition, 
TestParameter, AutoAnalysis.Line1.Point1.Data.Start, false
TestParameter, AutoAnalysis.Line1.Point1.Data.StartVar, 
TestParameter, AutoAnalysis.Line1.Point1.Data.StartCondition, 
TestParameter, AutoAnalysis.Line1.Point2.Type, 0
TestParameter, AutoAnalysis.Line1.Point2.XY.X, 
TestParameter, AutoAnalysis.Line1.Point2.XY.Y, 
TestParameter, AutoAnalysis.Line1.Point2.Data.Var, 
TestParameter, AutoAnalysis.Line1.Point2.Data.Condition, 
TestParameter, AutoAnalysis.Line1.Point2.Data.Start, false
TestParameter, AutoAnalysis.Line1.Point2.Data.StartVar, 
TestParameter, AutoAnalysis.Line1.Point2.Data.StartCondition, 
TestParameter, AutoAnalysis.Line1.GradientExpr, 0
TestParameter, AutoAnalysis.Line2.Enabled, false
TestParameter, AutoAnalysis.Line2.Type, 1
TestParameter, AutoAnalysis.Line2.Fix, True
TestParameter, AutoAnalysis.Line2.YAxis, 0
TestParameter, AutoAnalysis.Line2.Point1.Type, 0
TestParameter, AutoAnalysis.Line2.Point1.XY.X, 
TestParameter, AutoAnalysis.Line2.Point1.XY.Y, 
TestParameter, AutoAnalysis.Line2.Point1.Data.Var, 
TestParameter, AutoAnalysis.Line2.Point1.Data.Condition, 
TestParameter, AutoAnalysis.Line2.Point1.Data.Start, false
TestParameter, AutoAnalysis.Line2.Point1.Data.StartVar, 
TestParameter, AutoAnalysis.Line2.Point1.Data.StartCondition, 
TestParameter, AutoAnalysis.Line2.Point2.Type, 0
TestParameter, AutoAnalysis.Line2.Point2.XY.X, 
TestParameter, AutoAnalysis.Line2.Point2.XY.Y, 
TestParameter, AutoAnalysis.Line2.Point2.Data.Var, 
TestParameter, AutoAnalysis.Line2.Point2.Data.Condition, 
TestParameter, AutoAnalysis.Line2.Point2.Data.Start, false
TestParameter, AutoAnalysis.Line2.Point2.Data.StartVar, 
TestParameter, AutoAnalysis.Line2.Point2.Data.StartCondition, 
TestParameter, AutoAnalysis.Line2.GradientExpr, 0
TestParameter, AutoAnalysis.Marker.Enabled, false
TestParameter, AutoAnalysis.Marker.Data.Var, 
TestParameter, AutoAnalysis.Marker.Data.Condition, 
TestParameter, AutoAnalysis.Marker.Data.Start, false
TestParameter, AutoAnalysis.Marker.Data.StartVar, 
TestParameter, AutoAnalysis.Marker.Data.StartCondition, 
MetaData, TestRecord.EntryPoint, true
MetaData, TestRecord.RecordTime, 09/11/2020 15:45:17
MetaData, TestRecord.TestTarget, 
MetaData, TestRecord.IterationIndex, 13
MetaData, TestRecord.Preservation, true
MetaData, TestRecord.Flag, 
MetaData, TestRecord.Remarks, 
MetaData, TestRecord.LinkKey, 4a15f618-f571-49d7-9c1b-26d630614f7e
Dimension1, 101, 101, 101
Dimension2, 1, 1, 1
DataName, V1, I1, Ohmic
DataValue, -5, -1.0879E-09, 3077190818.68004
DataValue, -4.9, -1.0483999999999998E-09, 
DataValue, -4.8, -1.0177E-09, 
DataValue, -4.7, -1.0221999999999998E-09, 
DataValue, -4.6000000000000005, -9.9739999999999989E-10, 
DataValue, -4.5, -9.76E-10, 
DataValue, -4.4, -9.8179999999999986E-10, 
DataValue, -4.3, -9.584E-10, 
DataValue, -4.2, -9.3669999999999988E-10, 
DataValue, -4.1, -9.2439999999999993E-10, 
DataValue, -4, -9.1899999999999993E-10, 
DataValue, -3.9, -9.2219999999999988E-10, 
DataValue, -3.8000000000000003, -8.999E-10, 
DataValue, -3.7, -8.9119999999999988E-10, 
DataValue, -3.6, -8.7679999999999991E-10, 
DataValue, -3.5, -8.6759999999999988E-10, 
DataValue, -3.4, -8.5649999999999989E-10, 
DataValue, -3.3000000000000003, -8.5969999999999994E-10, 
DataValue, -3.2, -8.4129999999999988E-10, 
DataValue, -3.1, -8.5819999999999989E-10, 
DataValue, -3, -8.4179999999999993E-10, 
DataValue, -2.9, -8.254E-10, 
DataValue, -2.8000000000000003, -7.8639999999999989E-10, 
DataValue, -2.7, -7.775E-10, 
DataValue, -2.6, -8.170999999999999E-10, 
DataValue, -2.5, -8.1309999999999991E-10, 
DataValue, -2.4, -8.0289999999999988E-10, 
DataValue, -2.3000000000000003, -7.92E-10, 
DataValue, -2.2, -7.55E-10, 
DataValue, -2.1, -7.553E-10, 
DataValue, -2, -7.5309999999999991E-10, 
DataValue, -1.9000000000000001, -7.4499999999999991E-10, 
DataValue, -1.8, -7.5179999999999993E-10, 
DataValue, -1.7, -7.1869999999999991E-10, 
DataValue, -1.6, -7.603E-10, 
DataValue, -1.5, -7.1069999999999993E-10, 
DataValue, -1.4000000000000001, -7.1389999999999988E-10, 
DataValue, -1.3, -7.0799999999999993E-10, 
DataValue, -1.2, -6.8399999999999991E-10, 
DataValue, -1.1, -6.798999999999999E-10, 
DataValue, -1, -6.673E-10, 
DataValue, -0.9, -6.7109999999999988E-10, 
DataValue, -0.8, -6.532999999999999E-10, 
DataValue, -0.70000000000000007, -6.4179999999999989E-10, 
DataValue, -0.6, -6.002E-10, 
DataValue, -0.5, -6.13E-10, 
DataValue, -0.4, -5.7719999999999993E-10, 
DataValue, -0.3, -4.982E-10, 
DataValue, -0.2, -3.822E-10, 
DataValue, -0.1, -2.5194E-10, 
DataValue, 0, 1.2254E-10, 
DataValue, 0.1, 3.3849E-10, 
DataValue, 0.2, 4.3966E-10, 
DataValue, 0.3, 4.8605E-10, 
DataValue, 0.4, 5.4269E-10, 
DataValue, 0.5, 5.4801E-10, 
DataValue, 0.6, 5.5174E-10, 
DataValue, 0.70000000000000007, 5.8324E-10, 
DataValue, 0.8, 5.9251E-10, 
DataValue, 0.9, 5.8555E-10, 
DataValue, 1, 6.0737E-10, 
DataValue, 1.1, 6.0902E-10, 
DataValue, 1.2, 6.1879E-10, 
DataValue, 1.3, 6.266E-10, 
DataValue, 1.4000000000000001, 6.345E-10, 
DataValue, 1.5, 6.2382E-10, 
DataValue, 1.6, 7.0011E-10, 
DataValue, 1.7, 7.0218E-10, 
DataValue, 1.8, 6.8651E-10, 
DataValue, 1.9000000000000001, 6.8873E-10, 
DataValue, 2, 7.0699E-10, 
DataValue, 2.1, 7.0781E-10, 
DataValue, 2.2, 7.2503E-10, 
DataValue, 2.3000000000000003, 6.9881E-10, 
DataValue, 2.4, 7.5033E-10, 
DataValue, 2.5, 7.6997E-10, 
DataValue, 2.6, 7.5361E-10, 
DataValue, 2.7, 7.4592E-10, 
DataValue, 2.8000000000000003, 7.387E-10, 
DataValue, 2.9, 7.7094E-10, 
DataValue, 3, 7.7745E-10, 
DataValue, 3.1, 7.5101E-10, 
DataValue, 3.2, 7.8418E-10, 
DataValue, 3.3000000000000003, 7.9587E-10, 
DataValue, 3.4, 8.0272E-10, 
DataValue, 3.5, 8.2344E-10, 
DataValue, 3.6, 8.0934E-10, 
DataValue, 3.7, 8.0577E-10, 
DataValue, 3.8000000000000003, 8.4166E-10, 
DataValue, 3.9, 8.6073E-10, 
DataValue, 4, 8.5198E-10, 
DataValue, 4.1, 8.6395E-10, 
DataValue, 4.2, 8.8016E-10, 
DataValue, 4.3, 8.5737E-10, 
DataValue, 4.4, 8.7856E-10, 
DataValue, 4.5, 9.009E-10, 
DataValue, 4.6000000000000005, 9.0126E-10, 
DataValue, 4.7, 8.7826E-10, 
DataValue, 4.8, 9.1251E-10, 
DataValue, 4.9, 8.8218E-10, 
DataValue, 5, 9.1578E-10, 