
SetupTitle, WW
PrimitiveTest, I/V Sweep
TestParameter, Context.MainFrame, B1500A
TestParameter, Channel.UnitType, SMU, SMU
TestParameter, Channel.Unit, SMU1:HP, SMU2:HP
TestParameter, Channel.IName, I1, I4
TestParameter, Channel.VName, V1, V4
TestParameter, Channel.Mode, V, COMMON
TestParameter, Channel.Func, VAR1, CONST
TestParameter, Channel.Index, 
TestParameter, Channel.Time, 
TestParameter, Measurement.Port.Unit, SMU1:HP, SMU2:HP
TestParameter, Measurement.Port.SeriesResistor, NONE, NONE
TestParameter, Measurement.Port.Filter, ON, ON
TestParameter, Measurement.Port.OutputVoltageComparison, 0, 0
TestParameter, Measurement.Primary.Locus, Single
TestParameter, Measurement.Primary.Scale, LINEAR
TestParameter, Measurement.Primary.Start, -5
TestParameter, Measurement.Primary.Stop, 5
TestParameter, Measurement.Primary.Step, 0.1
TestParameter, Measurement.Primary.Compliance, 0.1
TestParameter, Measurement.Primary.PowerCompliance, 0
TestParameter, Measurement.Aborting.Condition, CONTINUE AT ANY
TestParameter, Measurement.PostOutput.Value, START
TestParameter, Measurement.PostOutput.Retention, OFF
TestParameter, Measurement.Bias.Source, -5, 0
TestParameter, Measurement.Bias.Compliance, 0.1, 1
TestParameter, Measurement.Monitor.Unit, SMU1:HP, SMU2:HP
TestParameter, Measurement.Monitor.Adc, HR ADC, HR ADC
TestParameter, Measurement.Monitor.Measurement, Compliance Side, Compliance Side
TestParameter, Measurement.Monitor.RangingMode, AUTO, AUTO
TestParameter, Measurement.Monitor.RangeBoundary, , 
TestParameter, Measurement.Monitor.RangeRating, BY FULL RANGE, BY FULL RANGE
TestParameter, Measurement.Monitor.RangeRatingCoeff, 50, 50
TestParameter, Measurement.Timing.Hold, 0
TestParameter, Measurement.Timing.Delay, 0.001
TestParameter, Measurement.Adc.HighSpeed.Mode, AUTO
TestParameter, Measurement.Adc.HighSpeed.Coeff, 1
TestParameter, Measurement.Adc.HighResolution.AutoZero, OFF
TestParameter, Measurement.Adc.HighResolution.Mode, PLC
TestParameter, Measurement.Adc.HighResolution.Coeff, 1
TestParameter, Measurement.WaitTime.Source.Coeff, 1
TestParameter, Measurement.WaitTime.Source.Offset, 0
TestParameter, Measurement.WaitTime.Monitor.Coeff, 1
TestParameter, Measurement.WaitTime.Monitor.Offset, 0
TestParameter, Function.User.Name, Ohmic
TestParameter, Function.User.Unit, ohm
TestParameter, Function.User.Definition, avg(V1/I1)
TestParameter, Output.Graph.Enabled, true
TestParameter, Output.Graph.XAxis.Data, V1
TestParameter, Output.Graph.XAxis.Scale, Linear
TestParameter, Output.Graph.XAxis.Left, -5
TestParameter, Output.Graph.XAxis.Right, 5
TestParameter, Output.Graph.YAxis.Data, I1
TestParameter, Output.Graph.YAxis.Scale, Linear
TestParameter, Output.Graph.YAxis.Bottom, -0.001
TestParameter, Output.Graph.YAxis.Top, 0.001
TestParameter, Output.Graph.YAxis.Group, 
TestParameter, Output.Scalar.Data, Ohmic
TestParameter, AutoAnalysis.Interpolation, false
TestParameter, AutoAnalysis.Line1.Enabled, false
TestParameter, AutoAnalysis.Line1.Type, 1
TestParameter, AutoAnalysis.Line1.Fix, True
TestParameter, AutoAnalysis.Line1.YAxis, 0
TestParameter, AutoAnalysis.Line1.Point1.Type, 0
TestParameter, AutoAnalysis.Line1.Point1.XY.X, 
TestParameter, AutoAnalysis.Line1.Point1.XY.Y, 
TestParameter, AutoAnalysis.Line1.Point1.Data.Var, 
TestParameter, AutoAnalysis.Line1.Point1.Data.Condition, 
TestParameter, AutoAnalysis.Line1.Point1.Data.Start, false
TestParameter, AutoAnalysis.Line1.Point1.Data.StartVar, 
TestParameter, AutoAnalysis.Line1.Point1.Data.StartCondition, 
TestParameter, AutoAnalysis.Line1.Point2.Type, 0
TestParameter, AutoAnalysis.Line1.Point2.XY.X, 
TestParameter, AutoAnalysis.Line1.Point2.XY.Y, 
TestParameter, AutoAnalysis.Line1.Point2.Data.Var, 
TestParameter, AutoAnalysis.Line1.Point2.Data.Condition, 
TestParameter, AutoAnalysis.Line1.Point2.Data.Start, false
TestParameter, AutoAnalysis.Line1.Point2.Data.StartVar, 
TestParameter, AutoAnalysis.Line1.Point2.Data.StartCondition, 
TestParameter, AutoAnalysis.Line1.GradientExpr, 0
TestParameter, AutoAnalysis.Line2.Enabled, false
TestParameter, AutoAnalysis.Line2.Type, 1
TestParameter, AutoAnalysis.Line2.Fix, True
TestParameter, AutoAnalysis.Line2.YAxis, 0
TestParameter, AutoAnalysis.Line2.Point1.Type, 0
TestParameter, AutoAnalysis.Line2.Point1.XY.X, 
TestParameter, AutoAnalysis.Line2.Point1.XY.Y, 
TestParameter, AutoAnalysis.Line2.Point1.Data.Var, 
TestParameter, AutoAnalysis.Line2.Point1.Data.Condition, 
TestParameter, AutoAnalysis.Line2.Point1.Data.Start, false
TestParameter, AutoAnalysis.Line2.Point1.Data.StartVar, 
TestParameter, AutoAnalysis.Line2.Point1.Data.StartCondition, 
TestParameter, AutoAnalysis.Line2.Point2.Type, 0
TestParameter, AutoAnalysis.Line2.Point2.XY.X, 
TestParameter, AutoAnalysis.Line2.Point2.XY.Y, 
TestParameter, AutoAnalysis.Line2.Point2.Data.Var, 
TestParameter, AutoAnalysis.Line2.Point2.Data.Condition, 
TestParameter, AutoAnalysis.Line2.Point2.Data.Start, false
TestParameter, AutoAnalysis.Line2.Point2.Data.StartVar, 
TestParameter, AutoAnalysis.Line2.Point2.Data.StartCondition, 
TestParameter, AutoAnalysis.Line2.GradientExpr, 0
TestParameter, AutoAnalysis.Marker.Enabled, false
TestParameter, AutoAnalysis.Marker.Data.Var, 
TestParameter, AutoAnalysis.Marker.Data.Condition, 
TestParameter, AutoAnalysis.Marker.Data.Start, false
TestParameter, AutoAnalysis.Marker.Data.StartVar, 
TestParameter, AutoAnalysis.Marker.Data.StartCondition, 
MetaData, TestRecord.EntryPoint, true
MetaData, TestRecord.RecordTime, 09/11/2020 15:44:41
MetaData, TestRecord.TestTarget, 
MetaData, TestRecord.IterationIndex, 12
MetaData, TestRecord.Preservation, true
MetaData, TestRecord.Flag, 
MetaData, TestRecord.Remarks, 
MetaData, TestRecord.LinkKey, fd6af07e-146c-4764-adce-acdc4f1a54a9
Dimension1, 101, 101, 101
Dimension2, 1, 1, 1
DataName, V1, I1, Ohmic
DataValue, -5, -1.1022E-09, 3258313955.1558862
DataValue, -4.9, -1.0151E-09, 
DataValue, -4.8, -9.813E-10, 
DataValue, -4.7, -9.483E-10, 
DataValue, -4.6000000000000005, -9.395E-10, 
DataValue, -4.5, -9.417E-10, 
DataValue, -4.4, -9.232999999999999E-10, 
DataValue, -4.3, -9.322E-10, 
DataValue, -4.2, -8.8319999999999991E-10, 
DataValue, -4.1, -9.0699999999999987E-10, 
DataValue, -4, -8.7409999999999991E-10, 
DataValue, -3.9, -8.81E-10, 
DataValue, -3.8000000000000003, -8.7249999999999993E-10, 
DataValue, -3.7, -8.6089999999999989E-10, 
DataValue, -3.6, -8.652999999999999E-10, 
DataValue, -3.5, -8.4039999999999991E-10, 
DataValue, -3.4, -8.305999999999999E-10, 
DataValue, -3.3000000000000003, -8.2039999999999988E-10, 
DataValue, -3.2, -8.1039999999999991E-10, 
DataValue, -3.1, -8.1009999999999992E-10, 
DataValue, -3, -8.318E-10, 
DataValue, -2.9, -8.0829999999999989E-10, 
DataValue, -2.8000000000000003, -8.0569999999999992E-10, 
DataValue, -2.7, -7.9479999999999988E-10, 
DataValue, -2.6, -7.782E-10, 
DataValue, -2.5, -8.0049999999999987E-10, 
DataValue, -2.4, -7.698999999999999E-10, 
DataValue, -2.3000000000000003, -7.6729999999999992E-10, 
DataValue, -2.2, -7.607999999999999E-10, 
DataValue, -2.1, -7.26E-10, 
DataValue, -2, -7.4239999999999994E-10, 
DataValue, -1.9000000000000001, -7.27E-10, 
DataValue, -1.8, -7.192E-10, 
DataValue, -1.7, -7.3589999999999991E-10, 
DataValue, -1.6, -7.0359999999999993E-10, 
DataValue, -1.5, -6.8579999999999995E-10, 
DataValue, -1.4000000000000001, -6.8609999999999994E-10, 
DataValue, -1.3, -7.2109999999999992E-10, 
DataValue, -1.2, -6.687E-10, 
DataValue, -1.1, -6.34E-10, 
DataValue, -1, -6.821E-10, 
DataValue, -0.9, -6.309E-10, 
DataValue, -0.8, -6.2089999999999989E-10, 
DataValue, -0.70000000000000007, -6.134E-10, 
DataValue, -0.6, -5.6839999999999992E-10, 
DataValue, -0.5, -5.875E-10, 
DataValue, -0.4, -5.5419999999999991E-10, 
DataValue, -0.3, -4.6589999999999991E-10, 
DataValue, -0.2, -3.764E-10, 
DataValue, -0.1, -2.3872E-10, 
DataValue, 0, 1.0737E-10, 
DataValue, 0.1, 3.2147E-10, 
DataValue, 0.2, 4.1946E-10, 
DataValue, 0.3, 4.6582E-10, 
DataValue, 0.4, 5.0297E-10, 
DataValue, 0.5, 5.3791E-10, 
DataValue, 0.6, 5.326E-10, 
DataValue, 0.70000000000000007, 5.5536E-10, 
DataValue, 0.8, 5.5601E-10, 
DataValue, 0.9, 5.8426E-10, 
DataValue, 1, 5.6939E-10, 
DataValue, 1.1, 5.8726E-10, 
DataValue, 1.2, 5.9175E-10, 
DataValue, 1.3, 5.961E-10, 
DataValue, 1.4000000000000001, 5.9437E-10, 
DataValue, 1.5, 6.0046E-10, 
DataValue, 1.6, 6.2792E-10, 
DataValue, 1.7, 6.5341E-10, 
DataValue, 1.8, 6.5279E-10, 
DataValue, 1.9000000000000001, 6.4767E-10, 
DataValue, 2, 6.568E-10, 
DataValue, 2.1, 6.5068E-10, 
DataValue, 2.2, 6.4432E-10, 
DataValue, 2.3000000000000003, 6.6527E-10, 
DataValue, 2.4, 6.5528E-10, 
DataValue, 2.5, 6.7849E-10, 
DataValue, 2.6, 6.6276E-10, 
DataValue, 2.7, 6.5487E-10, 
DataValue, 2.8000000000000003, 6.7657E-10, 
DataValue, 2.9, 7.0322E-10, 
DataValue, 3, 7.0168E-10, 
DataValue, 3.1, 6.9769E-10, 
DataValue, 3.2, 7.1029E-10, 
DataValue, 3.3000000000000003, 7.0455E-10, 
DataValue, 3.4, 6.9984E-10, 
DataValue, 3.5, 7.2723E-10, 
DataValue, 3.6, 7.3768E-10, 
DataValue, 3.7, 7.6316E-10, 
DataValue, 3.8000000000000003, 7.5021E-10, 
DataValue, 3.9, 7.7648E-10, 
DataValue, 4, 7.6585E-10, 
DataValue, 4.1, 7.8525E-10, 
DataValue, 4.2, 8.2656E-10, 
DataValue, 4.3, 8.3311E-10, 
DataValue, 4.4, 8.2598E-10, 
DataValue, 4.5, 8.2085E-10, 
DataValue, 4.6000000000000005, 8.4576E-10, 
DataValue, 4.7, 8.4176E-10, 
DataValue, 4.8, 8.744E-10, 
DataValue, 4.9, 8.5971E-10, 
DataValue, 5, 8.635E-10, 