
SetupTitle, WW
PrimitiveTest, I/V Sweep
TestParameter, Context.MainFrame, B1500A
TestParameter, Channel.UnitType, SMU, SMU
TestParameter, Channel.Unit, SMU1:HP, SMU2:HP
TestParameter, Channel.IName, I1, I4
TestParameter, Channel.VName, V1, V4
TestParameter, Channel.Mode, V, COMMON
TestParameter, Channel.Func, VAR1, CONST
TestParameter, Channel.Index, 
TestParameter, Channel.Time, 
TestParameter, Measurement.Port.Unit, SMU1:HP, SMU2:HP
TestParameter, Measurement.Port.SeriesResistor, NONE, NONE
TestParameter, Measurement.Port.Filter, ON, ON
TestParameter, Measurement.Port.OutputVoltageComparison, 0, 0
TestParameter, Measurement.Primary.Locus, Single
TestParameter, Measurement.Primary.Scale, LINEAR
TestParameter, Measurement.Primary.Start, -5
TestParameter, Measurement.Primary.Stop, 5
TestParameter, Measurement.Primary.Step, 0.1
TestParameter, Measurement.Primary.Compliance, 0.1
TestParameter, Measurement.Primary.PowerCompliance, 0
TestParameter, Measurement.Aborting.Condition, CONTINUE AT ANY
TestParameter, Measurement.PostOutput.Value, START
TestParameter, Measurement.PostOutput.Retention, OFF
TestParameter, Measurement.Bias.Source, -5, 0
TestParameter, Measurement.Bias.Compliance, 0.1, 1
TestParameter, Measurement.Monitor.Unit, SMU1:HP, SMU2:HP
TestParameter, Measurement.Monitor.Adc, HR ADC, HR ADC
TestParameter, Measurement.Monitor.Measurement, Compliance Side, Compliance Side
TestParameter, Measurement.Monitor.RangingMode, AUTO, AUTO
TestParameter, Measurement.Monitor.RangeBoundary, , 
TestParameter, Measurement.Monitor.RangeRating, BY FULL RANGE, BY FULL RANGE
TestParameter, Measurement.Monitor.RangeRatingCoeff, 50, 50
TestParameter, Measurement.Timing.Hold, 0
TestParameter, Measurement.Timing.Delay, 0.001
TestParameter, Measurement.Adc.HighSpeed.Mode, AUTO
TestParameter, Measurement.Adc.HighSpeed.Coeff, 1
TestParameter, Measurement.Adc.HighResolution.AutoZero, OFF
TestParameter, Measurement.Adc.HighResolution.Mode, PLC
TestParameter, Measurement.Adc.HighResolution.Coeff, 1
TestParameter, Measurement.WaitTime.Source.Coeff, 1
TestParameter, Measurement.WaitTime.Source.Offset, 0
TestParameter, Measurement.WaitTime.Monitor.Coeff, 1
TestParameter, Measurement.WaitTime.Monitor.Offset, 0
TestParameter, Function.User.Name, Ohmic
TestParameter, Function.User.Unit, ohm
TestParameter, Function.User.Definition, avg(V1/I1)
TestParameter, Output.Graph.Enabled, true
TestParameter, Output.Graph.XAxis.Data, V1
TestParameter, Output.Graph.XAxis.Scale, Linear
TestParameter, Output.Graph.XAxis.Left, -5
TestParameter, Output.Graph.XAxis.Right, 5
TestParameter, Output.Graph.YAxis.Data, I1
TestParameter, Output.Graph.YAxis.Scale, Linear
TestParameter, Output.Graph.YAxis.Bottom, -0.001
TestParameter, Output.Graph.YAxis.Top, 0.001
TestParameter, Output.Graph.YAxis.Group, 
TestParameter, Output.Scalar.Data, Ohmic
TestParameter, AutoAnalysis.Interpolation, false
TestParameter, AutoAnalysis.Line1.Enabled, false
TestParameter, AutoAnalysis.Line1.Type, 1
TestParameter, AutoAnalysis.Line1.Fix, True
TestParameter, AutoAnalysis.Line1.YAxis, 0
TestParameter, AutoAnalysis.Line1.Point1.Type, 0
TestParameter, AutoAnalysis.Line1.Point1.XY.X, 
TestParameter, AutoAnalysis.Line1.Point1.XY.Y, 
TestParameter, AutoAnalysis.Line1.Point1.Data.Var, 
TestParameter, AutoAnalysis.Line1.Point1.Data.Condition, 
TestParameter, AutoAnalysis.Line1.Point1.Data.Start, false
TestParameter, AutoAnalysis.Line1.Point1.Data.StartVar, 
TestParameter, AutoAnalysis.Line1.Point1.Data.StartCondition, 
TestParameter, AutoAnalysis.Line1.Point2.Type, 0
TestParameter, AutoAnalysis.Line1.Point2.XY.X, 
TestParameter, AutoAnalysis.Line1.Point2.XY.Y, 
TestParameter, AutoAnalysis.Line1.Point2.Data.Var, 
TestParameter, AutoAnalysis.Line1.Point2.Data.Condition, 
TestParameter, AutoAnalysis.Line1.Point2.Data.Start, false
TestParameter, AutoAnalysis.Line1.Point2.Data.StartVar, 
TestParameter, AutoAnalysis.Line1.Point2.Data.StartCondition, 
TestParameter, AutoAnalysis.Line1.GradientExpr, 0
TestParameter, AutoAnalysis.Line2.Enabled, false
TestParameter, AutoAnalysis.Line2.Type, 1
TestParameter, AutoAnalysis.Line2.Fix, True
TestParameter, AutoAnalysis.Line2.YAxis, 0
TestParameter, AutoAnalysis.Line2.Point1.Type, 0
TestParameter, AutoAnalysis.Line2.Point1.XY.X, 
TestParameter, AutoAnalysis.Line2.Point1.XY.Y, 
TestParameter, AutoAnalysis.Line2.Point1.Data.Var, 
TestParameter, AutoAnalysis.Line2.Point1.Data.Condition, 
TestParameter, AutoAnalysis.Line2.Point1.Data.Start, false
TestParameter, AutoAnalysis.Line2.Point1.Data.StartVar, 
TestParameter, AutoAnalysis.Line2.Point1.Data.StartCondition, 
TestParameter, AutoAnalysis.Line2.Point2.Type, 0
TestParameter, AutoAnalysis.Line2.Point2.XY.X, 
TestParameter, AutoAnalysis.Line2.Point2.XY.Y, 
TestParameter, AutoAnalysis.Line2.Point2.Data.Var, 
TestParameter, AutoAnalysis.Line2.Point2.Data.Condition, 
TestParameter, AutoAnalysis.Line2.Point2.Data.Start, false
TestParameter, AutoAnalysis.Line2.Point2.Data.StartVar, 
TestParameter, AutoAnalysis.Line2.Point2.Data.StartCondition, 
TestParameter, AutoAnalysis.Line2.GradientExpr, 0
TestParameter, AutoAnalysis.Marker.Enabled, false
TestParameter, AutoAnalysis.Marker.Data.Var, 
TestParameter, AutoAnalysis.Marker.Data.Condition, 
TestParameter, AutoAnalysis.Marker.Data.Start, false
TestParameter, AutoAnalysis.Marker.Data.StartVar, 
TestParameter, AutoAnalysis.Marker.Data.StartCondition, 
MetaData, TestRecord.EntryPoint, true
MetaData, TestRecord.RecordTime, 09/11/2020 15:43:26
MetaData, TestRecord.TestTarget, 
MetaData, TestRecord.IterationIndex, 10
MetaData, TestRecord.Preservation, true
MetaData, TestRecord.Flag, 
MetaData, TestRecord.Remarks, 
MetaData, TestRecord.LinkKey, b552cbd9-9352-4bf4-b8ec-d001d9abb4a9
Dimension1, 101, 101, 101
Dimension2, 1, 1, 1
DataName, V1, I1, Ohmic
DataValue, -5, -1.0016E-09, 3691124008.2212162
DataValue, -4.9, -9.2889999999999986E-10, 
DataValue, -4.8, -9.1919999999999989E-10, 
DataValue, -4.7, -8.8009999999999989E-10, 
DataValue, -4.6000000000000005, -8.5459999999999992E-10, 
DataValue, -4.5, -8.3679999999999994E-10, 
DataValue, -4.4, -8.446E-10, 
DataValue, -4.3, -8.1299999999999988E-10, 
DataValue, -4.2, -8.3949999999999994E-10, 
DataValue, -4.1, -8.1269999999999989E-10, 
DataValue, -4, -8.3219999999999988E-10, 
DataValue, -3.9, -7.9219999999999991E-10, 
DataValue, -3.8000000000000003, -7.9189999999999992E-10, 
DataValue, -3.7, -8.0939999999999991E-10, 
DataValue, -3.6, -7.6849999999999988E-10, 
DataValue, -3.5, -7.6529999999999993E-10, 
DataValue, -3.4, -7.708E-10, 
DataValue, -3.3000000000000003, -7.4909999999999993E-10, 
DataValue, -3.2, -7.354E-10, 
DataValue, -3.1, -7.3159999999999993E-10, 
DataValue, -3, -7.196999999999999E-10, 
DataValue, -2.9, -7.3189999999999992E-10, 
DataValue, -2.8000000000000003, -7.162E-10, 
DataValue, -2.7, -7.1709999999999993E-10, 
DataValue, -2.6, -7.192E-10, 
DataValue, -2.5, -6.835E-10, 
DataValue, -2.4, -6.9739999999999989E-10, 
DataValue, -2.3000000000000003, -6.822E-10, 
DataValue, -2.2, -6.7589999999999991E-10, 
DataValue, -2.1, -6.6749999999999992E-10, 
DataValue, -2, -6.8229999999999991E-10, 
DataValue, -1.9000000000000001, -6.976E-10, 
DataValue, -1.8, -6.741E-10, 
DataValue, -1.7, -6.5839999999999992E-10, 
DataValue, -1.6, -6.292E-10, 
DataValue, -1.5, -6.3589999999999994E-10, 
DataValue, -1.4000000000000001, -6.161999999999999E-10, 
DataValue, -1.3, -6.249E-10, 
DataValue, -1.2, -5.6599999999999991E-10, 
DataValue, -1.1, -6.1969999999999994E-10, 
DataValue, -1, -6.0049999999999994E-10, 
DataValue, -0.9, -5.82E-10, 
DataValue, -0.8, -5.5189999999999992E-10, 
DataValue, -0.70000000000000007, -5.443999999999999E-10, 
DataValue, -0.6, -4.904E-10, 
DataValue, -0.5, -5.4649999999999992E-10, 
DataValue, -0.4, -4.871E-10, 
DataValue, -0.3, -4.0059999999999994E-10, 
DataValue, -0.2, -3.1307E-10, 
DataValue, -0.1, -1.7948E-10, 
DataValue, 0, 1.0812E-10, 
DataValue, 0.1, 3.0223E-10, 
DataValue, 0.2, 3.8092E-10, 
DataValue, 0.3, 4.4651E-10, 
DataValue, 0.4, 4.6614E-10, 
DataValue, 0.5, 4.8326E-10, 
DataValue, 0.6, 4.6541E-10, 
DataValue, 0.70000000000000007, 4.6778E-10, 
DataValue, 0.8, 4.6921E-10, 
DataValue, 0.9, 5.3305E-10, 
DataValue, 1, 4.9372E-10, 
DataValue, 1.1, 5.0281E-10, 
DataValue, 1.2, 5.2E-10, 
DataValue, 1.3, 5.1477E-10, 
DataValue, 1.4000000000000001, 5.2528E-10, 
DataValue, 1.5, 5.1692E-10, 
DataValue, 1.6, 5.0972E-10, 
DataValue, 1.7, 5.1802E-10, 
DataValue, 1.8, 5.2536E-10, 
DataValue, 1.9000000000000001, 5.3916E-10, 
DataValue, 2, 5.5972E-10, 
DataValue, 2.1, 5.4947E-10, 
DataValue, 2.2, 5.6909E-10, 
DataValue, 2.3000000000000003, 5.8803E-10, 
DataValue, 2.4, 5.8241E-10, 
DataValue, 2.5, 5.8252E-10, 
DataValue, 2.6, 6.1904E-10, 
DataValue, 2.7, 6.1032E-10, 
DataValue, 2.8000000000000003, 6.1161E-10, 
DataValue, 2.9, 6.3756E-10, 
DataValue, 3, 6.2425E-10, 
DataValue, 3.1, 6.3814E-10, 
DataValue, 3.2, 6.4189E-10, 
DataValue, 3.3000000000000003, 6.3671E-10, 
DataValue, 3.4, 6.471E-10, 
DataValue, 3.5, 6.4621E-10, 
DataValue, 3.6, 6.7099E-10, 
DataValue, 3.7, 6.9035E-10, 
DataValue, 3.8000000000000003, 6.5758E-10, 
DataValue, 3.9, 6.7539E-10, 
DataValue, 4, 6.73E-10, 
DataValue, 4.1, 6.6487E-10, 
DataValue, 4.2, 6.9727E-10, 
DataValue, 4.3, 6.9862E-10, 
DataValue, 4.4, 6.9545E-10, 
DataValue, 4.5, 7.111E-10, 
DataValue, 4.6000000000000005, 6.7403E-10, 
DataValue, 4.7, 6.7724E-10, 
DataValue, 4.8, 6.6897E-10, 
DataValue, 4.9, 6.9532E-10, 
DataValue, 5, 7.0667E-10, 