
SetupTitle, WW
PrimitiveTest, I/V Sweep
TestParameter, Context.MainFrame, B1500A
TestParameter, Channel.UnitType, SMU, SMU
TestParameter, Channel.Unit, SMU1:HP, SMU2:HP
TestParameter, Channel.IName, I1, I4
TestParameter, Channel.VName, V1, V4
TestParameter, Channel.Mode, V, COMMON
TestParameter, Channel.Func, VAR1, CONST
TestParameter, Channel.Index, 
TestParameter, Channel.Time, 
TestParameter, Measurement.Port.Unit, SMU1:HP, SMU2:HP
TestParameter, Measurement.Port.SeriesResistor, NONE, NONE
TestParameter, Measurement.Port.Filter, ON, ON
TestParameter, Measurement.Port.OutputVoltageComparison, 0, 0
TestParameter, Measurement.Primary.Locus, Single
TestParameter, Measurement.Primary.Scale, LINEAR
TestParameter, Measurement.Primary.Start, -5
TestParameter, Measurement.Primary.Stop, 5
TestParameter, Measurement.Primary.Step, 0.1
TestParameter, Measurement.Primary.Compliance, 0.1
TestParameter, Measurement.Primary.PowerCompliance, 0
TestParameter, Measurement.Aborting.Condition, CONTINUE AT ANY
TestParameter, Measurement.PostOutput.Value, START
TestParameter, Measurement.PostOutput.Retention, OFF
TestParameter, Measurement.Bias.Source, -5, 0
TestParameter, Measurement.Bias.Compliance, 0.1, 1
TestParameter, Measurement.Monitor.Unit, SMU1:HP, SMU2:HP
TestParameter, Measurement.Monitor.Adc, HR ADC, HR ADC
TestParameter, Measurement.Monitor.Measurement, Compliance Side, Compliance Side
TestParameter, Measurement.Monitor.RangingMode, AUTO, AUTO
TestParameter, Measurement.Monitor.RangeBoundary, , 
TestParameter, Measurement.Monitor.RangeRating, BY FULL RANGE, BY FULL RANGE
TestParameter, Measurement.Monitor.RangeRatingCoeff, 50, 50
TestParameter, Measurement.Timing.Hold, 0
TestParameter, Measurement.Timing.Delay, 0.001
TestParameter, Measurement.Adc.HighSpeed.Mode, AUTO
TestParameter, Measurement.Adc.HighSpeed.Coeff, 1
TestParameter, Measurement.Adc.HighResolution.AutoZero, OFF
TestParameter, Measurement.Adc.HighResolution.Mode, PLC
TestParameter, Measurement.Adc.HighResolution.Coeff, 1
TestParameter, Measurement.WaitTime.Source.Coeff, 1
TestParameter, Measurement.WaitTime.Source.Offset, 0
TestParameter, Measurement.WaitTime.Monitor.Coeff, 1
TestParameter, Measurement.WaitTime.Monitor.Offset, 0
TestParameter, Function.User.Name, Ohmic
TestParameter, Function.User.Unit, ohm
TestParameter, Function.User.Definition, avg(V1/I1)
TestParameter, Output.Graph.Enabled, true
TestParameter, Output.Graph.XAxis.Data, V1
TestParameter, Output.Graph.XAxis.Scale, Linear
TestParameter, Output.Graph.XAxis.Left, -5
TestParameter, Output.Graph.XAxis.Right, 5
TestParameter, Output.Graph.YAxis.Data, I1
TestParameter, Output.Graph.YAxis.Scale, Linear
TestParameter, Output.Graph.YAxis.Bottom, -0.001
TestParameter, Output.Graph.YAxis.Top, 0.001
TestParameter, Output.Graph.YAxis.Group, 
TestParameter, Output.Scalar.Data, Ohmic
TestParameter, AutoAnalysis.Interpolation, false
TestParameter, AutoAnalysis.Line1.Enabled, false
TestParameter, AutoAnalysis.Line1.Type, 1
TestParameter, AutoAnalysis.Line1.Fix, True
TestParameter, AutoAnalysis.Line1.YAxis, 0
TestParameter, AutoAnalysis.Line1.Point1.Type, 0
TestParameter, AutoAnalysis.Line1.Point1.XY.X, 
TestParameter, AutoAnalysis.Line1.Point1.XY.Y, 
TestParameter, AutoAnalysis.Line1.Point1.Data.Var, 
TestParameter, AutoAnalysis.Line1.Point1.Data.Condition, 
TestParameter, AutoAnalysis.Line1.Point1.Data.Start, false
TestParameter, AutoAnalysis.Line1.Point1.Data.StartVar, 
TestParameter, AutoAnalysis.Line1.Point1.Data.StartCondition, 
TestParameter, AutoAnalysis.Line1.Point2.Type, 0
TestParameter, AutoAnalysis.Line1.Point2.XY.X, 
TestParameter, AutoAnalysis.Line1.Point2.XY.Y, 
TestParameter, AutoAnalysis.Line1.Point2.Data.Var, 
TestParameter, AutoAnalysis.Line1.Point2.Data.Condition, 
TestParameter, AutoAnalysis.Line1.Point2.Data.Start, false
TestParameter, AutoAnalysis.Line1.Point2.Data.StartVar, 
TestParameter, AutoAnalysis.Line1.Point2.Data.StartCondition, 
TestParameter, AutoAnalysis.Line1.GradientExpr, 0
TestParameter, AutoAnalysis.Line2.Enabled, false
TestParameter, AutoAnalysis.Line2.Type, 1
TestParameter, AutoAnalysis.Line2.Fix, True
TestParameter, AutoAnalysis.Line2.YAxis, 0
TestParameter, AutoAnalysis.Line2.Point1.Type, 0
TestParameter, AutoAnalysis.Line2.Point1.XY.X, 
TestParameter, AutoAnalysis.Line2.Point1.XY.Y, 
TestParameter, AutoAnalysis.Line2.Point1.Data.Var, 
TestParameter, AutoAnalysis.Line2.Point1.Data.Condition, 
TestParameter, AutoAnalysis.Line2.Point1.Data.Start, false
TestParameter, AutoAnalysis.Line2.Point1.Data.StartVar, 
TestParameter, AutoAnalysis.Line2.Point1.Data.StartCondition, 
TestParameter, AutoAnalysis.Line2.Point2.Type, 0
TestParameter, AutoAnalysis.Line2.Point2.XY.X, 
TestParameter, AutoAnalysis.Line2.Point2.XY.Y, 
TestParameter, AutoAnalysis.Line2.Point2.Data.Var, 
TestParameter, AutoAnalysis.Line2.Point2.Data.Condition, 
TestParameter, AutoAnalysis.Line2.Point2.Data.Start, false
TestParameter, AutoAnalysis.Line2.Point2.Data.StartVar, 
TestParameter, AutoAnalysis.Line2.Point2.Data.StartCondition, 
TestParameter, AutoAnalysis.Line2.GradientExpr, 0
TestParameter, AutoAnalysis.Marker.Enabled, false
TestParameter, AutoAnalysis.Marker.Data.Var, 
TestParameter, AutoAnalysis.Marker.Data.Condition, 
TestParameter, AutoAnalysis.Marker.Data.Start, false
TestParameter, AutoAnalysis.Marker.Data.StartVar, 
TestParameter, AutoAnalysis.Marker.Data.StartCondition, 
MetaData, TestRecord.EntryPoint, true
MetaData, TestRecord.RecordTime, 09/11/2020 15:42:18
MetaData, TestRecord.TestTarget, 
MetaData, TestRecord.IterationIndex, 9
MetaData, TestRecord.Preservation, true
MetaData, TestRecord.Flag, 
MetaData, TestRecord.Remarks, 
MetaData, TestRecord.LinkKey, 653169f6-a604-493c-866a-a8e292230553
Dimension1, 101, 101, 101
Dimension2, 1, 1, 1
DataName, V1, I1, Ohmic
DataValue, -5, -9.097999999999999E-10, 4118419024.820919
DataValue, -4.9, -8.4569999999999988E-10, 
DataValue, -4.8, -8.1989999999999993E-10, 
DataValue, -4.7, -7.9219999999999991E-10, 
DataValue, -4.6000000000000005, -7.9189999999999992E-10, 
DataValue, -4.5, -7.789E-10, 
DataValue, -4.4, -7.59E-10, 
DataValue, -4.3, -7.563E-10, 
DataValue, -4.2, -7.482E-10, 
DataValue, -4.1, -7.344E-10, 
DataValue, -4, -7.3189999999999992E-10, 
DataValue, -3.9, -7.233999999999999E-10, 
DataValue, -3.8000000000000003, -7.0729999999999993E-10, 
DataValue, -3.7, -7.024E-10, 
DataValue, -3.6, -7.138E-10, 
DataValue, -3.5, -6.785E-10, 
DataValue, -3.4, -6.8039999999999995E-10, 
DataValue, -3.3000000000000003, -6.859E-10, 
DataValue, -3.2, -6.9489999999999995E-10, 
DataValue, -3.1, -6.832E-10, 
DataValue, -3, -6.8709999999999993E-10, 
DataValue, -2.9, -6.5939999999999991E-10, 
DataValue, -2.8000000000000003, -6.464E-10, 
DataValue, -2.7, -6.3039999999999991E-10, 
DataValue, -2.6, -6.336E-10, 
DataValue, -2.5, -6.036E-10, 
DataValue, -2.4, -6.380999999999999E-10, 
DataValue, -2.3000000000000003, -6.171E-10, 
DataValue, -2.2, -6.124E-10, 
DataValue, -2.1, -5.8159999999999994E-10, 
DataValue, -2, -6.4279999999999989E-10, 
DataValue, -1.9000000000000001, -5.9039999999999995E-10, 
DataValue, -1.8, -5.7989999999999993E-10, 
DataValue, -1.7, -5.6369999999999992E-10, 
DataValue, -1.6, -5.821E-10, 
DataValue, -1.5, -5.693E-10, 
DataValue, -1.4000000000000001, -5.497999999999999E-10, 
DataValue, -1.3, -5.6469999999999992E-10, 
DataValue, -1.2, -5.584E-10, 
DataValue, -1.1, -5.44E-10, 
DataValue, -1, -5.3679999999999995E-10, 
DataValue, -0.9, -5.517E-10, 
DataValue, -0.8, -5.09E-10, 
DataValue, -0.70000000000000007, -4.8479999999999992E-10, 
DataValue, -0.6, -5.039E-10, 
DataValue, -0.5, -4.6159999999999994E-10, 
DataValue, -0.4, -3.9519999999999994E-10, 
DataValue, -0.3, -3.573E-10, 
DataValue, -0.2, -3.0009E-10, 
DataValue, -0.1, -1.7934E-10, 
DataValue, 0, 4.53E-11, 
DataValue, 0.1, 1.9388E-10, 
DataValue, 0.2, 2.6243E-10, 
DataValue, 0.3, 3.4533E-10, 
DataValue, 0.4, 3.8936E-10, 
DataValue, 0.5, 3.8046E-10, 
DataValue, 0.6, 4.0029E-10, 
DataValue, 0.70000000000000007, 4.0116E-10, 
DataValue, 0.8, 4.1543E-10, 
DataValue, 0.9, 4.1537E-10, 
DataValue, 1, 4.2006E-10, 
DataValue, 1.1, 4.512E-10, 
DataValue, 1.2, 4.7077E-10, 
DataValue, 1.3, 4.4411E-10, 
DataValue, 1.4000000000000001, 4.8178E-10, 
DataValue, 1.5, 4.6108E-10, 
DataValue, 1.6, 4.5777E-10, 
DataValue, 1.7, 4.711E-10, 
DataValue, 1.8, 4.7808E-10, 
DataValue, 1.9000000000000001, 4.6751E-10, 
DataValue, 2, 4.8279E-10, 
DataValue, 2.1, 4.8725E-10, 
DataValue, 2.2, 4.9166E-10, 
DataValue, 2.3000000000000003, 5.0855E-10, 
DataValue, 2.4, 5.0818E-10, 
DataValue, 2.5, 5.2593E-10, 
DataValue, 2.6, 5.2578E-10, 
DataValue, 2.7, 5.235E-10, 
DataValue, 2.8000000000000003, 5.1571E-10, 
DataValue, 2.9, 5.4483E-10, 
DataValue, 3, 5.6146E-10, 
DataValue, 3.1, 5.7038E-10, 
DataValue, 3.2, 5.7127E-10, 
DataValue, 3.3000000000000003, 5.761E-10, 
DataValue, 3.4, 5.9142E-10, 
DataValue, 3.5, 5.4967E-10, 
DataValue, 3.6, 5.684E-10, 
DataValue, 3.7, 5.9752E-10, 
DataValue, 3.8000000000000003, 6.0382E-10, 
DataValue, 3.9, 5.8504E-10, 
DataValue, 4, 5.8572E-10, 
DataValue, 4.1, 5.7889E-10, 
DataValue, 4.2, 6.0464E-10, 
DataValue, 4.3, 6.174E-10, 
DataValue, 4.4, 6.0261E-10, 
DataValue, 4.5, 6.2126E-10, 
DataValue, 4.6000000000000005, 6.5325E-10, 
DataValue, 4.7, 6.3861E-10, 
DataValue, 4.8, 6.698E-10, 
DataValue, 4.9, 6.7646E-10, 
DataValue, 5, 7.0812E-10, 