
SetupTitle, WW
PrimitiveTest, I/V Sweep
TestParameter, Context.MainFrame, B1500A
TestParameter, Channel.UnitType, SMU, SMU
TestParameter, Channel.Unit, SMU1:HP, SMU2:HP
TestParameter, Channel.IName, I1, I4
TestParameter, Channel.VName, V1, V4
TestParameter, Channel.Mode, V, COMMON
TestParameter, Channel.Func, VAR1, CONST
TestParameter, Channel.Index, 
TestParameter, Channel.Time, 
TestParameter, Measurement.Port.Unit, SMU1:HP, SMU2:HP
TestParameter, Measurement.Port.SeriesResistor, NONE, NONE
TestParameter, Measurement.Port.Filter, ON, ON
TestParameter, Measurement.Port.OutputVoltageComparison, 0, 0
TestParameter, Measurement.Primary.Locus, Single
TestParameter, Measurement.Primary.Scale, LINEAR
TestParameter, Measurement.Primary.Start, -5
TestParameter, Measurement.Primary.Stop, 5
TestParameter, Measurement.Primary.Step, 0.1
TestParameter, Measurement.Primary.Compliance, 0.1
TestParameter, Measurement.Primary.PowerCompliance, 0
TestParameter, Measurement.Aborting.Condition, CONTINUE AT ANY
TestParameter, Measurement.PostOutput.Value, START
TestParameter, Measurement.PostOutput.Retention, OFF
TestParameter, Measurement.Bias.Source, -5, 0
TestParameter, Measurement.Bias.Compliance, 0.1, 1
TestParameter, Measurement.Monitor.Unit, SMU1:HP, SMU2:HP
TestParameter, Measurement.Monitor.Adc, HR ADC, HR ADC
TestParameter, Measurement.Monitor.Measurement, Compliance Side, Compliance Side
TestParameter, Measurement.Monitor.RangingMode, AUTO, AUTO
TestParameter, Measurement.Monitor.RangeBoundary, , 
TestParameter, Measurement.Monitor.RangeRating, BY FULL RANGE, BY FULL RANGE
TestParameter, Measurement.Monitor.RangeRatingCoeff, 50, 50
TestParameter, Measurement.Timing.Hold, 0
TestParameter, Measurement.Timing.Delay, 0.001
TestParameter, Measurement.Adc.HighSpeed.Mode, AUTO
TestParameter, Measurement.Adc.HighSpeed.Coeff, 1
TestParameter, Measurement.Adc.HighResolution.AutoZero, OFF
TestParameter, Measurement.Adc.HighResolution.Mode, PLC
TestParameter, Measurement.Adc.HighResolution.Coeff, 1
TestParameter, Measurement.WaitTime.Source.Coeff, 1
TestParameter, Measurement.WaitTime.Source.Offset, 0
TestParameter, Measurement.WaitTime.Monitor.Coeff, 1
TestParameter, Measurement.WaitTime.Monitor.Offset, 0
TestParameter, Function.User.Name, Ohmic
TestParameter, Function.User.Unit, ohm
TestParameter, Function.User.Definition, avg(V1/I1)
TestParameter, Output.Graph.Enabled, true
TestParameter, Output.Graph.XAxis.Data, V1
TestParameter, Output.Graph.XAxis.Scale, Linear
TestParameter, Output.Graph.XAxis.Left, -5
TestParameter, Output.Graph.XAxis.Right, 5
TestParameter, Output.Graph.YAxis.Data, I1
TestParameter, Output.Graph.YAxis.Scale, Linear
TestParameter, Output.Graph.YAxis.Bottom, -0.001
TestParameter, Output.Graph.YAxis.Top, 0.001
TestParameter, Output.Graph.YAxis.Group, 
TestParameter, Output.Scalar.Data, Ohmic
TestParameter, AutoAnalysis.Interpolation, false
TestParameter, AutoAnalysis.Line1.Enabled, false
TestParameter, AutoAnalysis.Line1.Type, 1
TestParameter, AutoAnalysis.Line1.Fix, True
TestParameter, AutoAnalysis.Line1.YAxis, 0
TestParameter, AutoAnalysis.Line1.Point1.Type, 0
TestParameter, AutoAnalysis.Line1.Point1.XY.X, 
TestParameter, AutoAnalysis.Line1.Point1.XY.Y, 
TestParameter, AutoAnalysis.Line1.Point1.Data.Var, 
TestParameter, AutoAnalysis.Line1.Point1.Data.Condition, 
TestParameter, AutoAnalysis.Line1.Point1.Data.Start, false
TestParameter, AutoAnalysis.Line1.Point1.Data.StartVar, 
TestParameter, AutoAnalysis.Line1.Point1.Data.StartCondition, 
TestParameter, AutoAnalysis.Line1.Point2.Type, 0
TestParameter, AutoAnalysis.Line1.Point2.XY.X, 
TestParameter, AutoAnalysis.Line1.Point2.XY.Y, 
TestParameter, AutoAnalysis.Line1.Point2.Data.Var, 
TestParameter, AutoAnalysis.Line1.Point2.Data.Condition, 
TestParameter, AutoAnalysis.Line1.Point2.Data.Start, false
TestParameter, AutoAnalysis.Line1.Point2.Data.StartVar, 
TestParameter, AutoAnalysis.Line1.Point2.Data.StartCondition, 
TestParameter, AutoAnalysis.Line1.GradientExpr, 0
TestParameter, AutoAnalysis.Line2.Enabled, false
TestParameter, AutoAnalysis.Line2.Type, 1
TestParameter, AutoAnalysis.Line2.Fix, True
TestParameter, AutoAnalysis.Line2.YAxis, 0
TestParameter, AutoAnalysis.Line2.Point1.Type, 0
TestParameter, AutoAnalysis.Line2.Point1.XY.X, 
TestParameter, AutoAnalysis.Line2.Point1.XY.Y, 
TestParameter, AutoAnalysis.Line2.Point1.Data.Var, 
TestParameter, AutoAnalysis.Line2.Point1.Data.Condition, 
TestParameter, AutoAnalysis.Line2.Point1.Data.Start, false
TestParameter, AutoAnalysis.Line2.Point1.Data.StartVar, 
TestParameter, AutoAnalysis.Line2.Point1.Data.StartCondition, 
TestParameter, AutoAnalysis.Line2.Point2.Type, 0
TestParameter, AutoAnalysis.Line2.Point2.XY.X, 
TestParameter, AutoAnalysis.Line2.Point2.XY.Y, 
TestParameter, AutoAnalysis.Line2.Point2.Data.Var, 
TestParameter, AutoAnalysis.Line2.Point2.Data.Condition, 
TestParameter, AutoAnalysis.Line2.Point2.Data.Start, false
TestParameter, AutoAnalysis.Line2.Point2.Data.StartVar, 
TestParameter, AutoAnalysis.Line2.Point2.Data.StartCondition, 
TestParameter, AutoAnalysis.Line2.GradientExpr, 0
TestParameter, AutoAnalysis.Marker.Enabled, false
TestParameter, AutoAnalysis.Marker.Data.Var, 
TestParameter, AutoAnalysis.Marker.Data.Condition, 
TestParameter, AutoAnalysis.Marker.Data.Start, false
TestParameter, AutoAnalysis.Marker.Data.StartVar, 
TestParameter, AutoAnalysis.Marker.Data.StartCondition, 
MetaData, TestRecord.EntryPoint, true
MetaData, TestRecord.RecordTime, 09/11/2020 16:44:59
MetaData, TestRecord.TestTarget, 
MetaData, TestRecord.IterationIndex, 58
MetaData, TestRecord.Preservation, true
MetaData, TestRecord.Flag, 
MetaData, TestRecord.Remarks, 
MetaData, TestRecord.LinkKey, 3d0eb561-9faf-4650-8fdf-6e126e16959c
Dimension1, 101, 101, 101
Dimension2, 1, 1, 1
DataName, V1, I1, Ohmic
DataValue, -5, -4.7864999999999995E-09, 478789635.70854354
DataValue, -4.9, -4.7471E-09, 
DataValue, -4.8, -4.6577999999999994E-09, 
DataValue, -4.7, -4.5730999999999994E-09, 
DataValue, -4.6000000000000005, -4.5078E-09, 
DataValue, -4.5, -4.4754999999999993E-09, 
DataValue, -4.4, -4.3801E-09, 
DataValue, -4.3, -4.328E-09, 
DataValue, -4.2, -4.2144999999999995E-09, 
DataValue, -4.1, -4.1684999999999994E-09, 
DataValue, -4, -4.1092E-09, 
DataValue, -3.9, -4.0533E-09, 
DataValue, -3.8000000000000003, -4.0317E-09, 
DataValue, -3.7, -3.9643999999999993E-09, 
DataValue, -3.6, -3.8709999999999996E-09, 
DataValue, -3.5, -3.8508E-09, 
DataValue, -3.4, -3.8193E-09, 
DataValue, -3.3000000000000003, -3.7357999999999994E-09, 
DataValue, -3.2, -3.6844E-09, 
DataValue, -3.1, -3.6513999999999996E-09, 
DataValue, -3, -3.5965999999999998E-09, 
DataValue, -2.9, -3.5638999999999997E-09, 
DataValue, -2.8000000000000003, -3.4875E-09, 
DataValue, -2.7, -3.4094E-09, 
DataValue, -2.6, -3.3814999999999995E-09, 
DataValue, -2.5, -3.3157999999999997E-09, 
DataValue, -2.4, -3.2593999999999997E-09, 
DataValue, -2.3000000000000003, -3.2084E-09, 
DataValue, -2.2, -3.1546E-09, 
DataValue, -2.1, -3.1009999999999995E-09, 
DataValue, -2, -3.0221999999999998E-09, 
DataValue, -1.9000000000000001, -2.9732999999999996E-09, 
DataValue, -1.8, -2.9769999999999995E-09, 
DataValue, -1.7, -2.9339999999999996E-09, 
DataValue, -1.6, -2.8737999999999997E-09, 
DataValue, -1.5, -2.8118999999999998E-09, 
DataValue, -1.4000000000000001, -2.7532999999999996E-09, 
DataValue, -1.3, -2.7329E-09, 
DataValue, -1.2, -2.6417999999999997E-09, 
DataValue, -1.1, -2.5563999999999996E-09, 
DataValue, -1, -2.5493E-09, 
DataValue, -0.9, -2.4676999999999997E-09, 
DataValue, -0.8, -2.4146E-09, 
DataValue, -0.70000000000000007, -2.3787999999999997E-09, 
DataValue, -0.6, -2.3061999999999997E-09, 
DataValue, -0.5, -2.2859999999999998E-09, 
DataValue, -0.4, -2.1761E-09, 
DataValue, -0.3, -2.1077999999999997E-09, 
DataValue, -0.2, -1.8984E-09, 
DataValue, -0.1, -7.1309999999999995E-10, 
DataValue, 0, 2.8671999999999998E-09, 
DataValue, 0.1, 5.6564E-09, 
DataValue, 0.2, 6.4803999999999993E-09, 
DataValue, 0.3, 6.6583E-09, 
DataValue, 0.4, 6.7642999999999991E-09, 
DataValue, 0.5, 6.8060999999999995E-09, 
DataValue, 0.6, 6.8533999999999995E-09, 
DataValue, 0.70000000000000007, 6.8745999999999994E-09, 
DataValue, 0.8, 6.9931999999999994E-09, 
DataValue, 0.9, 7.0313999999999995E-09, 
DataValue, 1, 7.0951999999999992E-09, 
DataValue, 1.1, 7.1865999999999992E-09, 
DataValue, 1.2, 7.2694999999999994E-09, 
DataValue, 1.3, 7.3457999999999992E-09, 
DataValue, 1.4000000000000001, 7.4241999999999992E-09, 
DataValue, 1.5, 7.5314E-09, 
DataValue, 1.6, 7.659E-09, 
DataValue, 1.7, 7.6882999999999988E-09, 
DataValue, 1.8, 7.8206E-09, 
DataValue, 1.9000000000000001, 7.9275E-09, 
DataValue, 2, 8.051799999999999E-09, 
DataValue, 2.1, 8.1319E-09, 
DataValue, 2.2, 8.2504E-09, 
DataValue, 2.3000000000000003, 8.3145999999999986E-09, 
DataValue, 2.4, 8.4704E-09, 
DataValue, 2.5, 8.608499999999999E-09, 
DataValue, 2.6, 8.6627E-09, 
DataValue, 2.7, 8.7278999999999984E-09, 
DataValue, 2.8000000000000003, 8.836399999999999E-09, 
DataValue, 2.9, 9.0022E-09, 
DataValue, 3, 9.1379999999999988E-09, 
DataValue, 3.1, 9.276E-09, 
DataValue, 3.2, 9.3185999999999988E-09, 
DataValue, 3.3000000000000003, 9.4678E-09, 
DataValue, 3.4, 9.6242999999999987E-09, 
DataValue, 3.5, 9.7326999999999989E-09, 
DataValue, 3.6, 9.8524999999999984E-09, 
DataValue, 3.7, 9.9358E-09, 
DataValue, 3.8000000000000003, 1.0119599999999999E-08, 
DataValue, 3.9, 1.0198099999999999E-08, 
DataValue, 4, 1.02597E-08, 
DataValue, 4.1, 1.0418599999999999E-08, 
DataValue, 4.2, 1.05066E-08, 
DataValue, 4.3, 1.0574299999999999E-08, 
DataValue, 4.4, 1.0671699999999998E-08, 
DataValue, 4.5, 1.0782799999999999E-08, 
DataValue, 4.6000000000000005, 1.0840399999999998E-08, 
DataValue, 4.7, 1.0945799999999998E-08, 
DataValue, 4.8, 1.10265E-08, 
DataValue, 4.9, 1.11665E-08, 
DataValue, 5, 1.1291099999999999E-08, 