
SetupTitle, WW
PrimitiveTest, I/V Sweep
TestParameter, Context.MainFrame, B1500A
TestParameter, Channel.UnitType, SMU, SMU
TestParameter, Channel.Unit, SMU1:HP, SMU2:HP
TestParameter, Channel.IName, I1, I4
TestParameter, Channel.VName, V1, V4
TestParameter, Channel.Mode, V, COMMON
TestParameter, Channel.Func, VAR1, CONST
TestParameter, Channel.Index, 
TestParameter, Channel.Time, 
TestParameter, Measurement.Port.Unit, SMU1:HP, SMU2:HP
TestParameter, Measurement.Port.SeriesResistor, NONE, NONE
TestParameter, Measurement.Port.Filter, ON, ON
TestParameter, Measurement.Port.OutputVoltageComparison, 0, 0
TestParameter, Measurement.Primary.Locus, Single
TestParameter, Measurement.Primary.Scale, LINEAR
TestParameter, Measurement.Primary.Start, -5
TestParameter, Measurement.Primary.Stop, 5
TestParameter, Measurement.Primary.Step, 0.1
TestParameter, Measurement.Primary.Compliance, 0.1
TestParameter, Measurement.Primary.PowerCompliance, 0
TestParameter, Measurement.Aborting.Condition, CONTINUE AT ANY
TestParameter, Measurement.PostOutput.Value, START
TestParameter, Measurement.PostOutput.Retention, OFF
TestParameter, Measurement.Bias.Source, -5, 0
TestParameter, Measurement.Bias.Compliance, 0.1, 1
TestParameter, Measurement.Monitor.Unit, SMU1:HP, SMU2:HP
TestParameter, Measurement.Monitor.Adc, HR ADC, HR ADC
TestParameter, Measurement.Monitor.Measurement, Compliance Side, Compliance Side
TestParameter, Measurement.Monitor.RangingMode, AUTO, AUTO
TestParameter, Measurement.Monitor.RangeBoundary, , 
TestParameter, Measurement.Monitor.RangeRating, BY FULL RANGE, BY FULL RANGE
TestParameter, Measurement.Monitor.RangeRatingCoeff, 50, 50
TestParameter, Measurement.Timing.Hold, 0
TestParameter, Measurement.Timing.Delay, 0.001
TestParameter, Measurement.Adc.HighSpeed.Mode, AUTO
TestParameter, Measurement.Adc.HighSpeed.Coeff, 1
TestParameter, Measurement.Adc.HighResolution.AutoZero, OFF
TestParameter, Measurement.Adc.HighResolution.Mode, PLC
TestParameter, Measurement.Adc.HighResolution.Coeff, 1
TestParameter, Measurement.WaitTime.Source.Coeff, 1
TestParameter, Measurement.WaitTime.Source.Offset, 0
TestParameter, Measurement.WaitTime.Monitor.Coeff, 1
TestParameter, Measurement.WaitTime.Monitor.Offset, 0
TestParameter, Function.User.Name, Ohmic
TestParameter, Function.User.Unit, ohm
TestParameter, Function.User.Definition, avg(V1/I1)
TestParameter, Output.Graph.Enabled, true
TestParameter, Output.Graph.XAxis.Data, V1
TestParameter, Output.Graph.XAxis.Scale, Linear
TestParameter, Output.Graph.XAxis.Left, -5
TestParameter, Output.Graph.XAxis.Right, 5
TestParameter, Output.Graph.YAxis.Data, I1
TestParameter, Output.Graph.YAxis.Scale, Linear
TestParameter, Output.Graph.YAxis.Bottom, -0.001
TestParameter, Output.Graph.YAxis.Top, 0.001
TestParameter, Output.Graph.YAxis.Group, 
TestParameter, Output.Scalar.Data, Ohmic
TestParameter, AutoAnalysis.Interpolation, false
TestParameter, AutoAnalysis.Line1.Enabled, false
TestParameter, AutoAnalysis.Line1.Type, 1
TestParameter, AutoAnalysis.Line1.Fix, True
TestParameter, AutoAnalysis.Line1.YAxis, 0
TestParameter, AutoAnalysis.Line1.Point1.Type, 0
TestParameter, AutoAnalysis.Line1.Point1.XY.X, 
TestParameter, AutoAnalysis.Line1.Point1.XY.Y, 
TestParameter, AutoAnalysis.Line1.Point1.Data.Var, 
TestParameter, AutoAnalysis.Line1.Point1.Data.Condition, 
TestParameter, AutoAnalysis.Line1.Point1.Data.Start, false
TestParameter, AutoAnalysis.Line1.Point1.Data.StartVar, 
TestParameter, AutoAnalysis.Line1.Point1.Data.StartCondition, 
TestParameter, AutoAnalysis.Line1.Point2.Type, 0
TestParameter, AutoAnalysis.Line1.Point2.XY.X, 
TestParameter, AutoAnalysis.Line1.Point2.XY.Y, 
TestParameter, AutoAnalysis.Line1.Point2.Data.Var, 
TestParameter, AutoAnalysis.Line1.Point2.Data.Condition, 
TestParameter, AutoAnalysis.Line1.Point2.Data.Start, false
TestParameter, AutoAnalysis.Line1.Point2.Data.StartVar, 
TestParameter, AutoAnalysis.Line1.Point2.Data.StartCondition, 
TestParameter, AutoAnalysis.Line1.GradientExpr, 0
TestParameter, AutoAnalysis.Line2.Enabled, false
TestParameter, AutoAnalysis.Line2.Type, 1
TestParameter, AutoAnalysis.Line2.Fix, True
TestParameter, AutoAnalysis.Line2.YAxis, 0
TestParameter, AutoAnalysis.Line2.Point1.Type, 0
TestParameter, AutoAnalysis.Line2.Point1.XY.X, 
TestParameter, AutoAnalysis.Line2.Point1.XY.Y, 
TestParameter, AutoAnalysis.Line2.Point1.Data.Var, 
TestParameter, AutoAnalysis.Line2.Point1.Data.Condition, 
TestParameter, AutoAnalysis.Line2.Point1.Data.Start, false
TestParameter, AutoAnalysis.Line2.Point1.Data.StartVar, 
TestParameter, AutoAnalysis.Line2.Point1.Data.StartCondition, 
TestParameter, AutoAnalysis.Line2.Point2.Type, 0
TestParameter, AutoAnalysis.Line2.Point2.XY.X, 
TestParameter, AutoAnalysis.Line2.Point2.XY.Y, 
TestParameter, AutoAnalysis.Line2.Point2.Data.Var, 
TestParameter, AutoAnalysis.Line2.Point2.Data.Condition, 
TestParameter, AutoAnalysis.Line2.Point2.Data.Start, false
TestParameter, AutoAnalysis.Line2.Point2.Data.StartVar, 
TestParameter, AutoAnalysis.Line2.Point2.Data.StartCondition, 
TestParameter, AutoAnalysis.Line2.GradientExpr, 0
TestParameter, AutoAnalysis.Marker.Enabled, false
TestParameter, AutoAnalysis.Marker.Data.Var, 
TestParameter, AutoAnalysis.Marker.Data.Condition, 
TestParameter, AutoAnalysis.Marker.Data.Start, false
TestParameter, AutoAnalysis.Marker.Data.StartVar, 
TestParameter, AutoAnalysis.Marker.Data.StartCondition, 
MetaData, TestRecord.EntryPoint, true
MetaData, TestRecord.RecordTime, 09/11/2020 16:44:05
MetaData, TestRecord.TestTarget, 
MetaData, TestRecord.IterationIndex, 56
MetaData, TestRecord.Preservation, true
MetaData, TestRecord.Flag, 
MetaData, TestRecord.Remarks, 
MetaData, TestRecord.LinkKey, dfe38700-3c47-49ec-99b1-7e696cb583fb
Dimension1, 101, 101, 101
Dimension2, 1, 1, 1
DataName, V1, I1, Ohmic
DataValue, -5, -4.7633999999999995E-09, 479692749.38716263
DataValue, -4.9, -4.7026E-09, 
DataValue, -4.8, -4.6026999999999994E-09, 
DataValue, -4.7, -4.5395E-09, 
DataValue, -4.6000000000000005, -4.4073999999999995E-09, 
DataValue, -4.5, -4.4082999999999993E-09, 
DataValue, -4.4, -4.3322999999999992E-09, 
DataValue, -4.3, -4.3164E-09, 
DataValue, -4.2, -4.217E-09, 
DataValue, -4.1, -4.2235E-09, 
DataValue, -4, -4.1354999999999992E-09, 
DataValue, -3.9, -4.0291999999999993E-09, 
DataValue, -3.8000000000000003, -3.9876999999999994E-09, 
DataValue, -3.7, -3.9018999999999995E-09, 
DataValue, -3.6, -3.9297999999999994E-09, 
DataValue, -3.5, -3.85E-09, 
DataValue, -3.4, -3.8403999999999993E-09, 
DataValue, -3.3000000000000003, -3.7895E-09, 
DataValue, -3.2, -3.6902999999999996E-09, 
DataValue, -3.1, -3.6804E-09, 
DataValue, -3, -3.6143E-09, 
DataValue, -2.9, -3.5807999999999995E-09, 
DataValue, -2.8000000000000003, -3.4724999999999997E-09, 
DataValue, -2.7, -3.4494999999999997E-09, 
DataValue, -2.6, -3.4006999999999996E-09, 
DataValue, -2.5, -3.3287999999999995E-09, 
DataValue, -2.4, -3.3276999999999996E-09, 
DataValue, -2.3000000000000003, -3.2508999999999996E-09, 
DataValue, -2.2, -3.2339999999999998E-09, 
DataValue, -2.1, -3.1629E-09, 
DataValue, -2, -3.1213999999999996E-09, 
DataValue, -1.9000000000000001, -3.0833E-09, 
DataValue, -1.8, -2.9990999999999997E-09, 
DataValue, -1.7, -2.9729999999999996E-09, 
DataValue, -1.6, -2.9054999999999995E-09, 
DataValue, -1.5, -2.8682999999999997E-09, 
DataValue, -1.4000000000000001, -2.7949E-09, 
DataValue, -1.3, -2.7673999999999998E-09, 
DataValue, -1.2, -2.7314E-09, 
DataValue, -1.1, -2.6219E-09, 
DataValue, -1, -2.6143999999999996E-09, 
DataValue, -0.9, -2.5451E-09, 
DataValue, -0.8, -2.51E-09, 
DataValue, -0.70000000000000007, -2.4323999999999996E-09, 
DataValue, -0.6, -2.4062E-09, 
DataValue, -0.5, -2.3907999999999996E-09, 
DataValue, -0.4, -2.2464999999999996E-09, 
DataValue, -0.3, -2.2226999999999998E-09, 
DataValue, -0.2, -1.9966E-09, 
DataValue, -0.1, -7.9389999999999992E-10, 
DataValue, 0, 2.7904E-09, 
DataValue, 0.1, 5.5185999999999995E-09, 
DataValue, 0.2, 6.3118E-09, 
DataValue, 0.3, 6.5213999999999994E-09, 
DataValue, 0.4, 6.5844E-09, 
DataValue, 0.5, 6.6969999999999995E-09, 
DataValue, 0.6, 6.7899999999999991E-09, 
DataValue, 0.70000000000000007, 6.8143999999999991E-09, 
DataValue, 0.8, 6.8626999999999995E-09, 
DataValue, 0.9, 6.9040999999999989E-09, 
DataValue, 1, 6.9823999999999994E-09, 
DataValue, 1.1, 7.0375999999999989E-09, 
DataValue, 1.2, 7.1478999999999993E-09, 
DataValue, 1.3, 7.1512999999999995E-09, 
DataValue, 1.4000000000000001, 7.2247999999999993E-09, 
DataValue, 1.5, 7.3057999999999993E-09, 
DataValue, 1.6, 7.3938999999999995E-09, 
DataValue, 1.7, 7.5333999999999988E-09, 
DataValue, 1.8, 7.6683E-09, 
DataValue, 1.9000000000000001, 7.7503E-09, 
DataValue, 2, 7.8651999999999989E-09, 
DataValue, 2.1, 7.9184999999999991E-09, 
DataValue, 2.2, 8.0420999999999989E-09, 
DataValue, 2.3000000000000003, 8.1291999999999988E-09, 
DataValue, 2.4, 8.2682E-09, 
DataValue, 2.5, 8.3860999999999986E-09, 
DataValue, 2.6, 8.4794E-09, 
DataValue, 2.7, 8.6575E-09, 
DataValue, 2.8000000000000003, 8.7446999999999986E-09, 
DataValue, 2.9, 8.8382999999999991E-09, 
DataValue, 3, 8.907E-09, 
DataValue, 3.1, 9.0547E-09, 
DataValue, 3.2, 9.1765E-09, 
DataValue, 3.3000000000000003, 9.293699999999999E-09, 
DataValue, 3.4, 9.2935E-09, 
DataValue, 3.5, 9.478399999999999E-09, 
DataValue, 3.6, 9.5619E-09, 
DataValue, 3.7, 9.6943999999999991E-09, 
DataValue, 3.8000000000000003, 9.8164999999999989E-09, 
DataValue, 3.9, 9.9287E-09, 
DataValue, 4, 1.0079799999999999E-08, 
DataValue, 4.1, 1.01923E-08, 
DataValue, 4.2, 1.0230499999999999E-08, 
DataValue, 4.3, 1.0398899999999999E-08, 
DataValue, 4.4, 1.04687E-08, 
DataValue, 4.5, 1.0578699999999999E-08, 
DataValue, 4.6000000000000005, 1.0643399999999998E-08, 
DataValue, 4.7, 1.0684499999999999E-08, 
DataValue, 4.8, 1.0794199999999998E-08, 
DataValue, 4.9, 1.08984E-08, 
DataValue, 5, 1.0938899999999999E-08, 