
SetupTitle, WW
PrimitiveTest, I/V Sweep
TestParameter, Context.MainFrame, B1500A
TestParameter, Channel.UnitType, SMU, SMU
TestParameter, Channel.Unit, SMU1:HP, SMU2:HP
TestParameter, Channel.IName, I1, I4
TestParameter, Channel.VName, V1, V4
TestParameter, Channel.Mode, V, COMMON
TestParameter, Channel.Func, VAR1, CONST
TestParameter, Channel.Index, 
TestParameter, Channel.Time, 
TestParameter, Measurement.Port.Unit, SMU1:HP, SMU2:HP
TestParameter, Measurement.Port.SeriesResistor, NONE, NONE
TestParameter, Measurement.Port.Filter, ON, ON
TestParameter, Measurement.Port.OutputVoltageComparison, 0, 0
TestParameter, Measurement.Primary.Locus, Single
TestParameter, Measurement.Primary.Scale, LINEAR
TestParameter, Measurement.Primary.Start, -5
TestParameter, Measurement.Primary.Stop, 5
TestParameter, Measurement.Primary.Step, 0.1
TestParameter, Measurement.Primary.Compliance, 0.1
TestParameter, Measurement.Primary.PowerCompliance, 0
TestParameter, Measurement.Aborting.Condition, CONTINUE AT ANY
TestParameter, Measurement.PostOutput.Value, START
TestParameter, Measurement.PostOutput.Retention, OFF
TestParameter, Measurement.Bias.Source, -5, 0
TestParameter, Measurement.Bias.Compliance, 0.1, 1
TestParameter, Measurement.Monitor.Unit, SMU1:HP, SMU2:HP
TestParameter, Measurement.Monitor.Adc, HR ADC, HR ADC
TestParameter, Measurement.Monitor.Measurement, Compliance Side, Compliance Side
TestParameter, Measurement.Monitor.RangingMode, AUTO, AUTO
TestParameter, Measurement.Monitor.RangeBoundary, , 
TestParameter, Measurement.Monitor.RangeRating, BY FULL RANGE, BY FULL RANGE
TestParameter, Measurement.Monitor.RangeRatingCoeff, 50, 50
TestParameter, Measurement.Timing.Hold, 0
TestParameter, Measurement.Timing.Delay, 0.001
TestParameter, Measurement.Adc.HighSpeed.Mode, AUTO
TestParameter, Measurement.Adc.HighSpeed.Coeff, 1
TestParameter, Measurement.Adc.HighResolution.AutoZero, OFF
TestParameter, Measurement.Adc.HighResolution.Mode, PLC
TestParameter, Measurement.Adc.HighResolution.Coeff, 1
TestParameter, Measurement.WaitTime.Source.Coeff, 1
TestParameter, Measurement.WaitTime.Source.Offset, 0
TestParameter, Measurement.WaitTime.Monitor.Coeff, 1
TestParameter, Measurement.WaitTime.Monitor.Offset, 0
TestParameter, Function.User.Name, Ohmic
TestParameter, Function.User.Unit, ohm
TestParameter, Function.User.Definition, avg(V1/I1)
TestParameter, Output.Graph.Enabled, true
TestParameter, Output.Graph.XAxis.Data, V1
TestParameter, Output.Graph.XAxis.Scale, Linear
TestParameter, Output.Graph.XAxis.Left, -5
TestParameter, Output.Graph.XAxis.Right, 5
TestParameter, Output.Graph.YAxis.Data, I1
TestParameter, Output.Graph.YAxis.Scale, Linear
TestParameter, Output.Graph.YAxis.Bottom, -0.001
TestParameter, Output.Graph.YAxis.Top, 0.001
TestParameter, Output.Graph.YAxis.Group, 
TestParameter, Output.Scalar.Data, Ohmic
TestParameter, AutoAnalysis.Interpolation, false
TestParameter, AutoAnalysis.Line1.Enabled, false
TestParameter, AutoAnalysis.Line1.Type, 1
TestParameter, AutoAnalysis.Line1.Fix, True
TestParameter, AutoAnalysis.Line1.YAxis, 0
TestParameter, AutoAnalysis.Line1.Point1.Type, 0
TestParameter, AutoAnalysis.Line1.Point1.XY.X, 
TestParameter, AutoAnalysis.Line1.Point1.XY.Y, 
TestParameter, AutoAnalysis.Line1.Point1.Data.Var, 
TestParameter, AutoAnalysis.Line1.Point1.Data.Condition, 
TestParameter, AutoAnalysis.Line1.Point1.Data.Start, false
TestParameter, AutoAnalysis.Line1.Point1.Data.StartVar, 
TestParameter, AutoAnalysis.Line1.Point1.Data.StartCondition, 
TestParameter, AutoAnalysis.Line1.Point2.Type, 0
TestParameter, AutoAnalysis.Line1.Point2.XY.X, 
TestParameter, AutoAnalysis.Line1.Point2.XY.Y, 
TestParameter, AutoAnalysis.Line1.Point2.Data.Var, 
TestParameter, AutoAnalysis.Line1.Point2.Data.Condition, 
TestParameter, AutoAnalysis.Line1.Point2.Data.Start, false
TestParameter, AutoAnalysis.Line1.Point2.Data.StartVar, 
TestParameter, AutoAnalysis.Line1.Point2.Data.StartCondition, 
TestParameter, AutoAnalysis.Line1.GradientExpr, 0
TestParameter, AutoAnalysis.Line2.Enabled, false
TestParameter, AutoAnalysis.Line2.Type, 1
TestParameter, AutoAnalysis.Line2.Fix, True
TestParameter, AutoAnalysis.Line2.YAxis, 0
TestParameter, AutoAnalysis.Line2.Point1.Type, 0
TestParameter, AutoAnalysis.Line2.Point1.XY.X, 
TestParameter, AutoAnalysis.Line2.Point1.XY.Y, 
TestParameter, AutoAnalysis.Line2.Point1.Data.Var, 
TestParameter, AutoAnalysis.Line2.Point1.Data.Condition, 
TestParameter, AutoAnalysis.Line2.Point1.Data.Start, false
TestParameter, AutoAnalysis.Line2.Point1.Data.StartVar, 
TestParameter, AutoAnalysis.Line2.Point1.Data.StartCondition, 
TestParameter, AutoAnalysis.Line2.Point2.Type, 0
TestParameter, AutoAnalysis.Line2.Point2.XY.X, 
TestParameter, AutoAnalysis.Line2.Point2.XY.Y, 
TestParameter, AutoAnalysis.Line2.Point2.Data.Var, 
TestParameter, AutoAnalysis.Line2.Point2.Data.Condition, 
TestParameter, AutoAnalysis.Line2.Point2.Data.Start, false
TestParameter, AutoAnalysis.Line2.Point2.Data.StartVar, 
TestParameter, AutoAnalysis.Line2.Point2.Data.StartCondition, 
TestParameter, AutoAnalysis.Line2.GradientExpr, 0
TestParameter, AutoAnalysis.Marker.Enabled, false
TestParameter, AutoAnalysis.Marker.Data.Var, 
TestParameter, AutoAnalysis.Marker.Data.Condition, 
TestParameter, AutoAnalysis.Marker.Data.Start, false
TestParameter, AutoAnalysis.Marker.Data.StartVar, 
TestParameter, AutoAnalysis.Marker.Data.StartCondition, 
MetaData, TestRecord.EntryPoint, true
MetaData, TestRecord.RecordTime, 09/11/2020 16:43:26
MetaData, TestRecord.TestTarget, 
MetaData, TestRecord.IterationIndex, 55
MetaData, TestRecord.Preservation, true
MetaData, TestRecord.Flag, 
MetaData, TestRecord.Remarks, 
MetaData, TestRecord.LinkKey, f8426a55-8bf7-49c8-8b0c-bab14f62b93d
Dimension1, 101, 101, 101
Dimension2, 1, 1, 1
DataName, V1, I1, Ohmic
DataValue, -5, -4.6227E-09, 485835579.691353
DataValue, -4.9, -4.5123999999999994E-09, 
DataValue, -4.8, -4.4497E-09, 
DataValue, -4.7, -4.3583E-09, 
DataValue, -4.6000000000000005, -4.3477E-09, 
DataValue, -4.5, -4.2628999999999994E-09, 
DataValue, -4.4, -4.2235E-09, 
DataValue, -4.3, -4.1412999999999993E-09, 
DataValue, -4.2, -4.1055999999999996E-09, 
DataValue, -4.1, -4.1269E-09, 
DataValue, -4, -4.0489E-09, 
DataValue, -3.9, -3.9746999999999995E-09, 
DataValue, -3.8000000000000003, -3.9344E-09, 
DataValue, -3.7, -3.91E-09, 
DataValue, -3.6, -3.8143E-09, 
DataValue, -3.5, -3.7452999999999995E-09, 
DataValue, -3.4, -3.6840999999999997E-09, 
DataValue, -3.3000000000000003, -3.6689999999999996E-09, 
DataValue, -3.2, -3.6508999999999995E-09, 
DataValue, -3.1, -3.6343999999999998E-09, 
DataValue, -3, -3.5284999999999996E-09, 
DataValue, -2.9, -3.4880999999999996E-09, 
DataValue, -2.8000000000000003, -3.4277999999999997E-09, 
DataValue, -2.7, -3.3953999999999997E-09, 
DataValue, -2.6, -3.3259999999999995E-09, 
DataValue, -2.5, -3.2734E-09, 
DataValue, -2.4, -3.2808999999999997E-09, 
DataValue, -2.3000000000000003, -3.1861999999999996E-09, 
DataValue, -2.2, -3.1613E-09, 
DataValue, -2.1, -3.0805E-09, 
DataValue, -2, -3.0433999999999996E-09, 
DataValue, -1.9000000000000001, -3.0390999999999996E-09, 
DataValue, -1.8, -2.9531999999999997E-09, 
DataValue, -1.7, -2.9583999999999996E-09, 
DataValue, -1.6, -2.8844999999999997E-09, 
DataValue, -1.5, -2.8509999999999998E-09, 
DataValue, -1.4000000000000001, -2.7846999999999997E-09, 
DataValue, -1.3, -2.7695999999999996E-09, 
DataValue, -1.2, -2.6665E-09, 
DataValue, -1.1, -2.6460999999999998E-09, 
DataValue, -1, -2.6076999999999996E-09, 
DataValue, -0.9, -2.5219999999999998E-09, 
DataValue, -0.8, -2.497E-09, 
DataValue, -0.70000000000000007, -2.4612999999999998E-09, 
DataValue, -0.6, -2.3378E-09, 
DataValue, -0.5, -2.3348E-09, 
DataValue, -0.4, -2.2667999999999997E-09, 
DataValue, -0.3, -2.1824E-09, 
DataValue, -0.2, -1.9606999999999997E-09, 
DataValue, -0.1, -7.705999999999999E-10, 
DataValue, 0, 2.7596E-09, 
DataValue, 0.1, 5.4581999999999992E-09, 
DataValue, 0.2, 6.2986E-09, 
DataValue, 0.3, 6.5282999999999995E-09, 
DataValue, 0.4, 6.618499999999999E-09, 
DataValue, 0.5, 6.6825E-09, 
DataValue, 0.6, 6.6825E-09, 
DataValue, 0.70000000000000007, 6.7296E-09, 
DataValue, 0.8, 6.824E-09, 
DataValue, 0.9, 6.9056999999999994E-09, 
DataValue, 1, 6.9371999999999996E-09, 
DataValue, 1.1, 7.0024E-09, 
DataValue, 1.2, 7.0225999999999993E-09, 
DataValue, 1.3, 7.0946999999999995E-09, 
DataValue, 1.4000000000000001, 7.2267999999999991E-09, 
DataValue, 1.5, 7.3649999999999993E-09, 
DataValue, 1.6, 7.4190999999999989E-09, 
DataValue, 1.7, 7.4682999999999991E-09, 
DataValue, 1.8, 7.5799999999999991E-09, 
DataValue, 1.9000000000000001, 7.7115E-09, 
DataValue, 2, 7.8416E-09, 
DataValue, 2.1, 7.9298E-09, 
DataValue, 2.2, 8.0706E-09, 
DataValue, 2.3000000000000003, 8.1156E-09, 
DataValue, 2.4, 8.2445E-09, 
DataValue, 2.5, 8.3529E-09, 
DataValue, 2.6, 8.4809E-09, 
DataValue, 2.7, 8.6088999999999991E-09, 
DataValue, 2.8000000000000003, 8.9411E-09, 
DataValue, 2.9, 9.0496E-09, 
DataValue, 3, 9.1565999999999988E-09, 
DataValue, 3.1, 9.2977999999999991E-09, 
DataValue, 3.2, 9.3764E-09, 
DataValue, 3.3000000000000003, 9.493E-09, 
DataValue, 3.4, 9.5846E-09, 
DataValue, 3.5, 9.718E-09, 
DataValue, 3.6, 9.8036999999999983E-09, 
DataValue, 3.7, 9.9183E-09, 
DataValue, 3.8000000000000003, 1.0032399999999999E-08, 
DataValue, 3.9, 1.01157E-08, 
DataValue, 4, 1.01942E-08, 
DataValue, 4.1, 1.02877E-08, 
DataValue, 4.2, 1.03704E-08, 
DataValue, 4.3, 1.05227E-08, 
DataValue, 4.4, 1.05711E-08, 
DataValue, 4.5, 1.06821E-08, 
DataValue, 4.6000000000000005, 1.0844099999999998E-08, 
DataValue, 4.7, 1.06049E-08, 
DataValue, 4.8, 1.0720299999999999E-08, 
DataValue, 4.9, 1.0779799999999999E-08, 
DataValue, 5, 1.105E-08, 