
SetupTitle, WW
PrimitiveTest, I/V Sweep
TestParameter, Context.MainFrame, B1500A
TestParameter, Channel.UnitType, SMU, SMU
TestParameter, Channel.Unit, SMU1:HP, SMU2:HP
TestParameter, Channel.IName, I1, I4
TestParameter, Channel.VName, V1, V4
TestParameter, Channel.Mode, V, COMMON
TestParameter, Channel.Func, VAR1, CONST
TestParameter, Channel.Index, 
TestParameter, Channel.Time, 
TestParameter, Measurement.Port.Unit, SMU1:HP, SMU2:HP
TestParameter, Measurement.Port.SeriesResistor, NONE, NONE
TestParameter, Measurement.Port.Filter, ON, ON
TestParameter, Measurement.Port.OutputVoltageComparison, 0, 0
TestParameter, Measurement.Primary.Locus, Single
TestParameter, Measurement.Primary.Scale, LINEAR
TestParameter, Measurement.Primary.Start, -5
TestParameter, Measurement.Primary.Stop, 5
TestParameter, Measurement.Primary.Step, 0.1
TestParameter, Measurement.Primary.Compliance, 0.1
TestParameter, Measurement.Primary.PowerCompliance, 0
TestParameter, Measurement.Aborting.Condition, CONTINUE AT ANY
TestParameter, Measurement.PostOutput.Value, START
TestParameter, Measurement.PostOutput.Retention, OFF
TestParameter, Measurement.Bias.Source, -5, 0
TestParameter, Measurement.Bias.Compliance, 0.1, 1
TestParameter, Measurement.Monitor.Unit, SMU1:HP, SMU2:HP
TestParameter, Measurement.Monitor.Adc, HR ADC, HR ADC
TestParameter, Measurement.Monitor.Measurement, Compliance Side, Compliance Side
TestParameter, Measurement.Monitor.RangingMode, AUTO, AUTO
TestParameter, Measurement.Monitor.RangeBoundary, , 
TestParameter, Measurement.Monitor.RangeRating, BY FULL RANGE, BY FULL RANGE
TestParameter, Measurement.Monitor.RangeRatingCoeff, 50, 50
TestParameter, Measurement.Timing.Hold, 0
TestParameter, Measurement.Timing.Delay, 0.001
TestParameter, Measurement.Adc.HighSpeed.Mode, AUTO
TestParameter, Measurement.Adc.HighSpeed.Coeff, 1
TestParameter, Measurement.Adc.HighResolution.AutoZero, OFF
TestParameter, Measurement.Adc.HighResolution.Mode, PLC
TestParameter, Measurement.Adc.HighResolution.Coeff, 1
TestParameter, Measurement.WaitTime.Source.Coeff, 1
TestParameter, Measurement.WaitTime.Source.Offset, 0
TestParameter, Measurement.WaitTime.Monitor.Coeff, 1
TestParameter, Measurement.WaitTime.Monitor.Offset, 0
TestParameter, Function.User.Name, Ohmic
TestParameter, Function.User.Unit, ohm
TestParameter, Function.User.Definition, avg(V1/I1)
TestParameter, Output.Graph.Enabled, true
TestParameter, Output.Graph.XAxis.Data, V1
TestParameter, Output.Graph.XAxis.Scale, Linear
TestParameter, Output.Graph.XAxis.Left, -5
TestParameter, Output.Graph.XAxis.Right, 5
TestParameter, Output.Graph.YAxis.Data, I1
TestParameter, Output.Graph.YAxis.Scale, Linear
TestParameter, Output.Graph.YAxis.Bottom, -0.001
TestParameter, Output.Graph.YAxis.Top, 0.001
TestParameter, Output.Graph.YAxis.Group, 
TestParameter, Output.Scalar.Data, Ohmic
TestParameter, AutoAnalysis.Interpolation, false
TestParameter, AutoAnalysis.Line1.Enabled, false
TestParameter, AutoAnalysis.Line1.Type, 1
TestParameter, AutoAnalysis.Line1.Fix, True
TestParameter, AutoAnalysis.Line1.YAxis, 0
TestParameter, AutoAnalysis.Line1.Point1.Type, 0
TestParameter, AutoAnalysis.Line1.Point1.XY.X, 
TestParameter, AutoAnalysis.Line1.Point1.XY.Y, 
TestParameter, AutoAnalysis.Line1.Point1.Data.Var, 
TestParameter, AutoAnalysis.Line1.Point1.Data.Condition, 
TestParameter, AutoAnalysis.Line1.Point1.Data.Start, false
TestParameter, AutoAnalysis.Line1.Point1.Data.StartVar, 
TestParameter, AutoAnalysis.Line1.Point1.Data.StartCondition, 
TestParameter, AutoAnalysis.Line1.Point2.Type, 0
TestParameter, AutoAnalysis.Line1.Point2.XY.X, 
TestParameter, AutoAnalysis.Line1.Point2.XY.Y, 
TestParameter, AutoAnalysis.Line1.Point2.Data.Var, 
TestParameter, AutoAnalysis.Line1.Point2.Data.Condition, 
TestParameter, AutoAnalysis.Line1.Point2.Data.Start, false
TestParameter, AutoAnalysis.Line1.Point2.Data.StartVar, 
TestParameter, AutoAnalysis.Line1.Point2.Data.StartCondition, 
TestParameter, AutoAnalysis.Line1.GradientExpr, 0
TestParameter, AutoAnalysis.Line2.Enabled, false
TestParameter, AutoAnalysis.Line2.Type, 1
TestParameter, AutoAnalysis.Line2.Fix, True
TestParameter, AutoAnalysis.Line2.YAxis, 0
TestParameter, AutoAnalysis.Line2.Point1.Type, 0
TestParameter, AutoAnalysis.Line2.Point1.XY.X, 
TestParameter, AutoAnalysis.Line2.Point1.XY.Y, 
TestParameter, AutoAnalysis.Line2.Point1.Data.Var, 
TestParameter, AutoAnalysis.Line2.Point1.Data.Condition, 
TestParameter, AutoAnalysis.Line2.Point1.Data.Start, false
TestParameter, AutoAnalysis.Line2.Point1.Data.StartVar, 
TestParameter, AutoAnalysis.Line2.Point1.Data.StartCondition, 
TestParameter, AutoAnalysis.Line2.Point2.Type, 0
TestParameter, AutoAnalysis.Line2.Point2.XY.X, 
TestParameter, AutoAnalysis.Line2.Point2.XY.Y, 
TestParameter, AutoAnalysis.Line2.Point2.Data.Var, 
TestParameter, AutoAnalysis.Line2.Point2.Data.Condition, 
TestParameter, AutoAnalysis.Line2.Point2.Data.Start, false
TestParameter, AutoAnalysis.Line2.Point2.Data.StartVar, 
TestParameter, AutoAnalysis.Line2.Point2.Data.StartCondition, 
TestParameter, AutoAnalysis.Line2.GradientExpr, 0
TestParameter, AutoAnalysis.Marker.Enabled, false
TestParameter, AutoAnalysis.Marker.Data.Var, 
TestParameter, AutoAnalysis.Marker.Data.Condition, 
TestParameter, AutoAnalysis.Marker.Data.Start, false
TestParameter, AutoAnalysis.Marker.Data.StartVar, 
TestParameter, AutoAnalysis.Marker.Data.StartCondition, 
MetaData, TestRecord.EntryPoint, true
MetaData, TestRecord.RecordTime, 09/11/2020 16:42:55
MetaData, TestRecord.TestTarget, 
MetaData, TestRecord.IterationIndex, 54
MetaData, TestRecord.Preservation, true
MetaData, TestRecord.Flag, 
MetaData, TestRecord.Remarks, 
MetaData, TestRecord.LinkKey, aed0b3d7-4f7f-4625-acb0-175d4ff66bfe
Dimension1, 101, 101, 101
Dimension2, 1, 1, 1
DataName, V1, I1, Ohmic
DataValue, -5, -4.123E-09, 516274117.63626695
DataValue, -4.9, -4.0451999999999992E-09, 
DataValue, -4.8, -3.9936999999999996E-09, 
DataValue, -4.7, -3.9398E-09, 
DataValue, -4.6000000000000005, -3.9673E-09, 
DataValue, -4.5, -3.8608E-09, 
DataValue, -4.4, -3.8318999999999996E-09, 
DataValue, -4.3, -3.7854E-09, 
DataValue, -4.2, -3.7333999999999995E-09, 
DataValue, -4.1, -3.7141E-09, 
DataValue, -4, -3.6531999999999998E-09, 
DataValue, -3.9, -3.6242999999999996E-09, 
DataValue, -3.8000000000000003, -3.5613999999999997E-09, 
DataValue, -3.7, -3.5632999999999995E-09, 
DataValue, -3.6, -3.4855999999999996E-09, 
DataValue, -3.5, -3.4029999999999995E-09, 
DataValue, -3.4, -3.435E-09, 
DataValue, -3.3000000000000003, -3.3429999999999997E-09, 
DataValue, -3.2, -3.3559999999999996E-09, 
DataValue, -3.1, -3.299E-09, 
DataValue, -3, -3.2628999999999996E-09, 
DataValue, -2.9, -3.2071E-09, 
DataValue, -2.8000000000000003, -3.1849999999999997E-09, 
DataValue, -2.7, -3.1426E-09, 
DataValue, -2.6, -3.1176999999999997E-09, 
DataValue, -2.5, -3.024E-09, 
DataValue, -2.4, -3.0984999999999996E-09, 
DataValue, -2.3000000000000003, -2.9923999999999997E-09, 
DataValue, -2.2, -2.9960999999999996E-09, 
DataValue, -2.1, -2.9143999999999998E-09, 
DataValue, -2, -2.8799999999999996E-09, 
DataValue, -1.9000000000000001, -2.8211999999999997E-09, 
DataValue, -1.8, -2.7738999999999997E-09, 
DataValue, -1.7, -2.7866E-09, 
DataValue, -1.6, -2.7072E-09, 
DataValue, -1.5, -2.6889999999999997E-09, 
DataValue, -1.4000000000000001, -2.6252999999999996E-09, 
DataValue, -1.3, -2.5510999999999996E-09, 
DataValue, -1.2, -2.5225E-09, 
DataValue, -1.1, -2.4895999999999998E-09, 
DataValue, -1, -2.4709E-09, 
DataValue, -0.9, -2.3536E-09, 
DataValue, -0.8, -2.3501999999999996E-09, 
DataValue, -0.70000000000000007, -2.3322E-09, 
DataValue, -0.6, -2.1729E-09, 
DataValue, -0.5, -2.2316999999999996E-09, 
DataValue, -0.4, -2.1231E-09, 
DataValue, -0.3, -2.068E-09, 
DataValue, -0.2, -1.7702999999999998E-09, 
DataValue, -0.1, -4.5589999999999995E-10, 
DataValue, 0, 3.0109999999999996E-09, 
DataValue, 0.1, 5.7151999999999995E-09, 
DataValue, 0.2, 6.5844E-09, 
DataValue, 0.3, 6.7767999999999992E-09, 
DataValue, 0.4, 6.8441999999999992E-09, 
DataValue, 0.5, 6.9240999999999993E-09, 
DataValue, 0.6, 7.0013999999999994E-09, 
DataValue, 0.70000000000000007, 7.0586999999999992E-09, 
DataValue, 0.8, 7.1488999999999996E-09, 
DataValue, 0.9, 7.1348999999999994E-09, 
DataValue, 1, 7.1689999999999995E-09, 
DataValue, 1.1, 7.2661999999999996E-09, 
DataValue, 1.2, 7.3065999999999996E-09, 
DataValue, 1.3, 7.3792999999999991E-09, 
DataValue, 1.4000000000000001, 7.4818E-09, 
DataValue, 1.5, 7.5082E-09, 
DataValue, 1.6, 7.6249999999999988E-09, 
DataValue, 1.7, 7.6960999999999987E-09, 
DataValue, 1.8, 7.743099999999999E-09, 
DataValue, 1.9000000000000001, 7.8165E-09, 
DataValue, 2, 8.0177E-09, 
DataValue, 2.1, 8.1346E-09, 
DataValue, 2.2, 8.2088E-09, 
DataValue, 2.3000000000000003, 8.2538999999999986E-09, 
DataValue, 2.4, 8.4946E-09, 
DataValue, 2.5, 8.5651E-09, 
DataValue, 2.6, 8.6594999999999989E-09, 
DataValue, 2.7, 8.7859999999999984E-09, 
DataValue, 2.8000000000000003, 8.8681E-09, 
DataValue, 2.9, 9.0269E-09, 
DataValue, 3, 9.0883E-09, 
DataValue, 3.1, 9.219E-09, 
DataValue, 3.2, 9.2659E-09, 
DataValue, 3.3000000000000003, 9.3783E-09, 
DataValue, 3.4, 9.5230999999999991E-09, 
DataValue, 3.5, 9.6063E-09, 
DataValue, 3.6, 9.725E-09, 
DataValue, 3.7, 9.7738E-09, 
DataValue, 3.8000000000000003, 9.7814999999999989E-09, 
DataValue, 3.9, 9.9604999999999984E-09, 
DataValue, 4, 1.0088699999999999E-08, 
DataValue, 4.1, 1.0183899999999998E-08, 
DataValue, 4.2, 1.0320999999999999E-08, 
DataValue, 4.3, 1.0304199999999998E-08, 
DataValue, 4.4, 1.05185E-08, 
DataValue, 4.5, 1.0550099999999999E-08, 
DataValue, 4.6000000000000005, 1.0669899999999999E-08, 
DataValue, 4.7, 1.08831E-08, 
DataValue, 4.8, 1.0918599999999998E-08, 
DataValue, 4.9, 1.0917999999999999E-08, 
DataValue, 5, 1.1067599999999999E-08, 