
SetupTitle, WW
PrimitiveTest, I/V Sweep
TestParameter, Context.MainFrame, B1500A
TestParameter, Channel.UnitType, SMU, SMU
TestParameter, Channel.Unit, SMU1:HP, SMU2:HP
TestParameter, Channel.IName, I1, I4
TestParameter, Channel.VName, V1, V4
TestParameter, Channel.Mode, V, COMMON
TestParameter, Channel.Func, VAR1, CONST
TestParameter, Channel.Index, 
TestParameter, Channel.Time, 
TestParameter, Measurement.Port.Unit, SMU1:HP, SMU2:HP
TestParameter, Measurement.Port.SeriesResistor, NONE, NONE
TestParameter, Measurement.Port.Filter, ON, ON
TestParameter, Measurement.Port.OutputVoltageComparison, 0, 0
TestParameter, Measurement.Primary.Locus, Single
TestParameter, Measurement.Primary.Scale, LINEAR
TestParameter, Measurement.Primary.Start, -5
TestParameter, Measurement.Primary.Stop, 5
TestParameter, Measurement.Primary.Step, 0.1
TestParameter, Measurement.Primary.Compliance, 0.1
TestParameter, Measurement.Primary.PowerCompliance, 0
TestParameter, Measurement.Aborting.Condition, CONTINUE AT ANY
TestParameter, Measurement.PostOutput.Value, START
TestParameter, Measurement.PostOutput.Retention, OFF
TestParameter, Measurement.Bias.Source, -5, 0
TestParameter, Measurement.Bias.Compliance, 0.1, 1
TestParameter, Measurement.Monitor.Unit, SMU1:HP, SMU2:HP
TestParameter, Measurement.Monitor.Adc, HR ADC, HR ADC
TestParameter, Measurement.Monitor.Measurement, Compliance Side, Compliance Side
TestParameter, Measurement.Monitor.RangingMode, AUTO, AUTO
TestParameter, Measurement.Monitor.RangeBoundary, , 
TestParameter, Measurement.Monitor.RangeRating, BY FULL RANGE, BY FULL RANGE
TestParameter, Measurement.Monitor.RangeRatingCoeff, 50, 50
TestParameter, Measurement.Timing.Hold, 0
TestParameter, Measurement.Timing.Delay, 0.001
TestParameter, Measurement.Adc.HighSpeed.Mode, AUTO
TestParameter, Measurement.Adc.HighSpeed.Coeff, 1
TestParameter, Measurement.Adc.HighResolution.AutoZero, OFF
TestParameter, Measurement.Adc.HighResolution.Mode, PLC
TestParameter, Measurement.Adc.HighResolution.Coeff, 1
TestParameter, Measurement.WaitTime.Source.Coeff, 1
TestParameter, Measurement.WaitTime.Source.Offset, 0
TestParameter, Measurement.WaitTime.Monitor.Coeff, 1
TestParameter, Measurement.WaitTime.Monitor.Offset, 0
TestParameter, Function.User.Name, Ohmic
TestParameter, Function.User.Unit, ohm
TestParameter, Function.User.Definition, avg(V1/I1)
TestParameter, Output.Graph.Enabled, true
TestParameter, Output.Graph.XAxis.Data, V1
TestParameter, Output.Graph.XAxis.Scale, Linear
TestParameter, Output.Graph.XAxis.Left, -5
TestParameter, Output.Graph.XAxis.Right, 5
TestParameter, Output.Graph.YAxis.Data, I1
TestParameter, Output.Graph.YAxis.Scale, Linear
TestParameter, Output.Graph.YAxis.Bottom, -0.001
TestParameter, Output.Graph.YAxis.Top, 0.001
TestParameter, Output.Graph.YAxis.Group, 
TestParameter, Output.Scalar.Data, Ohmic
TestParameter, AutoAnalysis.Interpolation, false
TestParameter, AutoAnalysis.Line1.Enabled, false
TestParameter, AutoAnalysis.Line1.Type, 1
TestParameter, AutoAnalysis.Line1.Fix, True
TestParameter, AutoAnalysis.Line1.YAxis, 0
TestParameter, AutoAnalysis.Line1.Point1.Type, 0
TestParameter, AutoAnalysis.Line1.Point1.XY.X, 
TestParameter, AutoAnalysis.Line1.Point1.XY.Y, 
TestParameter, AutoAnalysis.Line1.Point1.Data.Var, 
TestParameter, AutoAnalysis.Line1.Point1.Data.Condition, 
TestParameter, AutoAnalysis.Line1.Point1.Data.Start, false
TestParameter, AutoAnalysis.Line1.Point1.Data.StartVar, 
TestParameter, AutoAnalysis.Line1.Point1.Data.StartCondition, 
TestParameter, AutoAnalysis.Line1.Point2.Type, 0
TestParameter, AutoAnalysis.Line1.Point2.XY.X, 
TestParameter, AutoAnalysis.Line1.Point2.XY.Y, 
TestParameter, AutoAnalysis.Line1.Point2.Data.Var, 
TestParameter, AutoAnalysis.Line1.Point2.Data.Condition, 
TestParameter, AutoAnalysis.Line1.Point2.Data.Start, false
TestParameter, AutoAnalysis.Line1.Point2.Data.StartVar, 
TestParameter, AutoAnalysis.Line1.Point2.Data.StartCondition, 
TestParameter, AutoAnalysis.Line1.GradientExpr, 0
TestParameter, AutoAnalysis.Line2.Enabled, false
TestParameter, AutoAnalysis.Line2.Type, 1
TestParameter, AutoAnalysis.Line2.Fix, True
TestParameter, AutoAnalysis.Line2.YAxis, 0
TestParameter, AutoAnalysis.Line2.Point1.Type, 0
TestParameter, AutoAnalysis.Line2.Point1.XY.X, 
TestParameter, AutoAnalysis.Line2.Point1.XY.Y, 
TestParameter, AutoAnalysis.Line2.Point1.Data.Var, 
TestParameter, AutoAnalysis.Line2.Point1.Data.Condition, 
TestParameter, AutoAnalysis.Line2.Point1.Data.Start, false
TestParameter, AutoAnalysis.Line2.Point1.Data.StartVar, 
TestParameter, AutoAnalysis.Line2.Point1.Data.StartCondition, 
TestParameter, AutoAnalysis.Line2.Point2.Type, 0
TestParameter, AutoAnalysis.Line2.Point2.XY.X, 
TestParameter, AutoAnalysis.Line2.Point2.XY.Y, 
TestParameter, AutoAnalysis.Line2.Point2.Data.Var, 
TestParameter, AutoAnalysis.Line2.Point2.Data.Condition, 
TestParameter, AutoAnalysis.Line2.Point2.Data.Start, false
TestParameter, AutoAnalysis.Line2.Point2.Data.StartVar, 
TestParameter, AutoAnalysis.Line2.Point2.Data.StartCondition, 
TestParameter, AutoAnalysis.Line2.GradientExpr, 0
TestParameter, AutoAnalysis.Marker.Enabled, false
TestParameter, AutoAnalysis.Marker.Data.Var, 
TestParameter, AutoAnalysis.Marker.Data.Condition, 
TestParameter, AutoAnalysis.Marker.Data.Start, false
TestParameter, AutoAnalysis.Marker.Data.StartVar, 
TestParameter, AutoAnalysis.Marker.Data.StartCondition, 
MetaData, TestRecord.EntryPoint, true
MetaData, TestRecord.RecordTime, 09/11/2020 16:42:25
MetaData, TestRecord.TestTarget, 
MetaData, TestRecord.IterationIndex, 53
MetaData, TestRecord.Preservation, true
MetaData, TestRecord.Flag, 
MetaData, TestRecord.Remarks, 
MetaData, TestRecord.LinkKey, 35aa20b5-fd1a-4f80-b8af-3e4fcebbf768
Dimension1, 101, 101, 101
Dimension2, 1, 1, 1
DataName, V1, I1, Ohmic
DataValue, -5, -3.9189E-09, 529379560.88501382
DataValue, -4.9, -3.8664E-09, 
DataValue, -4.8, -3.8012E-09, 
DataValue, -4.7, -3.7860999999999996E-09, 
DataValue, -4.6000000000000005, -3.7090999999999995E-09, 
DataValue, -4.5, -3.7224999999999995E-09, 
DataValue, -4.4, -3.6568999999999996E-09, 
DataValue, -4.3, -3.6260999999999997E-09, 
DataValue, -4.2, -3.5915999999999995E-09, 
DataValue, -4.1, -3.5640999999999997E-09, 
DataValue, -4, -3.5106999999999995E-09, 
DataValue, -3.9, -3.5029999999999996E-09, 
DataValue, -3.8000000000000003, -3.4249999999999996E-09, 
DataValue, -3.7, -3.4799999999999996E-09, 
DataValue, -3.6, -3.3835999999999998E-09, 
DataValue, -3.5, -3.3745E-09, 
DataValue, -3.4, -3.2590999999999996E-09, 
DataValue, -3.3000000000000003, -3.2651E-09, 
DataValue, -3.2, -3.2241999999999997E-09, 
DataValue, -3.1, -3.1820999999999996E-09, 
DataValue, -3, -3.2426999999999996E-09, 
DataValue, -2.9, -3.1241999999999996E-09, 
DataValue, -2.8000000000000003, -3.0979E-09, 
DataValue, -2.7, -3.0845E-09, 
DataValue, -2.6, -3.0446999999999996E-09, 
DataValue, -2.5, -2.9862E-09, 
DataValue, -2.4, -2.959E-09, 
DataValue, -2.3000000000000003, -2.9179999999999996E-09, 
DataValue, -2.2, -2.8920999999999996E-09, 
DataValue, -2.1, -2.8171999999999997E-09, 
DataValue, -2, -2.8031999999999996E-09, 
DataValue, -1.9000000000000001, -2.7824E-09, 
DataValue, -1.8, -2.7065999999999997E-09, 
DataValue, -1.7, -2.6624E-09, 
DataValue, -1.6, -2.6471999999999997E-09, 
DataValue, -1.5, -2.5785999999999998E-09, 
DataValue, -1.4000000000000001, -2.5556999999999998E-09, 
DataValue, -1.3, -2.4741E-09, 
DataValue, -1.2, -2.4424999999999998E-09, 
DataValue, -1.1, -2.4044999999999997E-09, 
DataValue, -1, -2.3539E-09, 
DataValue, -0.9, -2.3596999999999996E-09, 
DataValue, -0.8, -2.2736999999999997E-09, 
DataValue, -0.70000000000000007, -2.2085E-09, 
DataValue, -0.6, -2.184E-09, 
DataValue, -0.5, -2.1194E-09, 
DataValue, -0.4, -2.03E-09, 
DataValue, -0.3, -2.0036E-09, 
DataValue, -0.2, -1.6928999999999998E-09, 
DataValue, -0.1, -3.635E-10, 
DataValue, 0, 3.0671999999999995E-09, 
DataValue, 0.1, 5.6756E-09, 
DataValue, 0.2, 6.6542E-09, 
DataValue, 0.3, 6.9652999999999995E-09, 
DataValue, 0.4, 7.0517999999999992E-09, 
DataValue, 0.5, 7.0815999999999992E-09, 
DataValue, 0.6, 7.1813999999999992E-09, 
DataValue, 0.70000000000000007, 7.1776999999999993E-09, 
DataValue, 0.8, 7.2741999999999996E-09, 
DataValue, 0.9, 7.3783999999999993E-09, 
DataValue, 1, 7.3392999999999993E-09, 
DataValue, 1.1, 7.393599999999999E-09, 
DataValue, 1.2, 7.4867E-09, 
DataValue, 1.3, 7.5433999999999986E-09, 
DataValue, 1.4000000000000001, 7.5817999999999988E-09, 
DataValue, 1.5, 7.6751999999999985E-09, 
DataValue, 1.6, 7.732299999999999E-09, 
DataValue, 1.7, 7.7776999999999989E-09, 
DataValue, 1.8, 7.8926999999999986E-09, 
DataValue, 1.9000000000000001, 7.9667999999999986E-09, 
DataValue, 2, 8.0527E-09, 
DataValue, 2.1, 8.1113999999999991E-09, 
DataValue, 2.2, 8.2176E-09, 
DataValue, 2.3000000000000003, 8.3819999999999986E-09, 
DataValue, 2.4, 8.4154E-09, 
DataValue, 2.5, 8.5346E-09, 
DataValue, 2.6, 8.644999999999999E-09, 
DataValue, 2.7, 8.7518999999999991E-09, 
DataValue, 2.8000000000000003, 8.8858999999999989E-09, 
DataValue, 2.9, 8.9787E-09, 
DataValue, 3, 9.099E-09, 
DataValue, 3.1, 9.238199999999999E-09, 
DataValue, 3.2, 9.264E-09, 
DataValue, 3.3000000000000003, 9.4193E-09, 
DataValue, 3.4, 9.5448999999999983E-09, 
DataValue, 3.5, 9.6074999999999985E-09, 
DataValue, 3.6, 9.6429999999999991E-09, 
DataValue, 3.7, 9.7645999999999983E-09, 
DataValue, 3.8000000000000003, 9.9529E-09, 
DataValue, 3.9, 1.0045799999999999E-08, 
DataValue, 4, 1.0083799999999999E-08, 
DataValue, 4.1, 1.0176199999999999E-08, 
DataValue, 4.2, 1.03405E-08, 
DataValue, 4.3, 1.04594E-08, 
DataValue, 4.4, 1.05603E-08, 
DataValue, 4.5, 1.06061E-08, 
DataValue, 4.6000000000000005, 1.06839E-08, 
DataValue, 4.7, 1.0742499999999998E-08, 
DataValue, 4.8, 1.09293E-08, 
DataValue, 4.9, 1.11389E-08, 
DataValue, 5, 1.1170299999999998E-08, 