
SetupTitle, WW
PrimitiveTest, I/V Sweep
TestParameter, Context.MainFrame, B1500A
TestParameter, Channel.UnitType, SMU, SMU
TestParameter, Channel.Unit, SMU1:HP, SMU2:HP
TestParameter, Channel.IName, I1, I4
TestParameter, Channel.VName, V1, V4
TestParameter, Channel.Mode, V, COMMON
TestParameter, Channel.Func, VAR1, CONST
TestParameter, Channel.Index, 
TestParameter, Channel.Time, 
TestParameter, Measurement.Port.Unit, SMU1:HP, SMU2:HP
TestParameter, Measurement.Port.SeriesResistor, NONE, NONE
TestParameter, Measurement.Port.Filter, ON, ON
TestParameter, Measurement.Port.OutputVoltageComparison, 0, 0
TestParameter, Measurement.Primary.Locus, Single
TestParameter, Measurement.Primary.Scale, LINEAR
TestParameter, Measurement.Primary.Start, -5
TestParameter, Measurement.Primary.Stop, 5
TestParameter, Measurement.Primary.Step, 0.1
TestParameter, Measurement.Primary.Compliance, 0.1
TestParameter, Measurement.Primary.PowerCompliance, 0
TestParameter, Measurement.Aborting.Condition, CONTINUE AT ANY
TestParameter, Measurement.PostOutput.Value, START
TestParameter, Measurement.PostOutput.Retention, OFF
TestParameter, Measurement.Bias.Source, -5, 0
TestParameter, Measurement.Bias.Compliance, 0.1, 1
TestParameter, Measurement.Monitor.Unit, SMU1:HP, SMU2:HP
TestParameter, Measurement.Monitor.Adc, HR ADC, HR ADC
TestParameter, Measurement.Monitor.Measurement, Compliance Side, Compliance Side
TestParameter, Measurement.Monitor.RangingMode, AUTO, AUTO
TestParameter, Measurement.Monitor.RangeBoundary, , 
TestParameter, Measurement.Monitor.RangeRating, BY FULL RANGE, BY FULL RANGE
TestParameter, Measurement.Monitor.RangeRatingCoeff, 50, 50
TestParameter, Measurement.Timing.Hold, 0
TestParameter, Measurement.Timing.Delay, 0.001
TestParameter, Measurement.Adc.HighSpeed.Mode, AUTO
TestParameter, Measurement.Adc.HighSpeed.Coeff, 1
TestParameter, Measurement.Adc.HighResolution.AutoZero, OFF
TestParameter, Measurement.Adc.HighResolution.Mode, PLC
TestParameter, Measurement.Adc.HighResolution.Coeff, 1
TestParameter, Measurement.WaitTime.Source.Coeff, 1
TestParameter, Measurement.WaitTime.Source.Offset, 0
TestParameter, Measurement.WaitTime.Monitor.Coeff, 1
TestParameter, Measurement.WaitTime.Monitor.Offset, 0
TestParameter, Function.User.Name, Ohmic
TestParameter, Function.User.Unit, ohm
TestParameter, Function.User.Definition, avg(V1/I1)
TestParameter, Output.Graph.Enabled, true
TestParameter, Output.Graph.XAxis.Data, V1
TestParameter, Output.Graph.XAxis.Scale, Linear
TestParameter, Output.Graph.XAxis.Left, -5
TestParameter, Output.Graph.XAxis.Right, 5
TestParameter, Output.Graph.YAxis.Data, I1
TestParameter, Output.Graph.YAxis.Scale, Linear
TestParameter, Output.Graph.YAxis.Bottom, -0.001
TestParameter, Output.Graph.YAxis.Top, 0.001
TestParameter, Output.Graph.YAxis.Group, 
TestParameter, Output.Scalar.Data, Ohmic
TestParameter, AutoAnalysis.Interpolation, false
TestParameter, AutoAnalysis.Line1.Enabled, false
TestParameter, AutoAnalysis.Line1.Type, 1
TestParameter, AutoAnalysis.Line1.Fix, True
TestParameter, AutoAnalysis.Line1.YAxis, 0
TestParameter, AutoAnalysis.Line1.Point1.Type, 0
TestParameter, AutoAnalysis.Line1.Point1.XY.X, 
TestParameter, AutoAnalysis.Line1.Point1.XY.Y, 
TestParameter, AutoAnalysis.Line1.Point1.Data.Var, 
TestParameter, AutoAnalysis.Line1.Point1.Data.Condition, 
TestParameter, AutoAnalysis.Line1.Point1.Data.Start, false
TestParameter, AutoAnalysis.Line1.Point1.Data.StartVar, 
TestParameter, AutoAnalysis.Line1.Point1.Data.StartCondition, 
TestParameter, AutoAnalysis.Line1.Point2.Type, 0
TestParameter, AutoAnalysis.Line1.Point2.XY.X, 
TestParameter, AutoAnalysis.Line1.Point2.XY.Y, 
TestParameter, AutoAnalysis.Line1.Point2.Data.Var, 
TestParameter, AutoAnalysis.Line1.Point2.Data.Condition, 
TestParameter, AutoAnalysis.Line1.Point2.Data.Start, false
TestParameter, AutoAnalysis.Line1.Point2.Data.StartVar, 
TestParameter, AutoAnalysis.Line1.Point2.Data.StartCondition, 
TestParameter, AutoAnalysis.Line1.GradientExpr, 0
TestParameter, AutoAnalysis.Line2.Enabled, false
TestParameter, AutoAnalysis.Line2.Type, 1
TestParameter, AutoAnalysis.Line2.Fix, True
TestParameter, AutoAnalysis.Line2.YAxis, 0
TestParameter, AutoAnalysis.Line2.Point1.Type, 0
TestParameter, AutoAnalysis.Line2.Point1.XY.X, 
TestParameter, AutoAnalysis.Line2.Point1.XY.Y, 
TestParameter, AutoAnalysis.Line2.Point1.Data.Var, 
TestParameter, AutoAnalysis.Line2.Point1.Data.Condition, 
TestParameter, AutoAnalysis.Line2.Point1.Data.Start, false
TestParameter, AutoAnalysis.Line2.Point1.Data.StartVar, 
TestParameter, AutoAnalysis.Line2.Point1.Data.StartCondition, 
TestParameter, AutoAnalysis.Line2.Point2.Type, 0
TestParameter, AutoAnalysis.Line2.Point2.XY.X, 
TestParameter, AutoAnalysis.Line2.Point2.XY.Y, 
TestParameter, AutoAnalysis.Line2.Point2.Data.Var, 
TestParameter, AutoAnalysis.Line2.Point2.Data.Condition, 
TestParameter, AutoAnalysis.Line2.Point2.Data.Start, false
TestParameter, AutoAnalysis.Line2.Point2.Data.StartVar, 
TestParameter, AutoAnalysis.Line2.Point2.Data.StartCondition, 
TestParameter, AutoAnalysis.Line2.GradientExpr, 0
TestParameter, AutoAnalysis.Marker.Enabled, false
TestParameter, AutoAnalysis.Marker.Data.Var, 
TestParameter, AutoAnalysis.Marker.Data.Condition, 
TestParameter, AutoAnalysis.Marker.Data.Start, false
TestParameter, AutoAnalysis.Marker.Data.StartVar, 
TestParameter, AutoAnalysis.Marker.Data.StartCondition, 
MetaData, TestRecord.EntryPoint, true
MetaData, TestRecord.RecordTime, 09/11/2020 16:41:12
MetaData, TestRecord.TestTarget, 
MetaData, TestRecord.IterationIndex, 51
MetaData, TestRecord.Preservation, true
MetaData, TestRecord.Flag, 
MetaData, TestRecord.Remarks, 
MetaData, TestRecord.LinkKey, 918660d8-a011-4ff6-a703-2768428769f9
Dimension1, 101, 101, 101
Dimension2, 1, 1, 1
DataName, V1, I1, Ohmic
DataValue, -5, -4.435E-09, 472075340.2571134
DataValue, -4.9, -4.4181E-09, 
DataValue, -4.8, -4.3479999999999995E-09, 
DataValue, -4.7, -4.3587999999999995E-09, 
DataValue, -4.6000000000000005, -4.2918E-09, 
DataValue, -4.5, -4.2213999999999995E-09, 
DataValue, -4.4, -4.2008999999999994E-09, 
DataValue, -4.3, -4.1770999999999996E-09, 
DataValue, -4.2, -4.1544999999999993E-09, 
DataValue, -4.1, -4.1820999999999994E-09, 
DataValue, -4, -4.1569E-09, 
DataValue, -3.9, -4.0703E-09, 
DataValue, -3.8000000000000003, -4.0634E-09, 
DataValue, -3.7, -3.9805999999999993E-09, 
DataValue, -3.6, -3.9366E-09, 
DataValue, -3.5, -3.8647E-09, 
DataValue, -3.4, -3.9046E-09, 
DataValue, -3.3000000000000003, -3.8606999999999993E-09, 
DataValue, -3.2, -3.8366999999999994E-09, 
DataValue, -3.1, -3.7642E-09, 
DataValue, -3, -3.7312999999999993E-09, 
DataValue, -2.9, -3.6459999999999996E-09, 
DataValue, -2.8000000000000003, -3.621E-09, 
DataValue, -2.7, -3.5538999999999995E-09, 
DataValue, -2.6, -3.5350999999999995E-09, 
DataValue, -2.5, -3.4863E-09, 
DataValue, -2.4, -3.4078999999999998E-09, 
DataValue, -2.3000000000000003, -3.4284E-09, 
DataValue, -2.2, -3.3458999999999998E-09, 
DataValue, -2.1, -3.3138E-09, 
DataValue, -2, -3.2848999999999997E-09, 
DataValue, -1.9000000000000001, -3.2224999999999996E-09, 
DataValue, -1.8, -3.1871999999999995E-09, 
DataValue, -1.7, -3.1080999999999996E-09, 
DataValue, -1.6, -3.0207999999999997E-09, 
DataValue, -1.5, -3.0014999999999996E-09, 
DataValue, -1.4000000000000001, -2.8477999999999996E-09, 
DataValue, -1.3, -2.8910999999999997E-09, 
DataValue, -1.2, -2.8334999999999998E-09, 
DataValue, -1.1, -2.7455999999999997E-09, 
DataValue, -1, -2.7042E-09, 
DataValue, -0.9, -2.7259E-09, 
DataValue, -0.8, -2.6104999999999996E-09, 
DataValue, -0.70000000000000007, -2.5858E-09, 
DataValue, -0.6, -2.4767E-09, 
DataValue, -0.5, -2.4298999999999996E-09, 
DataValue, -0.4, -2.3986E-09, 
DataValue, -0.3, -2.2366E-09, 
DataValue, -0.2, -1.8990999999999998E-09, 
DataValue, -0.1, -4.6499999999999995E-10, 
DataValue, 0, 2.8920999999999996E-09, 
DataValue, 0.1, 5.5924999999999995E-09, 
DataValue, 0.2, 6.5012999999999995E-09, 
DataValue, 0.3, 6.7921999999999989E-09, 
DataValue, 0.4, 6.8942E-09, 
DataValue, 0.5, 7.0130999999999993E-09, 
DataValue, 0.6, 7.0493E-09, 
DataValue, 0.70000000000000007, 7.1286999999999992E-09, 
DataValue, 0.8, 7.2361999999999995E-09, 
DataValue, 0.9, 7.2068999999999992E-09, 
DataValue, 1, 7.2950999999999989E-09, 
DataValue, 1.1, 7.2847999999999995E-09, 
DataValue, 1.2, 7.3608E-09, 
DataValue, 1.3, 7.424899999999999E-09, 
DataValue, 1.4000000000000001, 7.5455E-09, 
DataValue, 1.5, 7.672699999999999E-09, 
DataValue, 1.6, 7.744E-09, 
DataValue, 1.7, 7.850699999999999E-09, 
DataValue, 1.8, 7.941199999999999E-09, 
DataValue, 1.9000000000000001, 8.0553E-09, 
DataValue, 2, 8.1509E-09, 
DataValue, 2.1, 8.2304999999999988E-09, 
DataValue, 2.2, 8.2977E-09, 
DataValue, 2.3000000000000003, 8.5707E-09, 
DataValue, 2.4, 8.615199999999999E-09, 
DataValue, 2.5, 8.7479E-09, 
DataValue, 2.6, 8.8399999999999984E-09, 
DataValue, 2.7, 8.9703999999999987E-09, 
DataValue, 2.8000000000000003, 9.0924E-09, 
DataValue, 2.9, 9.2651E-09, 
DataValue, 3, 9.3452E-09, 
DataValue, 3.1, 9.4651999999999983E-09, 
DataValue, 3.2, 9.5837999999999991E-09, 
DataValue, 3.3000000000000003, 9.7133999999999992E-09, 
DataValue, 3.4, 9.7352999999999988E-09, 
DataValue, 3.5, 9.858E-09, 
DataValue, 3.6, 9.9865999999999986E-09, 
DataValue, 3.7, 1.0036199999999999E-08, 
DataValue, 3.8000000000000003, 1.01924E-08, 
DataValue, 3.9, 1.03122E-08, 
DataValue, 4, 1.0468499999999999E-08, 
DataValue, 4.1, 1.0574699999999999E-08, 
DataValue, 4.2, 1.0673399999999999E-08, 
DataValue, 4.3, 1.07498E-08, 
DataValue, 4.4, 1.08448E-08, 
DataValue, 4.5, 1.10176E-08, 
DataValue, 4.6000000000000005, 1.1026599999999998E-08, 
DataValue, 4.7, 1.1185199999999998E-08, 
DataValue, 4.8, 1.1246299999999998E-08, 
DataValue, 4.9, 1.1415499999999999E-08, 
DataValue, 5, 1.14123E-08, 