
SetupTitle, WW
PrimitiveTest, I/V Sweep
TestParameter, Context.MainFrame, B1500A
TestParameter, Channel.UnitType, SMU, SMU
TestParameter, Channel.Unit, SMU1:HP, SMU2:HP
TestParameter, Channel.IName, I1, I4
TestParameter, Channel.VName, V1, V4
TestParameter, Channel.Mode, V, COMMON
TestParameter, Channel.Func, VAR1, CONST
TestParameter, Channel.Index, 
TestParameter, Channel.Time, 
TestParameter, Measurement.Port.Unit, SMU1:HP, SMU2:HP
TestParameter, Measurement.Port.SeriesResistor, NONE, NONE
TestParameter, Measurement.Port.Filter, ON, ON
TestParameter, Measurement.Port.OutputVoltageComparison, 0, 0
TestParameter, Measurement.Primary.Locus, Single
TestParameter, Measurement.Primary.Scale, LINEAR
TestParameter, Measurement.Primary.Start, -5
TestParameter, Measurement.Primary.Stop, 5
TestParameter, Measurement.Primary.Step, 0.1
TestParameter, Measurement.Primary.Compliance, 0.1
TestParameter, Measurement.Primary.PowerCompliance, 0
TestParameter, Measurement.Aborting.Condition, CONTINUE AT ANY
TestParameter, Measurement.PostOutput.Value, START
TestParameter, Measurement.PostOutput.Retention, OFF
TestParameter, Measurement.Bias.Source, -5, 0
TestParameter, Measurement.Bias.Compliance, 0.1, 1
TestParameter, Measurement.Monitor.Unit, SMU1:HP, SMU2:HP
TestParameter, Measurement.Monitor.Adc, HR ADC, HR ADC
TestParameter, Measurement.Monitor.Measurement, Compliance Side, Compliance Side
TestParameter, Measurement.Monitor.RangingMode, AUTO, AUTO
TestParameter, Measurement.Monitor.RangeBoundary, , 
TestParameter, Measurement.Monitor.RangeRating, BY FULL RANGE, BY FULL RANGE
TestParameter, Measurement.Monitor.RangeRatingCoeff, 50, 50
TestParameter, Measurement.Timing.Hold, 0
TestParameter, Measurement.Timing.Delay, 0.001
TestParameter, Measurement.Adc.HighSpeed.Mode, AUTO
TestParameter, Measurement.Adc.HighSpeed.Coeff, 1
TestParameter, Measurement.Adc.HighResolution.AutoZero, OFF
TestParameter, Measurement.Adc.HighResolution.Mode, PLC
TestParameter, Measurement.Adc.HighResolution.Coeff, 1
TestParameter, Measurement.WaitTime.Source.Coeff, 1
TestParameter, Measurement.WaitTime.Source.Offset, 0
TestParameter, Measurement.WaitTime.Monitor.Coeff, 1
TestParameter, Measurement.WaitTime.Monitor.Offset, 0
TestParameter, Function.User.Name, Ohmic
TestParameter, Function.User.Unit, ohm
TestParameter, Function.User.Definition, avg(V1/I1)
TestParameter, Output.Graph.Enabled, true
TestParameter, Output.Graph.XAxis.Data, V1
TestParameter, Output.Graph.XAxis.Scale, Linear
TestParameter, Output.Graph.XAxis.Left, -5
TestParameter, Output.Graph.XAxis.Right, 5
TestParameter, Output.Graph.YAxis.Data, I1
TestParameter, Output.Graph.YAxis.Scale, Linear
TestParameter, Output.Graph.YAxis.Bottom, -0.001
TestParameter, Output.Graph.YAxis.Top, 0.001
TestParameter, Output.Graph.YAxis.Group, 
TestParameter, Output.Scalar.Data, Ohmic
TestParameter, AutoAnalysis.Interpolation, false
TestParameter, AutoAnalysis.Line1.Enabled, false
TestParameter, AutoAnalysis.Line1.Type, 1
TestParameter, AutoAnalysis.Line1.Fix, True
TestParameter, AutoAnalysis.Line1.YAxis, 0
TestParameter, AutoAnalysis.Line1.Point1.Type, 0
TestParameter, AutoAnalysis.Line1.Point1.XY.X, 
TestParameter, AutoAnalysis.Line1.Point1.XY.Y, 
TestParameter, AutoAnalysis.Line1.Point1.Data.Var, 
TestParameter, AutoAnalysis.Line1.Point1.Data.Condition, 
TestParameter, AutoAnalysis.Line1.Point1.Data.Start, false
TestParameter, AutoAnalysis.Line1.Point1.Data.StartVar, 
TestParameter, AutoAnalysis.Line1.Point1.Data.StartCondition, 
TestParameter, AutoAnalysis.Line1.Point2.Type, 0
TestParameter, AutoAnalysis.Line1.Point2.XY.X, 
TestParameter, AutoAnalysis.Line1.Point2.XY.Y, 
TestParameter, AutoAnalysis.Line1.Point2.Data.Var, 
TestParameter, AutoAnalysis.Line1.Point2.Data.Condition, 
TestParameter, AutoAnalysis.Line1.Point2.Data.Start, false
TestParameter, AutoAnalysis.Line1.Point2.Data.StartVar, 
TestParameter, AutoAnalysis.Line1.Point2.Data.StartCondition, 
TestParameter, AutoAnalysis.Line1.GradientExpr, 0
TestParameter, AutoAnalysis.Line2.Enabled, false
TestParameter, AutoAnalysis.Line2.Type, 1
TestParameter, AutoAnalysis.Line2.Fix, True
TestParameter, AutoAnalysis.Line2.YAxis, 0
TestParameter, AutoAnalysis.Line2.Point1.Type, 0
TestParameter, AutoAnalysis.Line2.Point1.XY.X, 
TestParameter, AutoAnalysis.Line2.Point1.XY.Y, 
TestParameter, AutoAnalysis.Line2.Point1.Data.Var, 
TestParameter, AutoAnalysis.Line2.Point1.Data.Condition, 
TestParameter, AutoAnalysis.Line2.Point1.Data.Start, false
TestParameter, AutoAnalysis.Line2.Point1.Data.StartVar, 
TestParameter, AutoAnalysis.Line2.Point1.Data.StartCondition, 
TestParameter, AutoAnalysis.Line2.Point2.Type, 0
TestParameter, AutoAnalysis.Line2.Point2.XY.X, 
TestParameter, AutoAnalysis.Line2.Point2.XY.Y, 
TestParameter, AutoAnalysis.Line2.Point2.Data.Var, 
TestParameter, AutoAnalysis.Line2.Point2.Data.Condition, 
TestParameter, AutoAnalysis.Line2.Point2.Data.Start, false
TestParameter, AutoAnalysis.Line2.Point2.Data.StartVar, 
TestParameter, AutoAnalysis.Line2.Point2.Data.StartCondition, 
TestParameter, AutoAnalysis.Line2.GradientExpr, 0
TestParameter, AutoAnalysis.Marker.Enabled, false
TestParameter, AutoAnalysis.Marker.Data.Var, 
TestParameter, AutoAnalysis.Marker.Data.Condition, 
TestParameter, AutoAnalysis.Marker.Data.Start, false
TestParameter, AutoAnalysis.Marker.Data.StartVar, 
TestParameter, AutoAnalysis.Marker.Data.StartCondition, 
MetaData, TestRecord.EntryPoint, true
MetaData, TestRecord.RecordTime, 09/11/2020 16:40:45
MetaData, TestRecord.TestTarget, 
MetaData, TestRecord.IterationIndex, 50
MetaData, TestRecord.Preservation, true
MetaData, TestRecord.Flag, 
MetaData, TestRecord.Remarks, 
MetaData, TestRecord.LinkKey, 3a77ce48-2d73-4eea-aeb2-e15d783a575e
Dimension1, 101, 101, 101
Dimension2, 1, 1, 1
DataName, V1, I1, Ohmic
DataValue, -5, -4.9096E-09, 446643918.96941882
DataValue, -4.9, -4.8349999999999991E-09, 
DataValue, -4.8, -4.7860999999999994E-09, 
DataValue, -4.7, -4.7947999999999992E-09, 
DataValue, -4.6000000000000005, -4.7061999999999993E-09, 
DataValue, -4.5, -4.6152999999999991E-09, 
DataValue, -4.4, -4.6439E-09, 
DataValue, -4.3, -4.5451E-09, 
DataValue, -4.2, -4.5445999999999994E-09, 
DataValue, -4.1, -4.4987E-09, 
DataValue, -4, -4.451E-09, 
DataValue, -3.9, -4.3810999999999993E-09, 
DataValue, -3.8000000000000003, -4.3285E-09, 
DataValue, -3.7, -4.2682999999999994E-09, 
DataValue, -3.6, -4.2086999999999993E-09, 
DataValue, -3.5, -4.2483999999999995E-09, 
DataValue, -3.4, -4.1954999999999994E-09, 
DataValue, -3.3000000000000003, -4.1103999999999994E-09, 
DataValue, -3.2, -4.095E-09, 
DataValue, -3.1, -4.0464E-09, 
DataValue, -3, -4.0066E-09, 
DataValue, -2.9, -3.9699999999999993E-09, 
DataValue, -2.8000000000000003, -3.8943E-09, 
DataValue, -2.7, -3.8223E-09, 
DataValue, -2.6, -3.7413999999999995E-09, 
DataValue, -2.5, -3.7132999999999996E-09, 
DataValue, -2.4, -3.6602E-09, 
DataValue, -2.3000000000000003, -3.5814999999999997E-09, 
DataValue, -2.2, -3.5733999999999997E-09, 
DataValue, -2.1, -3.5876999999999995E-09, 
DataValue, -2, -3.5008999999999998E-09, 
DataValue, -1.9000000000000001, -3.4528999999999995E-09, 
DataValue, -1.8, -3.4207999999999996E-09, 
DataValue, -1.7, -3.3264999999999996E-09, 
DataValue, -1.6, -3.3367E-09, 
DataValue, -1.5, -3.2424999999999995E-09, 
DataValue, -1.4000000000000001, -3.1954999999999996E-09, 
DataValue, -1.3, -3.1565999999999996E-09, 
DataValue, -1.2, -3.0716999999999996E-09, 
DataValue, -1.1, -3.0493E-09, 
DataValue, -1, -2.9687E-09, 
DataValue, -0.9, -2.9186E-09, 
DataValue, -0.8, -2.8852E-09, 
DataValue, -0.70000000000000007, -2.7921E-09, 
DataValue, -0.6, -2.6965E-09, 
DataValue, -0.5, -2.6283999999999997E-09, 
DataValue, -0.4, -2.5919999999999997E-09, 
DataValue, -0.3, -2.4632E-09, 
DataValue, -0.2, -2.0689999999999998E-09, 
DataValue, -0.1, -7.2579999999999991E-10, 
DataValue, 0, 2.7722999999999996E-09, 
DataValue, 0.1, 5.4129E-09, 
DataValue, 0.2, 6.4204999999999995E-09, 
DataValue, 0.3, 6.7509999999999995E-09, 
DataValue, 0.4, 6.8046999999999991E-09, 
DataValue, 0.5, 6.8715999999999993E-09, 
DataValue, 0.6, 6.9437999999999991E-09, 
DataValue, 0.70000000000000007, 6.9884999999999992E-09, 
DataValue, 0.8, 7.013E-09, 
DataValue, 0.9, 7.1573999999999993E-09, 
DataValue, 1, 7.1765999999999994E-09, 
DataValue, 1.1, 7.2006999999999989E-09, 
DataValue, 1.2, 7.3227999999999996E-09, 
DataValue, 1.3, 7.3569999999999993E-09, 
DataValue, 1.4000000000000001, 7.478E-09, 
DataValue, 1.5, 7.6312E-09, 
DataValue, 1.6, 7.6357999999999988E-09, 
DataValue, 1.7, 7.7705999999999988E-09, 
DataValue, 1.8, 7.9484E-09, 
DataValue, 1.9000000000000001, 8.04E-09, 
DataValue, 2, 8.1485999999999989E-09, 
DataValue, 2.1, 8.2307999999999985E-09, 
DataValue, 2.2, 8.3800999999999984E-09, 
DataValue, 2.3000000000000003, 8.4255999999999987E-09, 
DataValue, 2.4, 8.5702E-09, 
DataValue, 2.5, 8.673299999999999E-09, 
DataValue, 2.6, 8.8407999999999987E-09, 
DataValue, 2.7, 8.9624E-09, 
DataValue, 2.8000000000000003, 8.9483999999999986E-09, 
DataValue, 2.9, 9.1401999999999987E-09, 
DataValue, 3, 9.3125E-09, 
DataValue, 3.1, 9.448E-09, 
DataValue, 3.2, 9.4647E-09, 
DataValue, 3.3000000000000003, 9.5407999999999983E-09, 
DataValue, 3.4, 9.6915999999999983E-09, 
DataValue, 3.5, 9.7287E-09, 
DataValue, 3.6, 9.9201E-09, 
DataValue, 3.7, 1.00851E-08, 
DataValue, 3.8000000000000003, 1.0124499999999999E-08, 
DataValue, 3.9, 1.0246E-08, 
DataValue, 4, 1.0394299999999998E-08, 
DataValue, 4.1, 1.0453499999999998E-08, 
DataValue, 4.2, 1.05797E-08, 
DataValue, 4.3, 1.0642799999999999E-08, 
DataValue, 4.4, 1.0727399999999999E-08, 
DataValue, 4.5, 1.0836099999999999E-08, 
DataValue, 4.6000000000000005, 1.0941799999999999E-08, 
DataValue, 4.7, 1.1041E-08, 
DataValue, 4.8, 1.12156E-08, 
DataValue, 4.9, 1.1350999999999999E-08, 
DataValue, 5, 1.1333399999999998E-08, 