
SetupTitle, WW
PrimitiveTest, I/V Sweep
TestParameter, Context.MainFrame, B1500A
TestParameter, Channel.UnitType, SMU, SMU
TestParameter, Channel.Unit, SMU1:HP, SMU2:HP
TestParameter, Channel.IName, I1, I4
TestParameter, Channel.VName, V1, V4
TestParameter, Channel.Mode, V, COMMON
TestParameter, Channel.Func, VAR1, CONST
TestParameter, Channel.Index, 
TestParameter, Channel.Time, 
TestParameter, Measurement.Port.Unit, SMU1:HP, SMU2:HP
TestParameter, Measurement.Port.SeriesResistor, NONE, NONE
TestParameter, Measurement.Port.Filter, ON, ON
TestParameter, Measurement.Port.OutputVoltageComparison, 0, 0
TestParameter, Measurement.Primary.Locus, Single
TestParameter, Measurement.Primary.Scale, LINEAR
TestParameter, Measurement.Primary.Start, -5
TestParameter, Measurement.Primary.Stop, 5
TestParameter, Measurement.Primary.Step, 0.1
TestParameter, Measurement.Primary.Compliance, 0.1
TestParameter, Measurement.Primary.PowerCompliance, 0
TestParameter, Measurement.Aborting.Condition, CONTINUE AT ANY
TestParameter, Measurement.PostOutput.Value, START
TestParameter, Measurement.PostOutput.Retention, OFF
TestParameter, Measurement.Bias.Source, -5, 0
TestParameter, Measurement.Bias.Compliance, 0.1, 1
TestParameter, Measurement.Monitor.Unit, SMU1:HP, SMU2:HP
TestParameter, Measurement.Monitor.Adc, HR ADC, HR ADC
TestParameter, Measurement.Monitor.Measurement, Compliance Side, Compliance Side
TestParameter, Measurement.Monitor.RangingMode, AUTO, AUTO
TestParameter, Measurement.Monitor.RangeBoundary, , 
TestParameter, Measurement.Monitor.RangeRating, BY FULL RANGE, BY FULL RANGE
TestParameter, Measurement.Monitor.RangeRatingCoeff, 50, 50
TestParameter, Measurement.Timing.Hold, 0
TestParameter, Measurement.Timing.Delay, 0.001
TestParameter, Measurement.Adc.HighSpeed.Mode, AUTO
TestParameter, Measurement.Adc.HighSpeed.Coeff, 1
TestParameter, Measurement.Adc.HighResolution.AutoZero, OFF
TestParameter, Measurement.Adc.HighResolution.Mode, PLC
TestParameter, Measurement.Adc.HighResolution.Coeff, 1
TestParameter, Measurement.WaitTime.Source.Coeff, 1
TestParameter, Measurement.WaitTime.Source.Offset, 0
TestParameter, Measurement.WaitTime.Monitor.Coeff, 1
TestParameter, Measurement.WaitTime.Monitor.Offset, 0
TestParameter, Function.User.Name, Ohmic
TestParameter, Function.User.Unit, ohm
TestParameter, Function.User.Definition, avg(V1/I1)
TestParameter, Output.Graph.Enabled, true
TestParameter, Output.Graph.XAxis.Data, V1
TestParameter, Output.Graph.XAxis.Scale, Linear
TestParameter, Output.Graph.XAxis.Left, -5
TestParameter, Output.Graph.XAxis.Right, 5
TestParameter, Output.Graph.YAxis.Data, I1
TestParameter, Output.Graph.YAxis.Scale, Linear
TestParameter, Output.Graph.YAxis.Bottom, -0.001
TestParameter, Output.Graph.YAxis.Top, 0.001
TestParameter, Output.Graph.YAxis.Group, 
TestParameter, Output.Scalar.Data, Ohmic
TestParameter, AutoAnalysis.Interpolation, false
TestParameter, AutoAnalysis.Line1.Enabled, false
TestParameter, AutoAnalysis.Line1.Type, 1
TestParameter, AutoAnalysis.Line1.Fix, True
TestParameter, AutoAnalysis.Line1.YAxis, 0
TestParameter, AutoAnalysis.Line1.Point1.Type, 0
TestParameter, AutoAnalysis.Line1.Point1.XY.X, 
TestParameter, AutoAnalysis.Line1.Point1.XY.Y, 
TestParameter, AutoAnalysis.Line1.Point1.Data.Var, 
TestParameter, AutoAnalysis.Line1.Point1.Data.Condition, 
TestParameter, AutoAnalysis.Line1.Point1.Data.Start, false
TestParameter, AutoAnalysis.Line1.Point1.Data.StartVar, 
TestParameter, AutoAnalysis.Line1.Point1.Data.StartCondition, 
TestParameter, AutoAnalysis.Line1.Point2.Type, 0
TestParameter, AutoAnalysis.Line1.Point2.XY.X, 
TestParameter, AutoAnalysis.Line1.Point2.XY.Y, 
TestParameter, AutoAnalysis.Line1.Point2.Data.Var, 
TestParameter, AutoAnalysis.Line1.Point2.Data.Condition, 
TestParameter, AutoAnalysis.Line1.Point2.Data.Start, false
TestParameter, AutoAnalysis.Line1.Point2.Data.StartVar, 
TestParameter, AutoAnalysis.Line1.Point2.Data.StartCondition, 
TestParameter, AutoAnalysis.Line1.GradientExpr, 0
TestParameter, AutoAnalysis.Line2.Enabled, false
TestParameter, AutoAnalysis.Line2.Type, 1
TestParameter, AutoAnalysis.Line2.Fix, True
TestParameter, AutoAnalysis.Line2.YAxis, 0
TestParameter, AutoAnalysis.Line2.Point1.Type, 0
TestParameter, AutoAnalysis.Line2.Point1.XY.X, 
TestParameter, AutoAnalysis.Line2.Point1.XY.Y, 
TestParameter, AutoAnalysis.Line2.Point1.Data.Var, 
TestParameter, AutoAnalysis.Line2.Point1.Data.Condition, 
TestParameter, AutoAnalysis.Line2.Point1.Data.Start, false
TestParameter, AutoAnalysis.Line2.Point1.Data.StartVar, 
TestParameter, AutoAnalysis.Line2.Point1.Data.StartCondition, 
TestParameter, AutoAnalysis.Line2.Point2.Type, 0
TestParameter, AutoAnalysis.Line2.Point2.XY.X, 
TestParameter, AutoAnalysis.Line2.Point2.XY.Y, 
TestParameter, AutoAnalysis.Line2.Point2.Data.Var, 
TestParameter, AutoAnalysis.Line2.Point2.Data.Condition, 
TestParameter, AutoAnalysis.Line2.Point2.Data.Start, false
TestParameter, AutoAnalysis.Line2.Point2.Data.StartVar, 
TestParameter, AutoAnalysis.Line2.Point2.Data.StartCondition, 
TestParameter, AutoAnalysis.Line2.GradientExpr, 0
TestParameter, AutoAnalysis.Marker.Enabled, false
TestParameter, AutoAnalysis.Marker.Data.Var, 
TestParameter, AutoAnalysis.Marker.Data.Condition, 
TestParameter, AutoAnalysis.Marker.Data.Start, false
TestParameter, AutoAnalysis.Marker.Data.StartVar, 
TestParameter, AutoAnalysis.Marker.Data.StartCondition, 
MetaData, TestRecord.EntryPoint, true
MetaData, TestRecord.RecordTime, 09/11/2020 16:39:24
MetaData, TestRecord.TestTarget, 
MetaData, TestRecord.IterationIndex, 47
MetaData, TestRecord.Preservation, true
MetaData, TestRecord.Flag, 
MetaData, TestRecord.Remarks, 
MetaData, TestRecord.LinkKey, 44fc7eec-db9c-4cf7-8433-db2fa837e715
Dimension1, 101, 101, 101
Dimension2, 1, 1, 1
DataName, V1, I1, Ohmic
DataValue, -5, -6.243699999999999E-09, 375574062.00405353
DataValue, -4.9, -6.1686999999999992E-09, 
DataValue, -4.8, -6.223E-09, 
DataValue, -4.7, -6.0690999999999992E-09, 
DataValue, -4.6000000000000005, -6.0908999999999993E-09, 
DataValue, -4.5, -5.9806999999999994E-09, 
DataValue, -4.4, -5.9000999999999995E-09, 
DataValue, -4.3, -5.8475999999999995E-09, 
DataValue, -4.2, -5.8432999999999995E-09, 
DataValue, -4.1, -5.754E-09, 
DataValue, -4, -5.6869999999999991E-09, 
DataValue, -3.9, -5.6371999999999995E-09, 
DataValue, -3.8000000000000003, -5.6289E-09, 
DataValue, -3.7, -5.5808E-09, 
DataValue, -3.6, -5.4246E-09, 
DataValue, -3.5, -5.4192E-09, 
DataValue, -3.4, -5.3703999999999996E-09, 
DataValue, -3.3000000000000003, -5.3110999999999992E-09, 
DataValue, -3.2, -5.2092E-09, 
DataValue, -3.1, -5.1975E-09, 
DataValue, -3, -5.0897999999999995E-09, 
DataValue, -2.9, -5.0178999999999994E-09, 
DataValue, -2.8000000000000003, -4.9880999999999993E-09, 
DataValue, -2.7, -4.8592E-09, 
DataValue, -2.6, -4.8402999999999995E-09, 
DataValue, -2.5, -4.7473E-09, 
DataValue, -2.4, -4.6853E-09, 
DataValue, -2.3000000000000003, -4.6186E-09, 
DataValue, -2.2, -4.5408E-09, 
DataValue, -2.1, -4.4881999999999995E-09, 
DataValue, -2, -4.4538E-09, 
DataValue, -1.9000000000000001, -4.3734999999999994E-09, 
DataValue, -1.8, -4.3315999999999994E-09, 
DataValue, -1.7, -4.3062999999999995E-09, 
DataValue, -1.6, -4.2058999999999993E-09, 
DataValue, -1.5, -4.098E-09, 
DataValue, -1.4000000000000001, -4.0446E-09, 
DataValue, -1.3, -3.9746E-09, 
DataValue, -1.2, -3.8928999999999992E-09, 
DataValue, -1.1, -3.8858999999999996E-09, 
DataValue, -1, -3.8273999999999994E-09, 
DataValue, -0.9, -3.6774999999999998E-09, 
DataValue, -0.8, -3.5836999999999995E-09, 
DataValue, -0.70000000000000007, -3.5278999999999998E-09, 
DataValue, -0.6, -3.4614999999999997E-09, 
DataValue, -0.5, -3.3072999999999995E-09, 
DataValue, -0.4, -3.1828E-09, 
DataValue, -0.3, -3.0551999999999995E-09, 
DataValue, -0.2, -2.6186999999999997E-09, 
DataValue, -0.1, -1.2902999999999998E-09, 
DataValue, 0, 2.3148E-09, 
DataValue, 0.1, 5.1249999999999996E-09, 
DataValue, 0.2, 6.1193E-09, 
DataValue, 0.3, 6.342199999999999E-09, 
DataValue, 0.4, 6.4703999999999995E-09, 
DataValue, 0.5, 6.599699999999999E-09, 
DataValue, 0.6, 6.6079999999999995E-09, 
DataValue, 0.70000000000000007, 6.7121999999999992E-09, 
DataValue, 0.8, 6.770799999999999E-09, 
DataValue, 0.9, 6.835E-09, 
DataValue, 1, 6.9121E-09, 
DataValue, 1.1, 7.0703999999999991E-09, 
DataValue, 1.2, 7.1602999999999989E-09, 
DataValue, 1.3, 7.210399999999999E-09, 
DataValue, 1.4000000000000001, 7.3338999999999993E-09, 
DataValue, 1.5, 7.4547E-09, 
DataValue, 1.6, 7.5727999999999985E-09, 
DataValue, 1.7, 7.6992E-09, 
DataValue, 1.8, 7.8684E-09, 
DataValue, 1.9000000000000001, 7.9614E-09, 
DataValue, 2, 8.1160999999999985E-09, 
DataValue, 2.1, 8.1935999999999987E-09, 
DataValue, 2.2, 8.4191999999999984E-09, 
DataValue, 2.3000000000000003, 8.5743E-09, 
DataValue, 2.4, 8.6943E-09, 
DataValue, 2.5, 8.7747E-09, 
DataValue, 2.6, 8.8943999999999986E-09, 
DataValue, 2.7, 9.1241999999999987E-09, 
DataValue, 2.8000000000000003, 9.3274999999999987E-09, 
DataValue, 2.9, 9.4525999999999986E-09, 
DataValue, 3, 9.5627999999999985E-09, 
DataValue, 3.1, 9.6368E-09, 
DataValue, 3.2, 9.7682E-09, 
DataValue, 3.3000000000000003, 9.8502999999999985E-09, 
DataValue, 3.4, 1.00438E-08, 
DataValue, 3.5, 1.0085699999999999E-08, 
DataValue, 3.6, 1.02039E-08, 
DataValue, 3.7, 1.0260299999999999E-08, 
DataValue, 3.8000000000000003, 1.04117E-08, 
DataValue, 3.9, 1.05115E-08, 
DataValue, 4, 1.0691499999999999E-08, 
DataValue, 4.1, 1.0778699999999999E-08, 
DataValue, 4.2, 1.0922099999999999E-08, 
DataValue, 4.3, 1.0998699999999998E-08, 
DataValue, 4.4, 1.119E-08, 
DataValue, 4.5, 1.1309999999999998E-08, 
DataValue, 4.6000000000000005, 1.14316E-08, 
DataValue, 4.7, 1.15932E-08, 
DataValue, 4.8, 1.1779999999999999E-08, 
DataValue, 4.9, 1.1809399999999999E-08, 
DataValue, 5, 1.17865E-08, 