
SetupTitle, WW
PrimitiveTest, I/V Sweep
TestParameter, Context.MainFrame, B1500A
TestParameter, Channel.UnitType, SMU, SMU
TestParameter, Channel.Unit, SMU1:HP, SMU2:HP
TestParameter, Channel.IName, I1, I4
TestParameter, Channel.VName, V1, V4
TestParameter, Channel.Mode, V, COMMON
TestParameter, Channel.Func, VAR1, CONST
TestParameter, Channel.Index, 
TestParameter, Channel.Time, 
TestParameter, Measurement.Port.Unit, SMU1:HP, SMU2:HP
TestParameter, Measurement.Port.SeriesResistor, NONE, NONE
TestParameter, Measurement.Port.Filter, ON, ON
TestParameter, Measurement.Port.OutputVoltageComparison, 0, 0
TestParameter, Measurement.Primary.Locus, Single
TestParameter, Measurement.Primary.Scale, LINEAR
TestParameter, Measurement.Primary.Start, -5
TestParameter, Measurement.Primary.Stop, 5
TestParameter, Measurement.Primary.Step, 0.1
TestParameter, Measurement.Primary.Compliance, 0.1
TestParameter, Measurement.Primary.PowerCompliance, 0
TestParameter, Measurement.Aborting.Condition, CONTINUE AT ANY
TestParameter, Measurement.PostOutput.Value, START
TestParameter, Measurement.PostOutput.Retention, OFF
TestParameter, Measurement.Bias.Source, -5, 0
TestParameter, Measurement.Bias.Compliance, 0.1, 1
TestParameter, Measurement.Monitor.Unit, SMU1:HP, SMU2:HP
TestParameter, Measurement.Monitor.Adc, HR ADC, HR ADC
TestParameter, Measurement.Monitor.Measurement, Compliance Side, Compliance Side
TestParameter, Measurement.Monitor.RangingMode, AUTO, AUTO
TestParameter, Measurement.Monitor.RangeBoundary, , 
TestParameter, Measurement.Monitor.RangeRating, BY FULL RANGE, BY FULL RANGE
TestParameter, Measurement.Monitor.RangeRatingCoeff, 50, 50
TestParameter, Measurement.Timing.Hold, 0
TestParameter, Measurement.Timing.Delay, 0.001
TestParameter, Measurement.Adc.HighSpeed.Mode, AUTO
TestParameter, Measurement.Adc.HighSpeed.Coeff, 1
TestParameter, Measurement.Adc.HighResolution.AutoZero, OFF
TestParameter, Measurement.Adc.HighResolution.Mode, PLC
TestParameter, Measurement.Adc.HighResolution.Coeff, 1
TestParameter, Measurement.WaitTime.Source.Coeff, 1
TestParameter, Measurement.WaitTime.Source.Offset, 0
TestParameter, Measurement.WaitTime.Monitor.Coeff, 1
TestParameter, Measurement.WaitTime.Monitor.Offset, 0
TestParameter, Function.User.Name, Ohmic
TestParameter, Function.User.Unit, ohm
TestParameter, Function.User.Definition, avg(V1/I1)
TestParameter, Output.Graph.Enabled, true
TestParameter, Output.Graph.XAxis.Data, V1
TestParameter, Output.Graph.XAxis.Scale, Linear
TestParameter, Output.Graph.XAxis.Left, -5
TestParameter, Output.Graph.XAxis.Right, 5
TestParameter, Output.Graph.YAxis.Data, I1
TestParameter, Output.Graph.YAxis.Scale, Linear
TestParameter, Output.Graph.YAxis.Bottom, -0.001
TestParameter, Output.Graph.YAxis.Top, 0.001
TestParameter, Output.Graph.YAxis.Group, 
TestParameter, Output.Scalar.Data, Ohmic
TestParameter, AutoAnalysis.Interpolation, false
TestParameter, AutoAnalysis.Line1.Enabled, false
TestParameter, AutoAnalysis.Line1.Type, 1
TestParameter, AutoAnalysis.Line1.Fix, True
TestParameter, AutoAnalysis.Line1.YAxis, 0
TestParameter, AutoAnalysis.Line1.Point1.Type, 0
TestParameter, AutoAnalysis.Line1.Point1.XY.X, 
TestParameter, AutoAnalysis.Line1.Point1.XY.Y, 
TestParameter, AutoAnalysis.Line1.Point1.Data.Var, 
TestParameter, AutoAnalysis.Line1.Point1.Data.Condition, 
TestParameter, AutoAnalysis.Line1.Point1.Data.Start, false
TestParameter, AutoAnalysis.Line1.Point1.Data.StartVar, 
TestParameter, AutoAnalysis.Line1.Point1.Data.StartCondition, 
TestParameter, AutoAnalysis.Line1.Point2.Type, 0
TestParameter, AutoAnalysis.Line1.Point2.XY.X, 
TestParameter, AutoAnalysis.Line1.Point2.XY.Y, 
TestParameter, AutoAnalysis.Line1.Point2.Data.Var, 
TestParameter, AutoAnalysis.Line1.Point2.Data.Condition, 
TestParameter, AutoAnalysis.Line1.Point2.Data.Start, false
TestParameter, AutoAnalysis.Line1.Point2.Data.StartVar, 
TestParameter, AutoAnalysis.Line1.Point2.Data.StartCondition, 
TestParameter, AutoAnalysis.Line1.GradientExpr, 0
TestParameter, AutoAnalysis.Line2.Enabled, false
TestParameter, AutoAnalysis.Line2.Type, 1
TestParameter, AutoAnalysis.Line2.Fix, True
TestParameter, AutoAnalysis.Line2.YAxis, 0
TestParameter, AutoAnalysis.Line2.Point1.Type, 0
TestParameter, AutoAnalysis.Line2.Point1.XY.X, 
TestParameter, AutoAnalysis.Line2.Point1.XY.Y, 
TestParameter, AutoAnalysis.Line2.Point1.Data.Var, 
TestParameter, AutoAnalysis.Line2.Point1.Data.Condition, 
TestParameter, AutoAnalysis.Line2.Point1.Data.Start, false
TestParameter, AutoAnalysis.Line2.Point1.Data.StartVar, 
TestParameter, AutoAnalysis.Line2.Point1.Data.StartCondition, 
TestParameter, AutoAnalysis.Line2.Point2.Type, 0
TestParameter, AutoAnalysis.Line2.Point2.XY.X, 
TestParameter, AutoAnalysis.Line2.Point2.XY.Y, 
TestParameter, AutoAnalysis.Line2.Point2.Data.Var, 
TestParameter, AutoAnalysis.Line2.Point2.Data.Condition, 
TestParameter, AutoAnalysis.Line2.Point2.Data.Start, false
TestParameter, AutoAnalysis.Line2.Point2.Data.StartVar, 
TestParameter, AutoAnalysis.Line2.Point2.Data.StartCondition, 
TestParameter, AutoAnalysis.Line2.GradientExpr, 0
TestParameter, AutoAnalysis.Marker.Enabled, false
TestParameter, AutoAnalysis.Marker.Data.Var, 
TestParameter, AutoAnalysis.Marker.Data.Condition, 
TestParameter, AutoAnalysis.Marker.Data.Start, false
TestParameter, AutoAnalysis.Marker.Data.StartVar, 
TestParameter, AutoAnalysis.Marker.Data.StartCondition, 
MetaData, TestRecord.EntryPoint, true
MetaData, TestRecord.RecordTime, 09/11/2020 16:38:56
MetaData, TestRecord.TestTarget, 
MetaData, TestRecord.IterationIndex, 46
MetaData, TestRecord.Preservation, true
MetaData, TestRecord.Flag, 
MetaData, TestRecord.Remarks, 
MetaData, TestRecord.LinkKey, 74cdca70-e243-467a-962d-1a43484876ad
Dimension1, 101, 101, 101
Dimension2, 1, 1, 1
DataName, V1, I1, Ohmic
DataValue, -5, -6.7058E-09, 355693461.68491739
DataValue, -4.9, -6.6205999999999992E-09, 
DataValue, -4.8, -6.5561999999999993E-09, 
DataValue, -4.7, -6.5844E-09, 
DataValue, -4.6000000000000005, -6.4369999999999992E-09, 
DataValue, -4.5, -6.3971E-09, 
DataValue, -4.4, -6.344799999999999E-09, 
DataValue, -4.3, -6.2693999999999991E-09, 
DataValue, -4.2, -6.2718E-09, 
DataValue, -4.1, -6.188E-09, 
DataValue, -4, -6.1489999999999993E-09, 
DataValue, -3.9, -6.1396E-09, 
DataValue, -3.8000000000000003, -5.9590999999999994E-09, 
DataValue, -3.7, -5.9966999999999994E-09, 
DataValue, -3.6, -5.8912999999999993E-09, 
DataValue, -3.5, -5.8089E-09, 
DataValue, -3.4, -5.7536E-09, 
DataValue, -3.3000000000000003, -5.6192999999999994E-09, 
DataValue, -3.2, -5.5432E-09, 
DataValue, -3.1, -5.4981999999999991E-09, 
DataValue, -3, -5.4751E-09, 
DataValue, -2.9, -5.419E-09, 
DataValue, -2.8000000000000003, -5.3323E-09, 
DataValue, -2.7, -5.3365999999999991E-09, 
DataValue, -2.6, -5.2107999999999994E-09, 
DataValue, -2.5, -5.1256999999999994E-09, 
DataValue, -2.4, -5.0597E-09, 
DataValue, -2.3000000000000003, -4.9882999999999994E-09, 
DataValue, -2.2, -4.8953E-09, 
DataValue, -2.1, -4.7882999999999993E-09, 
DataValue, -2, -4.7657E-09, 
DataValue, -1.9000000000000001, -4.6549999999999993E-09, 
DataValue, -1.8, -4.6078999999999994E-09, 
DataValue, -1.7, -4.6067999999999994E-09, 
DataValue, -1.6, -4.4298999999999994E-09, 
DataValue, -1.5, -4.3862E-09, 
DataValue, -1.4000000000000001, -4.3177E-09, 
DataValue, -1.3, -4.2429E-09, 
DataValue, -1.2, -4.1420999999999996E-09, 
DataValue, -1.1, -4.0582999999999995E-09, 
DataValue, -1, -4.0023999999999993E-09, 
DataValue, -0.9, -3.9191E-09, 
DataValue, -0.8, -3.7806999999999996E-09, 
DataValue, -0.70000000000000007, -3.6839999999999997E-09, 
DataValue, -0.6, -3.5689999999999996E-09, 
DataValue, -0.5, -3.5100999999999997E-09, 
DataValue, -0.4, -3.3719999999999995E-09, 
DataValue, -0.3, -3.1503999999999998E-09, 
DataValue, -0.2, -2.8367E-09, 
DataValue, -0.1, -1.3821999999999998E-09, 
DataValue, 0, 2.2773E-09, 
DataValue, 0.1, 5.1639999999999991E-09, 
DataValue, 0.2, 6.0983999999999995E-09, 
DataValue, 0.3, 6.4693999999999992E-09, 
DataValue, 0.4, 6.5734999999999993E-09, 
DataValue, 0.5, 6.6572999999999993E-09, 
DataValue, 0.6, 6.6822999999999996E-09, 
DataValue, 0.70000000000000007, 6.8417999999999993E-09, 
DataValue, 0.8, 6.882699999999999E-09, 
DataValue, 0.9, 7.0365999999999995E-09, 
DataValue, 1, 7.0730999999999995E-09, 
DataValue, 1.1, 7.1921E-09, 
DataValue, 1.2, 7.2059999999999993E-09, 
DataValue, 1.3, 7.3526E-09, 
DataValue, 1.4000000000000001, 7.4588E-09, 
DataValue, 1.5, 7.502E-09, 
DataValue, 1.6, 7.6278E-09, 
DataValue, 1.7, 7.8021999999999986E-09, 
DataValue, 1.8, 7.9719999999999985E-09, 
DataValue, 1.9000000000000001, 8.1108999999999985E-09, 
DataValue, 2, 8.3156999999999985E-09, 
DataValue, 2.1, 8.4687999999999987E-09, 
DataValue, 2.2, 8.6726E-09, 
DataValue, 2.3000000000000003, 8.8061999999999988E-09, 
DataValue, 2.4, 8.9516999999999984E-09, 
DataValue, 2.5, 9.0049E-09, 
DataValue, 2.6, 9.2272E-09, 
DataValue, 2.7, 9.4213999999999989E-09, 
DataValue, 2.8000000000000003, 9.5356999999999988E-09, 
DataValue, 2.9, 9.6655999999999986E-09, 
DataValue, 3, 9.8197999999999987E-09, 
DataValue, 3.1, 9.96E-09, 
DataValue, 3.2, 1.0095399999999999E-08, 
DataValue, 3.3000000000000003, 1.0147899999999999E-08, 
DataValue, 3.4, 1.0244699999999999E-08, 
DataValue, 3.5, 1.0417399999999998E-08, 
DataValue, 3.6, 1.0630899999999999E-08, 
DataValue, 3.7, 1.0668799999999999E-08, 
DataValue, 3.8000000000000003, 1.0866499999999998E-08, 
DataValue, 3.9, 1.10112E-08, 
DataValue, 4, 1.1107199999999999E-08, 
DataValue, 4.1, 1.1185299999999999E-08, 
DataValue, 4.2, 1.1360799999999999E-08, 
DataValue, 4.3, 1.14651E-08, 
DataValue, 4.4, 1.1606499999999999E-08, 
DataValue, 4.5, 1.1715199999999999E-08, 
DataValue, 4.6000000000000005, 1.1889599999999999E-08, 
DataValue, 4.7, 1.1989199999999998E-08, 
DataValue, 4.8, 1.20572E-08, 
DataValue, 4.9, 1.21485E-08, 
DataValue, 5, 1.2199399999999999E-08, 