
SetupTitle, WW
PrimitiveTest, I/V Sweep
TestParameter, Context.MainFrame, B1500A
TestParameter, Channel.UnitType, SMU, SMU
TestParameter, Channel.Unit, SMU1:HP, SMU2:HP
TestParameter, Channel.IName, I1, I4
TestParameter, Channel.VName, V1, V4
TestParameter, Channel.Mode, V, COMMON
TestParameter, Channel.Func, VAR1, CONST
TestParameter, Channel.Index, 
TestParameter, Channel.Time, 
TestParameter, Measurement.Port.Unit, SMU1:HP, SMU2:HP
TestParameter, Measurement.Port.SeriesResistor, NONE, NONE
TestParameter, Measurement.Port.Filter, ON, ON
TestParameter, Measurement.Port.OutputVoltageComparison, 0, 0
TestParameter, Measurement.Primary.Locus, Single
TestParameter, Measurement.Primary.Scale, LINEAR
TestParameter, Measurement.Primary.Start, -5
TestParameter, Measurement.Primary.Stop, 5
TestParameter, Measurement.Primary.Step, 0.1
TestParameter, Measurement.Primary.Compliance, 0.1
TestParameter, Measurement.Primary.PowerCompliance, 0
TestParameter, Measurement.Aborting.Condition, CONTINUE AT ANY
TestParameter, Measurement.PostOutput.Value, START
TestParameter, Measurement.PostOutput.Retention, OFF
TestParameter, Measurement.Bias.Source, -5, 0
TestParameter, Measurement.Bias.Compliance, 0.1, 1
TestParameter, Measurement.Monitor.Unit, SMU1:HP, SMU2:HP
TestParameter, Measurement.Monitor.Adc, HR ADC, HR ADC
TestParameter, Measurement.Monitor.Measurement, Compliance Side, Compliance Side
TestParameter, Measurement.Monitor.RangingMode, AUTO, AUTO
TestParameter, Measurement.Monitor.RangeBoundary, , 
TestParameter, Measurement.Monitor.RangeRating, BY FULL RANGE, BY FULL RANGE
TestParameter, Measurement.Monitor.RangeRatingCoeff, 50, 50
TestParameter, Measurement.Timing.Hold, 0
TestParameter, Measurement.Timing.Delay, 0.001
TestParameter, Measurement.Adc.HighSpeed.Mode, AUTO
TestParameter, Measurement.Adc.HighSpeed.Coeff, 1
TestParameter, Measurement.Adc.HighResolution.AutoZero, OFF
TestParameter, Measurement.Adc.HighResolution.Mode, PLC
TestParameter, Measurement.Adc.HighResolution.Coeff, 1
TestParameter, Measurement.WaitTime.Source.Coeff, 1
TestParameter, Measurement.WaitTime.Source.Offset, 0
TestParameter, Measurement.WaitTime.Monitor.Coeff, 1
TestParameter, Measurement.WaitTime.Monitor.Offset, 0
TestParameter, Function.User.Name, Ohmic
TestParameter, Function.User.Unit, ohm
TestParameter, Function.User.Definition, avg(V1/I1)
TestParameter, Output.Graph.Enabled, true
TestParameter, Output.Graph.XAxis.Data, V1
TestParameter, Output.Graph.XAxis.Scale, Linear
TestParameter, Output.Graph.XAxis.Left, -5
TestParameter, Output.Graph.XAxis.Right, 5
TestParameter, Output.Graph.YAxis.Data, I1
TestParameter, Output.Graph.YAxis.Scale, Linear
TestParameter, Output.Graph.YAxis.Bottom, -0.001
TestParameter, Output.Graph.YAxis.Top, 0.001
TestParameter, Output.Graph.YAxis.Group, 
TestParameter, Output.Scalar.Data, Ohmic
TestParameter, AutoAnalysis.Interpolation, false
TestParameter, AutoAnalysis.Line1.Enabled, false
TestParameter, AutoAnalysis.Line1.Type, 1
TestParameter, AutoAnalysis.Line1.Fix, True
TestParameter, AutoAnalysis.Line1.YAxis, 0
TestParameter, AutoAnalysis.Line1.Point1.Type, 0
TestParameter, AutoAnalysis.Line1.Point1.XY.X, 
TestParameter, AutoAnalysis.Line1.Point1.XY.Y, 
TestParameter, AutoAnalysis.Line1.Point1.Data.Var, 
TestParameter, AutoAnalysis.Line1.Point1.Data.Condition, 
TestParameter, AutoAnalysis.Line1.Point1.Data.Start, false
TestParameter, AutoAnalysis.Line1.Point1.Data.StartVar, 
TestParameter, AutoAnalysis.Line1.Point1.Data.StartCondition, 
TestParameter, AutoAnalysis.Line1.Point2.Type, 0
TestParameter, AutoAnalysis.Line1.Point2.XY.X, 
TestParameter, AutoAnalysis.Line1.Point2.XY.Y, 
TestParameter, AutoAnalysis.Line1.Point2.Data.Var, 
TestParameter, AutoAnalysis.Line1.Point2.Data.Condition, 
TestParameter, AutoAnalysis.Line1.Point2.Data.Start, false
TestParameter, AutoAnalysis.Line1.Point2.Data.StartVar, 
TestParameter, AutoAnalysis.Line1.Point2.Data.StartCondition, 
TestParameter, AutoAnalysis.Line1.GradientExpr, 0
TestParameter, AutoAnalysis.Line2.Enabled, false
TestParameter, AutoAnalysis.Line2.Type, 1
TestParameter, AutoAnalysis.Line2.Fix, True
TestParameter, AutoAnalysis.Line2.YAxis, 0
TestParameter, AutoAnalysis.Line2.Point1.Type, 0
TestParameter, AutoAnalysis.Line2.Point1.XY.X, 
TestParameter, AutoAnalysis.Line2.Point1.XY.Y, 
TestParameter, AutoAnalysis.Line2.Point1.Data.Var, 
TestParameter, AutoAnalysis.Line2.Point1.Data.Condition, 
TestParameter, AutoAnalysis.Line2.Point1.Data.Start, false
TestParameter, AutoAnalysis.Line2.Point1.Data.StartVar, 
TestParameter, AutoAnalysis.Line2.Point1.Data.StartCondition, 
TestParameter, AutoAnalysis.Line2.Point2.Type, 0
TestParameter, AutoAnalysis.Line2.Point2.XY.X, 
TestParameter, AutoAnalysis.Line2.Point2.XY.Y, 
TestParameter, AutoAnalysis.Line2.Point2.Data.Var, 
TestParameter, AutoAnalysis.Line2.Point2.Data.Condition, 
TestParameter, AutoAnalysis.Line2.Point2.Data.Start, false
TestParameter, AutoAnalysis.Line2.Point2.Data.StartVar, 
TestParameter, AutoAnalysis.Line2.Point2.Data.StartCondition, 
TestParameter, AutoAnalysis.Line2.GradientExpr, 0
TestParameter, AutoAnalysis.Marker.Enabled, false
TestParameter, AutoAnalysis.Marker.Data.Var, 
TestParameter, AutoAnalysis.Marker.Data.Condition, 
TestParameter, AutoAnalysis.Marker.Data.Start, false
TestParameter, AutoAnalysis.Marker.Data.StartVar, 
TestParameter, AutoAnalysis.Marker.Data.StartCondition, 
MetaData, TestRecord.EntryPoint, true
MetaData, TestRecord.RecordTime, 09/11/2020 16:37:57
MetaData, TestRecord.TestTarget, 
MetaData, TestRecord.IterationIndex, 44
MetaData, TestRecord.Preservation, true
MetaData, TestRecord.Flag, 
MetaData, TestRecord.Remarks, 
MetaData, TestRecord.LinkKey, bec418fb-4673-43f6-bf30-21757d5315cf
Dimension1, 101, 101, 101
Dimension2, 1, 1, 1
DataName, V1, I1, Ohmic
DataValue, -5, -7.1811999999999991E-09, 335641070.96166563
DataValue, -4.9, -7.1938999999999993E-09, 
DataValue, -4.8, -7.0864999999999995E-09, 
DataValue, -4.7, -7.0465999999999992E-09, 
DataValue, -4.6000000000000005, -7.0657E-09, 
DataValue, -4.5, -6.947299999999999E-09, 
DataValue, -4.4, -6.8851999999999993E-09, 
DataValue, -4.3, -6.8024E-09, 
DataValue, -4.2, -6.7622999999999993E-09, 
DataValue, -4.1, -6.688499999999999E-09, 
DataValue, -4, -6.6112E-09, 
DataValue, -3.9, -6.56E-09, 
DataValue, -3.8000000000000003, -6.4386999999999993E-09, 
DataValue, -3.7, -6.3926E-09, 
DataValue, -3.6, -6.3297E-09, 
DataValue, -3.5, -6.2681999999999995E-09, 
DataValue, -3.4, -6.2094999999999993E-09, 
DataValue, -3.3000000000000003, -6.1083999999999993E-09, 
DataValue, -3.2, -6.0010999999999991E-09, 
DataValue, -3.1, -5.9741999999999995E-09, 
DataValue, -3, -5.851E-09, 
DataValue, -2.9, -5.778599999999999E-09, 
DataValue, -2.8000000000000003, -5.6892E-09, 
DataValue, -2.7, -5.6214E-09, 
DataValue, -2.6, -5.5613E-09, 
DataValue, -2.5, -5.4114999999999994E-09, 
DataValue, -2.4, -5.4289999999999993E-09, 
DataValue, -2.3000000000000003, -5.3270999999999991E-09, 
DataValue, -2.2, -5.2276999999999992E-09, 
DataValue, -2.1, -5.1552999999999994E-09, 
DataValue, -2, -5.0737999999999996E-09, 
DataValue, -1.9000000000000001, -5.0256E-09, 
DataValue, -1.8, -4.9089999999999995E-09, 
DataValue, -1.7, -4.8679999999999993E-09, 
DataValue, -1.6, -4.7199E-09, 
DataValue, -1.5, -4.6573999999999992E-09, 
DataValue, -1.4000000000000001, -4.5350999999999994E-09, 
DataValue, -1.3, -4.4523E-09, 
DataValue, -1.2, -4.3695E-09, 
DataValue, -1.1, -4.2732E-09, 
DataValue, -1, -4.2429999999999995E-09, 
DataValue, -0.9, -4.1148999999999995E-09, 
DataValue, -0.8, -3.9911999999999992E-09, 
DataValue, -0.70000000000000007, -3.8871E-09, 
DataValue, -0.6, -3.7452E-09, 
DataValue, -0.5, -3.7025999999999996E-09, 
DataValue, -0.4, -3.5274999999999997E-09, 
DataValue, -0.3, -3.3414999999999997E-09, 
DataValue, -0.2, -2.9998999999999995E-09, 
DataValue, -0.1, -1.4817999999999998E-09, 
DataValue, 0, 2.2331999999999997E-09, 
DataValue, 0.1, 5.1623999999999995E-09, 
DataValue, 0.2, 6.240899999999999E-09, 
DataValue, 0.3, 6.5179E-09, 
DataValue, 0.4, 6.5570999999999992E-09, 
DataValue, 0.5, 6.6680999999999993E-09, 
DataValue, 0.6, 6.7508999999999991E-09, 
DataValue, 0.70000000000000007, 6.8711999999999992E-09, 
DataValue, 0.8, 6.9687E-09, 
DataValue, 0.9, 6.9817999999999992E-09, 
DataValue, 1, 7.0986999999999991E-09, 
DataValue, 1.1, 7.230699999999999E-09, 
DataValue, 1.2, 7.3565999999999992E-09, 
DataValue, 1.3, 7.519E-09, 
DataValue, 1.4000000000000001, 7.6092E-09, 
DataValue, 1.5, 7.865599999999999E-09, 
DataValue, 1.6, 7.9995999999999987E-09, 
DataValue, 1.7, 8.1279999999999984E-09, 
DataValue, 1.8, 8.2698999999999985E-09, 
DataValue, 1.9000000000000001, 8.4195E-09, 
DataValue, 2, 8.526E-09, 
DataValue, 2.1, 8.6957E-09, 
DataValue, 2.2, 8.9099E-09, 
DataValue, 2.3000000000000003, 8.9866E-09, 
DataValue, 2.4, 9.1703999999999989E-09, 
DataValue, 2.5, 9.3824E-09, 
DataValue, 2.6, 9.5132999999999986E-09, 
DataValue, 2.7, 9.7066999999999992E-09, 
DataValue, 2.8000000000000003, 9.8166E-09, 
DataValue, 2.9, 9.9795999999999989E-09, 
DataValue, 3, 1.0157999999999999E-08, 
DataValue, 3.1, 1.0260699999999999E-08, 
DataValue, 3.2, 1.04117E-08, 
DataValue, 3.3000000000000003, 1.05632E-08, 
DataValue, 3.4, 1.07193E-08, 
DataValue, 3.5, 1.0922499999999999E-08, 
DataValue, 3.6, 1.1012099999999998E-08, 
DataValue, 3.7, 1.1124199999999999E-08, 
DataValue, 3.8000000000000003, 1.1329499999999999E-08, 
DataValue, 3.9, 1.14078E-08, 
DataValue, 4, 1.1654999999999999E-08, 
DataValue, 4.1, 1.17362E-08, 
DataValue, 4.2, 1.1870899999999999E-08, 
DataValue, 4.3, 1.20166E-08, 
DataValue, 4.4, 1.21719E-08, 
DataValue, 4.5, 1.2382999999999999E-08, 
DataValue, 4.6000000000000005, 1.2381699999999998E-08, 
DataValue, 4.7, 1.25361E-08, 
DataValue, 4.8, 1.2722399999999998E-08, 
DataValue, 4.9, 1.2883299999999998E-08, 
DataValue, 5, 1.2913099999999998E-08, 