
SetupTitle, WW
PrimitiveTest, I/V Sweep
TestParameter, Context.MainFrame, B1500A
TestParameter, Channel.UnitType, SMU, SMU
TestParameter, Channel.Unit, SMU1:HP, SMU2:HP
TestParameter, Channel.IName, I1, I4
TestParameter, Channel.VName, V1, V4
TestParameter, Channel.Mode, V, COMMON
TestParameter, Channel.Func, VAR1, CONST
TestParameter, Channel.Index, 
TestParameter, Channel.Time, 
TestParameter, Measurement.Port.Unit, SMU1:HP, SMU2:HP
TestParameter, Measurement.Port.SeriesResistor, NONE, NONE
TestParameter, Measurement.Port.Filter, ON, ON
TestParameter, Measurement.Port.OutputVoltageComparison, 0, 0
TestParameter, Measurement.Primary.Locus, Single
TestParameter, Measurement.Primary.Scale, LINEAR
TestParameter, Measurement.Primary.Start, -5
TestParameter, Measurement.Primary.Stop, 5
TestParameter, Measurement.Primary.Step, 0.1
TestParameter, Measurement.Primary.Compliance, 0.1
TestParameter, Measurement.Primary.PowerCompliance, 0
TestParameter, Measurement.Aborting.Condition, CONTINUE AT ANY
TestParameter, Measurement.PostOutput.Value, START
TestParameter, Measurement.PostOutput.Retention, OFF
TestParameter, Measurement.Bias.Source, -5, 0
TestParameter, Measurement.Bias.Compliance, 0.1, 1
TestParameter, Measurement.Monitor.Unit, SMU1:HP, SMU2:HP
TestParameter, Measurement.Monitor.Adc, HR ADC, HR ADC
TestParameter, Measurement.Monitor.Measurement, Compliance Side, Compliance Side
TestParameter, Measurement.Monitor.RangingMode, AUTO, AUTO
TestParameter, Measurement.Monitor.RangeBoundary, , 
TestParameter, Measurement.Monitor.RangeRating, BY FULL RANGE, BY FULL RANGE
TestParameter, Measurement.Monitor.RangeRatingCoeff, 50, 50
TestParameter, Measurement.Timing.Hold, 0
TestParameter, Measurement.Timing.Delay, 0.001
TestParameter, Measurement.Adc.HighSpeed.Mode, AUTO
TestParameter, Measurement.Adc.HighSpeed.Coeff, 1
TestParameter, Measurement.Adc.HighResolution.AutoZero, OFF
TestParameter, Measurement.Adc.HighResolution.Mode, PLC
TestParameter, Measurement.Adc.HighResolution.Coeff, 1
TestParameter, Measurement.WaitTime.Source.Coeff, 1
TestParameter, Measurement.WaitTime.Source.Offset, 0
TestParameter, Measurement.WaitTime.Monitor.Coeff, 1
TestParameter, Measurement.WaitTime.Monitor.Offset, 0
TestParameter, Function.User.Name, Ohmic
TestParameter, Function.User.Unit, ohm
TestParameter, Function.User.Definition, avg(V1/I1)
TestParameter, Output.Graph.Enabled, true
TestParameter, Output.Graph.XAxis.Data, V1
TestParameter, Output.Graph.XAxis.Scale, Linear
TestParameter, Output.Graph.XAxis.Left, -5
TestParameter, Output.Graph.XAxis.Right, 5
TestParameter, Output.Graph.YAxis.Data, I1
TestParameter, Output.Graph.YAxis.Scale, Linear
TestParameter, Output.Graph.YAxis.Bottom, -0.001
TestParameter, Output.Graph.YAxis.Top, 0.001
TestParameter, Output.Graph.YAxis.Group, 
TestParameter, Output.Scalar.Data, Ohmic
TestParameter, AutoAnalysis.Interpolation, false
TestParameter, AutoAnalysis.Line1.Enabled, false
TestParameter, AutoAnalysis.Line1.Type, 1
TestParameter, AutoAnalysis.Line1.Fix, True
TestParameter, AutoAnalysis.Line1.YAxis, 0
TestParameter, AutoAnalysis.Line1.Point1.Type, 0
TestParameter, AutoAnalysis.Line1.Point1.XY.X, 
TestParameter, AutoAnalysis.Line1.Point1.XY.Y, 
TestParameter, AutoAnalysis.Line1.Point1.Data.Var, 
TestParameter, AutoAnalysis.Line1.Point1.Data.Condition, 
TestParameter, AutoAnalysis.Line1.Point1.Data.Start, false
TestParameter, AutoAnalysis.Line1.Point1.Data.StartVar, 
TestParameter, AutoAnalysis.Line1.Point1.Data.StartCondition, 
TestParameter, AutoAnalysis.Line1.Point2.Type, 0
TestParameter, AutoAnalysis.Line1.Point2.XY.X, 
TestParameter, AutoAnalysis.Line1.Point2.XY.Y, 
TestParameter, AutoAnalysis.Line1.Point2.Data.Var, 
TestParameter, AutoAnalysis.Line1.Point2.Data.Condition, 
TestParameter, AutoAnalysis.Line1.Point2.Data.Start, false
TestParameter, AutoAnalysis.Line1.Point2.Data.StartVar, 
TestParameter, AutoAnalysis.Line1.Point2.Data.StartCondition, 
TestParameter, AutoAnalysis.Line1.GradientExpr, 0
TestParameter, AutoAnalysis.Line2.Enabled, false
TestParameter, AutoAnalysis.Line2.Type, 1
TestParameter, AutoAnalysis.Line2.Fix, True
TestParameter, AutoAnalysis.Line2.YAxis, 0
TestParameter, AutoAnalysis.Line2.Point1.Type, 0
TestParameter, AutoAnalysis.Line2.Point1.XY.X, 
TestParameter, AutoAnalysis.Line2.Point1.XY.Y, 
TestParameter, AutoAnalysis.Line2.Point1.Data.Var, 
TestParameter, AutoAnalysis.Line2.Point1.Data.Condition, 
TestParameter, AutoAnalysis.Line2.Point1.Data.Start, false
TestParameter, AutoAnalysis.Line2.Point1.Data.StartVar, 
TestParameter, AutoAnalysis.Line2.Point1.Data.StartCondition, 
TestParameter, AutoAnalysis.Line2.Point2.Type, 0
TestParameter, AutoAnalysis.Line2.Point2.XY.X, 
TestParameter, AutoAnalysis.Line2.Point2.XY.Y, 
TestParameter, AutoAnalysis.Line2.Point2.Data.Var, 
TestParameter, AutoAnalysis.Line2.Point2.Data.Condition, 
TestParameter, AutoAnalysis.Line2.Point2.Data.Start, false
TestParameter, AutoAnalysis.Line2.Point2.Data.StartVar, 
TestParameter, AutoAnalysis.Line2.Point2.Data.StartCondition, 
TestParameter, AutoAnalysis.Line2.GradientExpr, 0
TestParameter, AutoAnalysis.Marker.Enabled, false
TestParameter, AutoAnalysis.Marker.Data.Var, 
TestParameter, AutoAnalysis.Marker.Data.Condition, 
TestParameter, AutoAnalysis.Marker.Data.Start, false
TestParameter, AutoAnalysis.Marker.Data.StartVar, 
TestParameter, AutoAnalysis.Marker.Data.StartCondition, 
MetaData, TestRecord.EntryPoint, true
MetaData, TestRecord.RecordTime, 09/11/2020 16:37:27
MetaData, TestRecord.TestTarget, 
MetaData, TestRecord.IterationIndex, 43
MetaData, TestRecord.Preservation, true
MetaData, TestRecord.Flag, 
MetaData, TestRecord.Remarks, 
MetaData, TestRecord.LinkKey, 1cf6cae4-cd72-4050-ba2b-70f9af3a853e
Dimension1, 101, 101, 101
Dimension2, 1, 1, 1
DataName, V1, I1, Ohmic
DataValue, -5, -7.4025999999999992E-09, 331229333.14137304
DataValue, -4.9, -7.3860999999999995E-09, 
DataValue, -4.8, -7.3394999999999993E-09, 
DataValue, -4.7, -7.2325999999999992E-09, 
DataValue, -4.6000000000000005, -7.1339999999999996E-09, 
DataValue, -4.5, -7.1124999999999992E-09, 
DataValue, -4.4, -7.1129999999999989E-09, 
DataValue, -4.3, -6.8996E-09, 
DataValue, -4.2, -6.8985999999999993E-09, 
DataValue, -4.1, -6.8810999999999993E-09, 
DataValue, -4, -6.7795E-09, 
DataValue, -3.9, -6.7116999999999995E-09, 
DataValue, -3.8000000000000003, -6.6328999999999993E-09, 
DataValue, -3.7, -6.556299999999999E-09, 
DataValue, -3.6, -6.5025999999999994E-09, 
DataValue, -3.5, -6.410899999999999E-09, 
DataValue, -3.4, -6.3762999999999992E-09, 
DataValue, -3.3000000000000003, -6.2969999999999992E-09, 
DataValue, -3.2, -6.2211999999999992E-09, 
DataValue, -3.1, -6.1186999999999996E-09, 
DataValue, -3, -6.0450999999999993E-09, 
DataValue, -2.9, -5.9606999999999991E-09, 
DataValue, -2.8000000000000003, -5.8424E-09, 
DataValue, -2.7, -5.808E-09, 
DataValue, -2.6, -5.6910999999999991E-09, 
DataValue, -2.5, -5.6237999999999995E-09, 
DataValue, -2.4, -5.4976E-09, 
DataValue, -2.3000000000000003, -5.4024999999999991E-09, 
DataValue, -2.2, -5.4162999999999992E-09, 
DataValue, -2.1, -5.2984999999999994E-09, 
DataValue, -2, -5.2181999999999992E-09, 
DataValue, -1.9000000000000001, -5.1049999999999992E-09, 
DataValue, -1.8, -5.0385E-09, 
DataValue, -1.7, -4.9491999999999994E-09, 
DataValue, -1.6, -4.8152E-09, 
DataValue, -1.5, -4.7696E-09, 
DataValue, -1.4000000000000001, -4.6413E-09, 
DataValue, -1.3, -4.5661E-09, 
DataValue, -1.2, -4.4929999999999993E-09, 
DataValue, -1.1, -4.3991E-09, 
DataValue, -1, -4.3019999999999994E-09, 
DataValue, -0.9, -4.1809999999999995E-09, 
DataValue, -0.8, -4.0649999999999995E-09, 
DataValue, -0.70000000000000007, -4.0105999999999994E-09, 
DataValue, -0.6, -3.8297999999999993E-09, 
DataValue, -0.5, -3.7651E-09, 
DataValue, -0.4, -3.5992999999999998E-09, 
DataValue, -0.3, -3.4314999999999996E-09, 
DataValue, -0.2, -3.0536E-09, 
DataValue, -0.1, -1.6141999999999999E-09, 
DataValue, 0, 2.1830999999999996E-09, 
DataValue, 0.1, 5.1502999999999995E-09, 
DataValue, 0.2, 6.1137E-09, 
DataValue, 0.3, 6.4637999999999991E-09, 
DataValue, 0.4, 6.5090999999999994E-09, 
DataValue, 0.5, 6.6056999999999992E-09, 
DataValue, 0.6, 6.7105999999999996E-09, 
DataValue, 0.70000000000000007, 6.783099999999999E-09, 
DataValue, 0.8, 6.8892999999999994E-09, 
DataValue, 0.9, 6.9819E-09, 
DataValue, 1, 7.0739999999999994E-09, 
DataValue, 1.1, 7.1778999999999994E-09, 
DataValue, 1.2, 7.362699999999999E-09, 
DataValue, 1.3, 7.485399999999999E-09, 
DataValue, 1.4000000000000001, 7.6029E-09, 
DataValue, 1.5, 7.7894E-09, 
DataValue, 1.6, 7.9123E-09, 
DataValue, 1.7, 8.0737999999999991E-09, 
DataValue, 1.8, 8.2776999999999984E-09, 
DataValue, 1.9000000000000001, 8.4356999999999989E-09, 
DataValue, 2, 8.5889999999999984E-09, 
DataValue, 2.1, 8.7408E-09, 
DataValue, 2.2, 8.9144999999999985E-09, 
DataValue, 2.3000000000000003, 8.9807999999999986E-09, 
DataValue, 2.4, 9.1922E-09, 
DataValue, 2.5, 9.3218E-09, 
DataValue, 2.6, 9.4852E-09, 
DataValue, 2.7, 9.622499999999999E-09, 
DataValue, 2.8000000000000003, 9.7935E-09, 
DataValue, 2.9, 9.8975E-09, 
DataValue, 3, 1.00743E-08, 
DataValue, 3.1, 1.02299E-08, 
DataValue, 3.2, 1.03343E-08, 
DataValue, 3.3000000000000003, 1.0535E-08, 
DataValue, 3.4, 1.0695199999999998E-08, 
DataValue, 3.5, 1.0823799999999999E-08, 
DataValue, 3.6, 1.09494E-08, 
DataValue, 3.7, 1.10946E-08, 
DataValue, 3.8000000000000003, 1.1250399999999998E-08, 
DataValue, 3.9, 1.1352599999999999E-08, 
DataValue, 4, 1.1520899999999999E-08, 
DataValue, 4.1, 1.1602699999999998E-08, 
DataValue, 4.2, 1.1765399999999998E-08, 
DataValue, 4.3, 1.1903999999999999E-08, 
DataValue, 4.4, 1.2048799999999998E-08, 
DataValue, 4.5, 1.21157E-08, 
DataValue, 4.6000000000000005, 1.21191E-08, 
DataValue, 4.7, 1.2299199999999999E-08, 
DataValue, 4.8, 1.2484899999999999E-08, 
DataValue, 4.9, 1.26426E-08, 
DataValue, 5, 1.2692399999999999E-08, 