
SetupTitle, WW
PrimitiveTest, I/V Sweep
TestParameter, Context.MainFrame, B1500A
TestParameter, Channel.UnitType, SMU, SMU
TestParameter, Channel.Unit, SMU1:HP, SMU2:HP
TestParameter, Channel.IName, I1, I4
TestParameter, Channel.VName, V1, V4
TestParameter, Channel.Mode, V, COMMON
TestParameter, Channel.Func, VAR1, CONST
TestParameter, Channel.Index, 
TestParameter, Channel.Time, 
TestParameter, Measurement.Port.Unit, SMU1:HP, SMU2:HP
TestParameter, Measurement.Port.SeriesResistor, NONE, NONE
TestParameter, Measurement.Port.Filter, ON, ON
TestParameter, Measurement.Port.OutputVoltageComparison, 0, 0
TestParameter, Measurement.Primary.Locus, Single
TestParameter, Measurement.Primary.Scale, LINEAR
TestParameter, Measurement.Primary.Start, -5
TestParameter, Measurement.Primary.Stop, 5
TestParameter, Measurement.Primary.Step, 0.1
TestParameter, Measurement.Primary.Compliance, 0.1
TestParameter, Measurement.Primary.PowerCompliance, 0
TestParameter, Measurement.Aborting.Condition, CONTINUE AT ANY
TestParameter, Measurement.PostOutput.Value, START
TestParameter, Measurement.PostOutput.Retention, OFF
TestParameter, Measurement.Bias.Source, -5, 0
TestParameter, Measurement.Bias.Compliance, 0.1, 1
TestParameter, Measurement.Monitor.Unit, SMU1:HP, SMU2:HP
TestParameter, Measurement.Monitor.Adc, HR ADC, HR ADC
TestParameter, Measurement.Monitor.Measurement, Compliance Side, Compliance Side
TestParameter, Measurement.Monitor.RangingMode, AUTO, AUTO
TestParameter, Measurement.Monitor.RangeBoundary, , 
TestParameter, Measurement.Monitor.RangeRating, BY FULL RANGE, BY FULL RANGE
TestParameter, Measurement.Monitor.RangeRatingCoeff, 50, 50
TestParameter, Measurement.Timing.Hold, 0
TestParameter, Measurement.Timing.Delay, 0.001
TestParameter, Measurement.Adc.HighSpeed.Mode, AUTO
TestParameter, Measurement.Adc.HighSpeed.Coeff, 1
TestParameter, Measurement.Adc.HighResolution.AutoZero, OFF
TestParameter, Measurement.Adc.HighResolution.Mode, PLC
TestParameter, Measurement.Adc.HighResolution.Coeff, 1
TestParameter, Measurement.WaitTime.Source.Coeff, 1
TestParameter, Measurement.WaitTime.Source.Offset, 0
TestParameter, Measurement.WaitTime.Monitor.Coeff, 1
TestParameter, Measurement.WaitTime.Monitor.Offset, 0
TestParameter, Function.User.Name, Ohmic
TestParameter, Function.User.Unit, ohm
TestParameter, Function.User.Definition, avg(V1/I1)
TestParameter, Output.Graph.Enabled, true
TestParameter, Output.Graph.XAxis.Data, V1
TestParameter, Output.Graph.XAxis.Scale, Linear
TestParameter, Output.Graph.XAxis.Left, -5
TestParameter, Output.Graph.XAxis.Right, 5
TestParameter, Output.Graph.YAxis.Data, I1
TestParameter, Output.Graph.YAxis.Scale, Linear
TestParameter, Output.Graph.YAxis.Bottom, -0.001
TestParameter, Output.Graph.YAxis.Top, 0.001
TestParameter, Output.Graph.YAxis.Group, 
TestParameter, Output.Scalar.Data, Ohmic
TestParameter, AutoAnalysis.Interpolation, false
TestParameter, AutoAnalysis.Line1.Enabled, false
TestParameter, AutoAnalysis.Line1.Type, 1
TestParameter, AutoAnalysis.Line1.Fix, True
TestParameter, AutoAnalysis.Line1.YAxis, 0
TestParameter, AutoAnalysis.Line1.Point1.Type, 0
TestParameter, AutoAnalysis.Line1.Point1.XY.X, 
TestParameter, AutoAnalysis.Line1.Point1.XY.Y, 
TestParameter, AutoAnalysis.Line1.Point1.Data.Var, 
TestParameter, AutoAnalysis.Line1.Point1.Data.Condition, 
TestParameter, AutoAnalysis.Line1.Point1.Data.Start, false
TestParameter, AutoAnalysis.Line1.Point1.Data.StartVar, 
TestParameter, AutoAnalysis.Line1.Point1.Data.StartCondition, 
TestParameter, AutoAnalysis.Line1.Point2.Type, 0
TestParameter, AutoAnalysis.Line1.Point2.XY.X, 
TestParameter, AutoAnalysis.Line1.Point2.XY.Y, 
TestParameter, AutoAnalysis.Line1.Point2.Data.Var, 
TestParameter, AutoAnalysis.Line1.Point2.Data.Condition, 
TestParameter, AutoAnalysis.Line1.Point2.Data.Start, false
TestParameter, AutoAnalysis.Line1.Point2.Data.StartVar, 
TestParameter, AutoAnalysis.Line1.Point2.Data.StartCondition, 
TestParameter, AutoAnalysis.Line1.GradientExpr, 0
TestParameter, AutoAnalysis.Line2.Enabled, false
TestParameter, AutoAnalysis.Line2.Type, 1
TestParameter, AutoAnalysis.Line2.Fix, True
TestParameter, AutoAnalysis.Line2.YAxis, 0
TestParameter, AutoAnalysis.Line2.Point1.Type, 0
TestParameter, AutoAnalysis.Line2.Point1.XY.X, 
TestParameter, AutoAnalysis.Line2.Point1.XY.Y, 
TestParameter, AutoAnalysis.Line2.Point1.Data.Var, 
TestParameter, AutoAnalysis.Line2.Point1.Data.Condition, 
TestParameter, AutoAnalysis.Line2.Point1.Data.Start, false
TestParameter, AutoAnalysis.Line2.Point1.Data.StartVar, 
TestParameter, AutoAnalysis.Line2.Point1.Data.StartCondition, 
TestParameter, AutoAnalysis.Line2.Point2.Type, 0
TestParameter, AutoAnalysis.Line2.Point2.XY.X, 
TestParameter, AutoAnalysis.Line2.Point2.XY.Y, 
TestParameter, AutoAnalysis.Line2.Point2.Data.Var, 
TestParameter, AutoAnalysis.Line2.Point2.Data.Condition, 
TestParameter, AutoAnalysis.Line2.Point2.Data.Start, false
TestParameter, AutoAnalysis.Line2.Point2.Data.StartVar, 
TestParameter, AutoAnalysis.Line2.Point2.Data.StartCondition, 
TestParameter, AutoAnalysis.Line2.GradientExpr, 0
TestParameter, AutoAnalysis.Marker.Enabled, false
TestParameter, AutoAnalysis.Marker.Data.Var, 
TestParameter, AutoAnalysis.Marker.Data.Condition, 
TestParameter, AutoAnalysis.Marker.Data.Start, false
TestParameter, AutoAnalysis.Marker.Data.StartVar, 
TestParameter, AutoAnalysis.Marker.Data.StartCondition, 
MetaData, TestRecord.EntryPoint, true
MetaData, TestRecord.RecordTime, 09/11/2020 16:35:31
MetaData, TestRecord.TestTarget, 
MetaData, TestRecord.IterationIndex, 40
MetaData, TestRecord.Preservation, true
MetaData, TestRecord.Flag, 
MetaData, TestRecord.Remarks, 
MetaData, TestRecord.LinkKey, 1b841b99-8a6e-4d56-9293-3b71a18cc202
Dimension1, 101, 101, 101
Dimension2, 1, 1, 1
DataName, V1, I1, Ohmic
DataValue, -5, -6.0206E-09, 377918708.60137653
DataValue, -4.9, -5.9988E-09, 
DataValue, -4.8, -5.9359E-09, 
DataValue, -4.7, -5.8916999999999994E-09, 
DataValue, -4.6000000000000005, -5.891E-09, 
DataValue, -4.5, -5.767799999999999E-09, 
DataValue, -4.4, -5.6831999999999996E-09, 
DataValue, -4.3, -5.6056999999999994E-09, 
DataValue, -4.2, -5.5164E-09, 
DataValue, -4.1, -5.4706999999999993E-09, 
DataValue, -4, -5.4049E-09, 
DataValue, -3.9, -5.3762E-09, 
DataValue, -3.8000000000000003, -5.2362999999999994E-09, 
DataValue, -3.7, -5.1733999999999995E-09, 
DataValue, -3.6, -5.161E-09, 
DataValue, -3.5, -5.1109E-09, 
DataValue, -3.4, -5.1273E-09, 
DataValue, -3.3000000000000003, -5.0174999999999993E-09, 
DataValue, -3.2, -4.9405999999999993E-09, 
DataValue, -3.1, -4.9670999999999995E-09, 
DataValue, -3, -4.8418999999999992E-09, 
DataValue, -2.9, -4.7614E-09, 
DataValue, -2.8000000000000003, -4.6422999999999992E-09, 
DataValue, -2.7, -4.6277999999999993E-09, 
DataValue, -2.6, -4.6024E-09, 
DataValue, -2.5, -4.4361E-09, 
DataValue, -2.4, -4.4304999999999995E-09, 
DataValue, -2.3000000000000003, -4.3341999999999994E-09, 
DataValue, -2.2, -4.2870999999999994E-09, 
DataValue, -2.1, -4.1271E-09, 
DataValue, -2, -4.1749999999999993E-09, 
DataValue, -1.9000000000000001, -4.0703999999999995E-09, 
DataValue, -1.8, -3.9465999999999996E-09, 
DataValue, -1.7, -3.8962E-09, 
DataValue, -1.6, -3.8033999999999995E-09, 
DataValue, -1.5, -3.7415999999999996E-09, 
DataValue, -1.4000000000000001, -3.7141E-09, 
DataValue, -1.3, -3.6211999999999994E-09, 
DataValue, -1.2, -3.5638999999999997E-09, 
DataValue, -1.1, -3.4974999999999996E-09, 
DataValue, -1, -3.4148E-09, 
DataValue, -0.9, -3.3856999999999996E-09, 
DataValue, -0.8, -3.3228999999999998E-09, 
DataValue, -0.70000000000000007, -3.2094999999999997E-09, 
DataValue, -0.6, -3.1402999999999996E-09, 
DataValue, -0.5, -3.0702999999999996E-09, 
DataValue, -0.4, -2.9621999999999996E-09, 
DataValue, -0.3, -2.8023999999999998E-09, 
DataValue, -0.2, -2.5581999999999997E-09, 
DataValue, -0.1, -1.1041E-09, 
DataValue, 0, 2.7151E-09, 
DataValue, 0.1, 5.6926999999999996E-09, 
DataValue, 0.2, 6.5935999999999992E-09, 
DataValue, 0.3, 6.9471999999999993E-09, 
DataValue, 0.4, 7.0558999999999992E-09, 
DataValue, 0.5, 7.0515999999999991E-09, 
DataValue, 0.6, 7.1210999999999993E-09, 
DataValue, 0.70000000000000007, 7.2541999999999992E-09, 
DataValue, 0.8, 7.3411999999999994E-09, 
DataValue, 0.9, 7.4605E-09, 
DataValue, 1, 7.5348999999999989E-09, 
DataValue, 1.1, 7.7197E-09, 
DataValue, 1.2, 7.811599999999999E-09, 
DataValue, 1.3, 7.9549999999999991E-09, 
DataValue, 1.4000000000000001, 8.0248E-09, 
DataValue, 1.5, 8.2723E-09, 
DataValue, 1.6, 8.3483E-09, 
DataValue, 1.7, 8.5026E-09, 
DataValue, 1.8, 8.6117999999999987E-09, 
DataValue, 1.9000000000000001, 8.8925999999999988E-09, 
DataValue, 2, 9.0648E-09, 
DataValue, 2.1, 9.1661E-09, 
DataValue, 2.2, 9.331299999999999E-09, 
DataValue, 2.3000000000000003, 9.5265E-09, 
DataValue, 2.4, 9.6338999999999983E-09, 
DataValue, 2.5, 9.8163E-09, 
DataValue, 2.6, 9.9705999999999986E-09, 
DataValue, 2.7, 1.0133399999999999E-08, 
DataValue, 2.8000000000000003, 1.0233799999999998E-08, 
DataValue, 2.9, 1.0407699999999998E-08, 
DataValue, 3, 1.05565E-08, 
DataValue, 3.1, 1.0695599999999999E-08, 
DataValue, 3.2, 1.0823999999999998E-08, 
DataValue, 3.3000000000000003, 1.0958199999999999E-08, 
DataValue, 3.4, 1.1140199999999998E-08, 
DataValue, 3.5, 1.12633E-08, 
DataValue, 3.6, 1.13121E-08, 
DataValue, 3.7, 1.1480299999999999E-08, 
DataValue, 3.8000000000000003, 1.1516299999999998E-08, 
DataValue, 3.9, 1.1744899999999998E-08, 
DataValue, 4, 1.18323E-08, 
DataValue, 4.1, 1.2081699999999999E-08, 
DataValue, 4.2, 1.2077999999999999E-08, 
DataValue, 4.3, 1.2167199999999998E-08, 
DataValue, 4.4, 1.2267499999999999E-08, 
DataValue, 4.5, 1.2438699999999998E-08, 
DataValue, 4.6000000000000005, 1.2522799999999998E-08, 
DataValue, 4.7, 1.2721499999999999E-08, 
DataValue, 4.8, 1.2955199999999998E-08, 
DataValue, 4.9, 1.3077499999999999E-08, 
DataValue, 5, 1.30738E-08, 