
SetupTitle, WW
PrimitiveTest, I/V Sweep
TestParameter, Context.MainFrame, B1500A
TestParameter, Channel.UnitType, SMU, SMU
TestParameter, Channel.Unit, SMU1:HP, SMU2:HP
TestParameter, Channel.IName, I1, I4
TestParameter, Channel.VName, V1, V4
TestParameter, Channel.Mode, V, COMMON
TestParameter, Channel.Func, VAR1, CONST
TestParameter, Channel.Index, 
TestParameter, Channel.Time, 
TestParameter, Measurement.Port.Unit, SMU1:HP, SMU2:HP
TestParameter, Measurement.Port.SeriesResistor, NONE, NONE
TestParameter, Measurement.Port.Filter, ON, ON
TestParameter, Measurement.Port.OutputVoltageComparison, 0, 0
TestParameter, Measurement.Primary.Locus, Single
TestParameter, Measurement.Primary.Scale, LINEAR
TestParameter, Measurement.Primary.Start, -5
TestParameter, Measurement.Primary.Stop, 5
TestParameter, Measurement.Primary.Step, 0.1
TestParameter, Measurement.Primary.Compliance, 0.1
TestParameter, Measurement.Primary.PowerCompliance, 0
TestParameter, Measurement.Aborting.Condition, CONTINUE AT ANY
TestParameter, Measurement.PostOutput.Value, START
TestParameter, Measurement.PostOutput.Retention, OFF
TestParameter, Measurement.Bias.Source, -5, 0
TestParameter, Measurement.Bias.Compliance, 0.1, 1
TestParameter, Measurement.Monitor.Unit, SMU1:HP, SMU2:HP
TestParameter, Measurement.Monitor.Adc, HR ADC, HR ADC
TestParameter, Measurement.Monitor.Measurement, Compliance Side, Compliance Side
TestParameter, Measurement.Monitor.RangingMode, AUTO, AUTO
TestParameter, Measurement.Monitor.RangeBoundary, , 
TestParameter, Measurement.Monitor.RangeRating, BY FULL RANGE, BY FULL RANGE
TestParameter, Measurement.Monitor.RangeRatingCoeff, 50, 50
TestParameter, Measurement.Timing.Hold, 0
TestParameter, Measurement.Timing.Delay, 0.001
TestParameter, Measurement.Adc.HighSpeed.Mode, AUTO
TestParameter, Measurement.Adc.HighSpeed.Coeff, 1
TestParameter, Measurement.Adc.HighResolution.AutoZero, OFF
TestParameter, Measurement.Adc.HighResolution.Mode, PLC
TestParameter, Measurement.Adc.HighResolution.Coeff, 1
TestParameter, Measurement.WaitTime.Source.Coeff, 1
TestParameter, Measurement.WaitTime.Source.Offset, 0
TestParameter, Measurement.WaitTime.Monitor.Coeff, 1
TestParameter, Measurement.WaitTime.Monitor.Offset, 0
TestParameter, Function.User.Name, Ohmic
TestParameter, Function.User.Unit, ohm
TestParameter, Function.User.Definition, avg(V1/I1)
TestParameter, Output.Graph.Enabled, true
TestParameter, Output.Graph.XAxis.Data, V1
TestParameter, Output.Graph.XAxis.Scale, Linear
TestParameter, Output.Graph.XAxis.Left, -5
TestParameter, Output.Graph.XAxis.Right, 5
TestParameter, Output.Graph.YAxis.Data, I1
TestParameter, Output.Graph.YAxis.Scale, Linear
TestParameter, Output.Graph.YAxis.Bottom, -0.001
TestParameter, Output.Graph.YAxis.Top, 0.001
TestParameter, Output.Graph.YAxis.Group, 
TestParameter, Output.Scalar.Data, Ohmic
TestParameter, AutoAnalysis.Interpolation, false
TestParameter, AutoAnalysis.Line1.Enabled, false
TestParameter, AutoAnalysis.Line1.Type, 1
TestParameter, AutoAnalysis.Line1.Fix, True
TestParameter, AutoAnalysis.Line1.YAxis, 0
TestParameter, AutoAnalysis.Line1.Point1.Type, 0
TestParameter, AutoAnalysis.Line1.Point1.XY.X, 
TestParameter, AutoAnalysis.Line1.Point1.XY.Y, 
TestParameter, AutoAnalysis.Line1.Point1.Data.Var, 
TestParameter, AutoAnalysis.Line1.Point1.Data.Condition, 
TestParameter, AutoAnalysis.Line1.Point1.Data.Start, false
TestParameter, AutoAnalysis.Line1.Point1.Data.StartVar, 
TestParameter, AutoAnalysis.Line1.Point1.Data.StartCondition, 
TestParameter, AutoAnalysis.Line1.Point2.Type, 0
TestParameter, AutoAnalysis.Line1.Point2.XY.X, 
TestParameter, AutoAnalysis.Line1.Point2.XY.Y, 
TestParameter, AutoAnalysis.Line1.Point2.Data.Var, 
TestParameter, AutoAnalysis.Line1.Point2.Data.Condition, 
TestParameter, AutoAnalysis.Line1.Point2.Data.Start, false
TestParameter, AutoAnalysis.Line1.Point2.Data.StartVar, 
TestParameter, AutoAnalysis.Line1.Point2.Data.StartCondition, 
TestParameter, AutoAnalysis.Line1.GradientExpr, 0
TestParameter, AutoAnalysis.Line2.Enabled, false
TestParameter, AutoAnalysis.Line2.Type, 1
TestParameter, AutoAnalysis.Line2.Fix, True
TestParameter, AutoAnalysis.Line2.YAxis, 0
TestParameter, AutoAnalysis.Line2.Point1.Type, 0
TestParameter, AutoAnalysis.Line2.Point1.XY.X, 
TestParameter, AutoAnalysis.Line2.Point1.XY.Y, 
TestParameter, AutoAnalysis.Line2.Point1.Data.Var, 
TestParameter, AutoAnalysis.Line2.Point1.Data.Condition, 
TestParameter, AutoAnalysis.Line2.Point1.Data.Start, false
TestParameter, AutoAnalysis.Line2.Point1.Data.StartVar, 
TestParameter, AutoAnalysis.Line2.Point1.Data.StartCondition, 
TestParameter, AutoAnalysis.Line2.Point2.Type, 0
TestParameter, AutoAnalysis.Line2.Point2.XY.X, 
TestParameter, AutoAnalysis.Line2.Point2.XY.Y, 
TestParameter, AutoAnalysis.Line2.Point2.Data.Var, 
TestParameter, AutoAnalysis.Line2.Point2.Data.Condition, 
TestParameter, AutoAnalysis.Line2.Point2.Data.Start, false
TestParameter, AutoAnalysis.Line2.Point2.Data.StartVar, 
TestParameter, AutoAnalysis.Line2.Point2.Data.StartCondition, 
TestParameter, AutoAnalysis.Line2.GradientExpr, 0
TestParameter, AutoAnalysis.Marker.Enabled, false
TestParameter, AutoAnalysis.Marker.Data.Var, 
TestParameter, AutoAnalysis.Marker.Data.Condition, 
TestParameter, AutoAnalysis.Marker.Data.Start, false
TestParameter, AutoAnalysis.Marker.Data.StartVar, 
TestParameter, AutoAnalysis.Marker.Data.StartCondition, 
MetaData, TestRecord.EntryPoint, true
MetaData, TestRecord.RecordTime, 09/11/2020 16:35:03
MetaData, TestRecord.TestTarget, 
MetaData, TestRecord.IterationIndex, 39
MetaData, TestRecord.Preservation, true
MetaData, TestRecord.Flag, 
MetaData, TestRecord.Remarks, 
MetaData, TestRecord.LinkKey, 977016b4-8071-48e0-918d-fa28b17a2e9e
Dimension1, 101, 101, 101
Dimension2, 1, 1, 1
DataName, V1, I1, Ohmic
DataValue, -5, -5.6E-09, 398700285.93319023
DataValue, -4.9, -5.5209999999999994E-09, 
DataValue, -4.8, -5.4265999999999994E-09, 
DataValue, -4.7, -5.4256999999999996E-09, 
DataValue, -4.6000000000000005, -5.3838999999999992E-09, 
DataValue, -4.5, -5.3708E-09, 
DataValue, -4.4, -5.382E-09, 
DataValue, -4.3, -5.3283999999999991E-09, 
DataValue, -4.2, -5.2213999999999994E-09, 
DataValue, -4.1, -5.1841999999999995E-09, 
DataValue, -4, -5.0623E-09, 
DataValue, -3.9, -4.9314999999999994E-09, 
DataValue, -3.8000000000000003, -4.8994999999999995E-09, 
DataValue, -3.7, -4.826E-09, 
DataValue, -3.6, -4.7359E-09, 
DataValue, -3.5, -4.6961E-09, 
DataValue, -3.4, -4.7413999999999994E-09, 
DataValue, -3.3000000000000003, -4.5983E-09, 
DataValue, -3.2, -4.6004E-09, 
DataValue, -3.1, -4.5173E-09, 
DataValue, -3, -4.4361E-09, 
DataValue, -2.9, -4.3047E-09, 
DataValue, -2.8000000000000003, -4.3162999999999992E-09, 
DataValue, -2.7, -4.2859999999999995E-09, 
DataValue, -2.6, -4.2161E-09, 
DataValue, -2.5, -4.1395E-09, 
DataValue, -2.4, -4.0947999999999995E-09, 
DataValue, -2.3000000000000003, -3.999E-09, 
DataValue, -2.2, -3.9403E-09, 
DataValue, -2.1, -3.8787999999999995E-09, 
DataValue, -2, -3.8662999999999994E-09, 
DataValue, -1.9000000000000001, -3.7472999999999993E-09, 
DataValue, -1.8, -3.7314E-09, 
DataValue, -1.7, -3.6819999999999995E-09, 
DataValue, -1.6, -3.5753999999999995E-09, 
DataValue, -1.5, -3.5301999999999997E-09, 
DataValue, -1.4000000000000001, -3.4719999999999996E-09, 
DataValue, -1.3, -3.3937999999999996E-09, 
DataValue, -1.2, -3.3447E-09, 
DataValue, -1.1, -3.2820999999999997E-09, 
DataValue, -1, -3.2158999999999996E-09, 
DataValue, -0.9, -3.1231999999999997E-09, 
DataValue, -0.8, -3.1042999999999997E-09, 
DataValue, -0.70000000000000007, -2.9707999999999997E-09, 
DataValue, -0.6, -2.8651999999999996E-09, 
DataValue, -0.5, -2.8089999999999997E-09, 
DataValue, -0.4, -2.7333999999999997E-09, 
DataValue, -0.3, -2.6136999999999998E-09, 
DataValue, -0.2, -2.2769E-09, 
DataValue, -0.1, -9.0319999999999994E-10, 
DataValue, 0, 2.8845999999999997E-09, 
DataValue, 0.1, 5.7901E-09, 
DataValue, 0.2, 6.7242999999999992E-09, 
DataValue, 0.3, 6.9771999999999994E-09, 
DataValue, 0.4, 7.0544999999999996E-09, 
DataValue, 0.5, 7.1836999999999995E-09, 
DataValue, 0.6, 7.2366999999999992E-09, 
DataValue, 0.70000000000000007, 7.3765999999999995E-09, 
DataValue, 0.8, 7.409999999999999E-09, 
DataValue, 0.9, 7.4323E-09, 
DataValue, 1, 7.55E-09, 
DataValue, 1.1, 7.7128999999999989E-09, 
DataValue, 1.2, 7.8627E-09, 
DataValue, 1.3, 7.9812999999999985E-09, 
DataValue, 1.4000000000000001, 8.1194999999999987E-09, 
DataValue, 1.5, 8.2311999999999986E-09, 
DataValue, 1.6, 8.3507999999999989E-09, 
DataValue, 1.7, 8.4914E-09, 
DataValue, 1.8, 8.7223E-09, 
DataValue, 1.9000000000000001, 8.809599999999999E-09, 
DataValue, 2, 8.8865E-09, 
DataValue, 2.1, 9.0138999999999984E-09, 
DataValue, 2.2, 9.1651999999999989E-09, 
DataValue, 2.3000000000000003, 9.4535E-09, 
DataValue, 2.4, 9.5356999999999988E-09, 
DataValue, 2.5, 9.7455E-09, 
DataValue, 2.6, 9.8447999999999989E-09, 
DataValue, 2.7, 9.9478999999999987E-09, 
DataValue, 2.8000000000000003, 1.01365E-08, 
DataValue, 2.9, 1.0360399999999998E-08, 
DataValue, 3, 1.0510899999999999E-08, 
DataValue, 3.1, 1.0665499999999999E-08, 
DataValue, 3.2, 1.0802599999999999E-08, 
DataValue, 3.3000000000000003, 1.09974E-08, 
DataValue, 3.4, 1.10816E-08, 
DataValue, 3.5, 1.1256499999999999E-08, 
DataValue, 3.6, 1.13009E-08, 
DataValue, 3.7, 1.15177E-08, 
DataValue, 3.8000000000000003, 1.1524499999999998E-08, 
DataValue, 3.9, 1.16957E-08, 
DataValue, 4, 1.1909099999999998E-08, 
DataValue, 4.1, 1.1970299999999999E-08, 
DataValue, 4.2, 1.20003E-08, 
DataValue, 4.3, 1.2154899999999998E-08, 
DataValue, 4.4, 1.22844E-08, 
DataValue, 4.5, 1.2421E-08, 
DataValue, 4.6000000000000005, 1.2471099999999998E-08, 
DataValue, 4.7, 1.2571699999999999E-08, 
DataValue, 4.8, 1.2655699999999998E-08, 
DataValue, 4.9, 1.2860199999999998E-08, 
DataValue, 5, 1.2912499999999999E-08, 