
SetupTitle, WW
PrimitiveTest, I/V Sweep
TestParameter, Context.MainFrame, B1500A
TestParameter, Channel.UnitType, SMU, SMU
TestParameter, Channel.Unit, SMU1:HP, SMU2:HP
TestParameter, Channel.IName, I1, I4
TestParameter, Channel.VName, V1, V4
TestParameter, Channel.Mode, V, COMMON
TestParameter, Channel.Func, VAR1, CONST
TestParameter, Channel.Index, 
TestParameter, Channel.Time, 
TestParameter, Measurement.Port.Unit, SMU1:HP, SMU2:HP
TestParameter, Measurement.Port.SeriesResistor, NONE, NONE
TestParameter, Measurement.Port.Filter, ON, ON
TestParameter, Measurement.Port.OutputVoltageComparison, 0, 0
TestParameter, Measurement.Primary.Locus, Single
TestParameter, Measurement.Primary.Scale, LINEAR
TestParameter, Measurement.Primary.Start, -5
TestParameter, Measurement.Primary.Stop, 5
TestParameter, Measurement.Primary.Step, 0.1
TestParameter, Measurement.Primary.Compliance, 0.1
TestParameter, Measurement.Primary.PowerCompliance, 0
TestParameter, Measurement.Aborting.Condition, CONTINUE AT ANY
TestParameter, Measurement.PostOutput.Value, START
TestParameter, Measurement.PostOutput.Retention, OFF
TestParameter, Measurement.Bias.Source, -5, 0
TestParameter, Measurement.Bias.Compliance, 0.1, 1
TestParameter, Measurement.Monitor.Unit, SMU1:HP, SMU2:HP
TestParameter, Measurement.Monitor.Adc, HR ADC, HR ADC
TestParameter, Measurement.Monitor.Measurement, Compliance Side, Compliance Side
TestParameter, Measurement.Monitor.RangingMode, AUTO, AUTO
TestParameter, Measurement.Monitor.RangeBoundary, , 
TestParameter, Measurement.Monitor.RangeRating, BY FULL RANGE, BY FULL RANGE
TestParameter, Measurement.Monitor.RangeRatingCoeff, 50, 50
TestParameter, Measurement.Timing.Hold, 0
TestParameter, Measurement.Timing.Delay, 0.001
TestParameter, Measurement.Adc.HighSpeed.Mode, AUTO
TestParameter, Measurement.Adc.HighSpeed.Coeff, 1
TestParameter, Measurement.Adc.HighResolution.AutoZero, OFF
TestParameter, Measurement.Adc.HighResolution.Mode, PLC
TestParameter, Measurement.Adc.HighResolution.Coeff, 1
TestParameter, Measurement.WaitTime.Source.Coeff, 1
TestParameter, Measurement.WaitTime.Source.Offset, 0
TestParameter, Measurement.WaitTime.Monitor.Coeff, 1
TestParameter, Measurement.WaitTime.Monitor.Offset, 0
TestParameter, Function.User.Name, Ohmic
TestParameter, Function.User.Unit, ohm
TestParameter, Function.User.Definition, avg(V1/I1)
TestParameter, Output.Graph.Enabled, true
TestParameter, Output.Graph.XAxis.Data, V1
TestParameter, Output.Graph.XAxis.Scale, Linear
TestParameter, Output.Graph.XAxis.Left, -5
TestParameter, Output.Graph.XAxis.Right, 5
TestParameter, Output.Graph.YAxis.Data, I1
TestParameter, Output.Graph.YAxis.Scale, Linear
TestParameter, Output.Graph.YAxis.Bottom, -0.001
TestParameter, Output.Graph.YAxis.Top, 0.001
TestParameter, Output.Graph.YAxis.Group, 
TestParameter, Output.Scalar.Data, Ohmic
TestParameter, AutoAnalysis.Interpolation, false
TestParameter, AutoAnalysis.Line1.Enabled, false
TestParameter, AutoAnalysis.Line1.Type, 1
TestParameter, AutoAnalysis.Line1.Fix, True
TestParameter, AutoAnalysis.Line1.YAxis, 0
TestParameter, AutoAnalysis.Line1.Point1.Type, 0
TestParameter, AutoAnalysis.Line1.Point1.XY.X, 
TestParameter, AutoAnalysis.Line1.Point1.XY.Y, 
TestParameter, AutoAnalysis.Line1.Point1.Data.Var, 
TestParameter, AutoAnalysis.Line1.Point1.Data.Condition, 
TestParameter, AutoAnalysis.Line1.Point1.Data.Start, false
TestParameter, AutoAnalysis.Line1.Point1.Data.StartVar, 
TestParameter, AutoAnalysis.Line1.Point1.Data.StartCondition, 
TestParameter, AutoAnalysis.Line1.Point2.Type, 0
TestParameter, AutoAnalysis.Line1.Point2.XY.X, 
TestParameter, AutoAnalysis.Line1.Point2.XY.Y, 
TestParameter, AutoAnalysis.Line1.Point2.Data.Var, 
TestParameter, AutoAnalysis.Line1.Point2.Data.Condition, 
TestParameter, AutoAnalysis.Line1.Point2.Data.Start, false
TestParameter, AutoAnalysis.Line1.Point2.Data.StartVar, 
TestParameter, AutoAnalysis.Line1.Point2.Data.StartCondition, 
TestParameter, AutoAnalysis.Line1.GradientExpr, 0
TestParameter, AutoAnalysis.Line2.Enabled, false
TestParameter, AutoAnalysis.Line2.Type, 1
TestParameter, AutoAnalysis.Line2.Fix, True
TestParameter, AutoAnalysis.Line2.YAxis, 0
TestParameter, AutoAnalysis.Line2.Point1.Type, 0
TestParameter, AutoAnalysis.Line2.Point1.XY.X, 
TestParameter, AutoAnalysis.Line2.Point1.XY.Y, 
TestParameter, AutoAnalysis.Line2.Point1.Data.Var, 
TestParameter, AutoAnalysis.Line2.Point1.Data.Condition, 
TestParameter, AutoAnalysis.Line2.Point1.Data.Start, false
TestParameter, AutoAnalysis.Line2.Point1.Data.StartVar, 
TestParameter, AutoAnalysis.Line2.Point1.Data.StartCondition, 
TestParameter, AutoAnalysis.Line2.Point2.Type, 0
TestParameter, AutoAnalysis.Line2.Point2.XY.X, 
TestParameter, AutoAnalysis.Line2.Point2.XY.Y, 
TestParameter, AutoAnalysis.Line2.Point2.Data.Var, 
TestParameter, AutoAnalysis.Line2.Point2.Data.Condition, 
TestParameter, AutoAnalysis.Line2.Point2.Data.Start, false
TestParameter, AutoAnalysis.Line2.Point2.Data.StartVar, 
TestParameter, AutoAnalysis.Line2.Point2.Data.StartCondition, 
TestParameter, AutoAnalysis.Line2.GradientExpr, 0
TestParameter, AutoAnalysis.Marker.Enabled, false
TestParameter, AutoAnalysis.Marker.Data.Var, 
TestParameter, AutoAnalysis.Marker.Data.Condition, 
TestParameter, AutoAnalysis.Marker.Data.Start, false
TestParameter, AutoAnalysis.Marker.Data.StartVar, 
TestParameter, AutoAnalysis.Marker.Data.StartCondition, 
MetaData, TestRecord.EntryPoint, true
MetaData, TestRecord.RecordTime, 09/11/2020 16:33:18
MetaData, TestRecord.TestTarget, 
MetaData, TestRecord.IterationIndex, 36
MetaData, TestRecord.Preservation, true
MetaData, TestRecord.Flag, 
MetaData, TestRecord.Remarks, 
MetaData, TestRecord.LinkKey, b78a5520-430b-4df9-91d7-f3ec020a323c
Dimension1, 101, 101, 101
Dimension2, 1, 1, 1
DataName, V1, I1, Ohmic
DataValue, -5, -4.2114E-09, 492247362.41023904
DataValue, -4.9, -4.198E-09, 
DataValue, -4.8, -4.0867E-09, 
DataValue, -4.7, -4.0545E-09, 
DataValue, -4.6000000000000005, -3.9960999999999995E-09, 
DataValue, -4.5, -3.9355E-09, 
DataValue, -4.4, -3.9185999999999993E-09, 
DataValue, -4.3, -3.8448E-09, 
DataValue, -4.2, -3.8469E-09, 
DataValue, -4.1, -3.7927E-09, 
DataValue, -4, -3.7854E-09, 
DataValue, -3.9, -3.7258999999999993E-09, 
DataValue, -3.8000000000000003, -3.7120999999999996E-09, 
DataValue, -3.7, -3.6737999999999995E-09, 
DataValue, -3.6, -3.6226999999999995E-09, 
DataValue, -3.5, -3.5648999999999995E-09, 
DataValue, -3.4, -3.5415E-09, 
DataValue, -3.3000000000000003, -3.4441999999999997E-09, 
DataValue, -3.2, -3.4553E-09, 
DataValue, -3.1, -3.3775999999999996E-09, 
DataValue, -3, -3.3355999999999995E-09, 
DataValue, -2.9, -3.3120999999999998E-09, 
DataValue, -2.8000000000000003, -3.1880999999999998E-09, 
DataValue, -2.7, -3.2396E-09, 
DataValue, -2.6, -3.1310999999999997E-09, 
DataValue, -2.5, -3.0747999999999998E-09, 
DataValue, -2.4, -3.11E-09, 
DataValue, -2.3000000000000003, -3.0658E-09, 
DataValue, -2.2, -3.0025999999999995E-09, 
DataValue, -2.1, -2.9075999999999998E-09, 
DataValue, -2, -2.9235999999999997E-09, 
DataValue, -1.9000000000000001, -2.8625999999999996E-09, 
DataValue, -1.8, -2.8194999999999996E-09, 
DataValue, -1.7, -2.7556E-09, 
DataValue, -1.6, -2.7168999999999996E-09, 
DataValue, -1.5, -2.6572E-09, 
DataValue, -1.4000000000000001, -2.5774E-09, 
DataValue, -1.3, -2.5214999999999996E-09, 
DataValue, -1.2, -2.4983E-09, 
DataValue, -1.1, -2.4727E-09, 
DataValue, -1, -2.4094999999999996E-09, 
DataValue, -0.9, -2.374E-09, 
DataValue, -0.8, -2.3137E-09, 
DataValue, -0.70000000000000007, -2.2689E-09, 
DataValue, -0.6, -2.2058999999999996E-09, 
DataValue, -0.5, -2.1341E-09, 
DataValue, -0.4, -2.1057E-09, 
DataValue, -0.3, -1.9945999999999997E-09, 
DataValue, -0.2, -1.766E-09, 
DataValue, -0.1, -4.2969999999999997E-10, 
DataValue, 0, 3.3106999999999997E-09, 
DataValue, 0.1, 6.223E-09, 
DataValue, 0.2, 7.1231999999999996E-09, 
DataValue, 0.3, 7.3262999999999994E-09, 
DataValue, 0.4, 7.4444999999999993E-09, 
DataValue, 0.5, 7.5045E-09, 
DataValue, 0.6, 7.5951999999999988E-09, 
DataValue, 0.70000000000000007, 7.6554E-09, 
DataValue, 0.8, 7.7517E-09, 
DataValue, 0.9, 7.7809E-09, 
DataValue, 1, 7.8532999999999989E-09, 
DataValue, 1.1, 7.8931999999999992E-09, 
DataValue, 1.2, 8.0364999999999989E-09, 
DataValue, 1.3, 8.0986999999999989E-09, 
DataValue, 1.4000000000000001, 8.2523E-09, 
DataValue, 1.5, 8.3249999999999984E-09, 
DataValue, 1.6, 8.4456E-09, 
DataValue, 1.7, 8.6649E-09, 
DataValue, 1.8, 8.743E-09, 
DataValue, 1.9000000000000001, 8.9211E-09, 
DataValue, 2, 9.0826E-09, 
DataValue, 2.1, 9.2858999999999991E-09, 
DataValue, 2.2, 9.3545999999999983E-09, 
DataValue, 2.3000000000000003, 9.4707999999999984E-09, 
DataValue, 2.4, 9.6126E-09, 
DataValue, 2.5, 9.8118E-09, 
DataValue, 2.6, 9.8860999999999988E-09, 
DataValue, 2.7, 1.00359E-08, 
DataValue, 2.8000000000000003, 1.0158199999999998E-08, 
DataValue, 2.9, 1.02989E-08, 
DataValue, 3, 1.03916E-08, 
DataValue, 3.1, 1.05052E-08, 
DataValue, 3.2, 1.0669499999999998E-08, 
DataValue, 3.3000000000000003, 1.0807399999999999E-08, 
DataValue, 3.4, 1.09755E-08, 
DataValue, 3.5, 1.10607E-08, 
DataValue, 3.6, 1.12145E-08, 
DataValue, 3.7, 1.1437299999999998E-08, 
DataValue, 3.8000000000000003, 1.1459099999999999E-08, 
DataValue, 3.9, 1.15367E-08, 
DataValue, 4, 1.1743599999999999E-08, 
DataValue, 4.1, 1.19388E-08, 
DataValue, 4.2, 1.2056699999999999E-08, 
DataValue, 4.3, 1.2217E-08, 
DataValue, 4.4, 1.2225099999999999E-08, 
DataValue, 4.5, 1.2317299999999998E-08, 
DataValue, 4.6000000000000005, 1.2469299999999999E-08, 
DataValue, 4.7, 1.2659199999999999E-08, 
DataValue, 4.8, 1.2753799999999999E-08, 
DataValue, 4.9, 1.2994799999999999E-08, 
DataValue, 5, 1.3041899999999998E-08, 