
SetupTitle, WW
PrimitiveTest, I/V Sweep
TestParameter, Context.MainFrame, B1500A
TestParameter, Channel.UnitType, SMU, SMU
TestParameter, Channel.Unit, SMU1:HP, SMU2:HP
TestParameter, Channel.IName, I1, I4
TestParameter, Channel.VName, V1, V4
TestParameter, Channel.Mode, V, COMMON
TestParameter, Channel.Func, VAR1, CONST
TestParameter, Channel.Index, 
TestParameter, Channel.Time, 
TestParameter, Measurement.Port.Unit, SMU1:HP, SMU2:HP
TestParameter, Measurement.Port.SeriesResistor, NONE, NONE
TestParameter, Measurement.Port.Filter, ON, ON
TestParameter, Measurement.Port.OutputVoltageComparison, 0, 0
TestParameter, Measurement.Primary.Locus, Single
TestParameter, Measurement.Primary.Scale, LINEAR
TestParameter, Measurement.Primary.Start, -5
TestParameter, Measurement.Primary.Stop, 5
TestParameter, Measurement.Primary.Step, 0.1
TestParameter, Measurement.Primary.Compliance, 0.1
TestParameter, Measurement.Primary.PowerCompliance, 0
TestParameter, Measurement.Aborting.Condition, CONTINUE AT ANY
TestParameter, Measurement.PostOutput.Value, START
TestParameter, Measurement.PostOutput.Retention, OFF
TestParameter, Measurement.Bias.Source, -5, 0
TestParameter, Measurement.Bias.Compliance, 0.1, 1
TestParameter, Measurement.Monitor.Unit, SMU1:HP, SMU2:HP
TestParameter, Measurement.Monitor.Adc, HR ADC, HR ADC
TestParameter, Measurement.Monitor.Measurement, Compliance Side, Compliance Side
TestParameter, Measurement.Monitor.RangingMode, AUTO, AUTO
TestParameter, Measurement.Monitor.RangeBoundary, , 
TestParameter, Measurement.Monitor.RangeRating, BY FULL RANGE, BY FULL RANGE
TestParameter, Measurement.Monitor.RangeRatingCoeff, 50, 50
TestParameter, Measurement.Timing.Hold, 0
TestParameter, Measurement.Timing.Delay, 0.001
TestParameter, Measurement.Adc.HighSpeed.Mode, AUTO
TestParameter, Measurement.Adc.HighSpeed.Coeff, 1
TestParameter, Measurement.Adc.HighResolution.AutoZero, OFF
TestParameter, Measurement.Adc.HighResolution.Mode, PLC
TestParameter, Measurement.Adc.HighResolution.Coeff, 1
TestParameter, Measurement.WaitTime.Source.Coeff, 1
TestParameter, Measurement.WaitTime.Source.Offset, 0
TestParameter, Measurement.WaitTime.Monitor.Coeff, 1
TestParameter, Measurement.WaitTime.Monitor.Offset, 0
TestParameter, Function.User.Name, Ohmic
TestParameter, Function.User.Unit, ohm
TestParameter, Function.User.Definition, avg(V1/I1)
TestParameter, Output.Graph.Enabled, true
TestParameter, Output.Graph.XAxis.Data, V1
TestParameter, Output.Graph.XAxis.Scale, Linear
TestParameter, Output.Graph.XAxis.Left, -5
TestParameter, Output.Graph.XAxis.Right, 5
TestParameter, Output.Graph.YAxis.Data, I1
TestParameter, Output.Graph.YAxis.Scale, Linear
TestParameter, Output.Graph.YAxis.Bottom, -0.001
TestParameter, Output.Graph.YAxis.Top, 0.001
TestParameter, Output.Graph.YAxis.Group, 
TestParameter, Output.Scalar.Data, Ohmic
TestParameter, AutoAnalysis.Interpolation, false
TestParameter, AutoAnalysis.Line1.Enabled, false
TestParameter, AutoAnalysis.Line1.Type, 1
TestParameter, AutoAnalysis.Line1.Fix, True
TestParameter, AutoAnalysis.Line1.YAxis, 0
TestParameter, AutoAnalysis.Line1.Point1.Type, 0
TestParameter, AutoAnalysis.Line1.Point1.XY.X, 
TestParameter, AutoAnalysis.Line1.Point1.XY.Y, 
TestParameter, AutoAnalysis.Line1.Point1.Data.Var, 
TestParameter, AutoAnalysis.Line1.Point1.Data.Condition, 
TestParameter, AutoAnalysis.Line1.Point1.Data.Start, false
TestParameter, AutoAnalysis.Line1.Point1.Data.StartVar, 
TestParameter, AutoAnalysis.Line1.Point1.Data.StartCondition, 
TestParameter, AutoAnalysis.Line1.Point2.Type, 0
TestParameter, AutoAnalysis.Line1.Point2.XY.X, 
TestParameter, AutoAnalysis.Line1.Point2.XY.Y, 
TestParameter, AutoAnalysis.Line1.Point2.Data.Var, 
TestParameter, AutoAnalysis.Line1.Point2.Data.Condition, 
TestParameter, AutoAnalysis.Line1.Point2.Data.Start, false
TestParameter, AutoAnalysis.Line1.Point2.Data.StartVar, 
TestParameter, AutoAnalysis.Line1.Point2.Data.StartCondition, 
TestParameter, AutoAnalysis.Line1.GradientExpr, 0
TestParameter, AutoAnalysis.Line2.Enabled, false
TestParameter, AutoAnalysis.Line2.Type, 1
TestParameter, AutoAnalysis.Line2.Fix, True
TestParameter, AutoAnalysis.Line2.YAxis, 0
TestParameter, AutoAnalysis.Line2.Point1.Type, 0
TestParameter, AutoAnalysis.Line2.Point1.XY.X, 
TestParameter, AutoAnalysis.Line2.Point1.XY.Y, 
TestParameter, AutoAnalysis.Line2.Point1.Data.Var, 
TestParameter, AutoAnalysis.Line2.Point1.Data.Condition, 
TestParameter, AutoAnalysis.Line2.Point1.Data.Start, false
TestParameter, AutoAnalysis.Line2.Point1.Data.StartVar, 
TestParameter, AutoAnalysis.Line2.Point1.Data.StartCondition, 
TestParameter, AutoAnalysis.Line2.Point2.Type, 0
TestParameter, AutoAnalysis.Line2.Point2.XY.X, 
TestParameter, AutoAnalysis.Line2.Point2.XY.Y, 
TestParameter, AutoAnalysis.Line2.Point2.Data.Var, 
TestParameter, AutoAnalysis.Line2.Point2.Data.Condition, 
TestParameter, AutoAnalysis.Line2.Point2.Data.Start, false
TestParameter, AutoAnalysis.Line2.Point2.Data.StartVar, 
TestParameter, AutoAnalysis.Line2.Point2.Data.StartCondition, 
TestParameter, AutoAnalysis.Line2.GradientExpr, 0
TestParameter, AutoAnalysis.Marker.Enabled, false
TestParameter, AutoAnalysis.Marker.Data.Var, 
TestParameter, AutoAnalysis.Marker.Data.Condition, 
TestParameter, AutoAnalysis.Marker.Data.Start, false
TestParameter, AutoAnalysis.Marker.Data.StartVar, 
TestParameter, AutoAnalysis.Marker.Data.StartCondition, 
MetaData, TestRecord.EntryPoint, true
MetaData, TestRecord.RecordTime, 09/11/2020 16:32:51
MetaData, TestRecord.TestTarget, 
MetaData, TestRecord.IterationIndex, 35
MetaData, TestRecord.Preservation, true
MetaData, TestRecord.Flag, 
MetaData, TestRecord.Remarks, 
MetaData, TestRecord.LinkKey, 7b8ff30f-e88d-4fe4-958e-4e3953d4cc6f
Dimension1, 101, 101, 101
Dimension2, 1, 1, 1
DataName, V1, I1, Ohmic
DataValue, -5, -4.1516E-09, 512371907.18274522
DataValue, -4.9, -4.0353999999999995E-09, 
DataValue, -4.8, -3.9941E-09, 
DataValue, -4.7, -3.9459E-09, 
DataValue, -4.6000000000000005, -3.8638999999999994E-09, 
DataValue, -4.5, -3.8768E-09, 
DataValue, -4.4, -3.769E-09, 
DataValue, -4.3, -3.7338999999999993E-09, 
DataValue, -4.2, -3.7467E-09, 
DataValue, -4.1, -3.6511999999999996E-09, 
DataValue, -4, -3.6077E-09, 
DataValue, -3.9, -3.6262999999999998E-09, 
DataValue, -3.8000000000000003, -3.5762999999999997E-09, 
DataValue, -3.7, -3.5152999999999996E-09, 
DataValue, -3.6, -3.4418E-09, 
DataValue, -3.5, -3.4176999999999995E-09, 
DataValue, -3.4, -3.4014999999999995E-09, 
DataValue, -3.3000000000000003, -3.2836999999999997E-09, 
DataValue, -3.2, -3.2397999999999995E-09, 
DataValue, -3.1, -3.2169999999999995E-09, 
DataValue, -3, -3.1929999999999996E-09, 
DataValue, -2.9, -3.1779999999999996E-09, 
DataValue, -2.8000000000000003, -3.0941999999999995E-09, 
DataValue, -2.7, -3.0499999999999996E-09, 
DataValue, -2.6, -3.0078999999999995E-09, 
DataValue, -2.5, -2.9736999999999998E-09, 
DataValue, -2.4, -2.9004999999999997E-09, 
DataValue, -2.3000000000000003, -2.8461999999999995E-09, 
DataValue, -2.2, -2.8108E-09, 
DataValue, -2.1, -2.7616999999999997E-09, 
DataValue, -2, -2.7140999999999996E-09, 
DataValue, -1.9000000000000001, -2.7257E-09, 
DataValue, -1.8, -2.6315E-09, 
DataValue, -1.7, -2.6197999999999996E-09, 
DataValue, -1.6, -2.5714999999999997E-09, 
DataValue, -1.5, -2.4763E-09, 
DataValue, -1.4000000000000001, -2.4445999999999996E-09, 
DataValue, -1.3, -2.4296E-09, 
DataValue, -1.2, -2.3678999999999997E-09, 
DataValue, -1.1, -2.3527999999999996E-09, 
DataValue, -1, -2.2733999999999996E-09, 
DataValue, -0.9, -2.2283E-09, 
DataValue, -0.8, -2.1533999999999996E-09, 
DataValue, -0.70000000000000007, -2.1376999999999998E-09, 
DataValue, -0.6, -2.0639E-09, 
DataValue, -0.5, -2.0675999999999998E-09, 
DataValue, -0.4, -1.9430999999999996E-09, 
DataValue, -0.3, -1.8931E-09, 
DataValue, -0.2, -1.5971999999999998E-09, 
DataValue, -0.1, -2.8809999999999997E-10, 
DataValue, 0, 3.3997999999999998E-09, 
DataValue, 0.1, 6.3094E-09, 
DataValue, 0.2, 7.1670999999999994E-09, 
DataValue, 0.3, 7.454E-09, 
DataValue, 0.4, 7.5247E-09, 
DataValue, 0.5, 7.6054E-09, 
DataValue, 0.6, 7.6622999999999991E-09, 
DataValue, 0.70000000000000007, 7.732299999999999E-09, 
DataValue, 0.8, 7.8401999999999986E-09, 
DataValue, 0.9, 7.8505999999999985E-09, 
DataValue, 1, 7.8848E-09, 
DataValue, 1.1, 7.9403E-09, 
DataValue, 1.2, 8.0396E-09, 
DataValue, 1.3, 8.1625E-09, 
DataValue, 1.4000000000000001, 8.1965999999999988E-09, 
DataValue, 1.5, 8.2706E-09, 
DataValue, 1.6, 8.4322E-09, 
DataValue, 1.7, 8.5134E-09, 
DataValue, 1.8, 8.6602999999999991E-09, 
DataValue, 1.9000000000000001, 8.7517999999999987E-09, 
DataValue, 2, 8.8548E-09, 
DataValue, 2.1, 8.9654E-09, 
DataValue, 2.2, 9.1672E-09, 
DataValue, 2.3000000000000003, 9.2690999999999989E-09, 
DataValue, 2.4, 9.416E-09, 
DataValue, 2.5, 9.5686E-09, 
DataValue, 2.6, 9.6830999999999985E-09, 
DataValue, 2.7, 9.828799999999999E-09, 
DataValue, 2.8000000000000003, 9.9104E-09, 
DataValue, 2.9, 1.0107199999999998E-08, 
DataValue, 3, 1.02542E-08, 
DataValue, 3.1, 1.03682E-08, 
DataValue, 3.2, 1.03908E-08, 
DataValue, 3.3000000000000003, 1.05871E-08, 
DataValue, 3.4, 1.0683699999999999E-08, 
DataValue, 3.5, 1.08533E-08, 
DataValue, 3.6, 1.10027E-08, 
DataValue, 3.7, 1.1107799999999998E-08, 
DataValue, 3.8000000000000003, 1.1257499999999998E-08, 
DataValue, 3.9, 1.14502E-08, 
DataValue, 4, 1.1537899999999998E-08, 
DataValue, 4.1, 1.1669699999999998E-08, 
DataValue, 4.2, 1.1755499999999999E-08, 
DataValue, 4.3, 1.189E-08, 
DataValue, 4.4, 1.2002999999999998E-08, 
DataValue, 4.5, 1.2065699999999999E-08, 
DataValue, 4.6000000000000005, 1.2218599999999998E-08, 
DataValue, 4.7, 1.2312499999999999E-08, 
DataValue, 4.8, 1.2450399999999999E-08, 
DataValue, 4.9, 1.2558899999999998E-08, 
DataValue, 5, 1.2587699999999999E-08, 