
SetupTitle, WW
PrimitiveTest, I/V Sweep
TestParameter, Context.MainFrame, B1500A
TestParameter, Channel.UnitType, SMU, SMU
TestParameter, Channel.Unit, SMU1:HP, SMU2:HP
TestParameter, Channel.IName, I1, I4
TestParameter, Channel.VName, V1, V4
TestParameter, Channel.Mode, V, COMMON
TestParameter, Channel.Func, VAR1, CONST
TestParameter, Channel.Index, 
TestParameter, Channel.Time, 
TestParameter, Measurement.Port.Unit, SMU1:HP, SMU2:HP
TestParameter, Measurement.Port.SeriesResistor, NONE, NONE
TestParameter, Measurement.Port.Filter, ON, ON
TestParameter, Measurement.Port.OutputVoltageComparison, 0, 0
TestParameter, Measurement.Primary.Locus, Single
TestParameter, Measurement.Primary.Scale, LINEAR
TestParameter, Measurement.Primary.Start, -5
TestParameter, Measurement.Primary.Stop, 5
TestParameter, Measurement.Primary.Step, 0.1
TestParameter, Measurement.Primary.Compliance, 0.1
TestParameter, Measurement.Primary.PowerCompliance, 0
TestParameter, Measurement.Aborting.Condition, CONTINUE AT ANY
TestParameter, Measurement.PostOutput.Value, START
TestParameter, Measurement.PostOutput.Retention, OFF
TestParameter, Measurement.Bias.Source, -5, 0
TestParameter, Measurement.Bias.Compliance, 0.1, 1
TestParameter, Measurement.Monitor.Unit, SMU1:HP, SMU2:HP
TestParameter, Measurement.Monitor.Adc, HR ADC, HR ADC
TestParameter, Measurement.Monitor.Measurement, Compliance Side, Compliance Side
TestParameter, Measurement.Monitor.RangingMode, AUTO, AUTO
TestParameter, Measurement.Monitor.RangeBoundary, , 
TestParameter, Measurement.Monitor.RangeRating, BY FULL RANGE, BY FULL RANGE
TestParameter, Measurement.Monitor.RangeRatingCoeff, 50, 50
TestParameter, Measurement.Timing.Hold, 0
TestParameter, Measurement.Timing.Delay, 0.001
TestParameter, Measurement.Adc.HighSpeed.Mode, AUTO
TestParameter, Measurement.Adc.HighSpeed.Coeff, 1
TestParameter, Measurement.Adc.HighResolution.AutoZero, OFF
TestParameter, Measurement.Adc.HighResolution.Mode, PLC
TestParameter, Measurement.Adc.HighResolution.Coeff, 1
TestParameter, Measurement.WaitTime.Source.Coeff, 1
TestParameter, Measurement.WaitTime.Source.Offset, 0
TestParameter, Measurement.WaitTime.Monitor.Coeff, 1
TestParameter, Measurement.WaitTime.Monitor.Offset, 0
TestParameter, Function.User.Name, Ohmic
TestParameter, Function.User.Unit, ohm
TestParameter, Function.User.Definition, avg(V1/I1)
TestParameter, Output.Graph.Enabled, true
TestParameter, Output.Graph.XAxis.Data, V1
TestParameter, Output.Graph.XAxis.Scale, Linear
TestParameter, Output.Graph.XAxis.Left, -5
TestParameter, Output.Graph.XAxis.Right, 5
TestParameter, Output.Graph.YAxis.Data, I1
TestParameter, Output.Graph.YAxis.Scale, Linear
TestParameter, Output.Graph.YAxis.Bottom, -0.001
TestParameter, Output.Graph.YAxis.Top, 0.001
TestParameter, Output.Graph.YAxis.Group, 
TestParameter, Output.Scalar.Data, Ohmic
TestParameter, AutoAnalysis.Interpolation, false
TestParameter, AutoAnalysis.Line1.Enabled, false
TestParameter, AutoAnalysis.Line1.Type, 1
TestParameter, AutoAnalysis.Line1.Fix, True
TestParameter, AutoAnalysis.Line1.YAxis, 0
TestParameter, AutoAnalysis.Line1.Point1.Type, 0
TestParameter, AutoAnalysis.Line1.Point1.XY.X, 
TestParameter, AutoAnalysis.Line1.Point1.XY.Y, 
TestParameter, AutoAnalysis.Line1.Point1.Data.Var, 
TestParameter, AutoAnalysis.Line1.Point1.Data.Condition, 
TestParameter, AutoAnalysis.Line1.Point1.Data.Start, false
TestParameter, AutoAnalysis.Line1.Point1.Data.StartVar, 
TestParameter, AutoAnalysis.Line1.Point1.Data.StartCondition, 
TestParameter, AutoAnalysis.Line1.Point2.Type, 0
TestParameter, AutoAnalysis.Line1.Point2.XY.X, 
TestParameter, AutoAnalysis.Line1.Point2.XY.Y, 
TestParameter, AutoAnalysis.Line1.Point2.Data.Var, 
TestParameter, AutoAnalysis.Line1.Point2.Data.Condition, 
TestParameter, AutoAnalysis.Line1.Point2.Data.Start, false
TestParameter, AutoAnalysis.Line1.Point2.Data.StartVar, 
TestParameter, AutoAnalysis.Line1.Point2.Data.StartCondition, 
TestParameter, AutoAnalysis.Line1.GradientExpr, 0
TestParameter, AutoAnalysis.Line2.Enabled, false
TestParameter, AutoAnalysis.Line2.Type, 1
TestParameter, AutoAnalysis.Line2.Fix, True
TestParameter, AutoAnalysis.Line2.YAxis, 0
TestParameter, AutoAnalysis.Line2.Point1.Type, 0
TestParameter, AutoAnalysis.Line2.Point1.XY.X, 
TestParameter, AutoAnalysis.Line2.Point1.XY.Y, 
TestParameter, AutoAnalysis.Line2.Point1.Data.Var, 
TestParameter, AutoAnalysis.Line2.Point1.Data.Condition, 
TestParameter, AutoAnalysis.Line2.Point1.Data.Start, false
TestParameter, AutoAnalysis.Line2.Point1.Data.StartVar, 
TestParameter, AutoAnalysis.Line2.Point1.Data.StartCondition, 
TestParameter, AutoAnalysis.Line2.Point2.Type, 0
TestParameter, AutoAnalysis.Line2.Point2.XY.X, 
TestParameter, AutoAnalysis.Line2.Point2.XY.Y, 
TestParameter, AutoAnalysis.Line2.Point2.Data.Var, 
TestParameter, AutoAnalysis.Line2.Point2.Data.Condition, 
TestParameter, AutoAnalysis.Line2.Point2.Data.Start, false
TestParameter, AutoAnalysis.Line2.Point2.Data.StartVar, 
TestParameter, AutoAnalysis.Line2.Point2.Data.StartCondition, 
TestParameter, AutoAnalysis.Line2.GradientExpr, 0
TestParameter, AutoAnalysis.Marker.Enabled, false
TestParameter, AutoAnalysis.Marker.Data.Var, 
TestParameter, AutoAnalysis.Marker.Data.Condition, 
TestParameter, AutoAnalysis.Marker.Data.Start, false
TestParameter, AutoAnalysis.Marker.Data.StartVar, 
TestParameter, AutoAnalysis.Marker.Data.StartCondition, 
MetaData, TestRecord.EntryPoint, true
MetaData, TestRecord.RecordTime, 09/11/2020 16:31:22
MetaData, TestRecord.TestTarget, 
MetaData, TestRecord.IterationIndex, 33
MetaData, TestRecord.Preservation, true
MetaData, TestRecord.Flag, 
MetaData, TestRecord.Remarks, 
MetaData, TestRecord.LinkKey, 1809b8fa-1721-43b8-8f0a-40c563f8d44a
Dimension1, 101, 101, 101
Dimension2, 1, 1, 1
DataName, V1, I1, Ohmic
DataValue, -5, -2.7012999999999998E-09, 689376244.97419155
DataValue, -4.9, -2.6535999999999996E-09, 
DataValue, -4.8, -2.6470999999999997E-09, 
DataValue, -4.7, -2.6061E-09, 
DataValue, -4.6000000000000005, -2.5348999999999996E-09, 
DataValue, -4.5, -2.5771999999999997E-09, 
DataValue, -4.4, -2.5325999999999997E-09, 
DataValue, -4.3, -2.5378999999999997E-09, 
DataValue, -4.2, -2.4633E-09, 
DataValue, -4.1, -2.4815999999999998E-09, 
DataValue, -4, -2.4433999999999996E-09, 
DataValue, -3.9, -2.3889E-09, 
DataValue, -3.8000000000000003, -2.4131E-09, 
DataValue, -3.7, -2.3429E-09, 
DataValue, -3.6, -2.2629999999999997E-09, 
DataValue, -3.5, -2.2949999999999996E-09, 
DataValue, -3.4, -2.1952999999999996E-09, 
DataValue, -3.3000000000000003, -2.2525E-09, 
DataValue, -3.2, -2.215E-09, 
DataValue, -3.1, -2.1662E-09, 
DataValue, -3, -2.1877E-09, 
DataValue, -2.9, -2.1433E-09, 
DataValue, -2.8000000000000003, -2.1612E-09, 
DataValue, -2.7, -2.0634999999999998E-09, 
DataValue, -2.6, -1.9919999999999997E-09, 
DataValue, -2.5, -2.0533E-09, 
DataValue, -2.4, -2.0268999999999997E-09, 
DataValue, -2.3000000000000003, -1.9955E-09, 
DataValue, -2.2, -1.9586E-09, 
DataValue, -2.1, -1.8905999999999997E-09, 
DataValue, -2, -1.9109999999999997E-09, 
DataValue, -1.9000000000000001, -1.863E-09, 
DataValue, -1.8, -1.8128999999999998E-09, 
DataValue, -1.7, -1.8592999999999998E-09, 
DataValue, -1.6, -1.8196999999999998E-09, 
DataValue, -1.5, -1.8222999999999998E-09, 
DataValue, -1.4000000000000001, -1.7584999999999999E-09, 
DataValue, -1.3, -1.7185999999999998E-09, 
DataValue, -1.2, -1.7532E-09, 
DataValue, -1.1, -1.6514E-09, 
DataValue, -1, -1.6553999999999999E-09, 
DataValue, -0.9, -1.5882999999999998E-09, 
DataValue, -0.8, -1.5988E-09, 
DataValue, -0.70000000000000007, -1.5653999999999998E-09, 
DataValue, -0.6, -1.4452E-09, 
DataValue, -0.5, -1.4834999999999999E-09, 
DataValue, -0.4, -1.4378999999999998E-09, 
DataValue, -0.3, -1.3031999999999998E-09, 
DataValue, -0.2, -9.4739999999999985E-10, 
DataValue, -0.1, 5.6499999999999991E-10, 
DataValue, 0, 4.1189999999999995E-09, 
DataValue, 0.1, 6.7207E-09, 
DataValue, 0.2, 7.674199999999999E-09, 
DataValue, 0.3, 8.0323999999999989E-09, 
DataValue, 0.4, 8.1175999999999985E-09, 
DataValue, 0.5, 8.177E-09, 
DataValue, 0.6, 8.1957999999999985E-09, 
DataValue, 0.70000000000000007, 8.2818999999999989E-09, 
DataValue, 0.8, 8.2776E-09, 
DataValue, 0.9, 8.3418999999999991E-09, 
DataValue, 1, 8.4299E-09, 
DataValue, 1.1, 8.4486999999999988E-09, 
DataValue, 1.2, 8.5192E-09, 
DataValue, 1.3, 8.5907E-09, 
DataValue, 1.4000000000000001, 8.6883E-09, 
DataValue, 1.5, 8.6734E-09, 
DataValue, 1.6, 8.7673999999999985E-09, 
DataValue, 1.7, 8.8794999999999985E-09, 
DataValue, 1.8, 8.8778E-09, 
DataValue, 1.9000000000000001, 9.0031999999999989E-09, 
DataValue, 2, 9.0697999999999986E-09, 
DataValue, 2.1, 9.2366999999999989E-09, 
DataValue, 2.2, 9.332799999999999E-09, 
DataValue, 2.3000000000000003, 9.4345E-09, 
DataValue, 2.4, 9.5332E-09, 
DataValue, 2.5, 9.6792E-09, 
DataValue, 2.6, 9.741E-09, 
DataValue, 2.7, 9.8294999999999988E-09, 
DataValue, 2.8000000000000003, 1.0026899999999999E-08, 
DataValue, 2.9, 1.0118399999999999E-08, 
DataValue, 3, 1.0204499999999999E-08, 
DataValue, 3.1, 1.0345E-08, 
DataValue, 3.2, 1.0392599999999999E-08, 
DataValue, 3.3000000000000003, 1.0550499999999999E-08, 
DataValue, 3.4, 1.06467E-08, 
DataValue, 3.5, 1.0845599999999998E-08, 
DataValue, 3.6, 1.1003699999999999E-08, 
DataValue, 3.7, 1.1099699999999999E-08, 
DataValue, 3.8000000000000003, 1.12156E-08, 
DataValue, 3.9, 1.1292099999999998E-08, 
DataValue, 4, 1.1457799999999998E-08, 
DataValue, 4.1, 1.14558E-08, 
DataValue, 4.2, 1.16517E-08, 
DataValue, 4.3, 1.1726699999999998E-08, 
DataValue, 4.4, 1.1716299999999999E-08, 
DataValue, 4.5, 1.1797099999999999E-08, 
DataValue, 4.6000000000000005, 1.1965799999999999E-08, 
DataValue, 4.7, 1.2116999999999999E-08, 
DataValue, 4.8, 1.2194399999999998E-08, 
DataValue, 4.9, 1.2312999999999999E-08, 
DataValue, 5, 1.2336199999999998E-08, 