
SetupTitle, WW
PrimitiveTest, I/V Sweep
TestParameter, Context.MainFrame, B1500A
TestParameter, Channel.UnitType, SMU, SMU
TestParameter, Channel.Unit, SMU1:HP, SMU2:HP
TestParameter, Channel.IName, I1, I4
TestParameter, Channel.VName, V1, V4
TestParameter, Channel.Mode, V, COMMON
TestParameter, Channel.Func, VAR1, CONST
TestParameter, Channel.Index, 
TestParameter, Channel.Time, 
TestParameter, Measurement.Port.Unit, SMU1:HP, SMU2:HP
TestParameter, Measurement.Port.SeriesResistor, NONE, NONE
TestParameter, Measurement.Port.Filter, ON, ON
TestParameter, Measurement.Port.OutputVoltageComparison, 0, 0
TestParameter, Measurement.Primary.Locus, Single
TestParameter, Measurement.Primary.Scale, LINEAR
TestParameter, Measurement.Primary.Start, -5
TestParameter, Measurement.Primary.Stop, 5
TestParameter, Measurement.Primary.Step, 0.1
TestParameter, Measurement.Primary.Compliance, 0.1
TestParameter, Measurement.Primary.PowerCompliance, 0
TestParameter, Measurement.Aborting.Condition, CONTINUE AT ANY
TestParameter, Measurement.PostOutput.Value, START
TestParameter, Measurement.PostOutput.Retention, OFF
TestParameter, Measurement.Bias.Source, -5, 0
TestParameter, Measurement.Bias.Compliance, 0.1, 1
TestParameter, Measurement.Monitor.Unit, SMU1:HP, SMU2:HP
TestParameter, Measurement.Monitor.Adc, HR ADC, HR ADC
TestParameter, Measurement.Monitor.Measurement, Compliance Side, Compliance Side
TestParameter, Measurement.Monitor.RangingMode, AUTO, AUTO
TestParameter, Measurement.Monitor.RangeBoundary, , 
TestParameter, Measurement.Monitor.RangeRating, BY FULL RANGE, BY FULL RANGE
TestParameter, Measurement.Monitor.RangeRatingCoeff, 50, 50
TestParameter, Measurement.Timing.Hold, 0
TestParameter, Measurement.Timing.Delay, 0.001
TestParameter, Measurement.Adc.HighSpeed.Mode, AUTO
TestParameter, Measurement.Adc.HighSpeed.Coeff, 1
TestParameter, Measurement.Adc.HighResolution.AutoZero, OFF
TestParameter, Measurement.Adc.HighResolution.Mode, PLC
TestParameter, Measurement.Adc.HighResolution.Coeff, 1
TestParameter, Measurement.WaitTime.Source.Coeff, 1
TestParameter, Measurement.WaitTime.Source.Offset, 0
TestParameter, Measurement.WaitTime.Monitor.Coeff, 1
TestParameter, Measurement.WaitTime.Monitor.Offset, 0
TestParameter, Function.User.Name, Ohmic
TestParameter, Function.User.Unit, ohm
TestParameter, Function.User.Definition, avg(V1/I1)
TestParameter, Output.Graph.Enabled, true
TestParameter, Output.Graph.XAxis.Data, V1
TestParameter, Output.Graph.XAxis.Scale, Linear
TestParameter, Output.Graph.XAxis.Left, -5
TestParameter, Output.Graph.XAxis.Right, 5
TestParameter, Output.Graph.YAxis.Data, I1
TestParameter, Output.Graph.YAxis.Scale, Linear
TestParameter, Output.Graph.YAxis.Bottom, -0.001
TestParameter, Output.Graph.YAxis.Top, 0.001
TestParameter, Output.Graph.YAxis.Group, 
TestParameter, Output.Scalar.Data, Ohmic
TestParameter, AutoAnalysis.Interpolation, false
TestParameter, AutoAnalysis.Line1.Enabled, false
TestParameter, AutoAnalysis.Line1.Type, 1
TestParameter, AutoAnalysis.Line1.Fix, True
TestParameter, AutoAnalysis.Line1.YAxis, 0
TestParameter, AutoAnalysis.Line1.Point1.Type, 0
TestParameter, AutoAnalysis.Line1.Point1.XY.X, 
TestParameter, AutoAnalysis.Line1.Point1.XY.Y, 
TestParameter, AutoAnalysis.Line1.Point1.Data.Var, 
TestParameter, AutoAnalysis.Line1.Point1.Data.Condition, 
TestParameter, AutoAnalysis.Line1.Point1.Data.Start, false
TestParameter, AutoAnalysis.Line1.Point1.Data.StartVar, 
TestParameter, AutoAnalysis.Line1.Point1.Data.StartCondition, 
TestParameter, AutoAnalysis.Line1.Point2.Type, 0
TestParameter, AutoAnalysis.Line1.Point2.XY.X, 
TestParameter, AutoAnalysis.Line1.Point2.XY.Y, 
TestParameter, AutoAnalysis.Line1.Point2.Data.Var, 
TestParameter, AutoAnalysis.Line1.Point2.Data.Condition, 
TestParameter, AutoAnalysis.Line1.Point2.Data.Start, false
TestParameter, AutoAnalysis.Line1.Point2.Data.StartVar, 
TestParameter, AutoAnalysis.Line1.Point2.Data.StartCondition, 
TestParameter, AutoAnalysis.Line1.GradientExpr, 0
TestParameter, AutoAnalysis.Line2.Enabled, false
TestParameter, AutoAnalysis.Line2.Type, 1
TestParameter, AutoAnalysis.Line2.Fix, True
TestParameter, AutoAnalysis.Line2.YAxis, 0
TestParameter, AutoAnalysis.Line2.Point1.Type, 0
TestParameter, AutoAnalysis.Line2.Point1.XY.X, 
TestParameter, AutoAnalysis.Line2.Point1.XY.Y, 
TestParameter, AutoAnalysis.Line2.Point1.Data.Var, 
TestParameter, AutoAnalysis.Line2.Point1.Data.Condition, 
TestParameter, AutoAnalysis.Line2.Point1.Data.Start, false
TestParameter, AutoAnalysis.Line2.Point1.Data.StartVar, 
TestParameter, AutoAnalysis.Line2.Point1.Data.StartCondition, 
TestParameter, AutoAnalysis.Line2.Point2.Type, 0
TestParameter, AutoAnalysis.Line2.Point2.XY.X, 
TestParameter, AutoAnalysis.Line2.Point2.XY.Y, 
TestParameter, AutoAnalysis.Line2.Point2.Data.Var, 
TestParameter, AutoAnalysis.Line2.Point2.Data.Condition, 
TestParameter, AutoAnalysis.Line2.Point2.Data.Start, false
TestParameter, AutoAnalysis.Line2.Point2.Data.StartVar, 
TestParameter, AutoAnalysis.Line2.Point2.Data.StartCondition, 
TestParameter, AutoAnalysis.Line2.GradientExpr, 0
TestParameter, AutoAnalysis.Marker.Enabled, false
TestParameter, AutoAnalysis.Marker.Data.Var, 
TestParameter, AutoAnalysis.Marker.Data.Condition, 
TestParameter, AutoAnalysis.Marker.Data.Start, false
TestParameter, AutoAnalysis.Marker.Data.StartVar, 
TestParameter, AutoAnalysis.Marker.Data.StartCondition, 
MetaData, TestRecord.EntryPoint, true
MetaData, TestRecord.RecordTime, 09/11/2020 16:29:24
MetaData, TestRecord.TestTarget, 
MetaData, TestRecord.IterationIndex, 29
MetaData, TestRecord.Preservation, true
MetaData, TestRecord.Flag, 
MetaData, TestRecord.Remarks, 
MetaData, TestRecord.LinkKey, 3707b38e-aef6-4da4-b091-43ee92b1698f
Dimension1, 101, 101, 101
Dimension2, 1, 1, 1
DataName, V1, I1, Ohmic
DataValue, -5, -1.6394E-09, 1242256997.8730161
DataValue, -4.9, -1.4762E-09, 
DataValue, -4.8, -1.5217999999999999E-09, 
DataValue, -4.7, -1.5085E-09, 
DataValue, -4.6000000000000005, -1.5002999999999999E-09, 
DataValue, -4.5, -1.4548999999999998E-09, 
DataValue, -4.4, -1.4743999999999998E-09, 
DataValue, -4.3, -1.4359999999999998E-09, 
DataValue, -4.2, -1.4675E-09, 
DataValue, -4.1, -1.4521999999999998E-09, 
DataValue, -4, -1.4327999999999999E-09, 
DataValue, -3.9, -1.4481999999999998E-09, 
DataValue, -3.8000000000000003, -1.4101E-09, 
DataValue, -3.7, -1.4238999999999998E-09, 
DataValue, -3.6, -1.4116E-09, 
DataValue, -3.5, -1.3427E-09, 
DataValue, -3.4, -1.3836999999999999E-09, 
DataValue, -3.3000000000000003, -1.2764999999999999E-09, 
DataValue, -3.2, -1.3161999999999999E-09, 
DataValue, -3.1, -1.3411999999999999E-09, 
DataValue, -3, -1.2371999999999998E-09, 
DataValue, -2.9, -1.2499999999999998E-09, 
DataValue, -2.8000000000000003, -1.2190999999999999E-09, 
DataValue, -2.7, -1.2325999999999999E-09, 
DataValue, -2.6, -1.1418E-09, 
DataValue, -2.5, -1.1657999999999998E-09, 
DataValue, -2.4, -1.2525E-09, 
DataValue, -2.3000000000000003, -1.055E-09, 
DataValue, -2.2, -1.0781999999999999E-09, 
DataValue, -2.1, -1.077E-09, 
DataValue, -2, -1.0496E-09, 
DataValue, -1.9000000000000001, -1.0213999999999998E-09, 
DataValue, -1.8, -1.0025999999999998E-09, 
DataValue, -1.7, -1.113E-09, 
DataValue, -1.6, -1.0893E-09, 
DataValue, -1.5, -1.0893E-09, 
DataValue, -1.4000000000000001, -9.9869999999999987E-10, 
DataValue, -1.3, -1.0529E-09, 
DataValue, -1.2, -1.0254E-09, 
DataValue, -1.1, -9.5959999999999987E-10, 
DataValue, -1, -9.3539999999999989E-10, 
DataValue, -0.9, -8.8089999999999993E-10, 
DataValue, -0.8, -8.9099999999999992E-10, 
DataValue, -0.70000000000000007, -8.763E-10, 
DataValue, -0.6, -8.4249999999999993E-10, 
DataValue, -0.5, -8.628E-10, 
DataValue, -0.4, -7.455E-10, 
DataValue, -0.3, -5.8859999999999991E-10, 
DataValue, -0.2, -1.3799999999999999E-11, 
DataValue, -0.1, 1.6806999999999998E-09, 
DataValue, 0, 4.9368E-09, 
DataValue, 0.1, 7.1355E-09, 
DataValue, 0.2, 8.0717E-09, 
DataValue, 0.3, 8.5833E-09, 
DataValue, 0.4, 8.7856E-09, 
DataValue, 0.5, 8.7934E-09, 
DataValue, 0.6, 8.8012999999999985E-09, 
DataValue, 0.70000000000000007, 8.9467E-09, 
DataValue, 0.8, 8.9099999999999984E-09, 
DataValue, 0.9, 8.9982999999999986E-09, 
DataValue, 1, 9.0704999999999984E-09, 
DataValue, 1.1, 9.0760999999999985E-09, 
DataValue, 1.2, 9.022E-09, 
DataValue, 1.3, 9.0247999999999989E-09, 
DataValue, 1.4000000000000001, 9.1014999999999988E-09, 
DataValue, 1.5, 9.2115E-09, 
DataValue, 1.6, 9.2391999999999985E-09, 
DataValue, 1.7, 9.2977999999999991E-09, 
DataValue, 1.8, 9.3024E-09, 
DataValue, 1.9000000000000001, 9.3486999999999985E-09, 
DataValue, 2, 9.3899E-09, 
DataValue, 2.1, 9.4439E-09, 
DataValue, 2.2, 9.5434999999999987E-09, 
DataValue, 2.3000000000000003, 9.6327999999999984E-09, 
DataValue, 2.4, 9.6634999999999991E-09, 
DataValue, 2.5, 9.788E-09, 
DataValue, 2.6, 9.8397E-09, 
DataValue, 2.7, 9.9213999999999984E-09, 
DataValue, 2.8000000000000003, 1.00304E-08, 
DataValue, 2.9, 1.0116E-08, 
DataValue, 3, 1.0214999999999999E-08, 
DataValue, 3.1, 1.0232699999999998E-08, 
DataValue, 3.2, 1.0412699999999999E-08, 
DataValue, 3.3000000000000003, 1.04147E-08, 
DataValue, 3.4, 1.0514299999999999E-08, 
DataValue, 3.5, 1.0682599999999999E-08, 
DataValue, 3.6, 1.0688599999999999E-08, 
DataValue, 3.7, 1.08999E-08, 
DataValue, 3.8000000000000003, 1.0985399999999999E-08, 
DataValue, 3.9, 1.1073899999999998E-08, 
DataValue, 4, 1.11609E-08, 
DataValue, 4.1, 1.12622E-08, 
DataValue, 4.2, 1.13814E-08, 
DataValue, 4.3, 1.14666E-08, 
DataValue, 4.4, 1.1554299999999998E-08, 
DataValue, 4.5, 1.1590099999999999E-08, 
DataValue, 4.6000000000000005, 1.1697699999999999E-08, 
DataValue, 4.7, 1.1737899999999999E-08, 
DataValue, 4.8, 1.18677E-08, 
DataValue, 4.9, 1.2055999999999999E-08, 
DataValue, 5, 1.2122199999999999E-08, 