
SetupTitle, WW
PrimitiveTest, I/V Sweep
TestParameter, Context.MainFrame, B1500A
TestParameter, Channel.UnitType, SMU, SMU
TestParameter, Channel.Unit, SMU1:HP, SMU2:HP
TestParameter, Channel.IName, I1, I4
TestParameter, Channel.VName, V1, V4
TestParameter, Channel.Mode, V, COMMON
TestParameter, Channel.Func, VAR1, CONST
TestParameter, Channel.Index, 
TestParameter, Channel.Time, 
TestParameter, Measurement.Port.Unit, SMU1:HP, SMU2:HP
TestParameter, Measurement.Port.SeriesResistor, NONE, NONE
TestParameter, Measurement.Port.Filter, ON, ON
TestParameter, Measurement.Port.OutputVoltageComparison, 0, 0
TestParameter, Measurement.Primary.Locus, Single
TestParameter, Measurement.Primary.Scale, LINEAR
TestParameter, Measurement.Primary.Start, -5
TestParameter, Measurement.Primary.Stop, 5
TestParameter, Measurement.Primary.Step, 0.1
TestParameter, Measurement.Primary.Compliance, 0.1
TestParameter, Measurement.Primary.PowerCompliance, 0
TestParameter, Measurement.Aborting.Condition, CONTINUE AT ANY
TestParameter, Measurement.PostOutput.Value, START
TestParameter, Measurement.PostOutput.Retention, OFF
TestParameter, Measurement.Bias.Source, -5, 0
TestParameter, Measurement.Bias.Compliance, 0.1, 1
TestParameter, Measurement.Monitor.Unit, SMU1:HP, SMU2:HP
TestParameter, Measurement.Monitor.Adc, HR ADC, HR ADC
TestParameter, Measurement.Monitor.Measurement, Compliance Side, Compliance Side
TestParameter, Measurement.Monitor.RangingMode, AUTO, AUTO
TestParameter, Measurement.Monitor.RangeBoundary, , 
TestParameter, Measurement.Monitor.RangeRating, BY FULL RANGE, BY FULL RANGE
TestParameter, Measurement.Monitor.RangeRatingCoeff, 50, 50
TestParameter, Measurement.Timing.Hold, 0
TestParameter, Measurement.Timing.Delay, 0.001
TestParameter, Measurement.Adc.HighSpeed.Mode, AUTO
TestParameter, Measurement.Adc.HighSpeed.Coeff, 1
TestParameter, Measurement.Adc.HighResolution.AutoZero, OFF
TestParameter, Measurement.Adc.HighResolution.Mode, PLC
TestParameter, Measurement.Adc.HighResolution.Coeff, 1
TestParameter, Measurement.WaitTime.Source.Coeff, 1
TestParameter, Measurement.WaitTime.Source.Offset, 0
TestParameter, Measurement.WaitTime.Monitor.Coeff, 1
TestParameter, Measurement.WaitTime.Monitor.Offset, 0
TestParameter, Function.User.Name, Ohmic
TestParameter, Function.User.Unit, ohm
TestParameter, Function.User.Definition, avg(V1/I1)
TestParameter, Output.Graph.Enabled, true
TestParameter, Output.Graph.XAxis.Data, V1
TestParameter, Output.Graph.XAxis.Scale, Linear
TestParameter, Output.Graph.XAxis.Left, -5
TestParameter, Output.Graph.XAxis.Right, 5
TestParameter, Output.Graph.YAxis.Data, I1
TestParameter, Output.Graph.YAxis.Scale, Linear
TestParameter, Output.Graph.YAxis.Bottom, -0.001
TestParameter, Output.Graph.YAxis.Top, 0.001
TestParameter, Output.Graph.YAxis.Group, 
TestParameter, Output.Scalar.Data, Ohmic
TestParameter, AutoAnalysis.Interpolation, false
TestParameter, AutoAnalysis.Line1.Enabled, false
TestParameter, AutoAnalysis.Line1.Type, 1
TestParameter, AutoAnalysis.Line1.Fix, True
TestParameter, AutoAnalysis.Line1.YAxis, 0
TestParameter, AutoAnalysis.Line1.Point1.Type, 0
TestParameter, AutoAnalysis.Line1.Point1.XY.X, 
TestParameter, AutoAnalysis.Line1.Point1.XY.Y, 
TestParameter, AutoAnalysis.Line1.Point1.Data.Var, 
TestParameter, AutoAnalysis.Line1.Point1.Data.Condition, 
TestParameter, AutoAnalysis.Line1.Point1.Data.Start, false
TestParameter, AutoAnalysis.Line1.Point1.Data.StartVar, 
TestParameter, AutoAnalysis.Line1.Point1.Data.StartCondition, 
TestParameter, AutoAnalysis.Line1.Point2.Type, 0
TestParameter, AutoAnalysis.Line1.Point2.XY.X, 
TestParameter, AutoAnalysis.Line1.Point2.XY.Y, 
TestParameter, AutoAnalysis.Line1.Point2.Data.Var, 
TestParameter, AutoAnalysis.Line1.Point2.Data.Condition, 
TestParameter, AutoAnalysis.Line1.Point2.Data.Start, false
TestParameter, AutoAnalysis.Line1.Point2.Data.StartVar, 
TestParameter, AutoAnalysis.Line1.Point2.Data.StartCondition, 
TestParameter, AutoAnalysis.Line1.GradientExpr, 0
TestParameter, AutoAnalysis.Line2.Enabled, false
TestParameter, AutoAnalysis.Line2.Type, 1
TestParameter, AutoAnalysis.Line2.Fix, True
TestParameter, AutoAnalysis.Line2.YAxis, 0
TestParameter, AutoAnalysis.Line2.Point1.Type, 0
TestParameter, AutoAnalysis.Line2.Point1.XY.X, 
TestParameter, AutoAnalysis.Line2.Point1.XY.Y, 
TestParameter, AutoAnalysis.Line2.Point1.Data.Var, 
TestParameter, AutoAnalysis.Line2.Point1.Data.Condition, 
TestParameter, AutoAnalysis.Line2.Point1.Data.Start, false
TestParameter, AutoAnalysis.Line2.Point1.Data.StartVar, 
TestParameter, AutoAnalysis.Line2.Point1.Data.StartCondition, 
TestParameter, AutoAnalysis.Line2.Point2.Type, 0
TestParameter, AutoAnalysis.Line2.Point2.XY.X, 
TestParameter, AutoAnalysis.Line2.Point2.XY.Y, 
TestParameter, AutoAnalysis.Line2.Point2.Data.Var, 
TestParameter, AutoAnalysis.Line2.Point2.Data.Condition, 
TestParameter, AutoAnalysis.Line2.Point2.Data.Start, false
TestParameter, AutoAnalysis.Line2.Point2.Data.StartVar, 
TestParameter, AutoAnalysis.Line2.Point2.Data.StartCondition, 
TestParameter, AutoAnalysis.Line2.GradientExpr, 0
TestParameter, AutoAnalysis.Marker.Enabled, false
TestParameter, AutoAnalysis.Marker.Data.Var, 
TestParameter, AutoAnalysis.Marker.Data.Condition, 
TestParameter, AutoAnalysis.Marker.Data.Start, false
TestParameter, AutoAnalysis.Marker.Data.StartVar, 
TestParameter, AutoAnalysis.Marker.Data.StartCondition, 
MetaData, TestRecord.EntryPoint, true
MetaData, TestRecord.RecordTime, 09/11/2020 16:26:24
MetaData, TestRecord.TestTarget, 
MetaData, TestRecord.IterationIndex, 23
MetaData, TestRecord.Preservation, true
MetaData, TestRecord.Flag, 
MetaData, TestRecord.Remarks, 
MetaData, TestRecord.LinkKey, f996c5e0-db77-495d-b710-eb18b3d6dae1
Dimension1, 101, 101, 101
Dimension2, 1, 1, 1
DataName, V1, I1, Ohmic
DataValue, -5, -9.3049999999999994E-10, 1868161951.3698502
DataValue, -4.9, -1.0711E-09, 
DataValue, -4.8, -8.7699999999999987E-10, 
DataValue, -4.7, -8.8819999999999989E-10, 
DataValue, -4.6000000000000005, -8.51E-10, 
DataValue, -4.5, -8.7449999999999993E-10, 
DataValue, -4.4, -8.7039999999999991E-10, 
DataValue, -4.3, -7.8299999999999988E-10, 
DataValue, -4.2, -8.7499999999999987E-10, 
DataValue, -4.1, -8.7909999999999989E-10, 
DataValue, -4, -7.7809999999999993E-10, 
DataValue, -3.9, -8.264E-10, 
DataValue, -3.8000000000000003, -7.479999999999999E-10, 
DataValue, -3.7, -7.8669999999999988E-10, 
DataValue, -3.6, -7.9529999999999993E-10, 
DataValue, -3.5, -7.3019999999999992E-10, 
DataValue, -3.4, -7.627E-10, 
DataValue, -3.3000000000000003, -7.351999999999999E-10, 
DataValue, -3.2, -7.3969999999999994E-10, 
DataValue, -3.1, -6.7449999999999989E-10, 
DataValue, -3, -6.912E-10, 
DataValue, -2.9, -7.303E-10, 
DataValue, -2.8000000000000003, -6.6349999999999993E-10, 
DataValue, -2.7, -6.73E-10, 
DataValue, -2.6, -6.7389999999999992E-10, 
DataValue, -2.5, -6.3509999999999991E-10, 
DataValue, -2.4, -6.451999999999999E-10, 
DataValue, -2.3000000000000003, -6.0989999999999993E-10, 
DataValue, -2.2, -6.316999999999999E-10, 
DataValue, -2.1, -6.323999999999999E-10, 
DataValue, -2, -5.675E-10, 
DataValue, -1.9000000000000001, -6.087E-10, 
DataValue, -1.8, -5.548E-10, 
DataValue, -1.7, -5.959E-10, 
DataValue, -1.6, -5.321E-10, 
DataValue, -1.5, -5.133E-10, 
DataValue, -1.4000000000000001, -6.323E-10, 
DataValue, -1.3, -5.814E-10, 
DataValue, -1.2, -6.0849999999999991E-10, 
DataValue, -1.1, -5.989999999999999E-10, 
DataValue, -1, -5.3409999999999994E-10, 
DataValue, -0.9, -5.7539999999999989E-10, 
DataValue, -0.8, -4.9929999999999992E-10, 
DataValue, -0.70000000000000007, -5.2629999999999993E-10, 
DataValue, -0.6, -4.7909999999999993E-10, 
DataValue, -0.5, -4.5199999999999994E-10, 
DataValue, -0.4, -3.9389999999999995E-10, 
DataValue, -0.3, -1.0419999999999999E-10, 
DataValue, -0.2, 5.844E-10, 
DataValue, -0.1, 2.3996E-09, 
DataValue, 0, 4.9565999999999992E-09, 
DataValue, 0.1, 6.7920999999999993E-09, 
DataValue, 0.2, 7.6655E-09, 
DataValue, 0.3, 8.158299999999999E-09, 
DataValue, 0.4, 8.4578E-09, 
DataValue, 0.5, 8.6E-09, 
DataValue, 0.6, 8.6817999999999987E-09, 
DataValue, 0.70000000000000007, 8.6564999999999988E-09, 
DataValue, 0.8, 8.7364999999999985E-09, 
DataValue, 0.9, 8.7305999999999988E-09, 
DataValue, 1, 8.8347E-09, 
DataValue, 1.1, 8.8413E-09, 
DataValue, 1.2, 8.8387E-09, 
DataValue, 1.3, 8.8314999999999987E-09, 
DataValue, 1.4000000000000001, 8.9082999999999991E-09, 
DataValue, 1.5, 8.9818E-09, 
DataValue, 1.6, 8.9501E-09, 
DataValue, 1.7, 9.073E-09, 
DataValue, 1.8, 9.0288999999999989E-09, 
DataValue, 1.9000000000000001, 9.0861E-09, 
DataValue, 2, 9.0439E-09, 
DataValue, 2.1, 9.1594E-09, 
DataValue, 2.2, 9.1238999999999991E-09, 
DataValue, 2.3000000000000003, 9.2182E-09, 
DataValue, 2.4, 9.2957E-09, 
DataValue, 2.5, 9.3549E-09, 
DataValue, 2.6, 9.3889999999999989E-09, 
DataValue, 2.7, 9.4532999999999984E-09, 
DataValue, 2.8000000000000003, 9.4577999999999985E-09, 
DataValue, 2.9, 9.5478E-09, 
DataValue, 3, 9.6573999999999985E-09, 
DataValue, 3.1, 9.7079E-09, 
DataValue, 3.2, 9.8691E-09, 
DataValue, 3.3000000000000003, 9.8250999999999991E-09, 
DataValue, 3.4, 9.876099999999999E-09, 
DataValue, 3.5, 1.0022099999999999E-08, 
DataValue, 3.6, 1.0141899999999999E-08, 
DataValue, 3.7, 1.01187E-08, 
DataValue, 3.8000000000000003, 1.01923E-08, 
DataValue, 3.9, 1.0304699999999999E-08, 
DataValue, 4, 1.0510599999999999E-08, 
DataValue, 4.1, 1.0451699999999999E-08, 
DataValue, 4.2, 1.0584699999999999E-08, 
DataValue, 4.3, 1.07178E-08, 
DataValue, 4.4, 1.07301E-08, 
DataValue, 4.5, 1.0886299999999999E-08, 
DataValue, 4.6000000000000005, 1.1025999999999999E-08, 
DataValue, 4.7, 1.11066E-08, 
DataValue, 4.8, 1.1127599999999999E-08, 
DataValue, 4.9, 1.11747E-08, 
DataValue, 5, 1.1326699999999998E-08, 