
SetupTitle, WW
PrimitiveTest, I/V Sweep
TestParameter, Context.MainFrame, B1500A
TestParameter, Channel.UnitType, SMU, SMU
TestParameter, Channel.Unit, SMU1:HP, SMU2:HP
TestParameter, Channel.IName, I1, I4
TestParameter, Channel.VName, V1, V4
TestParameter, Channel.Mode, V, COMMON
TestParameter, Channel.Func, VAR1, CONST
TestParameter, Channel.Index, 
TestParameter, Channel.Time, 
TestParameter, Measurement.Port.Unit, SMU1:HP, SMU2:HP
TestParameter, Measurement.Port.SeriesResistor, NONE, NONE
TestParameter, Measurement.Port.Filter, ON, ON
TestParameter, Measurement.Port.OutputVoltageComparison, 0, 0
TestParameter, Measurement.Primary.Locus, Single
TestParameter, Measurement.Primary.Scale, LINEAR
TestParameter, Measurement.Primary.Start, -5
TestParameter, Measurement.Primary.Stop, 5
TestParameter, Measurement.Primary.Step, 0.1
TestParameter, Measurement.Primary.Compliance, 0.1
TestParameter, Measurement.Primary.PowerCompliance, 0
TestParameter, Measurement.Aborting.Condition, CONTINUE AT ANY
TestParameter, Measurement.PostOutput.Value, START
TestParameter, Measurement.PostOutput.Retention, OFF
TestParameter, Measurement.Bias.Source, -5, 0
TestParameter, Measurement.Bias.Compliance, 0.1, 1
TestParameter, Measurement.Monitor.Unit, SMU1:HP, SMU2:HP
TestParameter, Measurement.Monitor.Adc, HR ADC, HR ADC
TestParameter, Measurement.Monitor.Measurement, Compliance Side, Compliance Side
TestParameter, Measurement.Monitor.RangingMode, AUTO, AUTO
TestParameter, Measurement.Monitor.RangeBoundary, , 
TestParameter, Measurement.Monitor.RangeRating, BY FULL RANGE, BY FULL RANGE
TestParameter, Measurement.Monitor.RangeRatingCoeff, 50, 50
TestParameter, Measurement.Timing.Hold, 0
TestParameter, Measurement.Timing.Delay, 0.001
TestParameter, Measurement.Adc.HighSpeed.Mode, AUTO
TestParameter, Measurement.Adc.HighSpeed.Coeff, 1
TestParameter, Measurement.Adc.HighResolution.AutoZero, OFF
TestParameter, Measurement.Adc.HighResolution.Mode, PLC
TestParameter, Measurement.Adc.HighResolution.Coeff, 1
TestParameter, Measurement.WaitTime.Source.Coeff, 1
TestParameter, Measurement.WaitTime.Source.Offset, 0
TestParameter, Measurement.WaitTime.Monitor.Coeff, 1
TestParameter, Measurement.WaitTime.Monitor.Offset, 0
TestParameter, Function.User.Name, Ohmic
TestParameter, Function.User.Unit, ohm
TestParameter, Function.User.Definition, avg(V1/I1)
TestParameter, Output.Graph.Enabled, true
TestParameter, Output.Graph.XAxis.Data, V1
TestParameter, Output.Graph.XAxis.Scale, Linear
TestParameter, Output.Graph.XAxis.Left, -5
TestParameter, Output.Graph.XAxis.Right, 5
TestParameter, Output.Graph.YAxis.Data, I1
TestParameter, Output.Graph.YAxis.Scale, Linear
TestParameter, Output.Graph.YAxis.Bottom, -0.001
TestParameter, Output.Graph.YAxis.Top, 0.001
TestParameter, Output.Graph.YAxis.Group, 
TestParameter, Output.Scalar.Data, Ohmic
TestParameter, AutoAnalysis.Interpolation, false
TestParameter, AutoAnalysis.Line1.Enabled, false
TestParameter, AutoAnalysis.Line1.Type, 1
TestParameter, AutoAnalysis.Line1.Fix, True
TestParameter, AutoAnalysis.Line1.YAxis, 0
TestParameter, AutoAnalysis.Line1.Point1.Type, 0
TestParameter, AutoAnalysis.Line1.Point1.XY.X, 
TestParameter, AutoAnalysis.Line1.Point1.XY.Y, 
TestParameter, AutoAnalysis.Line1.Point1.Data.Var, 
TestParameter, AutoAnalysis.Line1.Point1.Data.Condition, 
TestParameter, AutoAnalysis.Line1.Point1.Data.Start, false
TestParameter, AutoAnalysis.Line1.Point1.Data.StartVar, 
TestParameter, AutoAnalysis.Line1.Point1.Data.StartCondition, 
TestParameter, AutoAnalysis.Line1.Point2.Type, 0
TestParameter, AutoAnalysis.Line1.Point2.XY.X, 
TestParameter, AutoAnalysis.Line1.Point2.XY.Y, 
TestParameter, AutoAnalysis.Line1.Point2.Data.Var, 
TestParameter, AutoAnalysis.Line1.Point2.Data.Condition, 
TestParameter, AutoAnalysis.Line1.Point2.Data.Start, false
TestParameter, AutoAnalysis.Line1.Point2.Data.StartVar, 
TestParameter, AutoAnalysis.Line1.Point2.Data.StartCondition, 
TestParameter, AutoAnalysis.Line1.GradientExpr, 0
TestParameter, AutoAnalysis.Line2.Enabled, false
TestParameter, AutoAnalysis.Line2.Type, 1
TestParameter, AutoAnalysis.Line2.Fix, True
TestParameter, AutoAnalysis.Line2.YAxis, 0
TestParameter, AutoAnalysis.Line2.Point1.Type, 0
TestParameter, AutoAnalysis.Line2.Point1.XY.X, 
TestParameter, AutoAnalysis.Line2.Point1.XY.Y, 
TestParameter, AutoAnalysis.Line2.Point1.Data.Var, 
TestParameter, AutoAnalysis.Line2.Point1.Data.Condition, 
TestParameter, AutoAnalysis.Line2.Point1.Data.Start, false
TestParameter, AutoAnalysis.Line2.Point1.Data.StartVar, 
TestParameter, AutoAnalysis.Line2.Point1.Data.StartCondition, 
TestParameter, AutoAnalysis.Line2.Point2.Type, 0
TestParameter, AutoAnalysis.Line2.Point2.XY.X, 
TestParameter, AutoAnalysis.Line2.Point2.XY.Y, 
TestParameter, AutoAnalysis.Line2.Point2.Data.Var, 
TestParameter, AutoAnalysis.Line2.Point2.Data.Condition, 
TestParameter, AutoAnalysis.Line2.Point2.Data.Start, false
TestParameter, AutoAnalysis.Line2.Point2.Data.StartVar, 
TestParameter, AutoAnalysis.Line2.Point2.Data.StartCondition, 
TestParameter, AutoAnalysis.Line2.GradientExpr, 0
TestParameter, AutoAnalysis.Marker.Enabled, false
TestParameter, AutoAnalysis.Marker.Data.Var, 
TestParameter, AutoAnalysis.Marker.Data.Condition, 
TestParameter, AutoAnalysis.Marker.Data.Start, false
TestParameter, AutoAnalysis.Marker.Data.StartVar, 
TestParameter, AutoAnalysis.Marker.Data.StartCondition, 
MetaData, TestRecord.EntryPoint, true
MetaData, TestRecord.RecordTime, 09/11/2020 16:25:51
MetaData, TestRecord.TestTarget, 
MetaData, TestRecord.IterationIndex, 22
MetaData, TestRecord.Preservation, true
MetaData, TestRecord.Flag, 
MetaData, TestRecord.Remarks, 
MetaData, TestRecord.LinkKey, b4af6189-170e-4ca9-9818-4edc2dc13a40
Dimension1, 101, 101, 101
Dimension2, 1, 1, 1
DataName, V1, I1, Ohmic
DataValue, -5, -9.3919999999999982E-10, 1964549449.9327247
DataValue, -4.9, -9.154E-10, 
DataValue, -4.8, -8.5479999999999988E-10, 
DataValue, -4.7, -8.578999999999999E-10, 
DataValue, -4.6000000000000005, -8.116E-10, 
DataValue, -4.5, -7.9859999999999991E-10, 
DataValue, -4.4, -8.4639999999999989E-10, 
DataValue, -4.3, -7.8009999999999992E-10, 
DataValue, -4.2, -7.839E-10, 
DataValue, -4.1, -8.392E-10, 
DataValue, -4, -7.560999999999999E-10, 
DataValue, -3.9, -7.8849999999999991E-10, 
DataValue, -3.8000000000000003, -7.243E-10, 
DataValue, -3.7, -7.5859999999999994E-10, 
DataValue, -3.6, -7.6489999999999991E-10, 
DataValue, -3.5, -7.391E-10, 
DataValue, -3.4, -7.185E-10, 
DataValue, -3.3000000000000003, -7.2519999999999994E-10, 
DataValue, -3.2, -7.128E-10, 
DataValue, -3.1, -7.7599999999999991E-10, 
DataValue, -3, -6.7289999999999992E-10, 
DataValue, -2.9, -6.724999999999999E-10, 
DataValue, -2.8000000000000003, -6.660999999999999E-10, 
DataValue, -2.7, -6.4089999999999993E-10, 
DataValue, -2.6, -6.481E-10, 
DataValue, -2.5, -6.3509999999999991E-10, 
DataValue, -2.4, -6.42E-10, 
DataValue, -2.3000000000000003, -6.3039999999999991E-10, 
DataValue, -2.2, -6.4259999999999993E-10, 
DataValue, -2.1, -5.675E-10, 
DataValue, -2, -5.989999999999999E-10, 
DataValue, -1.9000000000000001, -6.532E-10, 
DataValue, -1.8, -5.8399999999999995E-10, 
DataValue, -1.7, -5.8119999999999992E-10, 
DataValue, -1.6, -5.922E-10, 
DataValue, -1.5, -5.551999999999999E-10, 
DataValue, -1.4000000000000001, -5.673E-10, 
DataValue, -1.3, -5.299E-10, 
DataValue, -1.2, -5.4619999999999993E-10, 
DataValue, -1.1, -5.2129999999999995E-10, 
DataValue, -1, -5.1039999999999991E-10, 
DataValue, -0.9, -5.1349999999999993E-10, 
DataValue, -0.8, -4.7039999999999995E-10, 
DataValue, -0.70000000000000007, -5.0779999999999994E-10, 
DataValue, -0.6, -5.211E-10, 
DataValue, -0.5, -4.5909999999999994E-10, 
DataValue, -0.4, -3.8829999999999994E-10, 
DataValue, -0.3, -4E-11, 
DataValue, -0.2, 5.9669999999999991E-10, 
DataValue, -0.1, 2.3466999999999998E-09, 
DataValue, 0, 4.8482E-09, 
DataValue, 0.1, 6.6052999999999991E-09, 
DataValue, 0.2, 7.6003E-09, 
DataValue, 0.3, 8.0282999999999988E-09, 
DataValue, 0.4, 8.3323E-09, 
DataValue, 0.5, 8.4198E-09, 
DataValue, 0.6, 8.5230999999999984E-09, 
DataValue, 0.70000000000000007, 8.5513E-09, 
DataValue, 0.8, 8.6004E-09, 
DataValue, 0.9, 8.5978E-09, 
DataValue, 1, 8.623399999999999E-09, 
DataValue, 1.1, 8.6019E-09, 
DataValue, 1.2, 8.6678E-09, 
DataValue, 1.3, 8.6719E-09, 
DataValue, 1.4000000000000001, 8.6972E-09, 
DataValue, 1.5, 8.7591999999999985E-09, 
DataValue, 1.6, 8.7357E-09, 
DataValue, 1.7, 8.742199999999999E-09, 
DataValue, 1.8, 8.7684999999999984E-09, 
DataValue, 1.9000000000000001, 8.7808999999999989E-09, 
DataValue, 2, 8.8720999999999988E-09, 
DataValue, 2.1, 8.9681999999999989E-09, 
DataValue, 2.2, 8.8980999999999985E-09, 
DataValue, 2.3000000000000003, 8.9997E-09, 
DataValue, 2.4, 9.0141E-09, 
DataValue, 2.5, 9.1066999999999988E-09, 
DataValue, 2.6, 9.1709E-09, 
DataValue, 2.7, 9.1925E-09, 
DataValue, 2.8000000000000003, 9.2167E-09, 
DataValue, 2.9, 9.232999999999999E-09, 
DataValue, 3, 9.3974999999999986E-09, 
DataValue, 3.1, 9.3881E-09, 
DataValue, 3.2, 9.5128999999999984E-09, 
DataValue, 3.3000000000000003, 9.6003E-09, 
DataValue, 3.4, 9.6928999999999991E-09, 
DataValue, 3.5, 9.7172E-09, 
DataValue, 3.6, 9.7827E-09, 
DataValue, 3.7, 9.9552E-09, 
DataValue, 3.8000000000000003, 1.0068899999999999E-08, 
DataValue, 3.9, 1.00687E-08, 
DataValue, 4, 1.0179199999999999E-08, 
DataValue, 4.1, 1.02925E-08, 
DataValue, 4.2, 1.04247E-08, 
DataValue, 4.3, 1.0432699999999999E-08, 
DataValue, 4.4, 1.0494999999999999E-08, 
DataValue, 4.5, 1.0589899999999999E-08, 
DataValue, 4.6000000000000005, 1.0669E-08, 
DataValue, 4.7, 1.0811099999999999E-08, 
DataValue, 4.8, 1.08388E-08, 
DataValue, 4.9, 1.0946999999999999E-08, 
DataValue, 5, 1.0939999999999999E-08, 