
SetupTitle, WW
PrimitiveTest, I/V Sweep
TestParameter, Context.MainFrame, B1500A
TestParameter, Channel.UnitType, SMU, SMU
TestParameter, Channel.Unit, SMU1:HP, SMU2:HP
TestParameter, Channel.IName, I1, I4
TestParameter, Channel.VName, V1, V4
TestParameter, Channel.Mode, V, COMMON
TestParameter, Channel.Func, VAR1, CONST
TestParameter, Channel.Index, 
TestParameter, Channel.Time, 
TestParameter, Measurement.Port.Unit, SMU1:HP, SMU2:HP
TestParameter, Measurement.Port.SeriesResistor, NONE, NONE
TestParameter, Measurement.Port.Filter, ON, ON
TestParameter, Measurement.Port.OutputVoltageComparison, 0, 0
TestParameter, Measurement.Primary.Locus, Single
TestParameter, Measurement.Primary.Scale, LINEAR
TestParameter, Measurement.Primary.Start, -5
TestParameter, Measurement.Primary.Stop, 5
TestParameter, Measurement.Primary.Step, 0.1
TestParameter, Measurement.Primary.Compliance, 0.1
TestParameter, Measurement.Primary.PowerCompliance, 0
TestParameter, Measurement.Aborting.Condition, CONTINUE AT ANY
TestParameter, Measurement.PostOutput.Value, START
TestParameter, Measurement.PostOutput.Retention, OFF
TestParameter, Measurement.Bias.Source, -5, 0
TestParameter, Measurement.Bias.Compliance, 0.1, 1
TestParameter, Measurement.Monitor.Unit, SMU1:HP, SMU2:HP
TestParameter, Measurement.Monitor.Adc, HR ADC, HR ADC
TestParameter, Measurement.Monitor.Measurement, Compliance Side, Compliance Side
TestParameter, Measurement.Monitor.RangingMode, AUTO, AUTO
TestParameter, Measurement.Monitor.RangeBoundary, , 
TestParameter, Measurement.Monitor.RangeRating, BY FULL RANGE, BY FULL RANGE
TestParameter, Measurement.Monitor.RangeRatingCoeff, 50, 50
TestParameter, Measurement.Timing.Hold, 0
TestParameter, Measurement.Timing.Delay, 0.001
TestParameter, Measurement.Adc.HighSpeed.Mode, AUTO
TestParameter, Measurement.Adc.HighSpeed.Coeff, 1
TestParameter, Measurement.Adc.HighResolution.AutoZero, OFF
TestParameter, Measurement.Adc.HighResolution.Mode, PLC
TestParameter, Measurement.Adc.HighResolution.Coeff, 1
TestParameter, Measurement.WaitTime.Source.Coeff, 1
TestParameter, Measurement.WaitTime.Source.Offset, 0
TestParameter, Measurement.WaitTime.Monitor.Coeff, 1
TestParameter, Measurement.WaitTime.Monitor.Offset, 0
TestParameter, Function.User.Name, Ohmic
TestParameter, Function.User.Unit, ohm
TestParameter, Function.User.Definition, avg(V1/I1)
TestParameter, Output.Graph.Enabled, true
TestParameter, Output.Graph.XAxis.Data, V1
TestParameter, Output.Graph.XAxis.Scale, Linear
TestParameter, Output.Graph.XAxis.Left, -5
TestParameter, Output.Graph.XAxis.Right, 5
TestParameter, Output.Graph.YAxis.Data, I1
TestParameter, Output.Graph.YAxis.Scale, Linear
TestParameter, Output.Graph.YAxis.Bottom, -0.001
TestParameter, Output.Graph.YAxis.Top, 0.001
TestParameter, Output.Graph.YAxis.Group, 
TestParameter, Output.Scalar.Data, Ohmic
TestParameter, AutoAnalysis.Interpolation, false
TestParameter, AutoAnalysis.Line1.Enabled, false
TestParameter, AutoAnalysis.Line1.Type, 1
TestParameter, AutoAnalysis.Line1.Fix, True
TestParameter, AutoAnalysis.Line1.YAxis, 0
TestParameter, AutoAnalysis.Line1.Point1.Type, 0
TestParameter, AutoAnalysis.Line1.Point1.XY.X, 
TestParameter, AutoAnalysis.Line1.Point1.XY.Y, 
TestParameter, AutoAnalysis.Line1.Point1.Data.Var, 
TestParameter, AutoAnalysis.Line1.Point1.Data.Condition, 
TestParameter, AutoAnalysis.Line1.Point1.Data.Start, false
TestParameter, AutoAnalysis.Line1.Point1.Data.StartVar, 
TestParameter, AutoAnalysis.Line1.Point1.Data.StartCondition, 
TestParameter, AutoAnalysis.Line1.Point2.Type, 0
TestParameter, AutoAnalysis.Line1.Point2.XY.X, 
TestParameter, AutoAnalysis.Line1.Point2.XY.Y, 
TestParameter, AutoAnalysis.Line1.Point2.Data.Var, 
TestParameter, AutoAnalysis.Line1.Point2.Data.Condition, 
TestParameter, AutoAnalysis.Line1.Point2.Data.Start, false
TestParameter, AutoAnalysis.Line1.Point2.Data.StartVar, 
TestParameter, AutoAnalysis.Line1.Point2.Data.StartCondition, 
TestParameter, AutoAnalysis.Line1.GradientExpr, 0
TestParameter, AutoAnalysis.Line2.Enabled, false
TestParameter, AutoAnalysis.Line2.Type, 1
TestParameter, AutoAnalysis.Line2.Fix, True
TestParameter, AutoAnalysis.Line2.YAxis, 0
TestParameter, AutoAnalysis.Line2.Point1.Type, 0
TestParameter, AutoAnalysis.Line2.Point1.XY.X, 
TestParameter, AutoAnalysis.Line2.Point1.XY.Y, 
TestParameter, AutoAnalysis.Line2.Point1.Data.Var, 
TestParameter, AutoAnalysis.Line2.Point1.Data.Condition, 
TestParameter, AutoAnalysis.Line2.Point1.Data.Start, false
TestParameter, AutoAnalysis.Line2.Point1.Data.StartVar, 
TestParameter, AutoAnalysis.Line2.Point1.Data.StartCondition, 
TestParameter, AutoAnalysis.Line2.Point2.Type, 0
TestParameter, AutoAnalysis.Line2.Point2.XY.X, 
TestParameter, AutoAnalysis.Line2.Point2.XY.Y, 
TestParameter, AutoAnalysis.Line2.Point2.Data.Var, 
TestParameter, AutoAnalysis.Line2.Point2.Data.Condition, 
TestParameter, AutoAnalysis.Line2.Point2.Data.Start, false
TestParameter, AutoAnalysis.Line2.Point2.Data.StartVar, 
TestParameter, AutoAnalysis.Line2.Point2.Data.StartCondition, 
TestParameter, AutoAnalysis.Line2.GradientExpr, 0
TestParameter, AutoAnalysis.Marker.Enabled, false
TestParameter, AutoAnalysis.Marker.Data.Var, 
TestParameter, AutoAnalysis.Marker.Data.Condition, 
TestParameter, AutoAnalysis.Marker.Data.Start, false
TestParameter, AutoAnalysis.Marker.Data.StartVar, 
TestParameter, AutoAnalysis.Marker.Data.StartCondition, 
MetaData, TestRecord.EntryPoint, true
MetaData, TestRecord.RecordTime, 09/11/2020 16:25:18
MetaData, TestRecord.TestTarget, 
MetaData, TestRecord.IterationIndex, 21
MetaData, TestRecord.Preservation, true
MetaData, TestRecord.Flag, 
MetaData, TestRecord.Remarks, 
MetaData, TestRecord.LinkKey, 18d24996-4ae3-42bb-9665-76abc3aa00d3
Dimension1, 101, 101, 101
Dimension2, 1, 1, 1
DataName, V1, I1, Ohmic
DataValue, -5, -9.0209999999999991E-10, 2027402278.2064343
DataValue, -4.9, -8.7199999999999988E-10, 
DataValue, -4.8, -8.3189999999999989E-10, 
DataValue, -4.7, -8.648E-10, 
DataValue, -4.6000000000000005, -8.203E-10, 
DataValue, -4.5, -7.5669999999999988E-10, 
DataValue, -4.4, -7.651E-10, 
DataValue, -4.3, -7.5009999999999992E-10, 
DataValue, -4.2, -7.8779999999999991E-10, 
DataValue, -4.1, -7.4869999999999991E-10, 
DataValue, -4, -7.536E-10, 
DataValue, -3.9, -7.543999999999999E-10, 
DataValue, -3.8000000000000003, -7.132E-10, 
DataValue, -3.7, -6.3109999999999992E-10, 
DataValue, -3.6, -7.4599999999999991E-10, 
DataValue, -3.5, -7.105999999999999E-10, 
DataValue, -3.4, -7.0559999999999992E-10, 
DataValue, -3.3000000000000003, -6.653E-10, 
DataValue, -3.2, -6.306E-10, 
DataValue, -3.1, -6.6219999999999995E-10, 
DataValue, -3, -6.333E-10, 
DataValue, -2.9, -6.6479999999999992E-10, 
DataValue, -2.8000000000000003, -6.5509999999999994E-10, 
DataValue, -2.7, -6.3689999999999994E-10, 
DataValue, -2.6, -5.9309999999999995E-10, 
DataValue, -2.5, -6.7759999999999991E-10, 
DataValue, -2.4, -6.033E-10, 
DataValue, -2.3000000000000003, -5.564E-10, 
DataValue, -2.2, -6.063E-10, 
DataValue, -2.1, -5.7959999999999994E-10, 
DataValue, -2, -5.5489999999999991E-10, 
DataValue, -1.9000000000000001, -5.6369999999999992E-10, 
DataValue, -1.8, -5.6909999999999993E-10, 
DataValue, -1.7, -5.568E-10, 
DataValue, -1.6, -5.3839999999999992E-10, 
DataValue, -1.5, -5.875E-10, 
DataValue, -1.4000000000000001, -5.4509999999999991E-10, 
DataValue, -1.3, -5.073E-10, 
DataValue, -1.2, -4.9119999999999992E-10, 
DataValue, -1.1, -5.416999999999999E-10, 
DataValue, -1, -5.005E-10, 
DataValue, -0.9, -4.646E-10, 
DataValue, -0.8, -4.6019999999999997E-10, 
DataValue, -0.70000000000000007, -4.8689999999999994E-10, 
DataValue, -0.6, -4.4899999999999995E-10, 
DataValue, -0.5, -4.213E-10, 
DataValue, -0.4, -3.0639999999999994E-10, 
DataValue, -0.3, -6.16E-11, 
DataValue, -0.2, 6.5879999999999994E-10, 
DataValue, -0.1, 2.5774E-09, 
DataValue, 0, 5.0619E-09, 
DataValue, 0.1, 6.8525999999999993E-09, 
DataValue, 0.2, 7.7742999999999987E-09, 
DataValue, 0.3, 8.3423E-09, 
DataValue, 0.4, 8.5934E-09, 
DataValue, 0.5, 8.6954999999999984E-09, 
DataValue, 0.6, 8.7491999999999987E-09, 
DataValue, 0.70000000000000007, 8.6247999999999986E-09, 
DataValue, 0.8, 8.6485999999999984E-09, 
DataValue, 0.9, 8.6142E-09, 
DataValue, 1, 8.809599999999999E-09, 
DataValue, 1.1, 8.8551E-09, 
DataValue, 1.2, 8.9236E-09, 
DataValue, 1.3, 8.9728E-09, 
DataValue, 1.4000000000000001, 8.9543999999999988E-09, 
DataValue, 1.5, 8.9692999999999988E-09, 
DataValue, 1.6, 8.9572E-09, 
DataValue, 1.7, 9.0094999999999987E-09, 
DataValue, 1.8, 9.0573E-09, 
DataValue, 1.9000000000000001, 9.0678E-09, 
DataValue, 2, 9.118E-09, 
DataValue, 2.1, 9.1341999999999985E-09, 
DataValue, 2.2, 9.1057E-09, 
DataValue, 2.3000000000000003, 9.189799999999999E-09, 
DataValue, 2.4, 9.2064999999999988E-09, 
DataValue, 2.5, 9.2849999999999984E-09, 
DataValue, 2.6, 9.2804E-09, 
DataValue, 2.7, 9.4947999999999991E-09, 
DataValue, 2.8000000000000003, 9.5338999999999991E-09, 
DataValue, 2.9, 9.5686E-09, 
DataValue, 3, 9.5271999999999991E-09, 
DataValue, 3.1, 9.6861999999999991E-09, 
DataValue, 3.2, 9.8319999999999983E-09, 
DataValue, 3.3000000000000003, 9.9355E-09, 
DataValue, 3.4, 9.9485999999999985E-09, 
DataValue, 3.5, 1.0027499999999998E-08, 
DataValue, 3.6, 1.0128399999999998E-08, 
DataValue, 3.7, 1.0150799999999999E-08, 
DataValue, 3.8000000000000003, 1.02922E-08, 
DataValue, 3.9, 1.04881E-08, 
DataValue, 4, 1.0477399999999999E-08, 
DataValue, 4.1, 1.05313E-08, 
DataValue, 4.2, 1.06928E-08, 
DataValue, 4.3, 1.0735099999999999E-08, 
DataValue, 4.4, 1.08846E-08, 
DataValue, 4.5, 1.0872399999999998E-08, 
DataValue, 4.6000000000000005, 1.0981199999999998E-08, 
DataValue, 4.7, 1.0926199999999999E-08, 
DataValue, 4.8, 1.1136499999999999E-08, 
DataValue, 4.9, 1.12067E-08, 
DataValue, 5, 1.12633E-08, 