
SetupTitle, WW
PrimitiveTest, I/V Sweep
TestParameter, Context.MainFrame, B1500A
TestParameter, Channel.UnitType, SMU, SMU
TestParameter, Channel.Unit, SMU1:HP, SMU2:HP
TestParameter, Channel.IName, I1, I4
TestParameter, Channel.VName, V1, V4
TestParameter, Channel.Mode, V, COMMON
TestParameter, Channel.Func, VAR1, CONST
TestParameter, Channel.Index, 
TestParameter, Channel.Time, 
TestParameter, Measurement.Port.Unit, SMU1:HP, SMU2:HP
TestParameter, Measurement.Port.SeriesResistor, NONE, NONE
TestParameter, Measurement.Port.Filter, ON, ON
TestParameter, Measurement.Port.OutputVoltageComparison, 0, 0
TestParameter, Measurement.Primary.Locus, Single
TestParameter, Measurement.Primary.Scale, LINEAR
TestParameter, Measurement.Primary.Start, -5
TestParameter, Measurement.Primary.Stop, 5
TestParameter, Measurement.Primary.Step, 0.1
TestParameter, Measurement.Primary.Compliance, 0.1
TestParameter, Measurement.Primary.PowerCompliance, 0
TestParameter, Measurement.Aborting.Condition, CONTINUE AT ANY
TestParameter, Measurement.PostOutput.Value, START
TestParameter, Measurement.PostOutput.Retention, OFF
TestParameter, Measurement.Bias.Source, -5, 0
TestParameter, Measurement.Bias.Compliance, 0.1, 1
TestParameter, Measurement.Monitor.Unit, SMU1:HP, SMU2:HP
TestParameter, Measurement.Monitor.Adc, HR ADC, HR ADC
TestParameter, Measurement.Monitor.Measurement, Compliance Side, Compliance Side
TestParameter, Measurement.Monitor.RangingMode, AUTO, AUTO
TestParameter, Measurement.Monitor.RangeBoundary, , 
TestParameter, Measurement.Monitor.RangeRating, BY FULL RANGE, BY FULL RANGE
TestParameter, Measurement.Monitor.RangeRatingCoeff, 50, 50
TestParameter, Measurement.Timing.Hold, 0
TestParameter, Measurement.Timing.Delay, 0.001
TestParameter, Measurement.Adc.HighSpeed.Mode, AUTO
TestParameter, Measurement.Adc.HighSpeed.Coeff, 1
TestParameter, Measurement.Adc.HighResolution.AutoZero, OFF
TestParameter, Measurement.Adc.HighResolution.Mode, PLC
TestParameter, Measurement.Adc.HighResolution.Coeff, 1
TestParameter, Measurement.WaitTime.Source.Coeff, 1
TestParameter, Measurement.WaitTime.Source.Offset, 0
TestParameter, Measurement.WaitTime.Monitor.Coeff, 1
TestParameter, Measurement.WaitTime.Monitor.Offset, 0
TestParameter, Function.User.Name, Ohmic
TestParameter, Function.User.Unit, ohm
TestParameter, Function.User.Definition, avg(V1/I1)
TestParameter, Output.Graph.Enabled, true
TestParameter, Output.Graph.XAxis.Data, V1
TestParameter, Output.Graph.XAxis.Scale, Linear
TestParameter, Output.Graph.XAxis.Left, -5
TestParameter, Output.Graph.XAxis.Right, 5
TestParameter, Output.Graph.YAxis.Data, I1
TestParameter, Output.Graph.YAxis.Scale, Linear
TestParameter, Output.Graph.YAxis.Bottom, -0.001
TestParameter, Output.Graph.YAxis.Top, 0.001
TestParameter, Output.Graph.YAxis.Group, 
TestParameter, Output.Scalar.Data, Ohmic
TestParameter, AutoAnalysis.Interpolation, false
TestParameter, AutoAnalysis.Line1.Enabled, false
TestParameter, AutoAnalysis.Line1.Type, 1
TestParameter, AutoAnalysis.Line1.Fix, True
TestParameter, AutoAnalysis.Line1.YAxis, 0
TestParameter, AutoAnalysis.Line1.Point1.Type, 0
TestParameter, AutoAnalysis.Line1.Point1.XY.X, 
TestParameter, AutoAnalysis.Line1.Point1.XY.Y, 
TestParameter, AutoAnalysis.Line1.Point1.Data.Var, 
TestParameter, AutoAnalysis.Line1.Point1.Data.Condition, 
TestParameter, AutoAnalysis.Line1.Point1.Data.Start, false
TestParameter, AutoAnalysis.Line1.Point1.Data.StartVar, 
TestParameter, AutoAnalysis.Line1.Point1.Data.StartCondition, 
TestParameter, AutoAnalysis.Line1.Point2.Type, 0
TestParameter, AutoAnalysis.Line1.Point2.XY.X, 
TestParameter, AutoAnalysis.Line1.Point2.XY.Y, 
TestParameter, AutoAnalysis.Line1.Point2.Data.Var, 
TestParameter, AutoAnalysis.Line1.Point2.Data.Condition, 
TestParameter, AutoAnalysis.Line1.Point2.Data.Start, false
TestParameter, AutoAnalysis.Line1.Point2.Data.StartVar, 
TestParameter, AutoAnalysis.Line1.Point2.Data.StartCondition, 
TestParameter, AutoAnalysis.Line1.GradientExpr, 0
TestParameter, AutoAnalysis.Line2.Enabled, false
TestParameter, AutoAnalysis.Line2.Type, 1
TestParameter, AutoAnalysis.Line2.Fix, True
TestParameter, AutoAnalysis.Line2.YAxis, 0
TestParameter, AutoAnalysis.Line2.Point1.Type, 0
TestParameter, AutoAnalysis.Line2.Point1.XY.X, 
TestParameter, AutoAnalysis.Line2.Point1.XY.Y, 
TestParameter, AutoAnalysis.Line2.Point1.Data.Var, 
TestParameter, AutoAnalysis.Line2.Point1.Data.Condition, 
TestParameter, AutoAnalysis.Line2.Point1.Data.Start, false
TestParameter, AutoAnalysis.Line2.Point1.Data.StartVar, 
TestParameter, AutoAnalysis.Line2.Point1.Data.StartCondition, 
TestParameter, AutoAnalysis.Line2.Point2.Type, 0
TestParameter, AutoAnalysis.Line2.Point2.XY.X, 
TestParameter, AutoAnalysis.Line2.Point2.XY.Y, 
TestParameter, AutoAnalysis.Line2.Point2.Data.Var, 
TestParameter, AutoAnalysis.Line2.Point2.Data.Condition, 
TestParameter, AutoAnalysis.Line2.Point2.Data.Start, false
TestParameter, AutoAnalysis.Line2.Point2.Data.StartVar, 
TestParameter, AutoAnalysis.Line2.Point2.Data.StartCondition, 
TestParameter, AutoAnalysis.Line2.GradientExpr, 0
TestParameter, AutoAnalysis.Marker.Enabled, false
TestParameter, AutoAnalysis.Marker.Data.Var, 
TestParameter, AutoAnalysis.Marker.Data.Condition, 
TestParameter, AutoAnalysis.Marker.Data.Start, false
TestParameter, AutoAnalysis.Marker.Data.StartVar, 
TestParameter, AutoAnalysis.Marker.Data.StartCondition, 
MetaData, TestRecord.EntryPoint, true
MetaData, TestRecord.RecordTime, 09/11/2020 16:22:55
MetaData, TestRecord.TestTarget, 
MetaData, TestRecord.IterationIndex, 17
MetaData, TestRecord.Preservation, true
MetaData, TestRecord.Flag, 
MetaData, TestRecord.Remarks, 
MetaData, TestRecord.LinkKey, beb2ae96-27c9-45d9-bd3a-c4237cf47be6
Dimension1, 101, 101, 101
Dimension2, 1, 1, 1
DataName, V1, I1, Ohmic
DataValue, -5, -1.0043E-09, 1508221083.0364301
DataValue, -4.9, -1.0364999999999999E-09, 
DataValue, -4.8, -9.443E-10, 
DataValue, -4.7, -9.5559999999999988E-10, 
DataValue, -4.6000000000000005, -9.043999999999999E-10, 
DataValue, -4.5, -9.3389999999999985E-10, 
DataValue, -4.4, -8.642999999999999E-10, 
DataValue, -4.3, -8.7719999999999993E-10, 
DataValue, -4.2, -9.1829999999999992E-10, 
DataValue, -4.1, -8.4679999999999991E-10, 
DataValue, -4, -8.3319999999999987E-10, 
DataValue, -3.9, -8.2229999999999994E-10, 
DataValue, -3.8000000000000003, -8.0169999999999993E-10, 
DataValue, -3.7, -8.1859999999999994E-10, 
DataValue, -3.6, -7.8409999999999991E-10, 
DataValue, -3.5, -8.2699999999999994E-10, 
DataValue, -3.4, -7.9719999999999989E-10, 
DataValue, -3.3000000000000003, -7.796E-10, 
DataValue, -3.2, -8.0729999999999989E-10, 
DataValue, -3.1, -7.843999999999999E-10, 
DataValue, -3, -8.1399999999999988E-10, 
DataValue, -2.9, -7.6009999999999989E-10, 
DataValue, -2.8000000000000003, -7.486E-10, 
DataValue, -2.7, -7.8849999999999991E-10, 
DataValue, -2.6, -7.007999999999999E-10, 
DataValue, -2.5, -7.6049999999999991E-10, 
DataValue, -2.4, -7.189E-10, 
DataValue, -2.3000000000000003, -7.145E-10, 
DataValue, -2.2, -6.872E-10, 
DataValue, -2.1, -6.781E-10, 
DataValue, -2, -7.981E-10, 
DataValue, -1.9000000000000001, -6.9379999999999992E-10, 
DataValue, -1.8, -7.421E-10, 
DataValue, -1.7, -7.408E-10, 
DataValue, -1.6, -6.602E-10, 
DataValue, -1.5, -6.963E-10, 
DataValue, -1.4000000000000001, -6.232E-10, 
DataValue, -1.3, -6.845E-10, 
DataValue, -1.2, -6.471E-10, 
DataValue, -1.1, -6.417E-10, 
DataValue, -1, -6.9489999999999995E-10, 
DataValue, -0.9, -6.023E-10, 
DataValue, -0.8, -6.1E-10, 
DataValue, -0.70000000000000007, -5.8429999999999994E-10, 
DataValue, -0.6, -5.6399999999999991E-10, 
DataValue, -0.5, -5.0639999999999993E-10, 
DataValue, -0.4, -3.4179999999999995E-10, 
DataValue, -0.3, 1.5499999999999998E-11, 
DataValue, -0.2, 7.684E-10, 
DataValue, -0.1, 2.4207999999999997E-09, 
DataValue, 0, 4.7104E-09, 
DataValue, 0.1, 6.2589999999999992E-09, 
DataValue, 0.2, 7.0709E-09, 
DataValue, 0.3, 7.6517999999999987E-09, 
DataValue, 0.4, 8.1160999999999985E-09, 
DataValue, 0.5, 8.3562E-09, 
DataValue, 0.6, 8.4821E-09, 
DataValue, 0.70000000000000007, 8.4445999999999987E-09, 
DataValue, 0.8, 8.4675E-09, 
DataValue, 0.9, 8.4940999999999986E-09, 
DataValue, 1, 8.4909E-09, 
DataValue, 1.1, 8.5480999999999986E-09, 
DataValue, 1.2, 8.5378E-09, 
DataValue, 1.3, 8.488E-09, 
DataValue, 1.4000000000000001, 8.5938999999999986E-09, 
DataValue, 1.5, 8.605899999999999E-09, 
DataValue, 1.6, 8.5703999999999984E-09, 
DataValue, 1.7, 8.5752999999999987E-09, 
DataValue, 1.8, 8.6694E-09, 
DataValue, 1.9000000000000001, 8.5889E-09, 
DataValue, 2, 8.628999999999999E-09, 
DataValue, 2.1, 8.6611E-09, 
DataValue, 2.2, 8.726E-09, 
DataValue, 2.3000000000000003, 8.7719999999999991E-09, 
DataValue, 2.4, 8.759699999999999E-09, 
DataValue, 2.5, 8.9262E-09, 
DataValue, 2.6, 8.9479999999999985E-09, 
DataValue, 2.7, 8.9345999999999985E-09, 
DataValue, 2.8000000000000003, 9.0044E-09, 
DataValue, 2.9, 9.0754999999999991E-09, 
DataValue, 3, 9.1408999999999985E-09, 
DataValue, 3.1, 9.2009999999999991E-09, 
DataValue, 3.2, 9.274E-09, 
DataValue, 3.3000000000000003, 9.3509999999999988E-09, 
DataValue, 3.4, 9.3780999999999985E-09, 
DataValue, 3.5, 9.483599999999999E-09, 
DataValue, 3.6, 9.5040999999999991E-09, 
DataValue, 3.7, 9.6617E-09, 
DataValue, 3.8000000000000003, 9.6867999999999984E-09, 
DataValue, 3.9, 9.7352999999999988E-09, 
DataValue, 4, 9.8781E-09, 
DataValue, 4.1, 9.8903E-09, 
DataValue, 4.2, 1.00497E-08, 
DataValue, 4.3, 1.0122199999999999E-08, 
DataValue, 4.4, 1.0155599999999998E-08, 
DataValue, 4.5, 1.02638E-08, 
DataValue, 4.6000000000000005, 1.0326899999999998E-08, 
DataValue, 4.7, 1.0342899999999998E-08, 
DataValue, 4.8, 1.0460999999999999E-08, 
DataValue, 4.9, 1.0497599999999999E-08, 
DataValue, 5, 1.0555699999999999E-08, 