
SetupTitle, WW
PrimitiveTest, I/V Sweep
TestParameter, Context.MainFrame, B1500A
TestParameter, Channel.UnitType, SMU, SMU
TestParameter, Channel.Unit, SMU2:HP, SMU1:HP
TestParameter, Channel.IName, I1, I4
TestParameter, Channel.VName, V1, V4
TestParameter, Channel.Mode, V, COMMON
TestParameter, Channel.Func, VAR1, CONST
TestParameter, Channel.Index, 
TestParameter, Channel.Time, 
TestParameter, Measurement.Port.Unit, SMU2:HP, SMU1:HP
TestParameter, Measurement.Port.SeriesResistor, NONE, NONE
TestParameter, Measurement.Port.Filter, ON, ON
TestParameter, Measurement.Port.OutputVoltageComparison, 0, 0
TestParameter, Measurement.Primary.Locus, Single
TestParameter, Measurement.Primary.Scale, LINEAR
TestParameter, Measurement.Primary.Start, -1
TestParameter, Measurement.Primary.Stop, 1
TestParameter, Measurement.Primary.Step, 0.02
TestParameter, Measurement.Primary.Compliance, 0.01
TestParameter, Measurement.Primary.PowerCompliance, 0
TestParameter, Measurement.Aborting.Condition, CONTINUE AT ANY
TestParameter, Measurement.PostOutput.Value, START
TestParameter, Measurement.PostOutput.Retention, OFF
TestParameter, Measurement.Bias.Source, -1, 0
TestParameter, Measurement.Bias.Compliance, 0.01, 1
TestParameter, Measurement.Monitor.Unit, SMU2:HP, SMU1:HP
TestParameter, Measurement.Monitor.Adc, HR ADC, HR ADC
TestParameter, Measurement.Monitor.Measurement, Compliance Side, Compliance Side
TestParameter, Measurement.Monitor.RangingMode, AUTO, AUTO
TestParameter, Measurement.Monitor.RangeBoundary, , 
TestParameter, Measurement.Monitor.RangeRating, BY FULL RANGE, BY FULL RANGE
TestParameter, Measurement.Monitor.RangeRatingCoeff, 50, 50
TestParameter, Measurement.Timing.Hold, 0
TestParameter, Measurement.Timing.Delay, 0.001
TestParameter, Measurement.Adc.HighSpeed.Mode, AUTO
TestParameter, Measurement.Adc.HighSpeed.Coeff, 1
TestParameter, Measurement.Adc.HighResolution.AutoZero, OFF
TestParameter, Measurement.Adc.HighResolution.Mode, PLC
TestParameter, Measurement.Adc.HighResolution.Coeff, 1
TestParameter, Measurement.WaitTime.Source.Coeff, 1
TestParameter, Measurement.WaitTime.Source.Offset, 0
TestParameter, Measurement.WaitTime.Monitor.Coeff, 1
TestParameter, Measurement.WaitTime.Monitor.Offset, 0
TestParameter, Function.User.Name, Ohmic
TestParameter, Function.User.Unit, ohm
TestParameter, Function.User.Definition, avg(V1/I1)
TestParameter, Output.Graph.Enabled, true
TestParameter, Output.Graph.XAxis.Data, V1
TestParameter, Output.Graph.XAxis.Scale, Linear
TestParameter, Output.Graph.XAxis.Left, -5
TestParameter, Output.Graph.XAxis.Right, 5
TestParameter, Output.Graph.YAxis.Data, I1
TestParameter, Output.Graph.YAxis.Scale, Linear
TestParameter, Output.Graph.YAxis.Bottom, -0.001
TestParameter, Output.Graph.YAxis.Top, 0.001
TestParameter, Output.Graph.YAxis.Group, 
TestParameter, Output.Scalar.Data, Ohmic
TestParameter, AutoAnalysis.Interpolation, false
TestParameter, AutoAnalysis.Line1.Enabled, false
TestParameter, AutoAnalysis.Line1.Type, 1
TestParameter, AutoAnalysis.Line1.Fix, True
TestParameter, AutoAnalysis.Line1.YAxis, 0
TestParameter, AutoAnalysis.Line1.Point1.Type, 0
TestParameter, AutoAnalysis.Line1.Point1.XY.X, 
TestParameter, AutoAnalysis.Line1.Point1.XY.Y, 
TestParameter, AutoAnalysis.Line1.Point1.Data.Var, 
TestParameter, AutoAnalysis.Line1.Point1.Data.Condition, 
TestParameter, AutoAnalysis.Line1.Point1.Data.Start, false
TestParameter, AutoAnalysis.Line1.Point1.Data.StartVar, 
TestParameter, AutoAnalysis.Line1.Point1.Data.StartCondition, 
TestParameter, AutoAnalysis.Line1.Point2.Type, 0
TestParameter, AutoAnalysis.Line1.Point2.XY.X, 
TestParameter, AutoAnalysis.Line1.Point2.XY.Y, 
TestParameter, AutoAnalysis.Line1.Point2.Data.Var, 
TestParameter, AutoAnalysis.Line1.Point2.Data.Condition, 
TestParameter, AutoAnalysis.Line1.Point2.Data.Start, false
TestParameter, AutoAnalysis.Line1.Point2.Data.StartVar, 
TestParameter, AutoAnalysis.Line1.Point2.Data.StartCondition, 
TestParameter, AutoAnalysis.Line1.GradientExpr, 0
TestParameter, AutoAnalysis.Line2.Enabled, false
TestParameter, AutoAnalysis.Line2.Type, 1
TestParameter, AutoAnalysis.Line2.Fix, True
TestParameter, AutoAnalysis.Line2.YAxis, 0
TestParameter, AutoAnalysis.Line2.Point1.Type, 0
TestParameter, AutoAnalysis.Line2.Point1.XY.X, 
TestParameter, AutoAnalysis.Line2.Point1.XY.Y, 
TestParameter, AutoAnalysis.Line2.Point1.Data.Var, 
TestParameter, AutoAnalysis.Line2.Point1.Data.Condition, 
TestParameter, AutoAnalysis.Line2.Point1.Data.Start, false
TestParameter, AutoAnalysis.Line2.Point1.Data.StartVar, 
TestParameter, AutoAnalysis.Line2.Point1.Data.StartCondition, 
TestParameter, AutoAnalysis.Line2.Point2.Type, 0
TestParameter, AutoAnalysis.Line2.Point2.XY.X, 
TestParameter, AutoAnalysis.Line2.Point2.XY.Y, 
TestParameter, AutoAnalysis.Line2.Point2.Data.Var, 
TestParameter, AutoAnalysis.Line2.Point2.Data.Condition, 
TestParameter, AutoAnalysis.Line2.Point2.Data.Start, false
TestParameter, AutoAnalysis.Line2.Point2.Data.StartVar, 
TestParameter, AutoAnalysis.Line2.Point2.Data.StartCondition, 
TestParameter, AutoAnalysis.Line2.GradientExpr, 0
TestParameter, AutoAnalysis.Marker.Enabled, false
TestParameter, AutoAnalysis.Marker.Data.Var, 
TestParameter, AutoAnalysis.Marker.Data.Condition, 
TestParameter, AutoAnalysis.Marker.Data.Start, false
TestParameter, AutoAnalysis.Marker.Data.StartVar, 
TestParameter, AutoAnalysis.Marker.Data.StartCondition, 
MetaData, TestRecord.EntryPoint, true
MetaData, TestRecord.RecordTime, 01/18/2020 21:52:13
MetaData, TestRecord.TestTarget, 
MetaData, TestRecord.IterationIndex, 54
MetaData, TestRecord.Preservation, true
MetaData, TestRecord.Flag, 
MetaData, TestRecord.Remarks, 
MetaData, TestRecord.LinkKey, 35c1fc9e-563b-4425-a5fa-912624108036
Dimension1, 101, 101, 101
Dimension2, 1, 1, 1
DataName, V1, I1, Ohmic
DataValue, -1, -4.453E-11, 14202347444.032324
DataValue, -0.98000000000000009, -4.565E-11, 
DataValue, -0.96000000000000008, -3.628E-11, 
DataValue, -0.94000000000000006, -3.777E-11, 
DataValue, -0.92, -3.125E-11, 
DataValue, -0.9, -3.254E-11, 
DataValue, -0.88, -2.726E-11, 
DataValue, -0.86, -2.872E-11, 
DataValue, -0.84000000000000008, -2.505E-11, 
DataValue, -0.82000000000000006, -2.678E-11, 
DataValue, -0.8, -2.268E-11, 
DataValue, -0.78, -2.454E-11, 
DataValue, -0.76, -2.04E-11, 
DataValue, -0.74, -2.16E-11, 
DataValue, -0.72000000000000008, -1.813E-11, 
DataValue, -0.70000000000000007, -1.98E-11, 
DataValue, -0.68, -1.691E-11, 
DataValue, -0.66, -1.809E-11, 
DataValue, -0.64, -1.402E-11, 
DataValue, -0.62, -1.628E-11, 
DataValue, -0.6, -1.271E-11, 
DataValue, -0.58000000000000007, -1.493E-11, 
DataValue, -0.56, -1.187E-11, 
DataValue, -0.54, -1.454E-11, 
DataValue, -0.52, -1.082E-11, 
DataValue, -0.5, -1.3129999999999999E-11, 
DataValue, -0.48000000000000004, -9.97E-12, 
DataValue, -0.46, -1.217E-11, 
DataValue, -0.44, -7.71E-12, 
DataValue, -0.42000000000000004, -1.101E-11, 
DataValue, -0.4, -6.96E-12, 
DataValue, -0.38, -9.93E-12, 
DataValue, -0.36000000000000004, -6.44E-12, 
DataValue, -0.34, -8.98E-12, 
DataValue, -0.32, -5.77E-12, 
DataValue, -0.3, -9.46E-12, 
DataValue, -0.28, -5.23E-12, 
DataValue, -0.26, -8.51E-12, 
DataValue, -0.24000000000000002, -4.78E-12, 
DataValue, -0.22, -7.44E-12, 
DataValue, -0.2, -2.67E-12, 
DataValue, -0.18000000000000002, -5.91E-12, 
DataValue, -0.16, -1.81E-12, 
DataValue, -0.14, -3.67E-12, 
DataValue, -0.12000000000000001, 8.1E-13, 
DataValue, -0.1, 5.8E-13, 
DataValue, -0.08, 1.154E-11, 
DataValue, -0.060000000000000005, 2.221E-11, 
DataValue, -0.04, 5.212E-11, 
DataValue, -0.02, 9.364E-11, 
DataValue, 0, 1.671E-10, 
DataValue, 0.02, 2.6044E-10, 
DataValue, 0.04, 3.8755E-10, 
DataValue, 0.060000000000000005, 5.2818E-10, 
DataValue, 0.08, 6.9117E-10, 
DataValue, 0.1, 8.6735E-10, 
DataValue, 0.12000000000000001, 1.06134E-09, 
DataValue, 0.14, 1.27114E-09, 
DataValue, 0.16, 1.50399E-09, 
DataValue, 0.18000000000000002, 1.75423E-09, 
DataValue, 0.2, 2.03401E-09, 
DataValue, 0.22, 2.34321E-09, 
DataValue, 0.24000000000000002, 2.69164E-09, 
DataValue, 0.26, 3.08122E-09, 
DataValue, 0.28, 3.52635E-09, 
DataValue, 0.3, 4.0294E-09, 
DataValue, 0.32, 4.59308E-09, 
DataValue, 0.34, 5.21525E-09, 
DataValue, 0.36000000000000004, 5.90507E-09, 
DataValue, 0.38, 6.64965E-09, 
DataValue, 0.4, 7.4592E-09, 
DataValue, 0.42000000000000004, 8.31424E-09, 
DataValue, 0.44, 9.22407E-09, 
DataValue, 0.46, 1.018205E-08, 
DataValue, 0.48000000000000004, 1.11806E-08, 
DataValue, 0.5, 1.22468E-08, 
DataValue, 0.52, 1.3348099999999999E-08, 
DataValue, 0.54, 1.4493399999999998E-08, 
DataValue, 0.56, 1.56911E-08, 
DataValue, 0.58000000000000007, 1.6922599999999997E-08, 
DataValue, 0.6, 1.8195699999999997E-08, 
DataValue, 0.62, 1.9509E-08, 
DataValue, 0.64, 2.08743E-08, 
DataValue, 0.66, 2.22676E-08, 
DataValue, 0.68, 2.3706099999999996E-08, 
DataValue, 0.70000000000000007, 2.5178199999999996E-08, 
DataValue, 0.72000000000000008, 2.67245E-08, 
DataValue, 0.74, 2.8291599999999998E-08, 
DataValue, 0.76, 2.9904899999999997E-08, 
DataValue, 0.78, 3.15766E-08, 
DataValue, 0.8, 3.3287299999999995E-08, 
DataValue, 0.82000000000000006, 3.5059199999999994E-08, 
DataValue, 0.84000000000000008, 3.68596E-08, 
DataValue, 0.86, 3.8690299999999994E-08, 
DataValue, 0.88, 4.0576899999999995E-08, 
DataValue, 0.9, 4.2501399999999993E-08, 
DataValue, 0.92, 4.4507299999999992E-08, 
DataValue, 0.94000000000000006, 4.6494799999999996E-08, 
DataValue, 0.96000000000000008, 4.8558099999999996E-08, 
DataValue, 0.98000000000000009, 5.06574E-08, 
DataValue, 1, 5.2812799999999994E-08, 