
SetupTitle, WW
PrimitiveTest, I/V Sweep
TestParameter, Context.MainFrame, B1500A
TestParameter, Channel.UnitType, SMU, SMU
TestParameter, Channel.Unit, SMU2:HP, SMU1:HP
TestParameter, Channel.IName, I1, I4
TestParameter, Channel.VName, V1, V4
TestParameter, Channel.Mode, V, COMMON
TestParameter, Channel.Func, VAR1, CONST
TestParameter, Channel.Index, 
TestParameter, Channel.Time, 
TestParameter, Measurement.Port.Unit, SMU2:HP, SMU1:HP
TestParameter, Measurement.Port.SeriesResistor, NONE, NONE
TestParameter, Measurement.Port.Filter, ON, ON
TestParameter, Measurement.Port.OutputVoltageComparison, 0, 0
TestParameter, Measurement.Primary.Locus, Single
TestParameter, Measurement.Primary.Scale, LINEAR
TestParameter, Measurement.Primary.Start, -1
TestParameter, Measurement.Primary.Stop, 1
TestParameter, Measurement.Primary.Step, 0.02
TestParameter, Measurement.Primary.Compliance, 0.01
TestParameter, Measurement.Primary.PowerCompliance, 0
TestParameter, Measurement.Aborting.Condition, CONTINUE AT ANY
TestParameter, Measurement.PostOutput.Value, START
TestParameter, Measurement.PostOutput.Retention, OFF
TestParameter, Measurement.Bias.Source, -1, 0
TestParameter, Measurement.Bias.Compliance, 0.01, 1
TestParameter, Measurement.Monitor.Unit, SMU2:HP, SMU1:HP
TestParameter, Measurement.Monitor.Adc, HR ADC, HR ADC
TestParameter, Measurement.Monitor.Measurement, Compliance Side, Compliance Side
TestParameter, Measurement.Monitor.RangingMode, AUTO, AUTO
TestParameter, Measurement.Monitor.RangeBoundary, , 
TestParameter, Measurement.Monitor.RangeRating, BY FULL RANGE, BY FULL RANGE
TestParameter, Measurement.Monitor.RangeRatingCoeff, 50, 50
TestParameter, Measurement.Timing.Hold, 0
TestParameter, Measurement.Timing.Delay, 0.001
TestParameter, Measurement.Adc.HighSpeed.Mode, AUTO
TestParameter, Measurement.Adc.HighSpeed.Coeff, 1
TestParameter, Measurement.Adc.HighResolution.AutoZero, OFF
TestParameter, Measurement.Adc.HighResolution.Mode, PLC
TestParameter, Measurement.Adc.HighResolution.Coeff, 1
TestParameter, Measurement.WaitTime.Source.Coeff, 1
TestParameter, Measurement.WaitTime.Source.Offset, 0
TestParameter, Measurement.WaitTime.Monitor.Coeff, 1
TestParameter, Measurement.WaitTime.Monitor.Offset, 0
TestParameter, Function.User.Name, Ohmic
TestParameter, Function.User.Unit, ohm
TestParameter, Function.User.Definition, avg(V1/I1)
TestParameter, Output.Graph.Enabled, true
TestParameter, Output.Graph.XAxis.Data, V1
TestParameter, Output.Graph.XAxis.Scale, Linear
TestParameter, Output.Graph.XAxis.Left, -5
TestParameter, Output.Graph.XAxis.Right, 5
TestParameter, Output.Graph.YAxis.Data, I1
TestParameter, Output.Graph.YAxis.Scale, Linear
TestParameter, Output.Graph.YAxis.Bottom, -0.001
TestParameter, Output.Graph.YAxis.Top, 0.001
TestParameter, Output.Graph.YAxis.Group, 
TestParameter, Output.Scalar.Data, Ohmic
TestParameter, AutoAnalysis.Interpolation, false
TestParameter, AutoAnalysis.Line1.Enabled, false
TestParameter, AutoAnalysis.Line1.Type, 1
TestParameter, AutoAnalysis.Line1.Fix, True
TestParameter, AutoAnalysis.Line1.YAxis, 0
TestParameter, AutoAnalysis.Line1.Point1.Type, 0
TestParameter, AutoAnalysis.Line1.Point1.XY.X, 
TestParameter, AutoAnalysis.Line1.Point1.XY.Y, 
TestParameter, AutoAnalysis.Line1.Point1.Data.Var, 
TestParameter, AutoAnalysis.Line1.Point1.Data.Condition, 
TestParameter, AutoAnalysis.Line1.Point1.Data.Start, false
TestParameter, AutoAnalysis.Line1.Point1.Data.StartVar, 
TestParameter, AutoAnalysis.Line1.Point1.Data.StartCondition, 
TestParameter, AutoAnalysis.Line1.Point2.Type, 0
TestParameter, AutoAnalysis.Line1.Point2.XY.X, 
TestParameter, AutoAnalysis.Line1.Point2.XY.Y, 
TestParameter, AutoAnalysis.Line1.Point2.Data.Var, 
TestParameter, AutoAnalysis.Line1.Point2.Data.Condition, 
TestParameter, AutoAnalysis.Line1.Point2.Data.Start, false
TestParameter, AutoAnalysis.Line1.Point2.Data.StartVar, 
TestParameter, AutoAnalysis.Line1.Point2.Data.StartCondition, 
TestParameter, AutoAnalysis.Line1.GradientExpr, 0
TestParameter, AutoAnalysis.Line2.Enabled, false
TestParameter, AutoAnalysis.Line2.Type, 1
TestParameter, AutoAnalysis.Line2.Fix, True
TestParameter, AutoAnalysis.Line2.YAxis, 0
TestParameter, AutoAnalysis.Line2.Point1.Type, 0
TestParameter, AutoAnalysis.Line2.Point1.XY.X, 
TestParameter, AutoAnalysis.Line2.Point1.XY.Y, 
TestParameter, AutoAnalysis.Line2.Point1.Data.Var, 
TestParameter, AutoAnalysis.Line2.Point1.Data.Condition, 
TestParameter, AutoAnalysis.Line2.Point1.Data.Start, false
TestParameter, AutoAnalysis.Line2.Point1.Data.StartVar, 
TestParameter, AutoAnalysis.Line2.Point1.Data.StartCondition, 
TestParameter, AutoAnalysis.Line2.Point2.Type, 0
TestParameter, AutoAnalysis.Line2.Point2.XY.X, 
TestParameter, AutoAnalysis.Line2.Point2.XY.Y, 
TestParameter, AutoAnalysis.Line2.Point2.Data.Var, 
TestParameter, AutoAnalysis.Line2.Point2.Data.Condition, 
TestParameter, AutoAnalysis.Line2.Point2.Data.Start, false
TestParameter, AutoAnalysis.Line2.Point2.Data.StartVar, 
TestParameter, AutoAnalysis.Line2.Point2.Data.StartCondition, 
TestParameter, AutoAnalysis.Line2.GradientExpr, 0
TestParameter, AutoAnalysis.Marker.Enabled, false
TestParameter, AutoAnalysis.Marker.Data.Var, 
TestParameter, AutoAnalysis.Marker.Data.Condition, 
TestParameter, AutoAnalysis.Marker.Data.Start, false
TestParameter, AutoAnalysis.Marker.Data.StartVar, 
TestParameter, AutoAnalysis.Marker.Data.StartCondition, 
MetaData, TestRecord.EntryPoint, true
MetaData, TestRecord.RecordTime, 01/18/2020 21:51:44
MetaData, TestRecord.TestTarget, 
MetaData, TestRecord.IterationIndex, 53
MetaData, TestRecord.Preservation, true
MetaData, TestRecord.Flag, 
MetaData, TestRecord.Remarks, 
MetaData, TestRecord.LinkKey, 6c0c8982-073c-4c53-b266-2abbb459c4e6
Dimension1, 101, 101, 101
Dimension2, 1, 1, 1
DataName, V1, I1, Ohmic
DataValue, -1, -4.634E-11, 18940527075.216328
DataValue, -0.98000000000000009, -4.393E-11, 
DataValue, -0.96000000000000008, -3.787E-11, 
DataValue, -0.94000000000000006, -3.627E-11, 
DataValue, -0.92, -3.257E-11, 
DataValue, -0.9, -3.16E-11, 
DataValue, -0.88, -2.844E-11, 
DataValue, -0.86, -2.786E-11, 
DataValue, -0.84000000000000008, -2.55E-11, 
DataValue, -0.82000000000000006, -2.506E-11, 
DataValue, -0.8, -2.333E-11, 
DataValue, -0.78, -2.265E-11, 
DataValue, -0.76, -2.058E-11, 
DataValue, -0.74, -2.05E-11, 
DataValue, -0.72000000000000008, -1.906E-11, 
DataValue, -0.70000000000000007, -1.824E-11, 
DataValue, -0.68, -1.708E-11, 
DataValue, -0.66, -1.678E-11, 
DataValue, -0.64, -1.557E-11, 
DataValue, -0.62, -1.551E-11, 
DataValue, -0.6, -1.363E-11, 
DataValue, -0.58000000000000007, -1.41E-11, 
DataValue, -0.56, -1.278E-11, 
DataValue, -0.54, -1.267E-11, 
DataValue, -0.52, -1.123E-11, 
DataValue, -0.5, -1.146E-11, 
DataValue, -0.48000000000000004, -1.077E-11, 
DataValue, -0.46, -1.054E-11, 
DataValue, -0.44, -9.44E-12, 
DataValue, -0.42000000000000004, -9.66E-12, 
DataValue, -0.4, -8.6E-12, 
DataValue, -0.38, -9.04E-12, 
DataValue, -0.36000000000000004, -8.01E-12, 
DataValue, -0.34, -8.07E-12, 
DataValue, -0.32, -7.12E-12, 
DataValue, -0.3, -7.26E-12, 
DataValue, -0.28, -6.43E-12, 
DataValue, -0.26, -6.56E-12, 
DataValue, -0.24000000000000002, -5.21E-12, 
DataValue, -0.22, -5.6E-12, 
DataValue, -0.2, -4.48E-12, 
DataValue, -0.18000000000000002, -4.63E-12, 
DataValue, -0.16, -3.51E-12, 
DataValue, -0.14, -3.05E-12, 
DataValue, -0.12000000000000001, -4.7E-13, 
DataValue, -0.1, 2.75E-12, 
DataValue, -0.08, 1.022E-11, 
DataValue, -0.060000000000000005, 2.357E-11, 
DataValue, -0.04, 5.031E-11, 
DataValue, -0.02, 9.415E-11, 
DataValue, 0, 1.6469E-10, 
DataValue, 0.02, 2.6227E-10, 
DataValue, 0.04, 3.846E-10, 
DataValue, 0.060000000000000005, 5.2802E-10, 
DataValue, 0.08, 6.9014E-10, 
DataValue, 0.1, 8.6644E-10, 
DataValue, 0.12000000000000001, 1.05942E-09, 
DataValue, 0.14, 1.2716E-09, 
DataValue, 0.16, 1.4991E-09, 
DataValue, 0.18000000000000002, 1.75309E-09, 
DataValue, 0.2, 2.03245E-09, 
DataValue, 0.22, 2.34088E-09, 
DataValue, 0.24000000000000002, 2.68982E-09, 
DataValue, 0.26, 3.08057E-09, 
DataValue, 0.28, 3.52412E-09, 
DataValue, 0.3, 4.02706E-09, 
DataValue, 0.32, 4.58982E-09, 
DataValue, 0.34, 5.21285E-09, 
DataValue, 0.36000000000000004, 5.9012E-09, 
DataValue, 0.38, 6.64931E-09, 
DataValue, 0.4, 7.45133E-09, 
DataValue, 0.42000000000000004, 8.31301E-09, 
DataValue, 0.44, 9.22429E-09, 
DataValue, 0.46, 1.017943E-08, 
DataValue, 0.48000000000000004, 1.1168299999999999E-08, 
DataValue, 0.5, 1.2233999999999999E-08, 
DataValue, 0.52, 1.3341299999999998E-08, 
DataValue, 0.54, 1.44855E-08, 
DataValue, 0.56, 1.5674099999999997E-08, 
DataValue, 0.58000000000000007, 1.69107E-08, 
DataValue, 0.6, 1.8184099999999998E-08, 
DataValue, 0.62, 1.9495199999999998E-08, 
DataValue, 0.64, 2.08598E-08, 
DataValue, 0.66, 2.2251399999999997E-08, 
DataValue, 0.68, 2.36829E-08, 
DataValue, 0.70000000000000007, 2.5165099999999996E-08, 
DataValue, 0.72000000000000008, 2.6699199999999997E-08, 
DataValue, 0.74, 2.8250399999999997E-08, 
DataValue, 0.76, 2.98622E-08, 
DataValue, 0.78, 3.15055E-08, 
DataValue, 0.8, 3.3202499999999996E-08, 
DataValue, 0.82000000000000006, 3.49369E-08, 
DataValue, 0.84000000000000008, 3.67344E-08, 
DataValue, 0.86, 3.8548499999999996E-08, 
DataValue, 0.88, 4.0455599999999993E-08, 
DataValue, 0.9, 4.2402999999999993E-08, 
DataValue, 0.92, 4.43455E-08, 
DataValue, 0.94000000000000006, 4.63662E-08, 
DataValue, 0.96000000000000008, 4.84404E-08, 
DataValue, 0.98000000000000009, 5.0531999999999992E-08, 
DataValue, 1, 5.2667099999999997E-08, 