
SetupTitle, WW
PrimitiveTest, I/V Sweep
TestParameter, Context.MainFrame, B1500A
TestParameter, Channel.UnitType, SMU, SMU
TestParameter, Channel.Unit, SMU2:HP, SMU1:HP
TestParameter, Channel.IName, I1, I4
TestParameter, Channel.VName, V1, V4
TestParameter, Channel.Mode, V, COMMON
TestParameter, Channel.Func, VAR1, CONST
TestParameter, Channel.Index, 
TestParameter, Channel.Time, 
TestParameter, Measurement.Port.Unit, SMU2:HP, SMU1:HP
TestParameter, Measurement.Port.SeriesResistor, NONE, NONE
TestParameter, Measurement.Port.Filter, ON, ON
TestParameter, Measurement.Port.OutputVoltageComparison, 0, 0
TestParameter, Measurement.Primary.Locus, Single
TestParameter, Measurement.Primary.Scale, LINEAR
TestParameter, Measurement.Primary.Start, -1
TestParameter, Measurement.Primary.Stop, 1
TestParameter, Measurement.Primary.Step, 0.02
TestParameter, Measurement.Primary.Compliance, 0.01
TestParameter, Measurement.Primary.PowerCompliance, 0
TestParameter, Measurement.Aborting.Condition, CONTINUE AT ANY
TestParameter, Measurement.PostOutput.Value, START
TestParameter, Measurement.PostOutput.Retention, OFF
TestParameter, Measurement.Bias.Source, -1, 0
TestParameter, Measurement.Bias.Compliance, 0.01, 1
TestParameter, Measurement.Monitor.Unit, SMU2:HP, SMU1:HP
TestParameter, Measurement.Monitor.Adc, HR ADC, HR ADC
TestParameter, Measurement.Monitor.Measurement, Compliance Side, Compliance Side
TestParameter, Measurement.Monitor.RangingMode, AUTO, AUTO
TestParameter, Measurement.Monitor.RangeBoundary, , 
TestParameter, Measurement.Monitor.RangeRating, BY FULL RANGE, BY FULL RANGE
TestParameter, Measurement.Monitor.RangeRatingCoeff, 50, 50
TestParameter, Measurement.Timing.Hold, 0
TestParameter, Measurement.Timing.Delay, 0.001
TestParameter, Measurement.Adc.HighSpeed.Mode, AUTO
TestParameter, Measurement.Adc.HighSpeed.Coeff, 1
TestParameter, Measurement.Adc.HighResolution.AutoZero, OFF
TestParameter, Measurement.Adc.HighResolution.Mode, PLC
TestParameter, Measurement.Adc.HighResolution.Coeff, 1
TestParameter, Measurement.WaitTime.Source.Coeff, 1
TestParameter, Measurement.WaitTime.Source.Offset, 0
TestParameter, Measurement.WaitTime.Monitor.Coeff, 1
TestParameter, Measurement.WaitTime.Monitor.Offset, 0
TestParameter, Function.User.Name, Ohmic
TestParameter, Function.User.Unit, ohm
TestParameter, Function.User.Definition, avg(V1/I1)
TestParameter, Output.Graph.Enabled, true
TestParameter, Output.Graph.XAxis.Data, V1
TestParameter, Output.Graph.XAxis.Scale, Linear
TestParameter, Output.Graph.XAxis.Left, -5
TestParameter, Output.Graph.XAxis.Right, 5
TestParameter, Output.Graph.YAxis.Data, I1
TestParameter, Output.Graph.YAxis.Scale, Linear
TestParameter, Output.Graph.YAxis.Bottom, -0.001
TestParameter, Output.Graph.YAxis.Top, 0.001
TestParameter, Output.Graph.YAxis.Group, 
TestParameter, Output.Scalar.Data, Ohmic
TestParameter, AutoAnalysis.Interpolation, false
TestParameter, AutoAnalysis.Line1.Enabled, false
TestParameter, AutoAnalysis.Line1.Type, 1
TestParameter, AutoAnalysis.Line1.Fix, True
TestParameter, AutoAnalysis.Line1.YAxis, 0
TestParameter, AutoAnalysis.Line1.Point1.Type, 0
TestParameter, AutoAnalysis.Line1.Point1.XY.X, 
TestParameter, AutoAnalysis.Line1.Point1.XY.Y, 
TestParameter, AutoAnalysis.Line1.Point1.Data.Var, 
TestParameter, AutoAnalysis.Line1.Point1.Data.Condition, 
TestParameter, AutoAnalysis.Line1.Point1.Data.Start, false
TestParameter, AutoAnalysis.Line1.Point1.Data.StartVar, 
TestParameter, AutoAnalysis.Line1.Point1.Data.StartCondition, 
TestParameter, AutoAnalysis.Line1.Point2.Type, 0
TestParameter, AutoAnalysis.Line1.Point2.XY.X, 
TestParameter, AutoAnalysis.Line1.Point2.XY.Y, 
TestParameter, AutoAnalysis.Line1.Point2.Data.Var, 
TestParameter, AutoAnalysis.Line1.Point2.Data.Condition, 
TestParameter, AutoAnalysis.Line1.Point2.Data.Start, false
TestParameter, AutoAnalysis.Line1.Point2.Data.StartVar, 
TestParameter, AutoAnalysis.Line1.Point2.Data.StartCondition, 
TestParameter, AutoAnalysis.Line1.GradientExpr, 0
TestParameter, AutoAnalysis.Line2.Enabled, false
TestParameter, AutoAnalysis.Line2.Type, 1
TestParameter, AutoAnalysis.Line2.Fix, True
TestParameter, AutoAnalysis.Line2.YAxis, 0
TestParameter, AutoAnalysis.Line2.Point1.Type, 0
TestParameter, AutoAnalysis.Line2.Point1.XY.X, 
TestParameter, AutoAnalysis.Line2.Point1.XY.Y, 
TestParameter, AutoAnalysis.Line2.Point1.Data.Var, 
TestParameter, AutoAnalysis.Line2.Point1.Data.Condition, 
TestParameter, AutoAnalysis.Line2.Point1.Data.Start, false
TestParameter, AutoAnalysis.Line2.Point1.Data.StartVar, 
TestParameter, AutoAnalysis.Line2.Point1.Data.StartCondition, 
TestParameter, AutoAnalysis.Line2.Point2.Type, 0
TestParameter, AutoAnalysis.Line2.Point2.XY.X, 
TestParameter, AutoAnalysis.Line2.Point2.XY.Y, 
TestParameter, AutoAnalysis.Line2.Point2.Data.Var, 
TestParameter, AutoAnalysis.Line2.Point2.Data.Condition, 
TestParameter, AutoAnalysis.Line2.Point2.Data.Start, false
TestParameter, AutoAnalysis.Line2.Point2.Data.StartVar, 
TestParameter, AutoAnalysis.Line2.Point2.Data.StartCondition, 
TestParameter, AutoAnalysis.Line2.GradientExpr, 0
TestParameter, AutoAnalysis.Marker.Enabled, false
TestParameter, AutoAnalysis.Marker.Data.Var, 
TestParameter, AutoAnalysis.Marker.Data.Condition, 
TestParameter, AutoAnalysis.Marker.Data.Start, false
TestParameter, AutoAnalysis.Marker.Data.StartVar, 
TestParameter, AutoAnalysis.Marker.Data.StartCondition, 
MetaData, TestRecord.EntryPoint, true
MetaData, TestRecord.RecordTime, 01/18/2020 21:51:15
MetaData, TestRecord.TestTarget, 
MetaData, TestRecord.IterationIndex, 52
MetaData, TestRecord.Preservation, true
MetaData, TestRecord.Flag, 
MetaData, TestRecord.Remarks, 
MetaData, TestRecord.LinkKey, 51c444da-05e1-4f24-a6ad-f4dafe74e85f
Dimension1, 101, 101, 101
Dimension2, 1, 1, 1
DataName, V1, I1, Ohmic
DataValue, -1, -4.745E-11, 17017591413.78079
DataValue, -0.98000000000000009, -4.317E-11, 
DataValue, -0.96000000000000008, -4.075E-11, 
DataValue, -0.94000000000000006, -3.475E-11, 
DataValue, -0.92, -3.604E-11, 
DataValue, -0.9, -2.924E-11, 
DataValue, -0.88, -3.213E-11, 
DataValue, -0.86, -2.56E-11, 
DataValue, -0.84000000000000008, -2.872E-11, 
DataValue, -0.82000000000000006, -2.358E-11, 
DataValue, -0.8, -2.479E-11, 
DataValue, -0.78, -2.13E-11, 
DataValue, -0.76, -2.244E-11, 
DataValue, -0.74, -1.937E-11, 
DataValue, -0.72000000000000008, -2.091E-11, 
DataValue, -0.70000000000000007, -1.772E-11, 
DataValue, -0.68, -1.909E-11, 
DataValue, -0.66, -1.59E-11, 
DataValue, -0.64, -1.722E-11, 
DataValue, -0.62, -1.452E-11, 
DataValue, -0.6, -1.551E-11, 
DataValue, -0.58000000000000007, -1.275E-11, 
DataValue, -0.56, -1.515E-11, 
DataValue, -0.54, -1.172E-11, 
DataValue, -0.52, -1.363E-11, 
DataValue, -0.5, -1.06E-11, 
DataValue, -0.48000000000000004, -1.217E-11, 
DataValue, -0.46, -8.86E-12, 
DataValue, -0.44, -1.098E-11, 
DataValue, -0.42000000000000004, -7.89E-12, 
DataValue, -0.4, -1.028E-11, 
DataValue, -0.38, -7.5E-12, 
DataValue, -0.36000000000000004, -1.022E-11, 
DataValue, -0.34, -6.69E-12, 
DataValue, -0.32, -9.28E-12, 
DataValue, -0.3, -6.39E-12, 
DataValue, -0.28, -8.01E-12, 
DataValue, -0.26, -4.38E-12, 
DataValue, -0.24000000000000002, -7.16E-12, 
DataValue, -0.22, -3.92E-12, 
DataValue, -0.2, -6.18E-12, 
DataValue, -0.18000000000000002, -3.57E-12, 
DataValue, -0.16, -6.19E-12, 
DataValue, -0.14, -1.76E-12, 
DataValue, -0.12000000000000001, -2.94E-12, 
DataValue, -0.1, 3.88E-12, 
DataValue, -0.08, 8.33E-12, 
DataValue, -0.060000000000000005, 2.592E-11, 
DataValue, -0.04, 4.84E-11, 
DataValue, -0.02, 9.587E-11, 
DataValue, 0, 1.6329E-10, 
DataValue, 0.02, 2.6241E-10, 
DataValue, 0.04, 3.8202E-10, 
DataValue, 0.060000000000000005, 5.2776E-10, 
DataValue, 0.08, 6.8443E-10, 
DataValue, 0.1, 8.6265E-10, 
DataValue, 0.12000000000000001, 1.05124E-09, 
DataValue, 0.14, 1.26222E-09, 
DataValue, 0.16, 1.4903E-09, 
DataValue, 0.18000000000000002, 1.73934E-09, 
DataValue, 0.2, 2.01535E-09, 
DataValue, 0.22, 2.32048E-09, 
DataValue, 0.24000000000000002, 2.66388E-09, 
DataValue, 0.26, 3.04866E-09, 
DataValue, 0.28, 3.4854E-09, 
DataValue, 0.3, 3.97916E-09, 
DataValue, 0.32, 4.5343299999999996E-09, 
DataValue, 0.34, 5.14878E-09, 
DataValue, 0.36000000000000004, 5.82732E-09, 
DataValue, 0.38, 6.55972E-09, 
DataValue, 0.4, 7.3543E-09, 
DataValue, 0.42000000000000004, 8.19828E-09, 
DataValue, 0.44, 9.09523E-09, 
DataValue, 0.46, 1.003956E-08, 
DataValue, 0.48000000000000004, 1.1019899999999998E-08, 
DataValue, 0.5, 1.2064599999999999E-08, 
DataValue, 0.52, 1.3161899999999999E-08, 
DataValue, 0.54, 1.4293299999999999E-08, 
DataValue, 0.56, 1.5466499999999998E-08, 
DataValue, 0.58000000000000007, 1.6677899999999997E-08, 
DataValue, 0.6, 1.79324E-08, 
DataValue, 0.62, 1.92282E-08, 
DataValue, 0.64, 2.05593E-08, 
DataValue, 0.66, 2.1933399999999997E-08, 
DataValue, 0.68, 2.3349199999999997E-08, 
DataValue, 0.70000000000000007, 2.4804299999999998E-08, 
DataValue, 0.72000000000000008, 2.6306799999999998E-08, 
DataValue, 0.74, 2.7860999999999997E-08, 
DataValue, 0.76, 2.9438999999999996E-08, 
DataValue, 0.78, 3.10675E-08, 
DataValue, 0.8, 3.27484E-08, 
DataValue, 0.82000000000000006, 3.4457999999999997E-08, 
DataValue, 0.84000000000000008, 3.62504E-08, 
DataValue, 0.86, 3.80353E-08, 
DataValue, 0.88, 3.9869899999999994E-08, 
DataValue, 0.9, 4.17962E-08, 
DataValue, 0.92, 4.3740899999999996E-08, 
DataValue, 0.94000000000000006, 4.57636E-08, 
DataValue, 0.96000000000000008, 4.77536E-08, 
DataValue, 0.98000000000000009, 4.9829499999999996E-08, 
DataValue, 1, 5.1899899999999996E-08, 