
SetupTitle, WW
PrimitiveTest, I/V Sweep
TestParameter, Context.MainFrame, B1500A
TestParameter, Channel.UnitType, SMU, SMU
TestParameter, Channel.Unit, SMU2:HP, SMU1:HP
TestParameter, Channel.IName, I1, I4
TestParameter, Channel.VName, V1, V4
TestParameter, Channel.Mode, V, COMMON
TestParameter, Channel.Func, VAR1, CONST
TestParameter, Channel.Index, 
TestParameter, Channel.Time, 
TestParameter, Measurement.Port.Unit, SMU2:HP, SMU1:HP
TestParameter, Measurement.Port.SeriesResistor, NONE, NONE
TestParameter, Measurement.Port.Filter, ON, ON
TestParameter, Measurement.Port.OutputVoltageComparison, 0, 0
TestParameter, Measurement.Primary.Locus, Single
TestParameter, Measurement.Primary.Scale, LINEAR
TestParameter, Measurement.Primary.Start, -1
TestParameter, Measurement.Primary.Stop, 1
TestParameter, Measurement.Primary.Step, 0.02
TestParameter, Measurement.Primary.Compliance, 0.01
TestParameter, Measurement.Primary.PowerCompliance, 0
TestParameter, Measurement.Aborting.Condition, CONTINUE AT ANY
TestParameter, Measurement.PostOutput.Value, START
TestParameter, Measurement.PostOutput.Retention, OFF
TestParameter, Measurement.Bias.Source, -1, 0
TestParameter, Measurement.Bias.Compliance, 0.01, 1
TestParameter, Measurement.Monitor.Unit, SMU2:HP, SMU1:HP
TestParameter, Measurement.Monitor.Adc, HR ADC, HR ADC
TestParameter, Measurement.Monitor.Measurement, Compliance Side, Compliance Side
TestParameter, Measurement.Monitor.RangingMode, AUTO, AUTO
TestParameter, Measurement.Monitor.RangeBoundary, , 
TestParameter, Measurement.Monitor.RangeRating, BY FULL RANGE, BY FULL RANGE
TestParameter, Measurement.Monitor.RangeRatingCoeff, 50, 50
TestParameter, Measurement.Timing.Hold, 0
TestParameter, Measurement.Timing.Delay, 0.001
TestParameter, Measurement.Adc.HighSpeed.Mode, AUTO
TestParameter, Measurement.Adc.HighSpeed.Coeff, 1
TestParameter, Measurement.Adc.HighResolution.AutoZero, OFF
TestParameter, Measurement.Adc.HighResolution.Mode, PLC
TestParameter, Measurement.Adc.HighResolution.Coeff, 1
TestParameter, Measurement.WaitTime.Source.Coeff, 1
TestParameter, Measurement.WaitTime.Source.Offset, 0
TestParameter, Measurement.WaitTime.Monitor.Coeff, 1
TestParameter, Measurement.WaitTime.Monitor.Offset, 0
TestParameter, Function.User.Name, Ohmic
TestParameter, Function.User.Unit, ohm
TestParameter, Function.User.Definition, avg(V1/I1)
TestParameter, Output.Graph.Enabled, true
TestParameter, Output.Graph.XAxis.Data, V1
TestParameter, Output.Graph.XAxis.Scale, Linear
TestParameter, Output.Graph.XAxis.Left, -5
TestParameter, Output.Graph.XAxis.Right, 5
TestParameter, Output.Graph.YAxis.Data, I1
TestParameter, Output.Graph.YAxis.Scale, Linear
TestParameter, Output.Graph.YAxis.Bottom, -0.001
TestParameter, Output.Graph.YAxis.Top, 0.001
TestParameter, Output.Graph.YAxis.Group, 
TestParameter, Output.Scalar.Data, Ohmic
TestParameter, AutoAnalysis.Interpolation, false
TestParameter, AutoAnalysis.Line1.Enabled, false
TestParameter, AutoAnalysis.Line1.Type, 1
TestParameter, AutoAnalysis.Line1.Fix, True
TestParameter, AutoAnalysis.Line1.YAxis, 0
TestParameter, AutoAnalysis.Line1.Point1.Type, 0
TestParameter, AutoAnalysis.Line1.Point1.XY.X, 
TestParameter, AutoAnalysis.Line1.Point1.XY.Y, 
TestParameter, AutoAnalysis.Line1.Point1.Data.Var, 
TestParameter, AutoAnalysis.Line1.Point1.Data.Condition, 
TestParameter, AutoAnalysis.Line1.Point1.Data.Start, false
TestParameter, AutoAnalysis.Line1.Point1.Data.StartVar, 
TestParameter, AutoAnalysis.Line1.Point1.Data.StartCondition, 
TestParameter, AutoAnalysis.Line1.Point2.Type, 0
TestParameter, AutoAnalysis.Line1.Point2.XY.X, 
TestParameter, AutoAnalysis.Line1.Point2.XY.Y, 
TestParameter, AutoAnalysis.Line1.Point2.Data.Var, 
TestParameter, AutoAnalysis.Line1.Point2.Data.Condition, 
TestParameter, AutoAnalysis.Line1.Point2.Data.Start, false
TestParameter, AutoAnalysis.Line1.Point2.Data.StartVar, 
TestParameter, AutoAnalysis.Line1.Point2.Data.StartCondition, 
TestParameter, AutoAnalysis.Line1.GradientExpr, 0
TestParameter, AutoAnalysis.Line2.Enabled, false
TestParameter, AutoAnalysis.Line2.Type, 1
TestParameter, AutoAnalysis.Line2.Fix, True
TestParameter, AutoAnalysis.Line2.YAxis, 0
TestParameter, AutoAnalysis.Line2.Point1.Type, 0
TestParameter, AutoAnalysis.Line2.Point1.XY.X, 
TestParameter, AutoAnalysis.Line2.Point1.XY.Y, 
TestParameter, AutoAnalysis.Line2.Point1.Data.Var, 
TestParameter, AutoAnalysis.Line2.Point1.Data.Condition, 
TestParameter, AutoAnalysis.Line2.Point1.Data.Start, false
TestParameter, AutoAnalysis.Line2.Point1.Data.StartVar, 
TestParameter, AutoAnalysis.Line2.Point1.Data.StartCondition, 
TestParameter, AutoAnalysis.Line2.Point2.Type, 0
TestParameter, AutoAnalysis.Line2.Point2.XY.X, 
TestParameter, AutoAnalysis.Line2.Point2.XY.Y, 
TestParameter, AutoAnalysis.Line2.Point2.Data.Var, 
TestParameter, AutoAnalysis.Line2.Point2.Data.Condition, 
TestParameter, AutoAnalysis.Line2.Point2.Data.Start, false
TestParameter, AutoAnalysis.Line2.Point2.Data.StartVar, 
TestParameter, AutoAnalysis.Line2.Point2.Data.StartCondition, 
TestParameter, AutoAnalysis.Line2.GradientExpr, 0
TestParameter, AutoAnalysis.Marker.Enabled, false
TestParameter, AutoAnalysis.Marker.Data.Var, 
TestParameter, AutoAnalysis.Marker.Data.Condition, 
TestParameter, AutoAnalysis.Marker.Data.Start, false
TestParameter, AutoAnalysis.Marker.Data.StartVar, 
TestParameter, AutoAnalysis.Marker.Data.StartCondition, 
MetaData, TestRecord.EntryPoint, true
MetaData, TestRecord.RecordTime, 01/18/2020 21:50:46
MetaData, TestRecord.TestTarget, 
MetaData, TestRecord.IterationIndex, 51
MetaData, TestRecord.Preservation, true
MetaData, TestRecord.Flag, 
MetaData, TestRecord.Remarks, 
MetaData, TestRecord.LinkKey, 0bcb00f6-a050-4a53-b76b-ef43c964665a
Dimension1, 101, 101, 101
Dimension2, 1, 1, 1
DataName, V1, I1, Ohmic
DataValue, -1, -4.797E-11, 64960662504.670967
DataValue, -0.98000000000000009, -3.988E-11, 
DataValue, -0.96000000000000008, -4.067E-11, 
DataValue, -0.94000000000000006, -3.175E-11, 
DataValue, -0.92, -3.561E-11, 
DataValue, -0.9, -2.68E-11, 
DataValue, -0.88, -3.148E-11, 
DataValue, -0.86, -2.393E-11, 
DataValue, -0.84000000000000008, -2.71E-11, 
DataValue, -0.82000000000000006, -2.248E-11, 
DataValue, -0.8, -2.447E-11, 
DataValue, -0.78, -2.023E-11, 
DataValue, -0.76, -2.246E-11, 
DataValue, -0.74, -1.784E-11, 
DataValue, -0.72000000000000008, -1.994E-11, 
DataValue, -0.70000000000000007, -1.603E-11, 
DataValue, -0.68, -1.809E-11, 
DataValue, -0.66, -1.429E-11, 
DataValue, -0.64, -1.647E-11, 
DataValue, -0.62, -1.289E-11, 
DataValue, -0.6, -1.56E-11, 
DataValue, -0.58000000000000007, -1.163E-11, 
DataValue, -0.56, -1.436E-11, 
DataValue, -0.54, -1.02E-11, 
DataValue, -0.52, -1.341E-11, 
DataValue, -0.5, -9.19E-12, 
DataValue, -0.48000000000000004, -1.194E-11, 
DataValue, -0.46, -8.23E-12, 
DataValue, -0.44, -1.086E-11, 
DataValue, -0.42000000000000004, -7.26E-12, 
DataValue, -0.4, -1.0189999999999999E-11, 
DataValue, -0.38, -6.49E-12, 
DataValue, -0.36000000000000004, -9.23E-12, 
DataValue, -0.34, -5.59E-12, 
DataValue, -0.32, -8.49E-12, 
DataValue, -0.3, -5.07E-12, 
DataValue, -0.28, -7.82E-12, 
DataValue, -0.26, -4.11E-12, 
DataValue, -0.24000000000000002, -7.04E-12, 
DataValue, -0.22, -3.48E-12, 
DataValue, -0.2, -5.81E-12, 
DataValue, -0.18000000000000002, -1.32E-12, 
DataValue, -0.16, -4.47E-12, 
DataValue, -0.14, -3E-14, 
DataValue, -0.12000000000000001, -1.71E-12, 
DataValue, -0.1, 5.3E-12, 
DataValue, -0.08, 9.64E-12, 
DataValue, -0.060000000000000005, 2.674E-11, 
DataValue, -0.04, 4.96E-11, 
DataValue, -0.02, 9.759E-11, 
DataValue, 0, 1.6514E-10, 
DataValue, 0.02, 2.659E-10, 
DataValue, 0.04, 3.8529E-10, 
DataValue, 0.060000000000000005, 5.3101E-10, 
DataValue, 0.08, 6.8438E-10, 
DataValue, 0.1, 8.6389E-10, 
DataValue, 0.12000000000000001, 1.04581E-09, 
DataValue, 0.14, 1.2567E-09, 
DataValue, 0.16, 1.47836E-09, 
DataValue, 0.18000000000000002, 1.72705E-09, 
DataValue, 0.2, 1.99512E-09, 
DataValue, 0.22, 2.29423E-09, 
DataValue, 0.24000000000000002, 2.61661E-09, 
DataValue, 0.26, 2.99371E-09, 
DataValue, 0.28, 3.42217E-09, 
DataValue, 0.3, 3.90438E-09, 
DataValue, 0.32, 4.43848E-09, 
DataValue, 0.34, 5.03561E-09, 
DataValue, 0.36000000000000004, 5.6879E-09, 
DataValue, 0.38, 6.40728E-09, 
DataValue, 0.4, 7.17797E-09, 
DataValue, 0.42000000000000004, 7.99426E-09, 
DataValue, 0.44, 8.86765E-09, 
DataValue, 0.46, 9.77617E-09, 
DataValue, 0.48000000000000004, 1.0732399999999998E-08, 
DataValue, 0.5, 1.17496E-08, 
DataValue, 0.52, 1.2810499999999999E-08, 
DataValue, 0.54, 1.3902199999999999E-08, 
DataValue, 0.56, 1.50409E-08, 
DataValue, 0.58000000000000007, 1.6227199999999998E-08, 
DataValue, 0.6, 1.74315E-08, 
DataValue, 0.62, 1.87E-08, 
DataValue, 0.64, 1.9983299999999997E-08, 
DataValue, 0.66, 2.1306899999999998E-08, 
DataValue, 0.68, 2.2669699999999998E-08, 
DataValue, 0.70000000000000007, 2.40854E-08, 
DataValue, 0.72000000000000008, 2.5537899999999998E-08, 
DataValue, 0.74, 2.7007299999999998E-08, 
DataValue, 0.76, 2.8528899999999998E-08, 
DataValue, 0.78, 3.00989E-08, 
DataValue, 0.8, 3.1711299999999995E-08, 
DataValue, 0.82000000000000006, 3.33668E-08, 
DataValue, 0.84000000000000008, 3.5084699999999997E-08, 
DataValue, 0.86, 3.6793599999999997E-08, 
DataValue, 0.88, 3.85713E-08, 
DataValue, 0.9, 4.04246E-08, 
DataValue, 0.92, 4.2268299999999995E-08, 
DataValue, 0.94000000000000006, 4.42017E-08, 
DataValue, 0.96000000000000008, 4.6184499999999992E-08, 
DataValue, 0.98000000000000009, 4.8190199999999994E-08, 
DataValue, 1, 5.0202799999999992E-08, 