
SetupTitle, WW
PrimitiveTest, I/V Sweep
TestParameter, Context.MainFrame, B1500A
TestParameter, Channel.UnitType, SMU, SMU
TestParameter, Channel.Unit, SMU2:HP, SMU1:HP
TestParameter, Channel.IName, I1, I4
TestParameter, Channel.VName, V1, V4
TestParameter, Channel.Mode, V, COMMON
TestParameter, Channel.Func, VAR1, CONST
TestParameter, Channel.Index, 
TestParameter, Channel.Time, 
TestParameter, Measurement.Port.Unit, SMU2:HP, SMU1:HP
TestParameter, Measurement.Port.SeriesResistor, NONE, NONE
TestParameter, Measurement.Port.Filter, ON, ON
TestParameter, Measurement.Port.OutputVoltageComparison, 0, 0
TestParameter, Measurement.Primary.Locus, Single
TestParameter, Measurement.Primary.Scale, LINEAR
TestParameter, Measurement.Primary.Start, -1
TestParameter, Measurement.Primary.Stop, 1
TestParameter, Measurement.Primary.Step, 0.02
TestParameter, Measurement.Primary.Compliance, 0.01
TestParameter, Measurement.Primary.PowerCompliance, 0
TestParameter, Measurement.Aborting.Condition, CONTINUE AT ANY
TestParameter, Measurement.PostOutput.Value, START
TestParameter, Measurement.PostOutput.Retention, OFF
TestParameter, Measurement.Bias.Source, -1, 0
TestParameter, Measurement.Bias.Compliance, 0.01, 1
TestParameter, Measurement.Monitor.Unit, SMU2:HP, SMU1:HP
TestParameter, Measurement.Monitor.Adc, HR ADC, HR ADC
TestParameter, Measurement.Monitor.Measurement, Compliance Side, Compliance Side
TestParameter, Measurement.Monitor.RangingMode, AUTO, AUTO
TestParameter, Measurement.Monitor.RangeBoundary, , 
TestParameter, Measurement.Monitor.RangeRating, BY FULL RANGE, BY FULL RANGE
TestParameter, Measurement.Monitor.RangeRatingCoeff, 50, 50
TestParameter, Measurement.Timing.Hold, 0
TestParameter, Measurement.Timing.Delay, 0.001
TestParameter, Measurement.Adc.HighSpeed.Mode, AUTO
TestParameter, Measurement.Adc.HighSpeed.Coeff, 1
TestParameter, Measurement.Adc.HighResolution.AutoZero, OFF
TestParameter, Measurement.Adc.HighResolution.Mode, PLC
TestParameter, Measurement.Adc.HighResolution.Coeff, 1
TestParameter, Measurement.WaitTime.Source.Coeff, 1
TestParameter, Measurement.WaitTime.Source.Offset, 0
TestParameter, Measurement.WaitTime.Monitor.Coeff, 1
TestParameter, Measurement.WaitTime.Monitor.Offset, 0
TestParameter, Function.User.Name, Ohmic
TestParameter, Function.User.Unit, ohm
TestParameter, Function.User.Definition, avg(V1/I1)
TestParameter, Output.Graph.Enabled, true
TestParameter, Output.Graph.XAxis.Data, V1
TestParameter, Output.Graph.XAxis.Scale, Linear
TestParameter, Output.Graph.XAxis.Left, -5
TestParameter, Output.Graph.XAxis.Right, 5
TestParameter, Output.Graph.YAxis.Data, I1
TestParameter, Output.Graph.YAxis.Scale, Linear
TestParameter, Output.Graph.YAxis.Bottom, -0.001
TestParameter, Output.Graph.YAxis.Top, 0.001
TestParameter, Output.Graph.YAxis.Group, 
TestParameter, Output.Scalar.Data, Ohmic
TestParameter, AutoAnalysis.Interpolation, false
TestParameter, AutoAnalysis.Line1.Enabled, false
TestParameter, AutoAnalysis.Line1.Type, 1
TestParameter, AutoAnalysis.Line1.Fix, True
TestParameter, AutoAnalysis.Line1.YAxis, 0
TestParameter, AutoAnalysis.Line1.Point1.Type, 0
TestParameter, AutoAnalysis.Line1.Point1.XY.X, 
TestParameter, AutoAnalysis.Line1.Point1.XY.Y, 
TestParameter, AutoAnalysis.Line1.Point1.Data.Var, 
TestParameter, AutoAnalysis.Line1.Point1.Data.Condition, 
TestParameter, AutoAnalysis.Line1.Point1.Data.Start, false
TestParameter, AutoAnalysis.Line1.Point1.Data.StartVar, 
TestParameter, AutoAnalysis.Line1.Point1.Data.StartCondition, 
TestParameter, AutoAnalysis.Line1.Point2.Type, 0
TestParameter, AutoAnalysis.Line1.Point2.XY.X, 
TestParameter, AutoAnalysis.Line1.Point2.XY.Y, 
TestParameter, AutoAnalysis.Line1.Point2.Data.Var, 
TestParameter, AutoAnalysis.Line1.Point2.Data.Condition, 
TestParameter, AutoAnalysis.Line1.Point2.Data.Start, false
TestParameter, AutoAnalysis.Line1.Point2.Data.StartVar, 
TestParameter, AutoAnalysis.Line1.Point2.Data.StartCondition, 
TestParameter, AutoAnalysis.Line1.GradientExpr, 0
TestParameter, AutoAnalysis.Line2.Enabled, false
TestParameter, AutoAnalysis.Line2.Type, 1
TestParameter, AutoAnalysis.Line2.Fix, True
TestParameter, AutoAnalysis.Line2.YAxis, 0
TestParameter, AutoAnalysis.Line2.Point1.Type, 0
TestParameter, AutoAnalysis.Line2.Point1.XY.X, 
TestParameter, AutoAnalysis.Line2.Point1.XY.Y, 
TestParameter, AutoAnalysis.Line2.Point1.Data.Var, 
TestParameter, AutoAnalysis.Line2.Point1.Data.Condition, 
TestParameter, AutoAnalysis.Line2.Point1.Data.Start, false
TestParameter, AutoAnalysis.Line2.Point1.Data.StartVar, 
TestParameter, AutoAnalysis.Line2.Point1.Data.StartCondition, 
TestParameter, AutoAnalysis.Line2.Point2.Type, 0
TestParameter, AutoAnalysis.Line2.Point2.XY.X, 
TestParameter, AutoAnalysis.Line2.Point2.XY.Y, 
TestParameter, AutoAnalysis.Line2.Point2.Data.Var, 
TestParameter, AutoAnalysis.Line2.Point2.Data.Condition, 
TestParameter, AutoAnalysis.Line2.Point2.Data.Start, false
TestParameter, AutoAnalysis.Line2.Point2.Data.StartVar, 
TestParameter, AutoAnalysis.Line2.Point2.Data.StartCondition, 
TestParameter, AutoAnalysis.Line2.GradientExpr, 0
TestParameter, AutoAnalysis.Marker.Enabled, false
TestParameter, AutoAnalysis.Marker.Data.Var, 
TestParameter, AutoAnalysis.Marker.Data.Condition, 
TestParameter, AutoAnalysis.Marker.Data.Start, false
TestParameter, AutoAnalysis.Marker.Data.StartVar, 
TestParameter, AutoAnalysis.Marker.Data.StartCondition, 
MetaData, TestRecord.EntryPoint, true
MetaData, TestRecord.RecordTime, 01/18/2020 21:49:43
MetaData, TestRecord.TestTarget, 
MetaData, TestRecord.IterationIndex, 49
MetaData, TestRecord.Preservation, true
MetaData, TestRecord.Flag, 
MetaData, TestRecord.Remarks, 
MetaData, TestRecord.LinkKey, b8ed06a3-36b8-4d6d-90e2-1dc5e8128904
Dimension1, 101, 101, 101
Dimension2, 1, 1, 1
DataName, V1, I1, Ohmic
DataValue, -1, -5.133E-11, 14470977280.974672
DataValue, -0.98000000000000009, -4.477E-11, 
DataValue, -0.96000000000000008, -3.875E-11, 
DataValue, -0.94000000000000006, -3.677E-11, 
DataValue, -0.92, -3.286E-11, 
DataValue, -0.9, -3.18E-11, 
DataValue, -0.88, -2.847E-11, 
DataValue, -0.86, -2.809E-11, 
DataValue, -0.84000000000000008, -2.552E-11, 
DataValue, -0.82000000000000006, -2.554E-11, 
DataValue, -0.8, -2.237E-11, 
DataValue, -0.78, -2.235E-11, 
DataValue, -0.76, -2.013E-11, 
DataValue, -0.74, -2.052E-11, 
DataValue, -0.72000000000000008, -1.772E-11, 
DataValue, -0.70000000000000007, -1.784E-11, 
DataValue, -0.68, -1.641E-11, 
DataValue, -0.66, -1.69E-11, 
DataValue, -0.64, -1.426E-11, 
DataValue, -0.62, -1.503E-11, 
DataValue, -0.6, -1.309E-11, 
DataValue, -0.58000000000000007, -1.342E-11, 
DataValue, -0.56, -1.163E-11, 
DataValue, -0.54, -1.219E-11, 
DataValue, -0.52, -1.064E-11, 
DataValue, -0.5, -1.108E-11, 
DataValue, -0.48000000000000004, -9.59E-12, 
DataValue, -0.46, -1.028E-11, 
DataValue, -0.44, -8.42E-12, 
DataValue, -0.42000000000000004, -9.38E-12, 
DataValue, -0.4, -7.91E-12, 
DataValue, -0.38, -8.36E-12, 
DataValue, -0.36000000000000004, -6.7E-12, 
DataValue, -0.34, -7.68E-12, 
DataValue, -0.32, -6.23E-12, 
DataValue, -0.3, -7.25E-12, 
DataValue, -0.28, -5.34E-12, 
DataValue, -0.26, -7.12E-12, 
DataValue, -0.24000000000000002, -4.44E-12, 
DataValue, -0.22, -5.77E-12, 
DataValue, -0.2, -4E-12, 
DataValue, -0.18000000000000002, -4.7399999999999996E-12, 
DataValue, -0.16, -2.46E-12, 
DataValue, -0.14, -2.42E-12, 
DataValue, -0.12000000000000001, 3.9E-13, 
DataValue, -0.1, 2.89E-12, 
DataValue, -0.08, 1.098E-11, 
DataValue, -0.060000000000000005, 2.449E-11, 
DataValue, -0.04, 5.269E-11, 
DataValue, -0.02, 9.464E-11, 
DataValue, 0, 1.6474E-10, 
DataValue, 0.02, 2.6426E-10, 
DataValue, 0.04, 3.8864E-10, 
DataValue, 0.060000000000000005, 5.2397E-10, 
DataValue, 0.08, 6.9914E-10, 
DataValue, 0.1, 8.5123999999999995E-10, 
DataValue, 0.12000000000000001, 1.03441E-09, 
DataValue, 0.14, 1.23525E-09, 
DataValue, 0.16, 1.42873E-09, 
DataValue, 0.18000000000000002, 1.67463E-09, 
DataValue, 0.2, 1.89601E-09, 
DataValue, 0.22, 2.18041E-09, 
DataValue, 0.24000000000000002, 2.47913E-09, 
DataValue, 0.26, 2.7974E-09, 
DataValue, 0.28, 3.16739E-09, 
DataValue, 0.3, 3.60055E-09, 
DataValue, 0.32, 4.03999E-09, 
DataValue, 0.34, 4.56935E-09, 
DataValue, 0.36000000000000004, 5.18776E-09, 
DataValue, 0.38, 5.78336E-09, 
DataValue, 0.4, 6.46436E-09, 
DataValue, 0.42000000000000004, 7.21092E-09, 
DataValue, 0.44, 7.99424E-09, 
DataValue, 0.46, 8.78732E-09, 
DataValue, 0.48000000000000004, 9.64873E-09, 
DataValue, 0.5, 1.05566E-08, 
DataValue, 0.52, 1.1479599999999999E-08, 
DataValue, 0.54, 1.2463299999999999E-08, 
DataValue, 0.56, 1.3524299999999999E-08, 
DataValue, 0.58000000000000007, 1.45555E-08, 
DataValue, 0.6, 1.5614199999999998E-08, 
DataValue, 0.62, 1.6768399999999997E-08, 
DataValue, 0.64, 1.79229E-08, 
DataValue, 0.66, 1.90858E-08, 
DataValue, 0.68, 2.0231299999999997E-08, 
DataValue, 0.70000000000000007, 2.14386E-08, 
DataValue, 0.72000000000000008, 2.27467E-08, 
DataValue, 0.74, 2.4136E-08, 
DataValue, 0.76, 2.54905E-08, 
DataValue, 0.78, 2.6897199999999997E-08, 
DataValue, 0.8, 2.8055399999999997E-08, 
DataValue, 0.82000000000000006, 2.9665599999999997E-08, 
DataValue, 0.84000000000000008, 3.12172E-08, 
DataValue, 0.86, 3.2711399999999996E-08, 
DataValue, 0.88, 3.43561E-08, 
DataValue, 0.9, 3.58392E-08, 
DataValue, 0.92, 3.7435299999999994E-08, 
DataValue, 0.94000000000000006, 3.88841E-08, 
DataValue, 0.96000000000000008, 4.07975E-08, 
DataValue, 0.98000000000000009, 4.2529699999999995E-08, 
DataValue, 1, 4.4229899999999994E-08, 