
SetupTitle, WW
PrimitiveTest, I/V Sweep
TestParameter, Context.MainFrame, B1500A
TestParameter, Channel.UnitType, SMU, SMU
TestParameter, Channel.Unit, SMU2:HP, SMU1:HP
TestParameter, Channel.IName, I1, I4
TestParameter, Channel.VName, V1, V4
TestParameter, Channel.Mode, V, COMMON
TestParameter, Channel.Func, VAR1, CONST
TestParameter, Channel.Index, 
TestParameter, Channel.Time, 
TestParameter, Measurement.Port.Unit, SMU2:HP, SMU1:HP
TestParameter, Measurement.Port.SeriesResistor, NONE, NONE
TestParameter, Measurement.Port.Filter, ON, ON
TestParameter, Measurement.Port.OutputVoltageComparison, 0, 0
TestParameter, Measurement.Primary.Locus, Single
TestParameter, Measurement.Primary.Scale, LINEAR
TestParameter, Measurement.Primary.Start, -1
TestParameter, Measurement.Primary.Stop, 1
TestParameter, Measurement.Primary.Step, 0.02
TestParameter, Measurement.Primary.Compliance, 0.01
TestParameter, Measurement.Primary.PowerCompliance, 0
TestParameter, Measurement.Aborting.Condition, CONTINUE AT ANY
TestParameter, Measurement.PostOutput.Value, START
TestParameter, Measurement.PostOutput.Retention, OFF
TestParameter, Measurement.Bias.Source, -1, 0
TestParameter, Measurement.Bias.Compliance, 0.01, 1
TestParameter, Measurement.Monitor.Unit, SMU2:HP, SMU1:HP
TestParameter, Measurement.Monitor.Adc, HR ADC, HR ADC
TestParameter, Measurement.Monitor.Measurement, Compliance Side, Compliance Side
TestParameter, Measurement.Monitor.RangingMode, AUTO, AUTO
TestParameter, Measurement.Monitor.RangeBoundary, , 
TestParameter, Measurement.Monitor.RangeRating, BY FULL RANGE, BY FULL RANGE
TestParameter, Measurement.Monitor.RangeRatingCoeff, 50, 50
TestParameter, Measurement.Timing.Hold, 0
TestParameter, Measurement.Timing.Delay, 0.001
TestParameter, Measurement.Adc.HighSpeed.Mode, AUTO
TestParameter, Measurement.Adc.HighSpeed.Coeff, 1
TestParameter, Measurement.Adc.HighResolution.AutoZero, OFF
TestParameter, Measurement.Adc.HighResolution.Mode, PLC
TestParameter, Measurement.Adc.HighResolution.Coeff, 1
TestParameter, Measurement.WaitTime.Source.Coeff, 1
TestParameter, Measurement.WaitTime.Source.Offset, 0
TestParameter, Measurement.WaitTime.Monitor.Coeff, 1
TestParameter, Measurement.WaitTime.Monitor.Offset, 0
TestParameter, Function.User.Name, Ohmic
TestParameter, Function.User.Unit, ohm
TestParameter, Function.User.Definition, avg(V1/I1)
TestParameter, Output.Graph.Enabled, true
TestParameter, Output.Graph.XAxis.Data, V1
TestParameter, Output.Graph.XAxis.Scale, Linear
TestParameter, Output.Graph.XAxis.Left, -5
TestParameter, Output.Graph.XAxis.Right, 5
TestParameter, Output.Graph.YAxis.Data, I1
TestParameter, Output.Graph.YAxis.Scale, Linear
TestParameter, Output.Graph.YAxis.Bottom, -0.001
TestParameter, Output.Graph.YAxis.Top, 0.001
TestParameter, Output.Graph.YAxis.Group, 
TestParameter, Output.Scalar.Data, Ohmic
TestParameter, AutoAnalysis.Interpolation, false
TestParameter, AutoAnalysis.Line1.Enabled, false
TestParameter, AutoAnalysis.Line1.Type, 1
TestParameter, AutoAnalysis.Line1.Fix, True
TestParameter, AutoAnalysis.Line1.YAxis, 0
TestParameter, AutoAnalysis.Line1.Point1.Type, 0
TestParameter, AutoAnalysis.Line1.Point1.XY.X, 
TestParameter, AutoAnalysis.Line1.Point1.XY.Y, 
TestParameter, AutoAnalysis.Line1.Point1.Data.Var, 
TestParameter, AutoAnalysis.Line1.Point1.Data.Condition, 
TestParameter, AutoAnalysis.Line1.Point1.Data.Start, false
TestParameter, AutoAnalysis.Line1.Point1.Data.StartVar, 
TestParameter, AutoAnalysis.Line1.Point1.Data.StartCondition, 
TestParameter, AutoAnalysis.Line1.Point2.Type, 0
TestParameter, AutoAnalysis.Line1.Point2.XY.X, 
TestParameter, AutoAnalysis.Line1.Point2.XY.Y, 
TestParameter, AutoAnalysis.Line1.Point2.Data.Var, 
TestParameter, AutoAnalysis.Line1.Point2.Data.Condition, 
TestParameter, AutoAnalysis.Line1.Point2.Data.Start, false
TestParameter, AutoAnalysis.Line1.Point2.Data.StartVar, 
TestParameter, AutoAnalysis.Line1.Point2.Data.StartCondition, 
TestParameter, AutoAnalysis.Line1.GradientExpr, 0
TestParameter, AutoAnalysis.Line2.Enabled, false
TestParameter, AutoAnalysis.Line2.Type, 1
TestParameter, AutoAnalysis.Line2.Fix, True
TestParameter, AutoAnalysis.Line2.YAxis, 0
TestParameter, AutoAnalysis.Line2.Point1.Type, 0
TestParameter, AutoAnalysis.Line2.Point1.XY.X, 
TestParameter, AutoAnalysis.Line2.Point1.XY.Y, 
TestParameter, AutoAnalysis.Line2.Point1.Data.Var, 
TestParameter, AutoAnalysis.Line2.Point1.Data.Condition, 
TestParameter, AutoAnalysis.Line2.Point1.Data.Start, false
TestParameter, AutoAnalysis.Line2.Point1.Data.StartVar, 
TestParameter, AutoAnalysis.Line2.Point1.Data.StartCondition, 
TestParameter, AutoAnalysis.Line2.Point2.Type, 0
TestParameter, AutoAnalysis.Line2.Point2.XY.X, 
TestParameter, AutoAnalysis.Line2.Point2.XY.Y, 
TestParameter, AutoAnalysis.Line2.Point2.Data.Var, 
TestParameter, AutoAnalysis.Line2.Point2.Data.Condition, 
TestParameter, AutoAnalysis.Line2.Point2.Data.Start, false
TestParameter, AutoAnalysis.Line2.Point2.Data.StartVar, 
TestParameter, AutoAnalysis.Line2.Point2.Data.StartCondition, 
TestParameter, AutoAnalysis.Line2.GradientExpr, 0
TestParameter, AutoAnalysis.Marker.Enabled, false
TestParameter, AutoAnalysis.Marker.Data.Var, 
TestParameter, AutoAnalysis.Marker.Data.Condition, 
TestParameter, AutoAnalysis.Marker.Data.Start, false
TestParameter, AutoAnalysis.Marker.Data.StartVar, 
TestParameter, AutoAnalysis.Marker.Data.StartCondition, 
MetaData, TestRecord.EntryPoint, true
MetaData, TestRecord.RecordTime, 01/18/2020 21:49:15
MetaData, TestRecord.TestTarget, 
MetaData, TestRecord.IterationIndex, 48
MetaData, TestRecord.Preservation, true
MetaData, TestRecord.Flag, 
MetaData, TestRecord.Remarks, 
MetaData, TestRecord.LinkKey, 2abb62fb-04ba-4730-999d-4ede7b57ce31
Dimension1, 101, 101, 101
Dimension2, 1, 1, 1
DataName, V1, I1, Ohmic
DataValue, -1, -5.237E-11, 8759689783.9496155
DataValue, -0.98000000000000009, -4.068E-11, 
DataValue, -0.96000000000000008, -4.178E-11, 
DataValue, -0.94000000000000006, -3.274E-11, 
DataValue, -0.92, -3.633E-11, 
DataValue, -0.9, -2.821E-11, 
DataValue, -0.88, -3.143E-11, 
DataValue, -0.86, -2.513E-11, 
DataValue, -0.84000000000000008, -2.667E-11, 
DataValue, -0.82000000000000006, -2.243E-11, 
DataValue, -0.8, -2.318E-11, 
DataValue, -0.78, -1.887E-11, 
DataValue, -0.76, -2.064E-11, 
DataValue, -0.74, -1.673E-11, 
DataValue, -0.72000000000000008, -1.858E-11, 
DataValue, -0.70000000000000007, -1.466E-11, 
DataValue, -0.68, -1.646E-11, 
DataValue, -0.66, -1.284E-11, 
DataValue, -0.64, -1.489E-11, 
DataValue, -0.62, -1.1E-11, 
DataValue, -0.6, -1.332E-11, 
DataValue, -0.58000000000000007, -9.73E-12, 
DataValue, -0.56, -1.198E-11, 
DataValue, -0.54, -8.34E-12, 
DataValue, -0.52, -1.084E-11, 
DataValue, -0.5, -7.08E-12, 
DataValue, -0.48000000000000004, -9.66E-12, 
DataValue, -0.46, -6.27E-12, 
DataValue, -0.44, -8.49E-12, 
DataValue, -0.42000000000000004, -4.84E-12, 
DataValue, -0.4, -7.55E-12, 
DataValue, -0.38, -4.41E-12, 
DataValue, -0.36000000000000004, -8.19E-12, 
DataValue, -0.34, -3.85E-12, 
DataValue, -0.32, -7.66E-12, 
DataValue, -0.3, -2.99E-12, 
DataValue, -0.28, -6.66E-12, 
DataValue, -0.26, -2.68E-12, 
DataValue, -0.24000000000000002, -5.82E-12, 
DataValue, -0.22, -1.95E-12, 
DataValue, -0.2, -4.29E-12, 
DataValue, -0.18000000000000002, 1.8E-13, 
DataValue, -0.16, -2.96E-12, 
DataValue, -0.14, 1.94E-12, 
DataValue, -0.12000000000000001, 8.2E-13, 
DataValue, -0.1, 8.01E-12, 
DataValue, -0.08, 1.308E-11, 
DataValue, -0.060000000000000005, 3.229E-11, 
DataValue, -0.04, 5.836E-11, 
DataValue, -0.02, 1.1116E-10, 
DataValue, 0, 1.8616E-10, 
DataValue, 0.02, 2.9183E-10, 
DataValue, 0.04, 4.1998E-10, 
DataValue, 0.060000000000000005, 5.6657E-10, 
DataValue, 0.08, 7.1643E-10, 
DataValue, 0.1, 8.8782E-10, 
DataValue, 0.12000000000000001, 1.06056E-09, 
DataValue, 0.14, 1.25135E-09, 
DataValue, 0.16, 1.45032E-09, 
DataValue, 0.18000000000000002, 1.66887E-09, 
DataValue, 0.2, 1.88783E-09, 
DataValue, 0.22, 2.13579E-09, 
DataValue, 0.24000000000000002, 2.41243E-09, 
DataValue, 0.26, 2.70946E-09, 
DataValue, 0.28, 3.06369E-09, 
DataValue, 0.3, 3.44387E-09, 
DataValue, 0.32, 3.87181E-09, 
DataValue, 0.34, 4.36316E-09, 
DataValue, 0.36000000000000004, 4.90209E-09, 
DataValue, 0.38, 5.48816E-09, 
DataValue, 0.4, 6.11535E-09, 
DataValue, 0.42000000000000004, 6.78484E-09, 
DataValue, 0.44, 7.50483E-09, 
DataValue, 0.46, 8.26375E-09, 
DataValue, 0.48000000000000004, 9.06133E-09, 
DataValue, 0.5, 9.88088E-09, 
DataValue, 0.52, 1.0756599999999998E-08, 
DataValue, 0.54, 1.1649199999999998E-08, 
DataValue, 0.56, 1.2583499999999998E-08, 
DataValue, 0.58000000000000007, 1.3540999999999999E-08, 
DataValue, 0.6, 1.45343E-08, 
DataValue, 0.62, 1.5569099999999997E-08, 
DataValue, 0.64, 1.66356E-08, 
DataValue, 0.66, 1.7723199999999997E-08, 
DataValue, 0.68, 1.8802299999999998E-08, 
DataValue, 0.70000000000000007, 1.9942799999999998E-08, 
DataValue, 0.72000000000000008, 2.1137699999999997E-08, 
DataValue, 0.74, 2.23166E-08, 
DataValue, 0.76, 2.3555099999999997E-08, 
DataValue, 0.78, 2.4832899999999996E-08, 
DataValue, 0.8, 2.6087499999999998E-08, 
DataValue, 0.82000000000000006, 2.7408399999999998E-08, 
DataValue, 0.84000000000000008, 2.87807E-08, 
DataValue, 0.86, 3.01482E-08, 
DataValue, 0.88, 3.15463E-08, 
DataValue, 0.9, 3.30136E-08, 
DataValue, 0.92, 3.4504699999999994E-08, 
DataValue, 0.94000000000000006, 3.597E-08, 
DataValue, 0.96000000000000008, 3.7522299999999993E-08, 
DataValue, 0.98000000000000009, 3.9129299999999996E-08, 
DataValue, 1, 4.0703599999999997E-08, 