
SetupTitle, WW
PrimitiveTest, I/V Sweep
TestParameter, Context.MainFrame, B1500A
TestParameter, Channel.UnitType, SMU, SMU
TestParameter, Channel.Unit, SMU2:HP, SMU1:HP
TestParameter, Channel.IName, I1, I4
TestParameter, Channel.VName, V1, V4
TestParameter, Channel.Mode, V, COMMON
TestParameter, Channel.Func, VAR1, CONST
TestParameter, Channel.Index, 
TestParameter, Channel.Time, 
TestParameter, Measurement.Port.Unit, SMU2:HP, SMU1:HP
TestParameter, Measurement.Port.SeriesResistor, NONE, NONE
TestParameter, Measurement.Port.Filter, ON, ON
TestParameter, Measurement.Port.OutputVoltageComparison, 0, 0
TestParameter, Measurement.Primary.Locus, Single
TestParameter, Measurement.Primary.Scale, LINEAR
TestParameter, Measurement.Primary.Start, -1
TestParameter, Measurement.Primary.Stop, 1
TestParameter, Measurement.Primary.Step, 0.02
TestParameter, Measurement.Primary.Compliance, 0.01
TestParameter, Measurement.Primary.PowerCompliance, 0
TestParameter, Measurement.Aborting.Condition, CONTINUE AT ANY
TestParameter, Measurement.PostOutput.Value, START
TestParameter, Measurement.PostOutput.Retention, OFF
TestParameter, Measurement.Bias.Source, -1, 0
TestParameter, Measurement.Bias.Compliance, 0.01, 1
TestParameter, Measurement.Monitor.Unit, SMU2:HP, SMU1:HP
TestParameter, Measurement.Monitor.Adc, HR ADC, HR ADC
TestParameter, Measurement.Monitor.Measurement, Compliance Side, Compliance Side
TestParameter, Measurement.Monitor.RangingMode, AUTO, AUTO
TestParameter, Measurement.Monitor.RangeBoundary, , 
TestParameter, Measurement.Monitor.RangeRating, BY FULL RANGE, BY FULL RANGE
TestParameter, Measurement.Monitor.RangeRatingCoeff, 50, 50
TestParameter, Measurement.Timing.Hold, 0
TestParameter, Measurement.Timing.Delay, 0.001
TestParameter, Measurement.Adc.HighSpeed.Mode, AUTO
TestParameter, Measurement.Adc.HighSpeed.Coeff, 1
TestParameter, Measurement.Adc.HighResolution.AutoZero, OFF
TestParameter, Measurement.Adc.HighResolution.Mode, PLC
TestParameter, Measurement.Adc.HighResolution.Coeff, 1
TestParameter, Measurement.WaitTime.Source.Coeff, 1
TestParameter, Measurement.WaitTime.Source.Offset, 0
TestParameter, Measurement.WaitTime.Monitor.Coeff, 1
TestParameter, Measurement.WaitTime.Monitor.Offset, 0
TestParameter, Function.User.Name, Ohmic
TestParameter, Function.User.Unit, ohm
TestParameter, Function.User.Definition, avg(V1/I1)
TestParameter, Output.Graph.Enabled, true
TestParameter, Output.Graph.XAxis.Data, V1
TestParameter, Output.Graph.XAxis.Scale, Linear
TestParameter, Output.Graph.XAxis.Left, -5
TestParameter, Output.Graph.XAxis.Right, 5
TestParameter, Output.Graph.YAxis.Data, I1
TestParameter, Output.Graph.YAxis.Scale, Linear
TestParameter, Output.Graph.YAxis.Bottom, -0.001
TestParameter, Output.Graph.YAxis.Top, 0.001
TestParameter, Output.Graph.YAxis.Group, 
TestParameter, Output.Scalar.Data, Ohmic
TestParameter, AutoAnalysis.Interpolation, false
TestParameter, AutoAnalysis.Line1.Enabled, false
TestParameter, AutoAnalysis.Line1.Type, 1
TestParameter, AutoAnalysis.Line1.Fix, True
TestParameter, AutoAnalysis.Line1.YAxis, 0
TestParameter, AutoAnalysis.Line1.Point1.Type, 0
TestParameter, AutoAnalysis.Line1.Point1.XY.X, 
TestParameter, AutoAnalysis.Line1.Point1.XY.Y, 
TestParameter, AutoAnalysis.Line1.Point1.Data.Var, 
TestParameter, AutoAnalysis.Line1.Point1.Data.Condition, 
TestParameter, AutoAnalysis.Line1.Point1.Data.Start, false
TestParameter, AutoAnalysis.Line1.Point1.Data.StartVar, 
TestParameter, AutoAnalysis.Line1.Point1.Data.StartCondition, 
TestParameter, AutoAnalysis.Line1.Point2.Type, 0
TestParameter, AutoAnalysis.Line1.Point2.XY.X, 
TestParameter, AutoAnalysis.Line1.Point2.XY.Y, 
TestParameter, AutoAnalysis.Line1.Point2.Data.Var, 
TestParameter, AutoAnalysis.Line1.Point2.Data.Condition, 
TestParameter, AutoAnalysis.Line1.Point2.Data.Start, false
TestParameter, AutoAnalysis.Line1.Point2.Data.StartVar, 
TestParameter, AutoAnalysis.Line1.Point2.Data.StartCondition, 
TestParameter, AutoAnalysis.Line1.GradientExpr, 0
TestParameter, AutoAnalysis.Line2.Enabled, false
TestParameter, AutoAnalysis.Line2.Type, 1
TestParameter, AutoAnalysis.Line2.Fix, True
TestParameter, AutoAnalysis.Line2.YAxis, 0
TestParameter, AutoAnalysis.Line2.Point1.Type, 0
TestParameter, AutoAnalysis.Line2.Point1.XY.X, 
TestParameter, AutoAnalysis.Line2.Point1.XY.Y, 
TestParameter, AutoAnalysis.Line2.Point1.Data.Var, 
TestParameter, AutoAnalysis.Line2.Point1.Data.Condition, 
TestParameter, AutoAnalysis.Line2.Point1.Data.Start, false
TestParameter, AutoAnalysis.Line2.Point1.Data.StartVar, 
TestParameter, AutoAnalysis.Line2.Point1.Data.StartCondition, 
TestParameter, AutoAnalysis.Line2.Point2.Type, 0
TestParameter, AutoAnalysis.Line2.Point2.XY.X, 
TestParameter, AutoAnalysis.Line2.Point2.XY.Y, 
TestParameter, AutoAnalysis.Line2.Point2.Data.Var, 
TestParameter, AutoAnalysis.Line2.Point2.Data.Condition, 
TestParameter, AutoAnalysis.Line2.Point2.Data.Start, false
TestParameter, AutoAnalysis.Line2.Point2.Data.StartVar, 
TestParameter, AutoAnalysis.Line2.Point2.Data.StartCondition, 
TestParameter, AutoAnalysis.Line2.GradientExpr, 0
TestParameter, AutoAnalysis.Marker.Enabled, false
TestParameter, AutoAnalysis.Marker.Data.Var, 
TestParameter, AutoAnalysis.Marker.Data.Condition, 
TestParameter, AutoAnalysis.Marker.Data.Start, false
TestParameter, AutoAnalysis.Marker.Data.StartVar, 
TestParameter, AutoAnalysis.Marker.Data.StartCondition, 
MetaData, TestRecord.EntryPoint, true
MetaData, TestRecord.RecordTime, 01/18/2020 21:48:13
MetaData, TestRecord.TestTarget, 
MetaData, TestRecord.IterationIndex, 46
MetaData, TestRecord.Preservation, true
MetaData, TestRecord.Flag, 
MetaData, TestRecord.Remarks, 
MetaData, TestRecord.LinkKey, 24d1199c-9d4a-4b9e-b997-7ed0f042db84
Dimension1, 101, 101, 101
Dimension2, 1, 1, 1
DataName, V1, I1, Ohmic
DataValue, -1, -4.843E-11, 76743269660.05101
DataValue, -0.98000000000000009, -4.608E-11, 
DataValue, -0.96000000000000008, -3.628E-11, 
DataValue, -0.94000000000000006, -3.777E-11, 
DataValue, -0.92, -3.191E-11, 
DataValue, -0.9, -3.189E-11, 
DataValue, -0.88, -2.73E-11, 
DataValue, -0.86, -2.739E-11, 
DataValue, -0.84000000000000008, -2.361E-11, 
DataValue, -0.82000000000000006, -2.437E-11, 
DataValue, -0.8, -2.115E-11, 
DataValue, -0.78, -2.182E-11, 
DataValue, -0.76, -1.874E-11, 
DataValue, -0.74, -1.986E-11, 
DataValue, -0.72000000000000008, -1.696E-11, 
DataValue, -0.70000000000000007, -1.787E-11, 
DataValue, -0.68, -1.501E-11, 
DataValue, -0.66, -1.549E-11, 
DataValue, -0.64, -1.284E-11, 
DataValue, -0.62, -1.397E-11, 
DataValue, -0.6, -1.015E-11, 
DataValue, -0.58000000000000007, -1.24E-11, 
DataValue, -0.56, -9.37E-12, 
DataValue, -0.54, -1.08E-11, 
DataValue, -0.52, -7.88E-12, 
DataValue, -0.5, -1.006E-11, 
DataValue, -0.48000000000000004, -6.9199999999999996E-12, 
DataValue, -0.46, -8.65E-12, 
DataValue, -0.44, -6.18E-12, 
DataValue, -0.42000000000000004, -7.11E-12, 
DataValue, -0.4, -5.46E-12, 
DataValue, -0.38, -7.23E-12, 
DataValue, -0.36000000000000004, -4.65E-12, 
DataValue, -0.34, -6.54E-12, 
DataValue, -0.32, -4.21E-12, 
DataValue, -0.3, -5.15E-12, 
DataValue, -0.28, -2.34E-12, 
DataValue, -0.26, -4.45E-12, 
DataValue, -0.24000000000000002, -2.01E-12, 
DataValue, -0.22, -3.14E-12, 
DataValue, -0.2, -8.3E-13, 
DataValue, -0.18000000000000002, -2.64E-12, 
DataValue, -0.16, -3E-14, 
DataValue, -0.14, -1.1E-12, 
DataValue, -0.12000000000000001, 3.26E-12, 
DataValue, -0.1, 5.89E-12, 
DataValue, -0.08, 1.645E-11, 
DataValue, -0.060000000000000005, 3.166E-11, 
DataValue, -0.04, 6.516E-11, 
DataValue, -0.02, 1.1422E-10, 
DataValue, 0, 1.9512E-10, 
DataValue, 0.02, 2.9933E-10, 
DataValue, 0.04, 4.2935E-10, 
DataValue, 0.060000000000000005, 5.728E-10, 
DataValue, 0.08, 7.292E-10, 
DataValue, 0.1, 8.9218E-10, 
DataValue, 0.12000000000000001, 1.06552E-09, 
DataValue, 0.14, 1.24359E-09, 
DataValue, 0.16, 1.43608E-09, 
DataValue, 0.18000000000000002, 1.63599E-09, 
DataValue, 0.2, 1.85231E-09, 
DataValue, 0.22, 2.08509E-09, 
DataValue, 0.24000000000000002, 2.33976E-09, 
DataValue, 0.26, 2.62248E-09, 
DataValue, 0.28, 2.93857E-09, 
DataValue, 0.3, 3.29475E-09, 
DataValue, 0.32, 3.69598E-09, 
DataValue, 0.34, 4.14351E-09, 
DataValue, 0.36000000000000004, 4.63994E-09, 
DataValue, 0.38, 5.18099E-09, 
DataValue, 0.4, 5.76996E-09, 
DataValue, 0.42000000000000004, 6.39638E-09, 
DataValue, 0.44, 7.06384E-09, 
DataValue, 0.46, 7.76499E-09, 
DataValue, 0.48000000000000004, 8.49478E-09, 
DataValue, 0.5, 9.26211E-09, 
DataValue, 0.52, 1.005331E-08, 
DataValue, 0.54, 1.0872399999999998E-08, 
DataValue, 0.56, 1.17318E-08, 
DataValue, 0.58000000000000007, 1.2617499999999999E-08, 
DataValue, 0.6, 1.3534899999999998E-08, 
DataValue, 0.62, 1.44788E-08, 
DataValue, 0.64, 1.5449899999999997E-08, 
DataValue, 0.66, 1.64333E-08, 
DataValue, 0.68, 1.74479E-08, 
DataValue, 0.70000000000000007, 1.8492499999999998E-08, 
DataValue, 0.72000000000000008, 1.9561999999999997E-08, 
DataValue, 0.74, 2.06624E-08, 
DataValue, 0.76, 2.1770699999999997E-08, 
DataValue, 0.78, 2.2900999999999998E-08, 
DataValue, 0.8, 2.40799E-08, 
DataValue, 0.82000000000000006, 2.5266499999999997E-08, 
DataValue, 0.84000000000000008, 2.6494499999999996E-08, 
DataValue, 0.86, 2.7715099999999996E-08, 
DataValue, 0.88, 2.8969599999999996E-08, 
DataValue, 0.9, 3.02732E-08, 
DataValue, 0.92, 3.15853E-08, 
DataValue, 0.94000000000000006, 3.2909399999999996E-08, 
DataValue, 0.96000000000000008, 3.4254799999999994E-08, 
DataValue, 0.98000000000000009, 3.56237E-08, 
DataValue, 1, 3.70177E-08, 