
SetupTitle, WW
PrimitiveTest, I/V Sweep
TestParameter, Context.MainFrame, B1500A
TestParameter, Channel.UnitType, SMU, SMU
TestParameter, Channel.Unit, SMU2:HP, SMU1:HP
TestParameter, Channel.IName, I1, I4
TestParameter, Channel.VName, V1, V4
TestParameter, Channel.Mode, V, COMMON
TestParameter, Channel.Func, VAR1, CONST
TestParameter, Channel.Index, 
TestParameter, Channel.Time, 
TestParameter, Measurement.Port.Unit, SMU2:HP, SMU1:HP
TestParameter, Measurement.Port.SeriesResistor, NONE, NONE
TestParameter, Measurement.Port.Filter, ON, ON
TestParameter, Measurement.Port.OutputVoltageComparison, 0, 0
TestParameter, Measurement.Primary.Locus, Single
TestParameter, Measurement.Primary.Scale, LINEAR
TestParameter, Measurement.Primary.Start, -1
TestParameter, Measurement.Primary.Stop, 1
TestParameter, Measurement.Primary.Step, 0.02
TestParameter, Measurement.Primary.Compliance, 0.01
TestParameter, Measurement.Primary.PowerCompliance, 0
TestParameter, Measurement.Aborting.Condition, CONTINUE AT ANY
TestParameter, Measurement.PostOutput.Value, START
TestParameter, Measurement.PostOutput.Retention, OFF
TestParameter, Measurement.Bias.Source, -1, 0
TestParameter, Measurement.Bias.Compliance, 0.01, 1
TestParameter, Measurement.Monitor.Unit, SMU2:HP, SMU1:HP
TestParameter, Measurement.Monitor.Adc, HR ADC, HR ADC
TestParameter, Measurement.Monitor.Measurement, Compliance Side, Compliance Side
TestParameter, Measurement.Monitor.RangingMode, AUTO, AUTO
TestParameter, Measurement.Monitor.RangeBoundary, , 
TestParameter, Measurement.Monitor.RangeRating, BY FULL RANGE, BY FULL RANGE
TestParameter, Measurement.Monitor.RangeRatingCoeff, 50, 50
TestParameter, Measurement.Timing.Hold, 0
TestParameter, Measurement.Timing.Delay, 0.001
TestParameter, Measurement.Adc.HighSpeed.Mode, AUTO
TestParameter, Measurement.Adc.HighSpeed.Coeff, 1
TestParameter, Measurement.Adc.HighResolution.AutoZero, OFF
TestParameter, Measurement.Adc.HighResolution.Mode, PLC
TestParameter, Measurement.Adc.HighResolution.Coeff, 1
TestParameter, Measurement.WaitTime.Source.Coeff, 1
TestParameter, Measurement.WaitTime.Source.Offset, 0
TestParameter, Measurement.WaitTime.Monitor.Coeff, 1
TestParameter, Measurement.WaitTime.Monitor.Offset, 0
TestParameter, Function.User.Name, Ohmic
TestParameter, Function.User.Unit, ohm
TestParameter, Function.User.Definition, avg(V1/I1)
TestParameter, Output.Graph.Enabled, true
TestParameter, Output.Graph.XAxis.Data, V1
TestParameter, Output.Graph.XAxis.Scale, Linear
TestParameter, Output.Graph.XAxis.Left, -5
TestParameter, Output.Graph.XAxis.Right, 5
TestParameter, Output.Graph.YAxis.Data, I1
TestParameter, Output.Graph.YAxis.Scale, Linear
TestParameter, Output.Graph.YAxis.Bottom, -0.001
TestParameter, Output.Graph.YAxis.Top, 0.001
TestParameter, Output.Graph.YAxis.Group, 
TestParameter, Output.Scalar.Data, Ohmic
TestParameter, AutoAnalysis.Interpolation, false
TestParameter, AutoAnalysis.Line1.Enabled, false
TestParameter, AutoAnalysis.Line1.Type, 1
TestParameter, AutoAnalysis.Line1.Fix, True
TestParameter, AutoAnalysis.Line1.YAxis, 0
TestParameter, AutoAnalysis.Line1.Point1.Type, 0
TestParameter, AutoAnalysis.Line1.Point1.XY.X, 
TestParameter, AutoAnalysis.Line1.Point1.XY.Y, 
TestParameter, AutoAnalysis.Line1.Point1.Data.Var, 
TestParameter, AutoAnalysis.Line1.Point1.Data.Condition, 
TestParameter, AutoAnalysis.Line1.Point1.Data.Start, false
TestParameter, AutoAnalysis.Line1.Point1.Data.StartVar, 
TestParameter, AutoAnalysis.Line1.Point1.Data.StartCondition, 
TestParameter, AutoAnalysis.Line1.Point2.Type, 0
TestParameter, AutoAnalysis.Line1.Point2.XY.X, 
TestParameter, AutoAnalysis.Line1.Point2.XY.Y, 
TestParameter, AutoAnalysis.Line1.Point2.Data.Var, 
TestParameter, AutoAnalysis.Line1.Point2.Data.Condition, 
TestParameter, AutoAnalysis.Line1.Point2.Data.Start, false
TestParameter, AutoAnalysis.Line1.Point2.Data.StartVar, 
TestParameter, AutoAnalysis.Line1.Point2.Data.StartCondition, 
TestParameter, AutoAnalysis.Line1.GradientExpr, 0
TestParameter, AutoAnalysis.Line2.Enabled, false
TestParameter, AutoAnalysis.Line2.Type, 1
TestParameter, AutoAnalysis.Line2.Fix, True
TestParameter, AutoAnalysis.Line2.YAxis, 0
TestParameter, AutoAnalysis.Line2.Point1.Type, 0
TestParameter, AutoAnalysis.Line2.Point1.XY.X, 
TestParameter, AutoAnalysis.Line2.Point1.XY.Y, 
TestParameter, AutoAnalysis.Line2.Point1.Data.Var, 
TestParameter, AutoAnalysis.Line2.Point1.Data.Condition, 
TestParameter, AutoAnalysis.Line2.Point1.Data.Start, false
TestParameter, AutoAnalysis.Line2.Point1.Data.StartVar, 
TestParameter, AutoAnalysis.Line2.Point1.Data.StartCondition, 
TestParameter, AutoAnalysis.Line2.Point2.Type, 0
TestParameter, AutoAnalysis.Line2.Point2.XY.X, 
TestParameter, AutoAnalysis.Line2.Point2.XY.Y, 
TestParameter, AutoAnalysis.Line2.Point2.Data.Var, 
TestParameter, AutoAnalysis.Line2.Point2.Data.Condition, 
TestParameter, AutoAnalysis.Line2.Point2.Data.Start, false
TestParameter, AutoAnalysis.Line2.Point2.Data.StartVar, 
TestParameter, AutoAnalysis.Line2.Point2.Data.StartCondition, 
TestParameter, AutoAnalysis.Line2.GradientExpr, 0
TestParameter, AutoAnalysis.Marker.Enabled, false
TestParameter, AutoAnalysis.Marker.Data.Var, 
TestParameter, AutoAnalysis.Marker.Data.Condition, 
TestParameter, AutoAnalysis.Marker.Data.Start, false
TestParameter, AutoAnalysis.Marker.Data.StartVar, 
TestParameter, AutoAnalysis.Marker.Data.StartCondition, 
MetaData, TestRecord.EntryPoint, true
MetaData, TestRecord.RecordTime, 01/18/2020 21:47:18
MetaData, TestRecord.TestTarget, 
MetaData, TestRecord.IterationIndex, 44
MetaData, TestRecord.Preservation, true
MetaData, TestRecord.Flag, 
MetaData, TestRecord.Remarks, 
MetaData, TestRecord.LinkKey, 48220978-9c23-4ef6-80e8-a66a8abe285b
Dimension1, 101, 101, 101
Dimension2, 1, 1, 1
DataName, V1, I1, Ohmic
DataValue, -1, -4.692E-11, 23176059806.855484
DataValue, -0.98000000000000009, -4.287E-11, 
DataValue, -0.96000000000000008, -4.082E-11, 
DataValue, -0.94000000000000006, -3.689E-11, 
DataValue, -0.92, -3.491E-11, 
DataValue, -0.9, -3.121E-11, 
DataValue, -0.88, -3.074E-11, 
DataValue, -0.86, -2.715E-11, 
DataValue, -0.84000000000000008, -2.795E-11, 
DataValue, -0.82000000000000006, -2.464E-11, 
DataValue, -0.8, -2.403E-11, 
DataValue, -0.78, -2.182E-11, 
DataValue, -0.76, -2.178E-11, 
DataValue, -0.74, -1.964E-11, 
DataValue, -0.72000000000000008, -1.974E-11, 
DataValue, -0.70000000000000007, -1.757E-11, 
DataValue, -0.68, -1.768E-11, 
DataValue, -0.66, -1.597E-11, 
DataValue, -0.64, -1.609E-11, 
DataValue, -0.62, -1.437E-11, 
DataValue, -0.6, -1.45E-11, 
DataValue, -0.58000000000000007, -1.223E-11, 
DataValue, -0.56, -1.338E-11, 
DataValue, -0.54, -1.133E-11, 
DataValue, -0.52, -1.188E-11, 
DataValue, -0.5, -1.008E-11, 
DataValue, -0.48000000000000004, -1.086E-11, 
DataValue, -0.46, -9.21E-12, 
DataValue, -0.44, -1.02E-11, 
DataValue, -0.42000000000000004, -8.63E-12, 
DataValue, -0.4, -9.11E-12, 
DataValue, -0.38, -7.6E-12, 
DataValue, -0.36000000000000004, -8.37E-12, 
DataValue, -0.34, -6.8E-12, 
DataValue, -0.32, -7.43E-12, 
DataValue, -0.3, -5.39E-12, 
DataValue, -0.28, -6.68E-12, 
DataValue, -0.26, -4.52E-12, 
DataValue, -0.24000000000000002, -6.24E-12, 
DataValue, -0.22, -4.26E-12, 
DataValue, -0.2, -5.35E-12, 
DataValue, -0.18000000000000002, -3.06E-12, 
DataValue, -0.16, -4.28E-12, 
DataValue, -0.14, -1.35E-12, 
DataValue, -0.12000000000000001, -2.2E-13, 
DataValue, -0.1, 4.88E-12, 
DataValue, -0.08, 1.145E-11, 
DataValue, -0.060000000000000005, 2.81E-11, 
DataValue, -0.04, 5.508E-11, 
DataValue, -0.02, 1.0359E-10, 
DataValue, 0, 1.7628E-10, 
DataValue, 0.02, 2.7653E-10, 
DataValue, 0.04, 3.9989E-10, 
DataValue, 0.060000000000000005, 5.401E-10, 
DataValue, 0.08, 6.9276E-10, 
DataValue, 0.1, 8.5619E-10, 
DataValue, 0.12000000000000001, 1.02727E-09, 
DataValue, 0.14, 1.21403E-09, 
DataValue, 0.16, 1.40939E-09, 
DataValue, 0.18000000000000002, 1.61898E-09, 
DataValue, 0.2, 1.83808E-09, 
DataValue, 0.22, 2.08707E-09, 
DataValue, 0.24000000000000002, 2.35559E-09, 
DataValue, 0.26, 2.65548E-09, 
DataValue, 0.28, 2.99246E-09, 
DataValue, 0.3, 3.37224E-09, 
DataValue, 0.32, 3.79573E-09, 
DataValue, 0.34, 4.26892E-09, 
DataValue, 0.36000000000000004, 4.79512E-09, 
DataValue, 0.38, 5.36964E-09, 
DataValue, 0.4, 5.98322E-09, 
DataValue, 0.42000000000000004, 6.65059E-09, 
DataValue, 0.44, 7.35139E-09, 
DataValue, 0.46, 8.08823E-09, 
DataValue, 0.48000000000000004, 8.85598E-09, 
DataValue, 0.5, 9.65037E-09, 
DataValue, 0.52, 1.0472299999999999E-08, 
DataValue, 0.54, 1.1353699999999999E-08, 
DataValue, 0.56, 1.2261199999999999E-08, 
DataValue, 0.58000000000000007, 1.3188199999999998E-08, 
DataValue, 0.6, 1.4154799999999999E-08, 
DataValue, 0.62, 1.5149899999999998E-08, 
DataValue, 0.64, 1.61626E-08, 
DataValue, 0.66, 1.7215399999999997E-08, 
DataValue, 0.68, 1.82745E-08, 
DataValue, 0.70000000000000007, 1.93682E-08, 
DataValue, 0.72000000000000008, 2.0490999999999998E-08, 
DataValue, 0.74, 2.1635599999999998E-08, 
DataValue, 0.76, 2.27981E-08, 
DataValue, 0.78, 2.3992599999999997E-08, 
DataValue, 0.8, 2.5221799999999998E-08, 
DataValue, 0.82000000000000006, 2.6481199999999998E-08, 
DataValue, 0.84000000000000008, 2.77698E-08, 
DataValue, 0.86, 2.9077699999999998E-08, 
DataValue, 0.88, 3.04276E-08, 
DataValue, 0.9, 3.17847E-08, 
DataValue, 0.92, 3.3169E-08, 
DataValue, 0.94000000000000006, 3.4553299999999995E-08, 
DataValue, 0.96000000000000008, 3.5966799999999996E-08, 
DataValue, 0.98000000000000009, 3.7425399999999994E-08, 
DataValue, 1, 3.89202E-08, 