
SetupTitle, WW
PrimitiveTest, I/V Sweep
TestParameter, Context.MainFrame, B1500A
TestParameter, Channel.UnitType, SMU, SMU
TestParameter, Channel.Unit, SMU2:HP, SMU1:HP
TestParameter, Channel.IName, I1, I4
TestParameter, Channel.VName, V1, V4
TestParameter, Channel.Mode, V, COMMON
TestParameter, Channel.Func, VAR1, CONST
TestParameter, Channel.Index, 
TestParameter, Channel.Time, 
TestParameter, Measurement.Port.Unit, SMU2:HP, SMU1:HP
TestParameter, Measurement.Port.SeriesResistor, NONE, NONE
TestParameter, Measurement.Port.Filter, ON, ON
TestParameter, Measurement.Port.OutputVoltageComparison, 0, 0
TestParameter, Measurement.Primary.Locus, Single
TestParameter, Measurement.Primary.Scale, LINEAR
TestParameter, Measurement.Primary.Start, -1
TestParameter, Measurement.Primary.Stop, 1
TestParameter, Measurement.Primary.Step, 0.02
TestParameter, Measurement.Primary.Compliance, 0.01
TestParameter, Measurement.Primary.PowerCompliance, 0
TestParameter, Measurement.Aborting.Condition, CONTINUE AT ANY
TestParameter, Measurement.PostOutput.Value, START
TestParameter, Measurement.PostOutput.Retention, OFF
TestParameter, Measurement.Bias.Source, -1, 0
TestParameter, Measurement.Bias.Compliance, 0.01, 1
TestParameter, Measurement.Monitor.Unit, SMU2:HP, SMU1:HP
TestParameter, Measurement.Monitor.Adc, HR ADC, HR ADC
TestParameter, Measurement.Monitor.Measurement, Compliance Side, Compliance Side
TestParameter, Measurement.Monitor.RangingMode, AUTO, AUTO
TestParameter, Measurement.Monitor.RangeBoundary, , 
TestParameter, Measurement.Monitor.RangeRating, BY FULL RANGE, BY FULL RANGE
TestParameter, Measurement.Monitor.RangeRatingCoeff, 50, 50
TestParameter, Measurement.Timing.Hold, 0
TestParameter, Measurement.Timing.Delay, 0.001
TestParameter, Measurement.Adc.HighSpeed.Mode, AUTO
TestParameter, Measurement.Adc.HighSpeed.Coeff, 1
TestParameter, Measurement.Adc.HighResolution.AutoZero, OFF
TestParameter, Measurement.Adc.HighResolution.Mode, PLC
TestParameter, Measurement.Adc.HighResolution.Coeff, 1
TestParameter, Measurement.WaitTime.Source.Coeff, 1
TestParameter, Measurement.WaitTime.Source.Offset, 0
TestParameter, Measurement.WaitTime.Monitor.Coeff, 1
TestParameter, Measurement.WaitTime.Monitor.Offset, 0
TestParameter, Function.User.Name, Ohmic
TestParameter, Function.User.Unit, ohm
TestParameter, Function.User.Definition, avg(V1/I1)
TestParameter, Output.Graph.Enabled, true
TestParameter, Output.Graph.XAxis.Data, V1
TestParameter, Output.Graph.XAxis.Scale, Linear
TestParameter, Output.Graph.XAxis.Left, -5
TestParameter, Output.Graph.XAxis.Right, 5
TestParameter, Output.Graph.YAxis.Data, I1
TestParameter, Output.Graph.YAxis.Scale, Linear
TestParameter, Output.Graph.YAxis.Bottom, -0.001
TestParameter, Output.Graph.YAxis.Top, 0.001
TestParameter, Output.Graph.YAxis.Group, 
TestParameter, Output.Scalar.Data, Ohmic
TestParameter, AutoAnalysis.Interpolation, false
TestParameter, AutoAnalysis.Line1.Enabled, false
TestParameter, AutoAnalysis.Line1.Type, 1
TestParameter, AutoAnalysis.Line1.Fix, True
TestParameter, AutoAnalysis.Line1.YAxis, 0
TestParameter, AutoAnalysis.Line1.Point1.Type, 0
TestParameter, AutoAnalysis.Line1.Point1.XY.X, 
TestParameter, AutoAnalysis.Line1.Point1.XY.Y, 
TestParameter, AutoAnalysis.Line1.Point1.Data.Var, 
TestParameter, AutoAnalysis.Line1.Point1.Data.Condition, 
TestParameter, AutoAnalysis.Line1.Point1.Data.Start, false
TestParameter, AutoAnalysis.Line1.Point1.Data.StartVar, 
TestParameter, AutoAnalysis.Line1.Point1.Data.StartCondition, 
TestParameter, AutoAnalysis.Line1.Point2.Type, 0
TestParameter, AutoAnalysis.Line1.Point2.XY.X, 
TestParameter, AutoAnalysis.Line1.Point2.XY.Y, 
TestParameter, AutoAnalysis.Line1.Point2.Data.Var, 
TestParameter, AutoAnalysis.Line1.Point2.Data.Condition, 
TestParameter, AutoAnalysis.Line1.Point2.Data.Start, false
TestParameter, AutoAnalysis.Line1.Point2.Data.StartVar, 
TestParameter, AutoAnalysis.Line1.Point2.Data.StartCondition, 
TestParameter, AutoAnalysis.Line1.GradientExpr, 0
TestParameter, AutoAnalysis.Line2.Enabled, false
TestParameter, AutoAnalysis.Line2.Type, 1
TestParameter, AutoAnalysis.Line2.Fix, True
TestParameter, AutoAnalysis.Line2.YAxis, 0
TestParameter, AutoAnalysis.Line2.Point1.Type, 0
TestParameter, AutoAnalysis.Line2.Point1.XY.X, 
TestParameter, AutoAnalysis.Line2.Point1.XY.Y, 
TestParameter, AutoAnalysis.Line2.Point1.Data.Var, 
TestParameter, AutoAnalysis.Line2.Point1.Data.Condition, 
TestParameter, AutoAnalysis.Line2.Point1.Data.Start, false
TestParameter, AutoAnalysis.Line2.Point1.Data.StartVar, 
TestParameter, AutoAnalysis.Line2.Point1.Data.StartCondition, 
TestParameter, AutoAnalysis.Line2.Point2.Type, 0
TestParameter, AutoAnalysis.Line2.Point2.XY.X, 
TestParameter, AutoAnalysis.Line2.Point2.XY.Y, 
TestParameter, AutoAnalysis.Line2.Point2.Data.Var, 
TestParameter, AutoAnalysis.Line2.Point2.Data.Condition, 
TestParameter, AutoAnalysis.Line2.Point2.Data.Start, false
TestParameter, AutoAnalysis.Line2.Point2.Data.StartVar, 
TestParameter, AutoAnalysis.Line2.Point2.Data.StartCondition, 
TestParameter, AutoAnalysis.Line2.GradientExpr, 0
TestParameter, AutoAnalysis.Marker.Enabled, false
TestParameter, AutoAnalysis.Marker.Data.Var, 
TestParameter, AutoAnalysis.Marker.Data.Condition, 
TestParameter, AutoAnalysis.Marker.Data.Start, false
TestParameter, AutoAnalysis.Marker.Data.StartVar, 
TestParameter, AutoAnalysis.Marker.Data.StartCondition, 
MetaData, TestRecord.EntryPoint, true
MetaData, TestRecord.RecordTime, 01/18/2020 21:46:42
MetaData, TestRecord.TestTarget, 
MetaData, TestRecord.IterationIndex, 43
MetaData, TestRecord.Preservation, true
MetaData, TestRecord.Flag, 
MetaData, TestRecord.Remarks, 
MetaData, TestRecord.LinkKey, 8c1914e6-213b-4ac8-8b3c-abfe3c767c0c
Dimension1, 101, 101, 101
Dimension2, 1, 1, 1
DataName, V1, I1, Ohmic
DataValue, -1, -5.274E-11, 18172287318.5415
DataValue, -0.98000000000000009, -4.315E-11, 
DataValue, -0.96000000000000008, -4.384E-11, 
DataValue, -0.94000000000000006, -3.718E-11, 
DataValue, -0.92, -3.681E-11, 
DataValue, -0.9, -3.289E-11, 
DataValue, -0.88, -3.331E-11, 
DataValue, -0.86, -2.916E-11, 
DataValue, -0.84000000000000008, -2.988E-11, 
DataValue, -0.82000000000000006, -2.577E-11, 
DataValue, -0.8, -2.66E-11, 
DataValue, -0.78, -2.221E-11, 
DataValue, -0.76, -2.492E-11, 
DataValue, -0.74, -1.983E-11, 
DataValue, -0.72000000000000008, -2.168E-11, 
DataValue, -0.70000000000000007, -1.827E-11, 
DataValue, -0.68, -2.064E-11, 
DataValue, -0.66, -1.655E-11, 
DataValue, -0.64, -1.852E-11, 
DataValue, -0.62, -1.503E-11, 
DataValue, -0.6, -1.672E-11, 
DataValue, -0.58000000000000007, -1.385E-11, 
DataValue, -0.56, -1.503E-11, 
DataValue, -0.54, -1.226E-11, 
DataValue, -0.52, -1.383E-11, 
DataValue, -0.5, -9.62E-12, 
DataValue, -0.48000000000000004, -1.269E-11, 
DataValue, -0.46, -8.93E-12, 
DataValue, -0.44, -1.128E-11, 
DataValue, -0.42000000000000004, -8.87E-12, 
DataValue, -0.4, -1.139E-11, 
DataValue, -0.38, -7.62E-12, 
DataValue, -0.36000000000000004, -1.02E-11, 
DataValue, -0.34, -6.93E-12, 
DataValue, -0.32, -9.01E-12, 
DataValue, -0.3, -5.25E-12, 
DataValue, -0.28, -7.38E-12, 
DataValue, -0.26, -5.47E-12, 
DataValue, -0.24000000000000002, -7.86E-12, 
DataValue, -0.22, -4.16E-12, 
DataValue, -0.2, -6.78E-12, 
DataValue, -0.18000000000000002, -3.65E-12, 
DataValue, -0.16, -5.47E-12, 
DataValue, -0.14, -6.5E-13, 
DataValue, -0.12000000000000001, -1.63E-12, 
DataValue, -0.1, 5.18E-12, 
DataValue, -0.08, 1.024E-11, 
DataValue, -0.060000000000000005, 2.8389999999999998E-11, 
DataValue, -0.04, 5.319E-11, 
DataValue, -0.02, 1.0268E-10, 
DataValue, 0, 1.7325E-10, 
DataValue, 0.02, 2.757E-10, 
DataValue, 0.04, 3.9456E-10, 
DataValue, 0.060000000000000005, 5.3789E-10, 
DataValue, 0.08, 6.8931E-10, 
DataValue, 0.1, 8.5608E-10, 
DataValue, 0.12000000000000001, 1.02901E-09, 
DataValue, 0.14, 1.21526E-09, 
DataValue, 0.16, 1.41393E-09, 
DataValue, 0.18000000000000002, 1.6279E-09, 
DataValue, 0.2, 1.85824E-09, 
DataValue, 0.22, 2.10798E-09, 
DataValue, 0.24000000000000002, 2.38336E-09, 
DataValue, 0.26, 2.69105E-09, 
DataValue, 0.28, 3.03521E-09, 
DataValue, 0.3, 3.42336E-09, 
DataValue, 0.32, 3.8621E-09, 
DataValue, 0.34, 4.3479899999999996E-09, 
DataValue, 0.36000000000000004, 4.88835E-09, 
DataValue, 0.38, 5.47226E-09, 
DataValue, 0.4, 6.10722E-09, 
DataValue, 0.42000000000000004, 6.78336E-09, 
DataValue, 0.44, 7.50388E-09, 
DataValue, 0.46, 8.25519E-09, 
DataValue, 0.48000000000000004, 9.04189E-09, 
DataValue, 0.5, 9.86632E-09, 
DataValue, 0.52, 1.0719099999999999E-08, 
DataValue, 0.54, 1.1617299999999999E-08, 
DataValue, 0.56, 1.2543499999999999E-08, 
DataValue, 0.58000000000000007, 1.3504799999999998E-08, 
DataValue, 0.6, 1.4493999999999999E-08, 
DataValue, 0.62, 1.5520999999999997E-08, 
DataValue, 0.64, 1.65744E-08, 
DataValue, 0.66, 1.7644699999999997E-08, 
DataValue, 0.68, 1.87382E-08, 
DataValue, 0.70000000000000007, 1.9863599999999997E-08, 
DataValue, 0.72000000000000008, 2.1022899999999997E-08, 
DataValue, 0.74, 2.22031E-08, 
DataValue, 0.76, 2.3409899999999997E-08, 
DataValue, 0.78, 2.46432E-08, 
DataValue, 0.8, 2.5907099999999997E-08, 
DataValue, 0.82000000000000006, 2.7184099999999996E-08, 
DataValue, 0.84000000000000008, 2.8510999999999996E-08, 
DataValue, 0.86, 2.98649E-08, 
DataValue, 0.88, 3.1246999999999995E-08, 
DataValue, 0.9, 3.2625699999999994E-08, 
DataValue, 0.92, 3.40587E-08, 
DataValue, 0.94000000000000006, 3.5512899999999996E-08, 
DataValue, 0.96000000000000008, 3.6975899999999994E-08, 
DataValue, 0.98000000000000009, 3.8461599999999995E-08, 
DataValue, 1, 3.9982499999999994E-08, 