
SetupTitle, WW
PrimitiveTest, I/V Sweep
TestParameter, Context.MainFrame, B1500A
TestParameter, Channel.UnitType, SMU, SMU
TestParameter, Channel.Unit, SMU2:HP, SMU1:HP
TestParameter, Channel.IName, I1, I4
TestParameter, Channel.VName, V1, V4
TestParameter, Channel.Mode, V, COMMON
TestParameter, Channel.Func, VAR1, CONST
TestParameter, Channel.Index, 
TestParameter, Channel.Time, 
TestParameter, Measurement.Port.Unit, SMU2:HP, SMU1:HP
TestParameter, Measurement.Port.SeriesResistor, NONE, NONE
TestParameter, Measurement.Port.Filter, ON, ON
TestParameter, Measurement.Port.OutputVoltageComparison, 0, 0
TestParameter, Measurement.Primary.Locus, Single
TestParameter, Measurement.Primary.Scale, LINEAR
TestParameter, Measurement.Primary.Start, -1
TestParameter, Measurement.Primary.Stop, 1
TestParameter, Measurement.Primary.Step, 0.02
TestParameter, Measurement.Primary.Compliance, 0.01
TestParameter, Measurement.Primary.PowerCompliance, 0
TestParameter, Measurement.Aborting.Condition, CONTINUE AT ANY
TestParameter, Measurement.PostOutput.Value, START
TestParameter, Measurement.PostOutput.Retention, OFF
TestParameter, Measurement.Bias.Source, -1, 0
TestParameter, Measurement.Bias.Compliance, 0.01, 1
TestParameter, Measurement.Monitor.Unit, SMU2:HP, SMU1:HP
TestParameter, Measurement.Monitor.Adc, HR ADC, HR ADC
TestParameter, Measurement.Monitor.Measurement, Compliance Side, Compliance Side
TestParameter, Measurement.Monitor.RangingMode, AUTO, AUTO
TestParameter, Measurement.Monitor.RangeBoundary, , 
TestParameter, Measurement.Monitor.RangeRating, BY FULL RANGE, BY FULL RANGE
TestParameter, Measurement.Monitor.RangeRatingCoeff, 50, 50
TestParameter, Measurement.Timing.Hold, 0
TestParameter, Measurement.Timing.Delay, 0.001
TestParameter, Measurement.Adc.HighSpeed.Mode, AUTO
TestParameter, Measurement.Adc.HighSpeed.Coeff, 1
TestParameter, Measurement.Adc.HighResolution.AutoZero, OFF
TestParameter, Measurement.Adc.HighResolution.Mode, PLC
TestParameter, Measurement.Adc.HighResolution.Coeff, 1
TestParameter, Measurement.WaitTime.Source.Coeff, 1
TestParameter, Measurement.WaitTime.Source.Offset, 0
TestParameter, Measurement.WaitTime.Monitor.Coeff, 1
TestParameter, Measurement.WaitTime.Monitor.Offset, 0
TestParameter, Function.User.Name, Ohmic
TestParameter, Function.User.Unit, ohm
TestParameter, Function.User.Definition, avg(V1/I1)
TestParameter, Output.Graph.Enabled, true
TestParameter, Output.Graph.XAxis.Data, V1
TestParameter, Output.Graph.XAxis.Scale, Linear
TestParameter, Output.Graph.XAxis.Left, -5
TestParameter, Output.Graph.XAxis.Right, 5
TestParameter, Output.Graph.YAxis.Data, I1
TestParameter, Output.Graph.YAxis.Scale, Linear
TestParameter, Output.Graph.YAxis.Bottom, -0.001
TestParameter, Output.Graph.YAxis.Top, 0.001
TestParameter, Output.Graph.YAxis.Group, 
TestParameter, Output.Scalar.Data, Ohmic
TestParameter, AutoAnalysis.Interpolation, false
TestParameter, AutoAnalysis.Line1.Enabled, false
TestParameter, AutoAnalysis.Line1.Type, 1
TestParameter, AutoAnalysis.Line1.Fix, True
TestParameter, AutoAnalysis.Line1.YAxis, 0
TestParameter, AutoAnalysis.Line1.Point1.Type, 0
TestParameter, AutoAnalysis.Line1.Point1.XY.X, 
TestParameter, AutoAnalysis.Line1.Point1.XY.Y, 
TestParameter, AutoAnalysis.Line1.Point1.Data.Var, 
TestParameter, AutoAnalysis.Line1.Point1.Data.Condition, 
TestParameter, AutoAnalysis.Line1.Point1.Data.Start, false
TestParameter, AutoAnalysis.Line1.Point1.Data.StartVar, 
TestParameter, AutoAnalysis.Line1.Point1.Data.StartCondition, 
TestParameter, AutoAnalysis.Line1.Point2.Type, 0
TestParameter, AutoAnalysis.Line1.Point2.XY.X, 
TestParameter, AutoAnalysis.Line1.Point2.XY.Y, 
TestParameter, AutoAnalysis.Line1.Point2.Data.Var, 
TestParameter, AutoAnalysis.Line1.Point2.Data.Condition, 
TestParameter, AutoAnalysis.Line1.Point2.Data.Start, false
TestParameter, AutoAnalysis.Line1.Point2.Data.StartVar, 
TestParameter, AutoAnalysis.Line1.Point2.Data.StartCondition, 
TestParameter, AutoAnalysis.Line1.GradientExpr, 0
TestParameter, AutoAnalysis.Line2.Enabled, false
TestParameter, AutoAnalysis.Line2.Type, 1
TestParameter, AutoAnalysis.Line2.Fix, True
TestParameter, AutoAnalysis.Line2.YAxis, 0
TestParameter, AutoAnalysis.Line2.Point1.Type, 0
TestParameter, AutoAnalysis.Line2.Point1.XY.X, 
TestParameter, AutoAnalysis.Line2.Point1.XY.Y, 
TestParameter, AutoAnalysis.Line2.Point1.Data.Var, 
TestParameter, AutoAnalysis.Line2.Point1.Data.Condition, 
TestParameter, AutoAnalysis.Line2.Point1.Data.Start, false
TestParameter, AutoAnalysis.Line2.Point1.Data.StartVar, 
TestParameter, AutoAnalysis.Line2.Point1.Data.StartCondition, 
TestParameter, AutoAnalysis.Line2.Point2.Type, 0
TestParameter, AutoAnalysis.Line2.Point2.XY.X, 
TestParameter, AutoAnalysis.Line2.Point2.XY.Y, 
TestParameter, AutoAnalysis.Line2.Point2.Data.Var, 
TestParameter, AutoAnalysis.Line2.Point2.Data.Condition, 
TestParameter, AutoAnalysis.Line2.Point2.Data.Start, false
TestParameter, AutoAnalysis.Line2.Point2.Data.StartVar, 
TestParameter, AutoAnalysis.Line2.Point2.Data.StartCondition, 
TestParameter, AutoAnalysis.Line2.GradientExpr, 0
TestParameter, AutoAnalysis.Marker.Enabled, false
TestParameter, AutoAnalysis.Marker.Data.Var, 
TestParameter, AutoAnalysis.Marker.Data.Condition, 
TestParameter, AutoAnalysis.Marker.Data.Start, false
TestParameter, AutoAnalysis.Marker.Data.StartVar, 
TestParameter, AutoAnalysis.Marker.Data.StartCondition, 
MetaData, TestRecord.EntryPoint, true
MetaData, TestRecord.RecordTime, 01/18/2020 21:45:53
MetaData, TestRecord.TestTarget, 
MetaData, TestRecord.IterationIndex, 41
MetaData, TestRecord.Preservation, true
MetaData, TestRecord.Flag, 
MetaData, TestRecord.Remarks, 
MetaData, TestRecord.LinkKey, 95ea34e9-bec5-4598-bc31-91586747041f
Dimension1, 101, 101, 101
Dimension2, 1, 1, 1
DataName, V1, I1, Ohmic
DataValue, -1, -5.742E-11, 14643424458.313044
DataValue, -0.98000000000000009, -4.689E-11, 
DataValue, -0.96000000000000008, -4.661E-11, 
DataValue, -0.94000000000000006, -4.175E-11, 
DataValue, -0.92, -4.036E-11, 
DataValue, -0.9, -3.577E-11, 
DataValue, -0.88, -3.487E-11, 
DataValue, -0.86, -3.083E-11, 
DataValue, -0.84000000000000008, -3.111E-11, 
DataValue, -0.82000000000000006, -2.828E-11, 
DataValue, -0.8, -2.822E-11, 
DataValue, -0.78, -2.565E-11, 
DataValue, -0.76, -2.597E-11, 
DataValue, -0.74, -2.332E-11, 
DataValue, -0.72000000000000008, -2.4E-11, 
DataValue, -0.70000000000000007, -2.069E-11, 
DataValue, -0.68, -2.1E-11, 
DataValue, -0.66, -1.915E-11, 
DataValue, -0.64, -1.963E-11, 
DataValue, -0.62, -1.716E-11, 
DataValue, -0.6, -1.835E-11, 
DataValue, -0.58000000000000007, -1.602E-11, 
DataValue, -0.56, -1.686E-11, 
DataValue, -0.54, -1.411E-11, 
DataValue, -0.52, -1.487E-11, 
DataValue, -0.5, -1.245E-11, 
DataValue, -0.48000000000000004, -1.332E-11, 
DataValue, -0.46, -1.155E-11, 
DataValue, -0.44, -1.244E-11, 
DataValue, -0.42000000000000004, -1.042E-11, 
DataValue, -0.4, -1.174E-11, 
DataValue, -0.38, -9.81E-12, 
DataValue, -0.36000000000000004, -1.095E-11, 
DataValue, -0.34, -8.81E-12, 
DataValue, -0.32, -9.65E-12, 
DataValue, -0.3, -7.86E-12, 
DataValue, -0.28, -8.63E-12, 
DataValue, -0.26, -6.8E-12, 
DataValue, -0.24000000000000002, -7.71E-12, 
DataValue, -0.22, -5.24E-12, 
DataValue, -0.2, -6.65E-12, 
DataValue, -0.18000000000000002, -4.71E-12, 
DataValue, -0.16, -4.9E-12, 
DataValue, -0.14, -2.56E-12, 
DataValue, -0.12000000000000001, -1.62E-12, 
DataValue, -0.1, 3.78E-12, 
DataValue, -0.08, 9.78E-12, 
DataValue, -0.060000000000000005, 2.655E-11, 
DataValue, -0.04, 5.251E-11, 
DataValue, -0.02, 1.0059E-10, 
DataValue, 0, 1.7186E-10, 
DataValue, 0.02, 2.7313E-10, 
DataValue, 0.04, 3.9476E-10, 
DataValue, 0.060000000000000005, 5.3739E-10, 
DataValue, 0.08, 6.9035E-10, 
DataValue, 0.1, 8.5788E-10, 
DataValue, 0.12000000000000001, 1.03479E-09, 
DataValue, 0.14, 1.22482E-09, 
DataValue, 0.16, 1.42647E-09, 
DataValue, 0.18000000000000002, 1.64693E-09, 
DataValue, 0.2, 1.88254E-09, 
DataValue, 0.22, 2.144E-09, 
DataValue, 0.24000000000000002, 2.43337E-09, 
DataValue, 0.26, 2.75289E-09, 
DataValue, 0.28, 3.11186E-09, 
DataValue, 0.3, 3.5179E-09, 
DataValue, 0.32, 3.97045E-09, 
DataValue, 0.34, 4.47698E-09, 
DataValue, 0.36000000000000004, 5.0344E-09, 
DataValue, 0.38, 5.64296E-09, 
DataValue, 0.4, 6.29841E-09, 
DataValue, 0.42000000000000004, 7.00246E-09, 
DataValue, 0.44, 7.74141E-09, 
DataValue, 0.46, 8.52258E-09, 
DataValue, 0.48000000000000004, 9.33111E-09, 
DataValue, 0.5, 1.017866E-08, 
DataValue, 0.52, 1.1049099999999999E-08, 
DataValue, 0.54, 1.1982899999999998E-08, 
DataValue, 0.56, 1.2942199999999999E-08, 
DataValue, 0.58000000000000007, 1.3933799999999998E-08, 
DataValue, 0.6, 1.49502E-08, 
DataValue, 0.62, 1.6010099999999998E-08, 
DataValue, 0.64, 1.7090099999999998E-08, 
DataValue, 0.66, 1.8195299999999998E-08, 
DataValue, 0.68, 1.93196E-08, 
DataValue, 0.70000000000000007, 2.0470199999999998E-08, 
DataValue, 0.72000000000000008, 2.16667E-08, 
DataValue, 0.74, 2.2882499999999997E-08, 
DataValue, 0.76, 2.4132799999999998E-08, 
DataValue, 0.78, 2.54036E-08, 
DataValue, 0.8, 2.6718999999999996E-08, 
DataValue, 0.82000000000000006, 2.8039499999999998E-08, 
DataValue, 0.84000000000000008, 2.9398599999999996E-08, 
DataValue, 0.86, 3.0787199999999994E-08, 
DataValue, 0.88, 3.2186499999999995E-08, 
DataValue, 0.9, 3.36101E-08, 
DataValue, 0.92, 3.51048E-08, 
DataValue, 0.94000000000000006, 3.6605699999999994E-08, 
DataValue, 0.96000000000000008, 3.81004E-08, 
DataValue, 0.98000000000000009, 3.9636299999999995E-08, 
DataValue, 1, 4.1195499999999993E-08, 