
SetupTitle, WW
PrimitiveTest, I/V Sweep
TestParameter, Context.MainFrame, B1500A
TestParameter, Channel.UnitType, SMU, SMU
TestParameter, Channel.Unit, SMU2:HP, SMU1:HP
TestParameter, Channel.IName, I1, I4
TestParameter, Channel.VName, V1, V4
TestParameter, Channel.Mode, V, COMMON
TestParameter, Channel.Func, VAR1, CONST
TestParameter, Channel.Index, 
TestParameter, Channel.Time, 
TestParameter, Measurement.Port.Unit, SMU2:HP, SMU1:HP
TestParameter, Measurement.Port.SeriesResistor, NONE, NONE
TestParameter, Measurement.Port.Filter, ON, ON
TestParameter, Measurement.Port.OutputVoltageComparison, 0, 0
TestParameter, Measurement.Primary.Locus, Single
TestParameter, Measurement.Primary.Scale, LINEAR
TestParameter, Measurement.Primary.Start, -1
TestParameter, Measurement.Primary.Stop, 1
TestParameter, Measurement.Primary.Step, 0.02
TestParameter, Measurement.Primary.Compliance, 0.01
TestParameter, Measurement.Primary.PowerCompliance, 0
TestParameter, Measurement.Aborting.Condition, CONTINUE AT ANY
TestParameter, Measurement.PostOutput.Value, START
TestParameter, Measurement.PostOutput.Retention, OFF
TestParameter, Measurement.Bias.Source, -1, 0
TestParameter, Measurement.Bias.Compliance, 0.01, 1
TestParameter, Measurement.Monitor.Unit, SMU2:HP, SMU1:HP
TestParameter, Measurement.Monitor.Adc, HR ADC, HR ADC
TestParameter, Measurement.Monitor.Measurement, Compliance Side, Compliance Side
TestParameter, Measurement.Monitor.RangingMode, AUTO, AUTO
TestParameter, Measurement.Monitor.RangeBoundary, , 
TestParameter, Measurement.Monitor.RangeRating, BY FULL RANGE, BY FULL RANGE
TestParameter, Measurement.Monitor.RangeRatingCoeff, 50, 50
TestParameter, Measurement.Timing.Hold, 0
TestParameter, Measurement.Timing.Delay, 0.001
TestParameter, Measurement.Adc.HighSpeed.Mode, AUTO
TestParameter, Measurement.Adc.HighSpeed.Coeff, 1
TestParameter, Measurement.Adc.HighResolution.AutoZero, OFF
TestParameter, Measurement.Adc.HighResolution.Mode, PLC
TestParameter, Measurement.Adc.HighResolution.Coeff, 1
TestParameter, Measurement.WaitTime.Source.Coeff, 1
TestParameter, Measurement.WaitTime.Source.Offset, 0
TestParameter, Measurement.WaitTime.Monitor.Coeff, 1
TestParameter, Measurement.WaitTime.Monitor.Offset, 0
TestParameter, Function.User.Name, Ohmic
TestParameter, Function.User.Unit, ohm
TestParameter, Function.User.Definition, avg(V1/I1)
TestParameter, Output.Graph.Enabled, true
TestParameter, Output.Graph.XAxis.Data, V1
TestParameter, Output.Graph.XAxis.Scale, Linear
TestParameter, Output.Graph.XAxis.Left, -5
TestParameter, Output.Graph.XAxis.Right, 5
TestParameter, Output.Graph.YAxis.Data, I1
TestParameter, Output.Graph.YAxis.Scale, Linear
TestParameter, Output.Graph.YAxis.Bottom, -0.001
TestParameter, Output.Graph.YAxis.Top, 0.001
TestParameter, Output.Graph.YAxis.Group, 
TestParameter, Output.Scalar.Data, Ohmic
TestParameter, AutoAnalysis.Interpolation, false
TestParameter, AutoAnalysis.Line1.Enabled, false
TestParameter, AutoAnalysis.Line1.Type, 1
TestParameter, AutoAnalysis.Line1.Fix, True
TestParameter, AutoAnalysis.Line1.YAxis, 0
TestParameter, AutoAnalysis.Line1.Point1.Type, 0
TestParameter, AutoAnalysis.Line1.Point1.XY.X, 
TestParameter, AutoAnalysis.Line1.Point1.XY.Y, 
TestParameter, AutoAnalysis.Line1.Point1.Data.Var, 
TestParameter, AutoAnalysis.Line1.Point1.Data.Condition, 
TestParameter, AutoAnalysis.Line1.Point1.Data.Start, false
TestParameter, AutoAnalysis.Line1.Point1.Data.StartVar, 
TestParameter, AutoAnalysis.Line1.Point1.Data.StartCondition, 
TestParameter, AutoAnalysis.Line1.Point2.Type, 0
TestParameter, AutoAnalysis.Line1.Point2.XY.X, 
TestParameter, AutoAnalysis.Line1.Point2.XY.Y, 
TestParameter, AutoAnalysis.Line1.Point2.Data.Var, 
TestParameter, AutoAnalysis.Line1.Point2.Data.Condition, 
TestParameter, AutoAnalysis.Line1.Point2.Data.Start, false
TestParameter, AutoAnalysis.Line1.Point2.Data.StartVar, 
TestParameter, AutoAnalysis.Line1.Point2.Data.StartCondition, 
TestParameter, AutoAnalysis.Line1.GradientExpr, 0
TestParameter, AutoAnalysis.Line2.Enabled, false
TestParameter, AutoAnalysis.Line2.Type, 1
TestParameter, AutoAnalysis.Line2.Fix, True
TestParameter, AutoAnalysis.Line2.YAxis, 0
TestParameter, AutoAnalysis.Line2.Point1.Type, 0
TestParameter, AutoAnalysis.Line2.Point1.XY.X, 
TestParameter, AutoAnalysis.Line2.Point1.XY.Y, 
TestParameter, AutoAnalysis.Line2.Point1.Data.Var, 
TestParameter, AutoAnalysis.Line2.Point1.Data.Condition, 
TestParameter, AutoAnalysis.Line2.Point1.Data.Start, false
TestParameter, AutoAnalysis.Line2.Point1.Data.StartVar, 
TestParameter, AutoAnalysis.Line2.Point1.Data.StartCondition, 
TestParameter, AutoAnalysis.Line2.Point2.Type, 0
TestParameter, AutoAnalysis.Line2.Point2.XY.X, 
TestParameter, AutoAnalysis.Line2.Point2.XY.Y, 
TestParameter, AutoAnalysis.Line2.Point2.Data.Var, 
TestParameter, AutoAnalysis.Line2.Point2.Data.Condition, 
TestParameter, AutoAnalysis.Line2.Point2.Data.Start, false
TestParameter, AutoAnalysis.Line2.Point2.Data.StartVar, 
TestParameter, AutoAnalysis.Line2.Point2.Data.StartCondition, 
TestParameter, AutoAnalysis.Line2.GradientExpr, 0
TestParameter, AutoAnalysis.Marker.Enabled, false
TestParameter, AutoAnalysis.Marker.Data.Var, 
TestParameter, AutoAnalysis.Marker.Data.Condition, 
TestParameter, AutoAnalysis.Marker.Data.Start, false
TestParameter, AutoAnalysis.Marker.Data.StartVar, 
TestParameter, AutoAnalysis.Marker.Data.StartCondition, 
MetaData, TestRecord.EntryPoint, true
MetaData, TestRecord.RecordTime, 01/18/2020 21:44:54
MetaData, TestRecord.TestTarget, 
MetaData, TestRecord.IterationIndex, 39
MetaData, TestRecord.Preservation, true
MetaData, TestRecord.Flag, 
MetaData, TestRecord.Remarks, 
MetaData, TestRecord.LinkKey, 0b245f04-507f-4f46-a3cd-40281a9867a1
Dimension1, 101, 101, 101
Dimension2, 1, 1, 1
DataName, V1, I1, Ohmic
DataValue, -1, -6.102E-11, 10561001041.765398
DataValue, -0.98000000000000009, -5.472E-11, 
DataValue, -0.96000000000000008, -5.391E-11, 
DataValue, -0.94000000000000006, -4.746E-11, 
DataValue, -0.92, -4.93E-11, 
DataValue, -0.9, -4.347E-11, 
DataValue, -0.88, -4.706E-11, 
DataValue, -0.86, -4.087E-11, 
DataValue, -0.84000000000000008, -4.288E-11, 
DataValue, -0.82000000000000006, -3.644E-11, 
DataValue, -0.8, -3.605E-11, 
DataValue, -0.78, -3.259E-11, 
DataValue, -0.76, -3.287E-11, 
DataValue, -0.74, -2.908E-11, 
DataValue, -0.72000000000000008, -2.981E-11, 
DataValue, -0.70000000000000007, -2.62E-11, 
DataValue, -0.68, -2.699E-11, 
DataValue, -0.66, -2.429E-11, 
DataValue, -0.64, -2.474E-11, 
DataValue, -0.62, -2.238E-11, 
DataValue, -0.6, -2.376E-11, 
DataValue, -0.58000000000000007, -2.041E-11, 
DataValue, -0.56, -2.186E-11, 
DataValue, -0.54, -1.857E-11, 
DataValue, -0.52, -1.99E-11, 
DataValue, -0.5, -1.68E-11, 
DataValue, -0.48000000000000004, -1.791E-11, 
DataValue, -0.46, -1.539E-11, 
DataValue, -0.44, -1.635E-11, 
DataValue, -0.42000000000000004, -1.395E-11, 
DataValue, -0.4, -1.526E-11, 
DataValue, -0.38, -1.274E-11, 
DataValue, -0.36000000000000004, -1.397E-11, 
DataValue, -0.34, -1.145E-11, 
DataValue, -0.32, -1.302E-11, 
DataValue, -0.3, -9.89E-12, 
DataValue, -0.28, -1.065E-11, 
DataValue, -0.26, -8.97E-12, 
DataValue, -0.24000000000000002, -1.054E-11, 
DataValue, -0.22, -7.78E-12, 
DataValue, -0.2, -9.39E-12, 
DataValue, -0.18000000000000002, -6.66E-12, 
DataValue, -0.16, -7.86E-12, 
DataValue, -0.14, -4.23E-12, 
DataValue, -0.12000000000000001, -3.83E-12, 
DataValue, -0.1, 1.92E-12, 
DataValue, -0.08, 8.61E-12, 
DataValue, -0.060000000000000005, 2.548E-11, 
DataValue, -0.04, 5.189E-11, 
DataValue, -0.02, 1.0052E-10, 
DataValue, 0, 1.7159E-10, 
DataValue, 0.02, 2.7122E-10, 
DataValue, 0.04, 3.9345E-10, 
DataValue, 0.060000000000000005, 5.3596E-10, 
DataValue, 0.08, 6.9119E-10, 
DataValue, 0.1, 8.6087E-10, 
DataValue, 0.12000000000000001, 1.04092E-09, 
DataValue, 0.14, 1.23808E-09, 
DataValue, 0.16, 1.44624E-09, 
DataValue, 0.18000000000000002, 1.67448E-09, 
DataValue, 0.2, 1.91927E-09, 
DataValue, 0.22, 2.19128E-09, 
DataValue, 0.24000000000000002, 2.49102E-09, 
DataValue, 0.26, 2.82714E-09, 
DataValue, 0.28, 3.20129E-09, 
DataValue, 0.3, 3.62942E-09, 
DataValue, 0.32, 4.10269E-09, 
DataValue, 0.34, 4.62903E-09, 
DataValue, 0.36000000000000004, 5.20833E-09, 
DataValue, 0.38, 5.84647E-09, 
DataValue, 0.4, 6.52949E-09, 
DataValue, 0.42000000000000004, 7.25631E-09, 
DataValue, 0.44, 8.024E-09, 
DataValue, 0.46, 8.83141E-09, 
DataValue, 0.48000000000000004, 9.68007E-09, 
DataValue, 0.5, 1.0545999999999999E-08, 
DataValue, 0.52, 1.1480299999999999E-08, 
DataValue, 0.54, 1.2454399999999999E-08, 
DataValue, 0.56, 1.3449099999999999E-08, 
DataValue, 0.58000000000000007, 1.4484599999999999E-08, 
DataValue, 0.6, 1.55388E-08, 
DataValue, 0.62, 1.6627299999999997E-08, 
DataValue, 0.64, 1.77392E-08, 
DataValue, 0.66, 1.88963E-08, 
DataValue, 0.68, 2.00729E-08, 
DataValue, 0.70000000000000007, 2.1271999999999997E-08, 
DataValue, 0.72000000000000008, 2.2500399999999998E-08, 
DataValue, 0.74, 2.37671E-08, 
DataValue, 0.76, 2.50744E-08, 
DataValue, 0.78, 2.6398799999999996E-08, 
DataValue, 0.8, 2.7747899999999996E-08, 
DataValue, 0.82000000000000006, 2.9143399999999997E-08, 
DataValue, 0.84000000000000008, 3.05893E-08, 
DataValue, 0.86, 3.20276E-08, 
DataValue, 0.88, 3.3471599999999995E-08, 
DataValue, 0.9, 3.4979699999999997E-08, 
DataValue, 0.92, 3.65021E-08, 
DataValue, 0.94000000000000006, 3.8052699999999994E-08, 
DataValue, 0.96000000000000008, 3.9651999999999997E-08, 
DataValue, 0.98000000000000009, 4.12476E-08, 
DataValue, 1, 4.2909099999999996E-08, 