
SetupTitle, WW
PrimitiveTest, I/V Sweep
TestParameter, Context.MainFrame, B1500A
TestParameter, Channel.UnitType, SMU, SMU
TestParameter, Channel.Unit, SMU2:HP, SMU1:HP
TestParameter, Channel.IName, I1, I4
TestParameter, Channel.VName, V1, V4
TestParameter, Channel.Mode, V, COMMON
TestParameter, Channel.Func, VAR1, CONST
TestParameter, Channel.Index, 
TestParameter, Channel.Time, 
TestParameter, Measurement.Port.Unit, SMU2:HP, SMU1:HP
TestParameter, Measurement.Port.SeriesResistor, NONE, NONE
TestParameter, Measurement.Port.Filter, ON, ON
TestParameter, Measurement.Port.OutputVoltageComparison, 0, 0
TestParameter, Measurement.Primary.Locus, Single
TestParameter, Measurement.Primary.Scale, LINEAR
TestParameter, Measurement.Primary.Start, -1
TestParameter, Measurement.Primary.Stop, 1
TestParameter, Measurement.Primary.Step, 0.02
TestParameter, Measurement.Primary.Compliance, 0.01
TestParameter, Measurement.Primary.PowerCompliance, 0
TestParameter, Measurement.Aborting.Condition, CONTINUE AT ANY
TestParameter, Measurement.PostOutput.Value, START
TestParameter, Measurement.PostOutput.Retention, OFF
TestParameter, Measurement.Bias.Source, -1, 0
TestParameter, Measurement.Bias.Compliance, 0.01, 1
TestParameter, Measurement.Monitor.Unit, SMU2:HP, SMU1:HP
TestParameter, Measurement.Monitor.Adc, HR ADC, HR ADC
TestParameter, Measurement.Monitor.Measurement, Compliance Side, Compliance Side
TestParameter, Measurement.Monitor.RangingMode, AUTO, AUTO
TestParameter, Measurement.Monitor.RangeBoundary, , 
TestParameter, Measurement.Monitor.RangeRating, BY FULL RANGE, BY FULL RANGE
TestParameter, Measurement.Monitor.RangeRatingCoeff, 50, 50
TestParameter, Measurement.Timing.Hold, 0
TestParameter, Measurement.Timing.Delay, 0.001
TestParameter, Measurement.Adc.HighSpeed.Mode, AUTO
TestParameter, Measurement.Adc.HighSpeed.Coeff, 1
TestParameter, Measurement.Adc.HighResolution.AutoZero, OFF
TestParameter, Measurement.Adc.HighResolution.Mode, PLC
TestParameter, Measurement.Adc.HighResolution.Coeff, 1
TestParameter, Measurement.WaitTime.Source.Coeff, 1
TestParameter, Measurement.WaitTime.Source.Offset, 0
TestParameter, Measurement.WaitTime.Monitor.Coeff, 1
TestParameter, Measurement.WaitTime.Monitor.Offset, 0
TestParameter, Function.User.Name, Ohmic
TestParameter, Function.User.Unit, ohm
TestParameter, Function.User.Definition, avg(V1/I1)
TestParameter, Output.Graph.Enabled, true
TestParameter, Output.Graph.XAxis.Data, V1
TestParameter, Output.Graph.XAxis.Scale, Linear
TestParameter, Output.Graph.XAxis.Left, -5
TestParameter, Output.Graph.XAxis.Right, 5
TestParameter, Output.Graph.YAxis.Data, I1
TestParameter, Output.Graph.YAxis.Scale, Linear
TestParameter, Output.Graph.YAxis.Bottom, -0.001
TestParameter, Output.Graph.YAxis.Top, 0.001
TestParameter, Output.Graph.YAxis.Group, 
TestParameter, Output.Scalar.Data, Ohmic
TestParameter, AutoAnalysis.Interpolation, false
TestParameter, AutoAnalysis.Line1.Enabled, false
TestParameter, AutoAnalysis.Line1.Type, 1
TestParameter, AutoAnalysis.Line1.Fix, True
TestParameter, AutoAnalysis.Line1.YAxis, 0
TestParameter, AutoAnalysis.Line1.Point1.Type, 0
TestParameter, AutoAnalysis.Line1.Point1.XY.X, 
TestParameter, AutoAnalysis.Line1.Point1.XY.Y, 
TestParameter, AutoAnalysis.Line1.Point1.Data.Var, 
TestParameter, AutoAnalysis.Line1.Point1.Data.Condition, 
TestParameter, AutoAnalysis.Line1.Point1.Data.Start, false
TestParameter, AutoAnalysis.Line1.Point1.Data.StartVar, 
TestParameter, AutoAnalysis.Line1.Point1.Data.StartCondition, 
TestParameter, AutoAnalysis.Line1.Point2.Type, 0
TestParameter, AutoAnalysis.Line1.Point2.XY.X, 
TestParameter, AutoAnalysis.Line1.Point2.XY.Y, 
TestParameter, AutoAnalysis.Line1.Point2.Data.Var, 
TestParameter, AutoAnalysis.Line1.Point2.Data.Condition, 
TestParameter, AutoAnalysis.Line1.Point2.Data.Start, false
TestParameter, AutoAnalysis.Line1.Point2.Data.StartVar, 
TestParameter, AutoAnalysis.Line1.Point2.Data.StartCondition, 
TestParameter, AutoAnalysis.Line1.GradientExpr, 0
TestParameter, AutoAnalysis.Line2.Enabled, false
TestParameter, AutoAnalysis.Line2.Type, 1
TestParameter, AutoAnalysis.Line2.Fix, True
TestParameter, AutoAnalysis.Line2.YAxis, 0
TestParameter, AutoAnalysis.Line2.Point1.Type, 0
TestParameter, AutoAnalysis.Line2.Point1.XY.X, 
TestParameter, AutoAnalysis.Line2.Point1.XY.Y, 
TestParameter, AutoAnalysis.Line2.Point1.Data.Var, 
TestParameter, AutoAnalysis.Line2.Point1.Data.Condition, 
TestParameter, AutoAnalysis.Line2.Point1.Data.Start, false
TestParameter, AutoAnalysis.Line2.Point1.Data.StartVar, 
TestParameter, AutoAnalysis.Line2.Point1.Data.StartCondition, 
TestParameter, AutoAnalysis.Line2.Point2.Type, 0
TestParameter, AutoAnalysis.Line2.Point2.XY.X, 
TestParameter, AutoAnalysis.Line2.Point2.XY.Y, 
TestParameter, AutoAnalysis.Line2.Point2.Data.Var, 
TestParameter, AutoAnalysis.Line2.Point2.Data.Condition, 
TestParameter, AutoAnalysis.Line2.Point2.Data.Start, false
TestParameter, AutoAnalysis.Line2.Point2.Data.StartVar, 
TestParameter, AutoAnalysis.Line2.Point2.Data.StartCondition, 
TestParameter, AutoAnalysis.Line2.GradientExpr, 0
TestParameter, AutoAnalysis.Marker.Enabled, false
TestParameter, AutoAnalysis.Marker.Data.Var, 
TestParameter, AutoAnalysis.Marker.Data.Condition, 
TestParameter, AutoAnalysis.Marker.Data.Start, false
TestParameter, AutoAnalysis.Marker.Data.StartVar, 
TestParameter, AutoAnalysis.Marker.Data.StartCondition, 
MetaData, TestRecord.EntryPoint, true
MetaData, TestRecord.RecordTime, 01/18/2020 21:44:06
MetaData, TestRecord.TestTarget, 
MetaData, TestRecord.IterationIndex, 37
MetaData, TestRecord.Preservation, true
MetaData, TestRecord.Flag, 
MetaData, TestRecord.Remarks, 
MetaData, TestRecord.LinkKey, f2a5d66b-8b2f-4553-8289-2371a5f23027
Dimension1, 101, 101, 101
Dimension2, 1, 1, 1
DataName, V1, I1, Ohmic
DataValue, -1, -6.872E-11, 9330236458.8206749
DataValue, -0.98000000000000009, -5.81E-11, 
DataValue, -0.96000000000000008, -6.108E-11, 
DataValue, -0.94000000000000006, -5.179E-11, 
DataValue, -0.92, -5.675E-11, 
DataValue, -0.9, -4.683E-11, 
DataValue, -0.88, -4.899E-11, 
DataValue, -0.86, -4.368E-11, 
DataValue, -0.84000000000000008, -4.403E-11, 
DataValue, -0.82000000000000006, -4.008E-11, 
DataValue, -0.8, -4.374E-11, 
DataValue, -0.78, -3.692E-11, 
DataValue, -0.76, -3.975E-11, 
DataValue, -0.74, -3.446E-11, 
DataValue, -0.72000000000000008, -3.609E-11, 
DataValue, -0.70000000000000007, -3.106E-11, 
DataValue, -0.68, -3.356E-11, 
DataValue, -0.66, -2.923E-11, 
DataValue, -0.64, -3.07E-11, 
DataValue, -0.62, -2.616E-11, 
DataValue, -0.6, -2.79E-11, 
DataValue, -0.58000000000000007, -2.361E-11, 
DataValue, -0.56, -2.556E-11, 
DataValue, -0.54, -2.124E-11, 
DataValue, -0.52, -2.366E-11, 
DataValue, -0.5, -1.966E-11, 
DataValue, -0.48000000000000004, -2.129E-11, 
DataValue, -0.46, -1.756E-11, 
DataValue, -0.44, -2.002E-11, 
DataValue, -0.42000000000000004, -1.629E-11, 
DataValue, -0.4, -1.823E-11, 
DataValue, -0.38, -1.458E-11, 
DataValue, -0.36000000000000004, -1.688E-11, 
DataValue, -0.34, -1.344E-11, 
DataValue, -0.32, -1.577E-11, 
DataValue, -0.3, -1.052E-11, 
DataValue, -0.28, -1.335E-11, 
DataValue, -0.26, -9.42E-12, 
DataValue, -0.24000000000000002, -1.181E-11, 
DataValue, -0.22, -8.18E-12, 
DataValue, -0.2, -1.045E-11, 
DataValue, -0.18000000000000002, -6.72E-12, 
DataValue, -0.16, -8.69E-12, 
DataValue, -0.14, -4.3E-12, 
DataValue, -0.12000000000000001, -4.34E-12, 
DataValue, -0.1, 2.82E-12, 
DataValue, -0.08, 7.39E-12, 
DataValue, -0.060000000000000005, 2.758E-11, 
DataValue, -0.04, 5.337E-11, 
DataValue, -0.02, 1.0589E-10, 
DataValue, 0, 1.7631E-10, 
DataValue, 0.02, 2.807E-10, 
DataValue, 0.04, 4.0333999999999997E-10, 
DataValue, 0.060000000000000005, 5.4969E-10, 
DataValue, 0.08, 7.055E-10, 
DataValue, 0.1, 8.7882E-10, 
DataValue, 0.12000000000000001, 1.0638E-09, 
DataValue, 0.14, 1.2634E-09, 
DataValue, 0.16, 1.47545E-09, 
DataValue, 0.18000000000000002, 1.71011E-09, 
DataValue, 0.2, 1.96342E-09, 
DataValue, 0.22, 2.24169E-09, 
DataValue, 0.24000000000000002, 2.54719E-09, 
DataValue, 0.26, 2.89633E-09, 
DataValue, 0.28, 3.28129E-09, 
DataValue, 0.3, 3.71766E-09, 
DataValue, 0.32, 4.20069E-09, 
DataValue, 0.34, 4.73997E-09, 
DataValue, 0.36000000000000004, 5.32969E-09, 
DataValue, 0.38, 5.96998E-09, 
DataValue, 0.4, 6.66197E-09, 
DataValue, 0.42000000000000004, 7.39957E-09, 
DataValue, 0.44, 8.1763E-09, 
DataValue, 0.46, 8.99576E-09, 
DataValue, 0.48000000000000004, 9.85191E-09, 
DataValue, 0.5, 1.07308E-08, 
DataValue, 0.52, 1.1680299999999999E-08, 
DataValue, 0.54, 1.2653699999999999E-08, 
DataValue, 0.56, 1.36544E-08, 
DataValue, 0.58000000000000007, 1.4693599999999999E-08, 
DataValue, 0.6, 1.57584E-08, 
DataValue, 0.62, 1.68611E-08, 
DataValue, 0.64, 1.79899E-08, 
DataValue, 0.66, 1.91435E-08, 
DataValue, 0.68, 2.0348399999999996E-08, 
DataValue, 0.70000000000000007, 2.1582899999999997E-08, 
DataValue, 0.72000000000000008, 2.2815399999999998E-08, 
DataValue, 0.74, 2.4110499999999996E-08, 
DataValue, 0.76, 2.5407499999999998E-08, 
DataValue, 0.78, 2.6714799999999997E-08, 
DataValue, 0.8, 2.8081599999999998E-08, 
DataValue, 0.82000000000000006, 2.9460099999999996E-08, 
DataValue, 0.84000000000000008, 3.0889999999999994E-08, 
DataValue, 0.86, 3.23569E-08, 
DataValue, 0.88, 3.3810599999999996E-08, 
DataValue, 0.9, 3.5331399999999996E-08, 
DataValue, 0.92, 3.68601E-08, 
DataValue, 0.94000000000000006, 3.83898E-08, 
DataValue, 0.96000000000000008, 4.00067E-08, 
DataValue, 0.98000000000000009, 4.16244E-08, 
DataValue, 1, 4.3217799999999993E-08, 