
SetupTitle, WW
PrimitiveTest, I/V Sweep
TestParameter, Context.MainFrame, B1500A
TestParameter, Channel.UnitType, SMU, SMU
TestParameter, Channel.Unit, SMU2:HP, SMU1:HP
TestParameter, Channel.IName, I1, I4
TestParameter, Channel.VName, V1, V4
TestParameter, Channel.Mode, V, COMMON
TestParameter, Channel.Func, VAR1, CONST
TestParameter, Channel.Index, 
TestParameter, Channel.Time, 
TestParameter, Measurement.Port.Unit, SMU2:HP, SMU1:HP
TestParameter, Measurement.Port.SeriesResistor, NONE, NONE
TestParameter, Measurement.Port.Filter, ON, ON
TestParameter, Measurement.Port.OutputVoltageComparison, 0, 0
TestParameter, Measurement.Primary.Locus, Single
TestParameter, Measurement.Primary.Scale, LINEAR
TestParameter, Measurement.Primary.Start, -1
TestParameter, Measurement.Primary.Stop, 1
TestParameter, Measurement.Primary.Step, 0.02
TestParameter, Measurement.Primary.Compliance, 0.01
TestParameter, Measurement.Primary.PowerCompliance, 0
TestParameter, Measurement.Aborting.Condition, CONTINUE AT ANY
TestParameter, Measurement.PostOutput.Value, START
TestParameter, Measurement.PostOutput.Retention, OFF
TestParameter, Measurement.Bias.Source, -1, 0
TestParameter, Measurement.Bias.Compliance, 0.01, 1
TestParameter, Measurement.Monitor.Unit, SMU2:HP, SMU1:HP
TestParameter, Measurement.Monitor.Adc, HR ADC, HR ADC
TestParameter, Measurement.Monitor.Measurement, Compliance Side, Compliance Side
TestParameter, Measurement.Monitor.RangingMode, AUTO, AUTO
TestParameter, Measurement.Monitor.RangeBoundary, , 
TestParameter, Measurement.Monitor.RangeRating, BY FULL RANGE, BY FULL RANGE
TestParameter, Measurement.Monitor.RangeRatingCoeff, 50, 50
TestParameter, Measurement.Timing.Hold, 0
TestParameter, Measurement.Timing.Delay, 0.001
TestParameter, Measurement.Adc.HighSpeed.Mode, AUTO
TestParameter, Measurement.Adc.HighSpeed.Coeff, 1
TestParameter, Measurement.Adc.HighResolution.AutoZero, OFF
TestParameter, Measurement.Adc.HighResolution.Mode, PLC
TestParameter, Measurement.Adc.HighResolution.Coeff, 1
TestParameter, Measurement.WaitTime.Source.Coeff, 1
TestParameter, Measurement.WaitTime.Source.Offset, 0
TestParameter, Measurement.WaitTime.Monitor.Coeff, 1
TestParameter, Measurement.WaitTime.Monitor.Offset, 0
TestParameter, Function.User.Name, Ohmic
TestParameter, Function.User.Unit, ohm
TestParameter, Function.User.Definition, avg(V1/I1)
TestParameter, Output.Graph.Enabled, true
TestParameter, Output.Graph.XAxis.Data, V1
TestParameter, Output.Graph.XAxis.Scale, Linear
TestParameter, Output.Graph.XAxis.Left, -5
TestParameter, Output.Graph.XAxis.Right, 5
TestParameter, Output.Graph.YAxis.Data, I1
TestParameter, Output.Graph.YAxis.Scale, Linear
TestParameter, Output.Graph.YAxis.Bottom, -0.001
TestParameter, Output.Graph.YAxis.Top, 0.001
TestParameter, Output.Graph.YAxis.Group, 
TestParameter, Output.Scalar.Data, Ohmic
TestParameter, AutoAnalysis.Interpolation, false
TestParameter, AutoAnalysis.Line1.Enabled, false
TestParameter, AutoAnalysis.Line1.Type, 1
TestParameter, AutoAnalysis.Line1.Fix, True
TestParameter, AutoAnalysis.Line1.YAxis, 0
TestParameter, AutoAnalysis.Line1.Point1.Type, 0
TestParameter, AutoAnalysis.Line1.Point1.XY.X, 
TestParameter, AutoAnalysis.Line1.Point1.XY.Y, 
TestParameter, AutoAnalysis.Line1.Point1.Data.Var, 
TestParameter, AutoAnalysis.Line1.Point1.Data.Condition, 
TestParameter, AutoAnalysis.Line1.Point1.Data.Start, false
TestParameter, AutoAnalysis.Line1.Point1.Data.StartVar, 
TestParameter, AutoAnalysis.Line1.Point1.Data.StartCondition, 
TestParameter, AutoAnalysis.Line1.Point2.Type, 0
TestParameter, AutoAnalysis.Line1.Point2.XY.X, 
TestParameter, AutoAnalysis.Line1.Point2.XY.Y, 
TestParameter, AutoAnalysis.Line1.Point2.Data.Var, 
TestParameter, AutoAnalysis.Line1.Point2.Data.Condition, 
TestParameter, AutoAnalysis.Line1.Point2.Data.Start, false
TestParameter, AutoAnalysis.Line1.Point2.Data.StartVar, 
TestParameter, AutoAnalysis.Line1.Point2.Data.StartCondition, 
TestParameter, AutoAnalysis.Line1.GradientExpr, 0
TestParameter, AutoAnalysis.Line2.Enabled, false
TestParameter, AutoAnalysis.Line2.Type, 1
TestParameter, AutoAnalysis.Line2.Fix, True
TestParameter, AutoAnalysis.Line2.YAxis, 0
TestParameter, AutoAnalysis.Line2.Point1.Type, 0
TestParameter, AutoAnalysis.Line2.Point1.XY.X, 
TestParameter, AutoAnalysis.Line2.Point1.XY.Y, 
TestParameter, AutoAnalysis.Line2.Point1.Data.Var, 
TestParameter, AutoAnalysis.Line2.Point1.Data.Condition, 
TestParameter, AutoAnalysis.Line2.Point1.Data.Start, false
TestParameter, AutoAnalysis.Line2.Point1.Data.StartVar, 
TestParameter, AutoAnalysis.Line2.Point1.Data.StartCondition, 
TestParameter, AutoAnalysis.Line2.Point2.Type, 0
TestParameter, AutoAnalysis.Line2.Point2.XY.X, 
TestParameter, AutoAnalysis.Line2.Point2.XY.Y, 
TestParameter, AutoAnalysis.Line2.Point2.Data.Var, 
TestParameter, AutoAnalysis.Line2.Point2.Data.Condition, 
TestParameter, AutoAnalysis.Line2.Point2.Data.Start, false
TestParameter, AutoAnalysis.Line2.Point2.Data.StartVar, 
TestParameter, AutoAnalysis.Line2.Point2.Data.StartCondition, 
TestParameter, AutoAnalysis.Line2.GradientExpr, 0
TestParameter, AutoAnalysis.Marker.Enabled, false
TestParameter, AutoAnalysis.Marker.Data.Var, 
TestParameter, AutoAnalysis.Marker.Data.Condition, 
TestParameter, AutoAnalysis.Marker.Data.Start, false
TestParameter, AutoAnalysis.Marker.Data.StartVar, 
TestParameter, AutoAnalysis.Marker.Data.StartCondition, 
MetaData, TestRecord.EntryPoint, true
MetaData, TestRecord.RecordTime, 01/18/2020 21:43:39
MetaData, TestRecord.TestTarget, 
MetaData, TestRecord.IterationIndex, 36
MetaData, TestRecord.Preservation, true
MetaData, TestRecord.Flag, 
MetaData, TestRecord.Remarks, 
MetaData, TestRecord.LinkKey, cb477360-e041-4b96-a113-18e5b06ae681
Dimension1, 101, 101, 101
Dimension2, 1, 1, 1
DataName, V1, I1, Ohmic
DataValue, -1, -6.754E-11, 8854441686.98948
DataValue, -0.98000000000000009, -5.968E-11, 
DataValue, -0.96000000000000008, -5.619E-11, 
DataValue, -0.94000000000000006, -5.212E-11, 
DataValue, -0.92, -5.104E-11, 
DataValue, -0.9, -4.73E-11, 
DataValue, -0.88, -4.617E-11, 
DataValue, -0.86, -4.373E-11, 
DataValue, -0.84000000000000008, -4.271E-11, 
DataValue, -0.82000000000000006, -4.011E-11, 
DataValue, -0.8, -3.902E-11, 
DataValue, -0.78, -3.602E-11, 
DataValue, -0.76, -3.53E-11, 
DataValue, -0.74, -3.299E-11, 
DataValue, -0.72000000000000008, -3.243E-11, 
DataValue, -0.70000000000000007, -3.04E-11, 
DataValue, -0.68, -3.003E-11, 
DataValue, -0.66, -2.793E-11, 
DataValue, -0.64, -2.765E-11, 
DataValue, -0.62, -2.582E-11, 
DataValue, -0.6, -2.491E-11, 
DataValue, -0.58000000000000007, -2.295E-11, 
DataValue, -0.56, -2.302E-11, 
DataValue, -0.54, -2.135E-11, 
DataValue, -0.52, -2.168E-11, 
DataValue, -0.5, -1.956E-11, 
DataValue, -0.48000000000000004, -2.002E-11, 
DataValue, -0.46, -1.804E-11, 
DataValue, -0.44, -1.862E-11, 
DataValue, -0.42000000000000004, -1.626E-11, 
DataValue, -0.4, -1.699E-11, 
DataValue, -0.38, -1.471E-11, 
DataValue, -0.36000000000000004, -1.535E-11, 
DataValue, -0.34, -1.394E-11, 
DataValue, -0.32, -1.426E-11, 
DataValue, -0.3, -1.253E-11, 
DataValue, -0.28, -1.33E-11, 
DataValue, -0.26, -1.118E-11, 
DataValue, -0.24000000000000002, -1.234E-11, 
DataValue, -0.22, -1.04E-11, 
DataValue, -0.2, -1.102E-11, 
DataValue, -0.18000000000000002, -8.74E-12, 
DataValue, -0.16, -9.04E-12, 
DataValue, -0.14, -6.27E-12, 
DataValue, -0.12000000000000001, -5.01E-12, 
DataValue, -0.1, 1.22E-12, 
DataValue, -0.08, 8.71E-12, 
DataValue, -0.060000000000000005, 2.721E-11, 
DataValue, -0.04, 5.519E-11, 
DataValue, -0.02, 1.0581E-10, 
DataValue, 0, 1.795E-10, 
DataValue, 0.02, 2.8309E-10, 
DataValue, 0.04, 4.0824E-10, 
DataValue, 0.060000000000000005, 5.5375E-10, 
DataValue, 0.08, 7.1256E-10, 
DataValue, 0.1, 8.8673E-10, 
DataValue, 0.12000000000000001, 1.07136E-09, 
DataValue, 0.14, 1.27216E-09, 
DataValue, 0.16, 1.48638E-09, 
DataValue, 0.18000000000000002, 1.72129E-09, 
DataValue, 0.2, 1.97463E-09, 
DataValue, 0.22, 2.25641E-09, 
DataValue, 0.24000000000000002, 2.56549E-09, 
DataValue, 0.26, 2.91452E-09, 
DataValue, 0.28, 3.29862E-09, 
DataValue, 0.3, 3.73949E-09, 
DataValue, 0.32, 4.22322E-09, 
DataValue, 0.34, 4.76464E-09, 
DataValue, 0.36000000000000004, 5.35864E-09, 
DataValue, 0.38, 6.00441E-09, 
DataValue, 0.4, 6.69774E-09, 
DataValue, 0.42000000000000004, 7.4362E-09, 
DataValue, 0.44, 8.21733E-09, 
DataValue, 0.46, 9.04095E-09, 
DataValue, 0.48000000000000004, 9.89497E-09, 
DataValue, 0.5, 1.07751E-08, 
DataValue, 0.52, 1.17296E-08, 
DataValue, 0.54, 1.2707699999999999E-08, 
DataValue, 0.56, 1.3709399999999999E-08, 
DataValue, 0.58000000000000007, 1.4754099999999998E-08, 
DataValue, 0.6, 1.58317E-08, 
DataValue, 0.62, 1.6942999999999998E-08, 
DataValue, 0.64, 1.80757E-08, 
DataValue, 0.66, 1.9237899999999998E-08, 
DataValue, 0.68, 2.04343E-08, 
DataValue, 0.70000000000000007, 2.1661599999999997E-08, 
DataValue, 0.72000000000000008, 2.2900199999999997E-08, 
DataValue, 0.74, 2.4158499999999998E-08, 
DataValue, 0.76, 2.5476099999999998E-08, 
DataValue, 0.78, 2.6800299999999998E-08, 
DataValue, 0.8, 2.8186099999999997E-08, 
DataValue, 0.82000000000000006, 2.9565499999999998E-08, 
DataValue, 0.84000000000000008, 3.09986E-08, 
DataValue, 0.86, 3.2444499999999996E-08, 
DataValue, 0.88, 3.39084E-08, 
DataValue, 0.9, 3.5406999999999994E-08, 
DataValue, 0.92, 3.6926599999999995E-08, 
DataValue, 0.94000000000000006, 3.8491199999999995E-08, 
DataValue, 0.96000000000000008, 4.00844E-08, 
DataValue, 0.98000000000000009, 4.17479E-08, 
DataValue, 1, 4.3391699999999993E-08, 