
SetupTitle, WW
PrimitiveTest, I/V Sweep
TestParameter, Context.MainFrame, B1500A
TestParameter, Channel.UnitType, SMU, SMU
TestParameter, Channel.Unit, SMU2:HP, SMU1:HP
TestParameter, Channel.IName, I1, I4
TestParameter, Channel.VName, V1, V4
TestParameter, Channel.Mode, V, COMMON
TestParameter, Channel.Func, VAR1, CONST
TestParameter, Channel.Index, 
TestParameter, Channel.Time, 
TestParameter, Measurement.Port.Unit, SMU2:HP, SMU1:HP
TestParameter, Measurement.Port.SeriesResistor, NONE, NONE
TestParameter, Measurement.Port.Filter, ON, ON
TestParameter, Measurement.Port.OutputVoltageComparison, 0, 0
TestParameter, Measurement.Primary.Locus, Single
TestParameter, Measurement.Primary.Scale, LINEAR
TestParameter, Measurement.Primary.Start, -1
TestParameter, Measurement.Primary.Stop, 1
TestParameter, Measurement.Primary.Step, 0.02
TestParameter, Measurement.Primary.Compliance, 0.01
TestParameter, Measurement.Primary.PowerCompliance, 0
TestParameter, Measurement.Aborting.Condition, CONTINUE AT ANY
TestParameter, Measurement.PostOutput.Value, START
TestParameter, Measurement.PostOutput.Retention, OFF
TestParameter, Measurement.Bias.Source, -1, 0
TestParameter, Measurement.Bias.Compliance, 0.01, 1
TestParameter, Measurement.Monitor.Unit, SMU2:HP, SMU1:HP
TestParameter, Measurement.Monitor.Adc, HR ADC, HR ADC
TestParameter, Measurement.Monitor.Measurement, Compliance Side, Compliance Side
TestParameter, Measurement.Monitor.RangingMode, AUTO, AUTO
TestParameter, Measurement.Monitor.RangeBoundary, , 
TestParameter, Measurement.Monitor.RangeRating, BY FULL RANGE, BY FULL RANGE
TestParameter, Measurement.Monitor.RangeRatingCoeff, 50, 50
TestParameter, Measurement.Timing.Hold, 0
TestParameter, Measurement.Timing.Delay, 0.001
TestParameter, Measurement.Adc.HighSpeed.Mode, AUTO
TestParameter, Measurement.Adc.HighSpeed.Coeff, 1
TestParameter, Measurement.Adc.HighResolution.AutoZero, OFF
TestParameter, Measurement.Adc.HighResolution.Mode, PLC
TestParameter, Measurement.Adc.HighResolution.Coeff, 1
TestParameter, Measurement.WaitTime.Source.Coeff, 1
TestParameter, Measurement.WaitTime.Source.Offset, 0
TestParameter, Measurement.WaitTime.Monitor.Coeff, 1
TestParameter, Measurement.WaitTime.Monitor.Offset, 0
TestParameter, Function.User.Name, Ohmic
TestParameter, Function.User.Unit, ohm
TestParameter, Function.User.Definition, avg(V1/I1)
TestParameter, Output.Graph.Enabled, true
TestParameter, Output.Graph.XAxis.Data, V1
TestParameter, Output.Graph.XAxis.Scale, Linear
TestParameter, Output.Graph.XAxis.Left, -5
TestParameter, Output.Graph.XAxis.Right, 5
TestParameter, Output.Graph.YAxis.Data, I1
TestParameter, Output.Graph.YAxis.Scale, Linear
TestParameter, Output.Graph.YAxis.Bottom, -0.001
TestParameter, Output.Graph.YAxis.Top, 0.001
TestParameter, Output.Graph.YAxis.Group, 
TestParameter, Output.Scalar.Data, Ohmic
TestParameter, AutoAnalysis.Interpolation, false
TestParameter, AutoAnalysis.Line1.Enabled, false
TestParameter, AutoAnalysis.Line1.Type, 1
TestParameter, AutoAnalysis.Line1.Fix, True
TestParameter, AutoAnalysis.Line1.YAxis, 0
TestParameter, AutoAnalysis.Line1.Point1.Type, 0
TestParameter, AutoAnalysis.Line1.Point1.XY.X, 
TestParameter, AutoAnalysis.Line1.Point1.XY.Y, 
TestParameter, AutoAnalysis.Line1.Point1.Data.Var, 
TestParameter, AutoAnalysis.Line1.Point1.Data.Condition, 
TestParameter, AutoAnalysis.Line1.Point1.Data.Start, false
TestParameter, AutoAnalysis.Line1.Point1.Data.StartVar, 
TestParameter, AutoAnalysis.Line1.Point1.Data.StartCondition, 
TestParameter, AutoAnalysis.Line1.Point2.Type, 0
TestParameter, AutoAnalysis.Line1.Point2.XY.X, 
TestParameter, AutoAnalysis.Line1.Point2.XY.Y, 
TestParameter, AutoAnalysis.Line1.Point2.Data.Var, 
TestParameter, AutoAnalysis.Line1.Point2.Data.Condition, 
TestParameter, AutoAnalysis.Line1.Point2.Data.Start, false
TestParameter, AutoAnalysis.Line1.Point2.Data.StartVar, 
TestParameter, AutoAnalysis.Line1.Point2.Data.StartCondition, 
TestParameter, AutoAnalysis.Line1.GradientExpr, 0
TestParameter, AutoAnalysis.Line2.Enabled, false
TestParameter, AutoAnalysis.Line2.Type, 1
TestParameter, AutoAnalysis.Line2.Fix, True
TestParameter, AutoAnalysis.Line2.YAxis, 0
TestParameter, AutoAnalysis.Line2.Point1.Type, 0
TestParameter, AutoAnalysis.Line2.Point1.XY.X, 
TestParameter, AutoAnalysis.Line2.Point1.XY.Y, 
TestParameter, AutoAnalysis.Line2.Point1.Data.Var, 
TestParameter, AutoAnalysis.Line2.Point1.Data.Condition, 
TestParameter, AutoAnalysis.Line2.Point1.Data.Start, false
TestParameter, AutoAnalysis.Line2.Point1.Data.StartVar, 
TestParameter, AutoAnalysis.Line2.Point1.Data.StartCondition, 
TestParameter, AutoAnalysis.Line2.Point2.Type, 0
TestParameter, AutoAnalysis.Line2.Point2.XY.X, 
TestParameter, AutoAnalysis.Line2.Point2.XY.Y, 
TestParameter, AutoAnalysis.Line2.Point2.Data.Var, 
TestParameter, AutoAnalysis.Line2.Point2.Data.Condition, 
TestParameter, AutoAnalysis.Line2.Point2.Data.Start, false
TestParameter, AutoAnalysis.Line2.Point2.Data.StartVar, 
TestParameter, AutoAnalysis.Line2.Point2.Data.StartCondition, 
TestParameter, AutoAnalysis.Line2.GradientExpr, 0
TestParameter, AutoAnalysis.Marker.Enabled, false
TestParameter, AutoAnalysis.Marker.Data.Var, 
TestParameter, AutoAnalysis.Marker.Data.Condition, 
TestParameter, AutoAnalysis.Marker.Data.Start, false
TestParameter, AutoAnalysis.Marker.Data.StartVar, 
TestParameter, AutoAnalysis.Marker.Data.StartCondition, 
MetaData, TestRecord.EntryPoint, true
MetaData, TestRecord.RecordTime, 01/18/2020 21:43:06
MetaData, TestRecord.TestTarget, 
MetaData, TestRecord.IterationIndex, 35
MetaData, TestRecord.Preservation, true
MetaData, TestRecord.Flag, 
MetaData, TestRecord.Remarks, 
MetaData, TestRecord.LinkKey, 29f86cf1-0243-4337-9e1b-74edbad5fafb
Dimension1, 101, 101, 101
Dimension2, 1, 1, 1
DataName, V1, I1, Ohmic
DataValue, -1, -7.233E-11, 8981682953.756319
DataValue, -0.98000000000000009, -5.984E-11, 
DataValue, -0.96000000000000008, -6.15E-11, 
DataValue, -0.94000000000000006, -5.4E-11, 
DataValue, -0.92, -5.51E-11, 
DataValue, -0.9, -5.06E-11, 
DataValue, -0.88, -5.049E-11, 
DataValue, -0.86, -4.389E-11, 
DataValue, -0.84000000000000008, -4.493E-11, 
DataValue, -0.82000000000000006, -3.998E-11, 
DataValue, -0.8, -4.158E-11, 
DataValue, -0.78, -3.606E-11, 
DataValue, -0.76, -3.787E-11, 
DataValue, -0.74, -3.221E-11, 
DataValue, -0.72000000000000008, -3.504E-11, 
DataValue, -0.70000000000000007, -3.051E-11, 
DataValue, -0.68, -3.361E-11, 
DataValue, -0.66, -2.861E-11, 
DataValue, -0.64, -3.274E-11, 
DataValue, -0.62, -2.718E-11, 
DataValue, -0.6, -2.886E-11, 
DataValue, -0.58000000000000007, -2.475E-11, 
DataValue, -0.56, -2.701E-11, 
DataValue, -0.54, -2.088E-11, 
DataValue, -0.52, -2.404E-11, 
DataValue, -0.5, -1.847E-11, 
DataValue, -0.48000000000000004, -2.115E-11, 
DataValue, -0.46, -1.737E-11, 
DataValue, -0.44, -2.124E-11, 
DataValue, -0.42000000000000004, -1.663E-11, 
DataValue, -0.4, -1.946E-11, 
DataValue, -0.38, -1.507E-11, 
DataValue, -0.36000000000000004, -1.737E-11, 
DataValue, -0.34, -1.373E-11, 
DataValue, -0.32, -1.567E-11, 
DataValue, -0.3, -1.087E-11, 
DataValue, -0.28, -1.405E-11, 
DataValue, -0.26, -1.004E-11, 
DataValue, -0.24000000000000002, -1.262E-11, 
DataValue, -0.22, -9.57E-12, 
DataValue, -0.2, -1.246E-11, 
DataValue, -0.18000000000000002, -8.02E-12, 
DataValue, -0.16, -1.032E-11, 
DataValue, -0.14, -5.49E-12, 
DataValue, -0.12000000000000001, -6.16E-12, 
DataValue, -0.1, 3.23E-12, 
DataValue, -0.08, 8.41E-12, 
DataValue, -0.060000000000000005, 2.883E-11, 
DataValue, -0.04, 5.529E-11, 
DataValue, -0.02, 1.096E-10, 
DataValue, 0, 1.8214E-10, 
DataValue, 0.02, 2.8815E-10, 
DataValue, 0.04, 4.1055E-10, 
DataValue, 0.060000000000000005, 5.6019E-10, 
DataValue, 0.08, 7.1728E-10, 
DataValue, 0.1, 8.9308E-10, 
DataValue, 0.12000000000000001, 1.07711E-09, 
DataValue, 0.14, 1.27844E-09, 
DataValue, 0.16, 1.49101E-09, 
DataValue, 0.18000000000000002, 1.7246E-09, 
DataValue, 0.2, 1.98095E-09, 
DataValue, 0.22, 2.26079E-09, 
DataValue, 0.24000000000000002, 2.56785E-09, 
DataValue, 0.26, 2.90981E-09, 
DataValue, 0.28, 3.29533E-09, 
DataValue, 0.3, 3.72745E-09, 
DataValue, 0.32, 4.21173E-09, 
DataValue, 0.34, 4.74745E-09, 
DataValue, 0.36000000000000004, 5.33675E-09, 
DataValue, 0.38, 5.98214E-09, 
DataValue, 0.4, 6.67133E-09, 
DataValue, 0.42000000000000004, 7.4112E-09, 
DataValue, 0.44, 8.19023E-09, 
DataValue, 0.46, 9.00876E-09, 
DataValue, 0.48000000000000004, 9.86682E-09, 
DataValue, 0.5, 1.0748099999999999E-08, 
DataValue, 0.52, 1.1693999999999999E-08, 
DataValue, 0.54, 1.26791E-08, 
DataValue, 0.56, 1.3688799999999999E-08, 
DataValue, 0.58000000000000007, 1.47283E-08, 
DataValue, 0.6, 1.58035E-08, 
DataValue, 0.62, 1.6914099999999997E-08, 
DataValue, 0.64, 1.8048499999999998E-08, 
DataValue, 0.66, 1.9215499999999998E-08, 
DataValue, 0.68, 2.0410599999999998E-08, 
DataValue, 0.70000000000000007, 2.16423E-08, 
DataValue, 0.72000000000000008, 2.2891499999999997E-08, 
DataValue, 0.74, 2.4163399999999998E-08, 
DataValue, 0.76, 2.5469599999999997E-08, 
DataValue, 0.78, 2.6795399999999998E-08, 
DataValue, 0.8, 2.81466E-08, 
DataValue, 0.82000000000000006, 2.9539099999999996E-08, 
DataValue, 0.84000000000000008, 3.09624E-08, 
DataValue, 0.86, 3.2413499999999994E-08, 
DataValue, 0.88, 3.3911199999999996E-08, 
DataValue, 0.9, 3.5444199999999994E-08, 
DataValue, 0.92, 3.70039E-08, 
DataValue, 0.94000000000000006, 3.85434E-08, 
DataValue, 0.96000000000000008, 4.0123999999999996E-08, 
DataValue, 0.98000000000000009, 4.17332E-08, 
DataValue, 1, 4.3349399999999995E-08, 