
SetupTitle, WW
PrimitiveTest, I/V Sweep
TestParameter, Context.MainFrame, B1500A
TestParameter, Channel.UnitType, SMU, SMU
TestParameter, Channel.Unit, SMU2:HP, SMU1:HP
TestParameter, Channel.IName, I1, I4
TestParameter, Channel.VName, V1, V4
TestParameter, Channel.Mode, V, COMMON
TestParameter, Channel.Func, VAR1, CONST
TestParameter, Channel.Index, 
TestParameter, Channel.Time, 
TestParameter, Measurement.Port.Unit, SMU2:HP, SMU1:HP
TestParameter, Measurement.Port.SeriesResistor, NONE, NONE
TestParameter, Measurement.Port.Filter, ON, ON
TestParameter, Measurement.Port.OutputVoltageComparison, 0, 0
TestParameter, Measurement.Primary.Locus, Single
TestParameter, Measurement.Primary.Scale, LINEAR
TestParameter, Measurement.Primary.Start, -1
TestParameter, Measurement.Primary.Stop, 1
TestParameter, Measurement.Primary.Step, 0.02
TestParameter, Measurement.Primary.Compliance, 0.01
TestParameter, Measurement.Primary.PowerCompliance, 0
TestParameter, Measurement.Aborting.Condition, CONTINUE AT ANY
TestParameter, Measurement.PostOutput.Value, START
TestParameter, Measurement.PostOutput.Retention, OFF
TestParameter, Measurement.Bias.Source, -1, 0
TestParameter, Measurement.Bias.Compliance, 0.01, 1
TestParameter, Measurement.Monitor.Unit, SMU2:HP, SMU1:HP
TestParameter, Measurement.Monitor.Adc, HR ADC, HR ADC
TestParameter, Measurement.Monitor.Measurement, Compliance Side, Compliance Side
TestParameter, Measurement.Monitor.RangingMode, AUTO, AUTO
TestParameter, Measurement.Monitor.RangeBoundary, , 
TestParameter, Measurement.Monitor.RangeRating, BY FULL RANGE, BY FULL RANGE
TestParameter, Measurement.Monitor.RangeRatingCoeff, 50, 50
TestParameter, Measurement.Timing.Hold, 0
TestParameter, Measurement.Timing.Delay, 0.001
TestParameter, Measurement.Adc.HighSpeed.Mode, AUTO
TestParameter, Measurement.Adc.HighSpeed.Coeff, 1
TestParameter, Measurement.Adc.HighResolution.AutoZero, OFF
TestParameter, Measurement.Adc.HighResolution.Mode, PLC
TestParameter, Measurement.Adc.HighResolution.Coeff, 1
TestParameter, Measurement.WaitTime.Source.Coeff, 1
TestParameter, Measurement.WaitTime.Source.Offset, 0
TestParameter, Measurement.WaitTime.Monitor.Coeff, 1
TestParameter, Measurement.WaitTime.Monitor.Offset, 0
TestParameter, Function.User.Name, Ohmic
TestParameter, Function.User.Unit, ohm
TestParameter, Function.User.Definition, avg(V1/I1)
TestParameter, Output.Graph.Enabled, true
TestParameter, Output.Graph.XAxis.Data, V1
TestParameter, Output.Graph.XAxis.Scale, Linear
TestParameter, Output.Graph.XAxis.Left, -5
TestParameter, Output.Graph.XAxis.Right, 5
TestParameter, Output.Graph.YAxis.Data, I1
TestParameter, Output.Graph.YAxis.Scale, Linear
TestParameter, Output.Graph.YAxis.Bottom, -0.001
TestParameter, Output.Graph.YAxis.Top, 0.001
TestParameter, Output.Graph.YAxis.Group, 
TestParameter, Output.Scalar.Data, Ohmic
TestParameter, AutoAnalysis.Interpolation, false
TestParameter, AutoAnalysis.Line1.Enabled, false
TestParameter, AutoAnalysis.Line1.Type, 1
TestParameter, AutoAnalysis.Line1.Fix, True
TestParameter, AutoAnalysis.Line1.YAxis, 0
TestParameter, AutoAnalysis.Line1.Point1.Type, 0
TestParameter, AutoAnalysis.Line1.Point1.XY.X, 
TestParameter, AutoAnalysis.Line1.Point1.XY.Y, 
TestParameter, AutoAnalysis.Line1.Point1.Data.Var, 
TestParameter, AutoAnalysis.Line1.Point1.Data.Condition, 
TestParameter, AutoAnalysis.Line1.Point1.Data.Start, false
TestParameter, AutoAnalysis.Line1.Point1.Data.StartVar, 
TestParameter, AutoAnalysis.Line1.Point1.Data.StartCondition, 
TestParameter, AutoAnalysis.Line1.Point2.Type, 0
TestParameter, AutoAnalysis.Line1.Point2.XY.X, 
TestParameter, AutoAnalysis.Line1.Point2.XY.Y, 
TestParameter, AutoAnalysis.Line1.Point2.Data.Var, 
TestParameter, AutoAnalysis.Line1.Point2.Data.Condition, 
TestParameter, AutoAnalysis.Line1.Point2.Data.Start, false
TestParameter, AutoAnalysis.Line1.Point2.Data.StartVar, 
TestParameter, AutoAnalysis.Line1.Point2.Data.StartCondition, 
TestParameter, AutoAnalysis.Line1.GradientExpr, 0
TestParameter, AutoAnalysis.Line2.Enabled, false
TestParameter, AutoAnalysis.Line2.Type, 1
TestParameter, AutoAnalysis.Line2.Fix, True
TestParameter, AutoAnalysis.Line2.YAxis, 0
TestParameter, AutoAnalysis.Line2.Point1.Type, 0
TestParameter, AutoAnalysis.Line2.Point1.XY.X, 
TestParameter, AutoAnalysis.Line2.Point1.XY.Y, 
TestParameter, AutoAnalysis.Line2.Point1.Data.Var, 
TestParameter, AutoAnalysis.Line2.Point1.Data.Condition, 
TestParameter, AutoAnalysis.Line2.Point1.Data.Start, false
TestParameter, AutoAnalysis.Line2.Point1.Data.StartVar, 
TestParameter, AutoAnalysis.Line2.Point1.Data.StartCondition, 
TestParameter, AutoAnalysis.Line2.Point2.Type, 0
TestParameter, AutoAnalysis.Line2.Point2.XY.X, 
TestParameter, AutoAnalysis.Line2.Point2.XY.Y, 
TestParameter, AutoAnalysis.Line2.Point2.Data.Var, 
TestParameter, AutoAnalysis.Line2.Point2.Data.Condition, 
TestParameter, AutoAnalysis.Line2.Point2.Data.Start, false
TestParameter, AutoAnalysis.Line2.Point2.Data.StartVar, 
TestParameter, AutoAnalysis.Line2.Point2.Data.StartCondition, 
TestParameter, AutoAnalysis.Line2.GradientExpr, 0
TestParameter, AutoAnalysis.Marker.Enabled, false
TestParameter, AutoAnalysis.Marker.Data.Var, 
TestParameter, AutoAnalysis.Marker.Data.Condition, 
TestParameter, AutoAnalysis.Marker.Data.Start, false
TestParameter, AutoAnalysis.Marker.Data.StartVar, 
TestParameter, AutoAnalysis.Marker.Data.StartCondition, 
MetaData, TestRecord.EntryPoint, true
MetaData, TestRecord.RecordTime, 01/18/2020 21:41:22
MetaData, TestRecord.TestTarget, 
MetaData, TestRecord.IterationIndex, 31
MetaData, TestRecord.Preservation, true
MetaData, TestRecord.Flag, 
MetaData, TestRecord.Remarks, 
MetaData, TestRecord.LinkKey, 6dd62cec-41e7-4eea-8219-8f401702f358
Dimension1, 101, 101, 101
Dimension2, 1, 1, 1
DataName, V1, I1, Ohmic
DataValue, -1, -5.194E-11, 14487511682.824125
DataValue, -0.98000000000000009, -4.484E-11, 
DataValue, -0.96000000000000008, -4.589E-11, 
DataValue, -0.94000000000000006, -4.195E-11, 
DataValue, -0.92, -5.021E-11, 
DataValue, -0.9, -4.155E-11, 
DataValue, -0.88, -4.413E-11, 
DataValue, -0.86, -3.28E-11, 
DataValue, -0.84000000000000008, -4.029E-11, 
DataValue, -0.82000000000000006, -3.484E-11, 
DataValue, -0.8, -6.04E-11, 
DataValue, -0.78, -5.806E-11, 
DataValue, -0.76, -4.173E-11, 
DataValue, -0.74, -3.2749999999999997E-11, 
DataValue, -0.72000000000000008, -1.252E-11, 
DataValue, -0.70000000000000007, -7.8E-12, 
DataValue, -0.68, -6.7E-12, 
DataValue, -0.66, 8.68E-12, 
DataValue, -0.64, 4.87E-12, 
DataValue, -0.62, 3.65E-12, 
DataValue, -0.6, -9.83E-12, 
DataValue, -0.58000000000000007, -1.035E-11, 
DataValue, -0.56, -1.678E-11, 
DataValue, -0.54, -1.192E-11, 
DataValue, -0.52, -1.517E-11, 
DataValue, -0.5, -1.031E-11, 
DataValue, -0.48000000000000004, -1.13E-11, 
DataValue, -0.46, -9.28E-12, 
DataValue, -0.44, -1.445E-11, 
DataValue, -0.42000000000000004, -1.003E-11, 
DataValue, -0.4, -1.074E-11, 
DataValue, -0.38, -4.94E-12, 
DataValue, -0.36000000000000004, -8.92E-12, 
DataValue, -0.34, -4.55E-12, 
DataValue, -0.32, -8.29E-12, 
DataValue, -0.3, -3.91E-12, 
DataValue, -0.28, -9.77E-12, 
DataValue, -0.26, -6.48E-12, 
DataValue, -0.24000000000000002, -1.164E-11, 
DataValue, -0.22, -4.06E-12, 
DataValue, -0.2, -3.28E-12, 
DataValue, -0.18000000000000002, 2.75E-12, 
DataValue, -0.16, -3.4E-13, 
DataValue, -0.14, 3.52E-12, 
DataValue, -0.12000000000000001, 3.3E-12, 
DataValue, -0.1, 1.233E-11, 
DataValue, -0.08, 1.903E-11, 
DataValue, -0.060000000000000005, 4.131E-11, 
DataValue, -0.04, 7.028E-11, 
DataValue, -0.02, 1.2613E-10, 
DataValue, 0, 2.0023E-10, 
DataValue, 0.02, 3.1122E-10, 
DataValue, 0.04, 4.3923E-10, 
DataValue, 0.060000000000000005, 5.9235E-10, 
DataValue, 0.08, 7.5469E-10, 
DataValue, 0.1, 9.3101E-10, 
DataValue, 0.12000000000000001, 1.11696E-09, 
DataValue, 0.14, 1.32051E-09, 
DataValue, 0.16, 1.53056E-09, 
DataValue, 0.18000000000000002, 1.75537E-09, 
DataValue, 0.2, 2.01142E-09, 
DataValue, 0.22, 2.28547E-09, 
DataValue, 0.24000000000000002, 2.58847E-09, 
DataValue, 0.26, 2.9272E-09, 
DataValue, 0.28, 3.30419E-09, 
DataValue, 0.3, 3.73353E-09, 
DataValue, 0.32, 4.20808E-09, 
DataValue, 0.34, 4.74214E-09, 
DataValue, 0.36000000000000004, 5.32619E-09, 
DataValue, 0.38, 5.96784E-09, 
DataValue, 0.4, 6.65009E-09, 
DataValue, 0.42000000000000004, 7.38039E-09, 
DataValue, 0.44, 8.15379E-09, 
DataValue, 0.46, 8.96457E-09, 
DataValue, 0.48000000000000004, 9.81396E-09, 
DataValue, 0.5, 1.0696099999999999E-08, 
DataValue, 0.52, 1.1641199999999999E-08, 
DataValue, 0.54, 1.2607299999999998E-08, 
DataValue, 0.56, 1.36089E-08, 
DataValue, 0.58000000000000007, 1.4638099999999999E-08, 
DataValue, 0.6, 1.5701099999999998E-08, 
DataValue, 0.62, 1.6789899999999998E-08, 
DataValue, 0.64, 1.7900099999999997E-08, 
DataValue, 0.66, 1.9048499999999997E-08, 
DataValue, 0.68, 2.02175E-08, 
DataValue, 0.70000000000000007, 2.14217E-08, 
DataValue, 0.72000000000000008, 2.2660899999999998E-08, 
DataValue, 0.74, 2.3923999999999996E-08, 
DataValue, 0.76, 2.52075E-08, 
DataValue, 0.78, 2.65047E-08, 
DataValue, 0.8, 2.7845999999999997E-08, 
DataValue, 0.82000000000000006, 2.9215399999999996E-08, 
DataValue, 0.84000000000000008, 3.0619799999999995E-08, 
DataValue, 0.86, 3.2035999999999996E-08, 
DataValue, 0.88, 3.34884E-08, 
DataValue, 0.9, 3.4969899999999996E-08, 
DataValue, 0.92, 3.64669E-08, 
DataValue, 0.94000000000000006, 3.7997799999999996E-08, 
DataValue, 0.96000000000000008, 3.9552499999999996E-08, 
DataValue, 0.98000000000000009, 4.11223E-08, 
DataValue, 1, 4.2705799999999995E-08, 