
SetupTitle, WW
PrimitiveTest, I/V Sweep
TestParameter, Context.MainFrame, B1500A
TestParameter, Channel.UnitType, SMU, SMU
TestParameter, Channel.Unit, SMU2:HP, SMU1:HP
TestParameter, Channel.IName, I1, I4
TestParameter, Channel.VName, V1, V4
TestParameter, Channel.Mode, V, COMMON
TestParameter, Channel.Func, VAR1, CONST
TestParameter, Channel.Index, 
TestParameter, Channel.Time, 
TestParameter, Measurement.Port.Unit, SMU2:HP, SMU1:HP
TestParameter, Measurement.Port.SeriesResistor, NONE, NONE
TestParameter, Measurement.Port.Filter, ON, ON
TestParameter, Measurement.Port.OutputVoltageComparison, 0, 0
TestParameter, Measurement.Primary.Locus, Single
TestParameter, Measurement.Primary.Scale, LINEAR
TestParameter, Measurement.Primary.Start, -1
TestParameter, Measurement.Primary.Stop, 1
TestParameter, Measurement.Primary.Step, 0.02
TestParameter, Measurement.Primary.Compliance, 0.01
TestParameter, Measurement.Primary.PowerCompliance, 0
TestParameter, Measurement.Aborting.Condition, CONTINUE AT ANY
TestParameter, Measurement.PostOutput.Value, START
TestParameter, Measurement.PostOutput.Retention, OFF
TestParameter, Measurement.Bias.Source, -1, 0
TestParameter, Measurement.Bias.Compliance, 0.01, 1
TestParameter, Measurement.Monitor.Unit, SMU2:HP, SMU1:HP
TestParameter, Measurement.Monitor.Adc, HR ADC, HR ADC
TestParameter, Measurement.Monitor.Measurement, Compliance Side, Compliance Side
TestParameter, Measurement.Monitor.RangingMode, AUTO, AUTO
TestParameter, Measurement.Monitor.RangeBoundary, , 
TestParameter, Measurement.Monitor.RangeRating, BY FULL RANGE, BY FULL RANGE
TestParameter, Measurement.Monitor.RangeRatingCoeff, 50, 50
TestParameter, Measurement.Timing.Hold, 0
TestParameter, Measurement.Timing.Delay, 0.001
TestParameter, Measurement.Adc.HighSpeed.Mode, AUTO
TestParameter, Measurement.Adc.HighSpeed.Coeff, 1
TestParameter, Measurement.Adc.HighResolution.AutoZero, OFF
TestParameter, Measurement.Adc.HighResolution.Mode, PLC
TestParameter, Measurement.Adc.HighResolution.Coeff, 1
TestParameter, Measurement.WaitTime.Source.Coeff, 1
TestParameter, Measurement.WaitTime.Source.Offset, 0
TestParameter, Measurement.WaitTime.Monitor.Coeff, 1
TestParameter, Measurement.WaitTime.Monitor.Offset, 0
TestParameter, Function.User.Name, Ohmic
TestParameter, Function.User.Unit, ohm
TestParameter, Function.User.Definition, avg(V1/I1)
TestParameter, Output.Graph.Enabled, true
TestParameter, Output.Graph.XAxis.Data, V1
TestParameter, Output.Graph.XAxis.Scale, Linear
TestParameter, Output.Graph.XAxis.Left, -5
TestParameter, Output.Graph.XAxis.Right, 5
TestParameter, Output.Graph.YAxis.Data, I1
TestParameter, Output.Graph.YAxis.Scale, Linear
TestParameter, Output.Graph.YAxis.Bottom, -0.001
TestParameter, Output.Graph.YAxis.Top, 0.001
TestParameter, Output.Graph.YAxis.Group, 
TestParameter, Output.Scalar.Data, Ohmic
TestParameter, AutoAnalysis.Interpolation, false
TestParameter, AutoAnalysis.Line1.Enabled, false
TestParameter, AutoAnalysis.Line1.Type, 1
TestParameter, AutoAnalysis.Line1.Fix, True
TestParameter, AutoAnalysis.Line1.YAxis, 0
TestParameter, AutoAnalysis.Line1.Point1.Type, 0
TestParameter, AutoAnalysis.Line1.Point1.XY.X, 
TestParameter, AutoAnalysis.Line1.Point1.XY.Y, 
TestParameter, AutoAnalysis.Line1.Point1.Data.Var, 
TestParameter, AutoAnalysis.Line1.Point1.Data.Condition, 
TestParameter, AutoAnalysis.Line1.Point1.Data.Start, false
TestParameter, AutoAnalysis.Line1.Point1.Data.StartVar, 
TestParameter, AutoAnalysis.Line1.Point1.Data.StartCondition, 
TestParameter, AutoAnalysis.Line1.Point2.Type, 0
TestParameter, AutoAnalysis.Line1.Point2.XY.X, 
TestParameter, AutoAnalysis.Line1.Point2.XY.Y, 
TestParameter, AutoAnalysis.Line1.Point2.Data.Var, 
TestParameter, AutoAnalysis.Line1.Point2.Data.Condition, 
TestParameter, AutoAnalysis.Line1.Point2.Data.Start, false
TestParameter, AutoAnalysis.Line1.Point2.Data.StartVar, 
TestParameter, AutoAnalysis.Line1.Point2.Data.StartCondition, 
TestParameter, AutoAnalysis.Line1.GradientExpr, 0
TestParameter, AutoAnalysis.Line2.Enabled, false
TestParameter, AutoAnalysis.Line2.Type, 1
TestParameter, AutoAnalysis.Line2.Fix, True
TestParameter, AutoAnalysis.Line2.YAxis, 0
TestParameter, AutoAnalysis.Line2.Point1.Type, 0
TestParameter, AutoAnalysis.Line2.Point1.XY.X, 
TestParameter, AutoAnalysis.Line2.Point1.XY.Y, 
TestParameter, AutoAnalysis.Line2.Point1.Data.Var, 
TestParameter, AutoAnalysis.Line2.Point1.Data.Condition, 
TestParameter, AutoAnalysis.Line2.Point1.Data.Start, false
TestParameter, AutoAnalysis.Line2.Point1.Data.StartVar, 
TestParameter, AutoAnalysis.Line2.Point1.Data.StartCondition, 
TestParameter, AutoAnalysis.Line2.Point2.Type, 0
TestParameter, AutoAnalysis.Line2.Point2.XY.X, 
TestParameter, AutoAnalysis.Line2.Point2.XY.Y, 
TestParameter, AutoAnalysis.Line2.Point2.Data.Var, 
TestParameter, AutoAnalysis.Line2.Point2.Data.Condition, 
TestParameter, AutoAnalysis.Line2.Point2.Data.Start, false
TestParameter, AutoAnalysis.Line2.Point2.Data.StartVar, 
TestParameter, AutoAnalysis.Line2.Point2.Data.StartCondition, 
TestParameter, AutoAnalysis.Line2.GradientExpr, 0
TestParameter, AutoAnalysis.Marker.Enabled, false
TestParameter, AutoAnalysis.Marker.Data.Var, 
TestParameter, AutoAnalysis.Marker.Data.Condition, 
TestParameter, AutoAnalysis.Marker.Data.Start, false
TestParameter, AutoAnalysis.Marker.Data.StartVar, 
TestParameter, AutoAnalysis.Marker.Data.StartCondition, 
MetaData, TestRecord.EntryPoint, true
MetaData, TestRecord.RecordTime, 01/18/2020 21:40:55
MetaData, TestRecord.TestTarget, 
MetaData, TestRecord.IterationIndex, 30
MetaData, TestRecord.Preservation, true
MetaData, TestRecord.Flag, 
MetaData, TestRecord.Remarks, 
MetaData, TestRecord.LinkKey, 0ab5eb00-91a3-4b51-9136-e007d188b462
Dimension1, 101, 101, 101
Dimension2, 1, 1, 1
DataName, V1, I1, Ohmic
DataValue, -1, -4.94E-12, 24168242197.962894
DataValue, -0.98000000000000009, -5.89E-12, 
DataValue, -0.96000000000000008, -1.177E-11, 
DataValue, -0.94000000000000006, -2.404E-11, 
DataValue, -0.92, -2.204E-11, 
DataValue, -0.9, -1.875E-11, 
DataValue, -0.88, -2.59E-11, 
DataValue, -0.86, -2.278E-11, 
DataValue, -0.84000000000000008, -2.619E-11, 
DataValue, -0.82000000000000006, -1.932E-11, 
DataValue, -0.8, -2.505E-11, 
DataValue, -0.78, -1.726E-11, 
DataValue, -0.76, -2.5E-11, 
DataValue, -0.74, -1.739E-11, 
DataValue, -0.72000000000000008, -1.947E-11, 
DataValue, -0.70000000000000007, -9.14E-12, 
DataValue, -0.68, -1.339E-11, 
DataValue, -0.66, -8.86E-12, 
DataValue, -0.64, -1.348E-11, 
DataValue, -0.62, -8.03E-12, 
DataValue, -0.6, -1.139E-11, 
DataValue, -0.58000000000000007, -7.96E-12, 
DataValue, -0.56, -1.037E-11, 
DataValue, -0.54, -4.91E-12, 
DataValue, -0.52, -9.31E-12, 
DataValue, -0.5, -5.39E-12, 
DataValue, -0.48000000000000004, -8.22E-12, 
DataValue, -0.46, -3.81E-12, 
DataValue, -0.44, -9.04E-12, 
DataValue, -0.42000000000000004, -4.24E-12, 
DataValue, -0.4, -8.99E-12, 
DataValue, -0.38, -6.72E-12, 
DataValue, -0.36000000000000004, -1.16E-11, 
DataValue, -0.34, -8.48E-12, 
DataValue, -0.32, -1.127E-11, 
DataValue, -0.3, -5.48E-12, 
DataValue, -0.28, -9.86E-12, 
DataValue, -0.26, -8.29E-12, 
DataValue, -0.24000000000000002, -1.452E-11, 
DataValue, -0.22, -1.17E-11, 
DataValue, -0.2, -1.494E-11, 
DataValue, -0.18000000000000002, -8.5E-12, 
DataValue, -0.16, -1.022E-11, 
DataValue, -0.14, -4.69E-12, 
DataValue, -0.12000000000000001, -3.86E-12, 
DataValue, -0.1, 5.41E-12, 
DataValue, -0.08, 1.231E-11, 
DataValue, -0.060000000000000005, 3.537E-11, 
DataValue, -0.04, 6.548E-11, 
DataValue, -0.02, 1.247E-10, 
DataValue, 0, 2.0339E-10, 
DataValue, 0.02, 3.1742E-10, 
DataValue, 0.04, 4.4939E-10, 
DataValue, 0.060000000000000005, 6.0576E-10, 
DataValue, 0.08, 7.7122E-10, 
DataValue, 0.1, 9.5212E-10, 
DataValue, 0.12000000000000001, 1.13577E-09, 
DataValue, 0.14, 1.33473E-09, 
DataValue, 0.16, 1.54371E-09, 
DataValue, 0.18000000000000002, 1.77284E-09, 
DataValue, 0.2, 2.02196E-09, 
DataValue, 0.22, 2.2954E-09, 
DataValue, 0.24000000000000002, 2.59632E-09, 
DataValue, 0.26, 2.93123E-09, 
DataValue, 0.28, 3.30549E-09, 
DataValue, 0.3, 3.73184E-09, 
DataValue, 0.32, 4.20441E-09, 
DataValue, 0.34, 4.7335E-09, 
DataValue, 0.36000000000000004, 5.3111E-09, 
DataValue, 0.38, 5.9466E-09, 
DataValue, 0.4, 6.62704E-09, 
DataValue, 0.42000000000000004, 7.35304E-09, 
DataValue, 0.44, 8.12475E-09, 
DataValue, 0.46, 8.93076E-09, 
DataValue, 0.48000000000000004, 9.77462E-09, 
DataValue, 0.5, 1.06459E-08, 
DataValue, 0.52, 1.1581199999999999E-08, 
DataValue, 0.54, 1.2543699999999998E-08, 
DataValue, 0.56, 1.3543699999999999E-08, 
DataValue, 0.58000000000000007, 1.4562799999999999E-08, 
DataValue, 0.6, 1.5633899999999997E-08, 
DataValue, 0.62, 1.6722899999999998E-08, 
DataValue, 0.64, 1.7838599999999997E-08, 
DataValue, 0.66, 1.8974599999999998E-08, 
DataValue, 0.68, 2.01459E-08, 
DataValue, 0.70000000000000007, 2.1340899999999997E-08, 
DataValue, 0.72000000000000008, 2.2548799999999998E-08, 
DataValue, 0.74, 2.3801499999999996E-08, 
DataValue, 0.76, 2.5063599999999997E-08, 
DataValue, 0.78, 2.6377499999999996E-08, 
DataValue, 0.8, 2.7719699999999996E-08, 
DataValue, 0.82000000000000006, 2.9059499999999996E-08, 
DataValue, 0.84000000000000008, 3.04341E-08, 
DataValue, 0.86, 3.18369E-08, 
DataValue, 0.88, 3.32789E-08, 
DataValue, 0.9, 3.47521E-08, 
DataValue, 0.92, 3.6231099999999994E-08, 
DataValue, 0.94000000000000006, 3.77281E-08, 
DataValue, 0.96000000000000008, 3.9299499999999994E-08, 
DataValue, 0.98000000000000009, 4.0853099999999994E-08, 
DataValue, 1, 4.2419399999999993E-08, 