
SetupTitle, WW
PrimitiveTest, I/V Sweep
TestParameter, Context.MainFrame, B1500A
TestParameter, Channel.UnitType, SMU, SMU
TestParameter, Channel.Unit, SMU2:HP, SMU1:HP
TestParameter, Channel.IName, I1, I4
TestParameter, Channel.VName, V1, V4
TestParameter, Channel.Mode, V, COMMON
TestParameter, Channel.Func, VAR1, CONST
TestParameter, Channel.Index, 
TestParameter, Channel.Time, 
TestParameter, Measurement.Port.Unit, SMU2:HP, SMU1:HP
TestParameter, Measurement.Port.SeriesResistor, NONE, NONE
TestParameter, Measurement.Port.Filter, ON, ON
TestParameter, Measurement.Port.OutputVoltageComparison, 0, 0
TestParameter, Measurement.Primary.Locus, Single
TestParameter, Measurement.Primary.Scale, LINEAR
TestParameter, Measurement.Primary.Start, -1
TestParameter, Measurement.Primary.Stop, 1
TestParameter, Measurement.Primary.Step, 0.02
TestParameter, Measurement.Primary.Compliance, 0.01
TestParameter, Measurement.Primary.PowerCompliance, 0
TestParameter, Measurement.Aborting.Condition, CONTINUE AT ANY
TestParameter, Measurement.PostOutput.Value, START
TestParameter, Measurement.PostOutput.Retention, OFF
TestParameter, Measurement.Bias.Source, -1, 0
TestParameter, Measurement.Bias.Compliance, 0.01, 1
TestParameter, Measurement.Monitor.Unit, SMU2:HP, SMU1:HP
TestParameter, Measurement.Monitor.Adc, HR ADC, HR ADC
TestParameter, Measurement.Monitor.Measurement, Compliance Side, Compliance Side
TestParameter, Measurement.Monitor.RangingMode, AUTO, AUTO
TestParameter, Measurement.Monitor.RangeBoundary, , 
TestParameter, Measurement.Monitor.RangeRating, BY FULL RANGE, BY FULL RANGE
TestParameter, Measurement.Monitor.RangeRatingCoeff, 50, 50
TestParameter, Measurement.Timing.Hold, 0
TestParameter, Measurement.Timing.Delay, 0.001
TestParameter, Measurement.Adc.HighSpeed.Mode, AUTO
TestParameter, Measurement.Adc.HighSpeed.Coeff, 1
TestParameter, Measurement.Adc.HighResolution.AutoZero, OFF
TestParameter, Measurement.Adc.HighResolution.Mode, PLC
TestParameter, Measurement.Adc.HighResolution.Coeff, 1
TestParameter, Measurement.WaitTime.Source.Coeff, 1
TestParameter, Measurement.WaitTime.Source.Offset, 0
TestParameter, Measurement.WaitTime.Monitor.Coeff, 1
TestParameter, Measurement.WaitTime.Monitor.Offset, 0
TestParameter, Function.User.Name, Ohmic
TestParameter, Function.User.Unit, ohm
TestParameter, Function.User.Definition, avg(V1/I1)
TestParameter, Output.Graph.Enabled, true
TestParameter, Output.Graph.XAxis.Data, V1
TestParameter, Output.Graph.XAxis.Scale, Linear
TestParameter, Output.Graph.XAxis.Left, -5
TestParameter, Output.Graph.XAxis.Right, 5
TestParameter, Output.Graph.YAxis.Data, I1
TestParameter, Output.Graph.YAxis.Scale, Linear
TestParameter, Output.Graph.YAxis.Bottom, -0.001
TestParameter, Output.Graph.YAxis.Top, 0.001
TestParameter, Output.Graph.YAxis.Group, 
TestParameter, Output.Scalar.Data, Ohmic
TestParameter, AutoAnalysis.Interpolation, false
TestParameter, AutoAnalysis.Line1.Enabled, false
TestParameter, AutoAnalysis.Line1.Type, 1
TestParameter, AutoAnalysis.Line1.Fix, True
TestParameter, AutoAnalysis.Line1.YAxis, 0
TestParameter, AutoAnalysis.Line1.Point1.Type, 0
TestParameter, AutoAnalysis.Line1.Point1.XY.X, 
TestParameter, AutoAnalysis.Line1.Point1.XY.Y, 
TestParameter, AutoAnalysis.Line1.Point1.Data.Var, 
TestParameter, AutoAnalysis.Line1.Point1.Data.Condition, 
TestParameter, AutoAnalysis.Line1.Point1.Data.Start, false
TestParameter, AutoAnalysis.Line1.Point1.Data.StartVar, 
TestParameter, AutoAnalysis.Line1.Point1.Data.StartCondition, 
TestParameter, AutoAnalysis.Line1.Point2.Type, 0
TestParameter, AutoAnalysis.Line1.Point2.XY.X, 
TestParameter, AutoAnalysis.Line1.Point2.XY.Y, 
TestParameter, AutoAnalysis.Line1.Point2.Data.Var, 
TestParameter, AutoAnalysis.Line1.Point2.Data.Condition, 
TestParameter, AutoAnalysis.Line1.Point2.Data.Start, false
TestParameter, AutoAnalysis.Line1.Point2.Data.StartVar, 
TestParameter, AutoAnalysis.Line1.Point2.Data.StartCondition, 
TestParameter, AutoAnalysis.Line1.GradientExpr, 0
TestParameter, AutoAnalysis.Line2.Enabled, false
TestParameter, AutoAnalysis.Line2.Type, 1
TestParameter, AutoAnalysis.Line2.Fix, True
TestParameter, AutoAnalysis.Line2.YAxis, 0
TestParameter, AutoAnalysis.Line2.Point1.Type, 0
TestParameter, AutoAnalysis.Line2.Point1.XY.X, 
TestParameter, AutoAnalysis.Line2.Point1.XY.Y, 
TestParameter, AutoAnalysis.Line2.Point1.Data.Var, 
TestParameter, AutoAnalysis.Line2.Point1.Data.Condition, 
TestParameter, AutoAnalysis.Line2.Point1.Data.Start, false
TestParameter, AutoAnalysis.Line2.Point1.Data.StartVar, 
TestParameter, AutoAnalysis.Line2.Point1.Data.StartCondition, 
TestParameter, AutoAnalysis.Line2.Point2.Type, 0
TestParameter, AutoAnalysis.Line2.Point2.XY.X, 
TestParameter, AutoAnalysis.Line2.Point2.XY.Y, 
TestParameter, AutoAnalysis.Line2.Point2.Data.Var, 
TestParameter, AutoAnalysis.Line2.Point2.Data.Condition, 
TestParameter, AutoAnalysis.Line2.Point2.Data.Start, false
TestParameter, AutoAnalysis.Line2.Point2.Data.StartVar, 
TestParameter, AutoAnalysis.Line2.Point2.Data.StartCondition, 
TestParameter, AutoAnalysis.Line2.GradientExpr, 0
TestParameter, AutoAnalysis.Marker.Enabled, false
TestParameter, AutoAnalysis.Marker.Data.Var, 
TestParameter, AutoAnalysis.Marker.Data.Condition, 
TestParameter, AutoAnalysis.Marker.Data.Start, false
TestParameter, AutoAnalysis.Marker.Data.StartVar, 
TestParameter, AutoAnalysis.Marker.Data.StartCondition, 
MetaData, TestRecord.EntryPoint, true
MetaData, TestRecord.RecordTime, 01/18/2020 21:40:27
MetaData, TestRecord.TestTarget, 
MetaData, TestRecord.IterationIndex, 29
MetaData, TestRecord.Preservation, true
MetaData, TestRecord.Flag, 
MetaData, TestRecord.Remarks, 
MetaData, TestRecord.LinkKey, b04c9630-354d-4acc-ad52-36b449a91142
Dimension1, 101, 101, 101
Dimension2, 1, 1, 1
DataName, V1, I1, Ohmic
DataValue, -1, -6.178E-11, 13316673500.661207
DataValue, -0.98000000000000009, -5.132E-11, 
DataValue, -0.96000000000000008, -5.352E-11, 
DataValue, -0.94000000000000006, -4.321E-11, 
DataValue, -0.92, -4.716E-11, 
DataValue, -0.9, -3.708E-11, 
DataValue, -0.88, -4.065E-11, 
DataValue, -0.86, -3.262E-11, 
DataValue, -0.84000000000000008, -3.475E-11, 
DataValue, -0.82000000000000006, -3.346E-11, 
DataValue, -0.8, -2.781E-11, 
DataValue, -0.78, -3.116E-11, 
DataValue, -0.76, -2.463E-11, 
DataValue, -0.74, -3.064E-11, 
DataValue, -0.72000000000000008, -2.232E-11, 
DataValue, -0.70000000000000007, -2.888E-11, 
DataValue, -0.68, -2.032E-11, 
DataValue, -0.66, -2.59E-11, 
DataValue, -0.64, -2.09E-11, 
DataValue, -0.62, -2.495E-11, 
DataValue, -0.6, -1.971E-11, 
DataValue, -0.58000000000000007, -2.242E-11, 
DataValue, -0.56, -1.586E-11, 
DataValue, -0.54, -1.749E-11, 
DataValue, -0.52, -1.361E-11, 
DataValue, -0.5, -1.597E-11, 
DataValue, -0.48000000000000004, -1.034E-11, 
DataValue, -0.46, -1.305E-11, 
DataValue, -0.44, -8.84E-12, 
DataValue, -0.42000000000000004, -1.081E-11, 
DataValue, -0.4, -5.99E-12, 
DataValue, -0.38, -9.03E-12, 
DataValue, -0.36000000000000004, -6.17E-12, 
DataValue, -0.34, -1.038E-11, 
DataValue, -0.32, -6.94E-12, 
DataValue, -0.3, -1.033E-11, 
DataValue, -0.28, -6.97E-12, 
DataValue, -0.26, -8.79E-12, 
DataValue, -0.24000000000000002, -4.13E-12, 
DataValue, -0.22, -6.93E-12, 
DataValue, -0.2, -2.2E-12, 
DataValue, -0.18000000000000002, -4.88E-12, 
DataValue, -0.16, -1.58E-12, 
DataValue, -0.14, -5.1E-12, 
DataValue, -0.12000000000000001, 8.2E-13, 
DataValue, -0.1, 1.87E-12, 
DataValue, -0.08, 1.901E-11, 
DataValue, -0.060000000000000005, 3.389E-11, 
DataValue, -0.04, 7.144E-11, 
DataValue, -0.02, 1.2614E-10, 
DataValue, 0, 2.1378E-10, 
DataValue, 0.02, 3.2252E-10, 
DataValue, 0.04, 4.6177E-10, 
DataValue, 0.060000000000000005, 6.1088E-10, 
DataValue, 0.08, 7.8186E-10, 
DataValue, 0.1, 9.5581E-10, 
DataValue, 0.12000000000000001, 1.14757E-09, 
DataValue, 0.14, 1.34453E-09, 
DataValue, 0.16, 1.55708E-09, 
DataValue, 0.18000000000000002, 1.78372E-09, 
DataValue, 0.2, 2.03255E-09, 
DataValue, 0.22, 2.30533E-09, 
DataValue, 0.24000000000000002, 2.6053E-09, 
DataValue, 0.26, 2.93805E-09, 
DataValue, 0.28, 3.31776E-09, 
DataValue, 0.3, 3.74156E-09, 
DataValue, 0.32, 4.2194E-09, 
DataValue, 0.34, 4.74279E-09, 
DataValue, 0.36000000000000004, 5.32809E-09, 
DataValue, 0.38, 5.95996E-09, 
DataValue, 0.4, 6.64326E-09, 
DataValue, 0.42000000000000004, 7.36619E-09, 
DataValue, 0.44, 8.13679E-09, 
DataValue, 0.46, 8.95267E-09, 
DataValue, 0.48000000000000004, 9.80185E-09, 
DataValue, 0.5, 1.06723E-08, 
DataValue, 0.52, 1.161E-08, 
DataValue, 0.54, 1.2579099999999999E-08, 
DataValue, 0.56, 1.3581699999999999E-08, 
DataValue, 0.58000000000000007, 1.4613799999999999E-08, 
DataValue, 0.6, 1.56778E-08, 
DataValue, 0.62, 1.6768099999999997E-08, 
DataValue, 0.64, 1.78912E-08, 
DataValue, 0.66, 1.9040999999999998E-08, 
DataValue, 0.68, 2.0229899999999998E-08, 
DataValue, 0.70000000000000007, 2.14282E-08, 
DataValue, 0.72000000000000008, 2.2656799999999998E-08, 
DataValue, 0.74, 2.3904499999999997E-08, 
DataValue, 0.76, 2.5197899999999996E-08, 
DataValue, 0.78, 2.6511099999999997E-08, 
DataValue, 0.8, 2.78535E-08, 
DataValue, 0.82000000000000006, 2.9226599999999996E-08, 
DataValue, 0.84000000000000008, 3.06347E-08, 
DataValue, 0.86, 3.2056E-08, 
DataValue, 0.88, 3.35363E-08, 
DataValue, 0.9, 3.4995799999999994E-08, 
DataValue, 0.92, 3.64972E-08, 
DataValue, 0.94000000000000006, 3.80123E-08, 
DataValue, 0.96000000000000008, 3.9594299999999993E-08, 
DataValue, 0.98000000000000009, 4.1160299999999996E-08, 
DataValue, 1, 4.27487E-08, 