
SetupTitle, WW
PrimitiveTest, I/V Sweep
TestParameter, Context.MainFrame, B1500A
TestParameter, Channel.UnitType, SMU, SMU
TestParameter, Channel.Unit, SMU2:HP, SMU1:HP
TestParameter, Channel.IName, I1, I4
TestParameter, Channel.VName, V1, V4
TestParameter, Channel.Mode, V, COMMON
TestParameter, Channel.Func, VAR1, CONST
TestParameter, Channel.Index, 
TestParameter, Channel.Time, 
TestParameter, Measurement.Port.Unit, SMU2:HP, SMU1:HP
TestParameter, Measurement.Port.SeriesResistor, NONE, NONE
TestParameter, Measurement.Port.Filter, ON, ON
TestParameter, Measurement.Port.OutputVoltageComparison, 0, 0
TestParameter, Measurement.Primary.Locus, Single
TestParameter, Measurement.Primary.Scale, LINEAR
TestParameter, Measurement.Primary.Start, -1
TestParameter, Measurement.Primary.Stop, 1
TestParameter, Measurement.Primary.Step, 0.02
TestParameter, Measurement.Primary.Compliance, 0.01
TestParameter, Measurement.Primary.PowerCompliance, 0
TestParameter, Measurement.Aborting.Condition, CONTINUE AT ANY
TestParameter, Measurement.PostOutput.Value, START
TestParameter, Measurement.PostOutput.Retention, OFF
TestParameter, Measurement.Bias.Source, -1, 0
TestParameter, Measurement.Bias.Compliance, 0.01, 1
TestParameter, Measurement.Monitor.Unit, SMU2:HP, SMU1:HP
TestParameter, Measurement.Monitor.Adc, HR ADC, HR ADC
TestParameter, Measurement.Monitor.Measurement, Compliance Side, Compliance Side
TestParameter, Measurement.Monitor.RangingMode, AUTO, AUTO
TestParameter, Measurement.Monitor.RangeBoundary, , 
TestParameter, Measurement.Monitor.RangeRating, BY FULL RANGE, BY FULL RANGE
TestParameter, Measurement.Monitor.RangeRatingCoeff, 50, 50
TestParameter, Measurement.Timing.Hold, 0
TestParameter, Measurement.Timing.Delay, 0.001
TestParameter, Measurement.Adc.HighSpeed.Mode, AUTO
TestParameter, Measurement.Adc.HighSpeed.Coeff, 1
TestParameter, Measurement.Adc.HighResolution.AutoZero, OFF
TestParameter, Measurement.Adc.HighResolution.Mode, PLC
TestParameter, Measurement.Adc.HighResolution.Coeff, 1
TestParameter, Measurement.WaitTime.Source.Coeff, 1
TestParameter, Measurement.WaitTime.Source.Offset, 0
TestParameter, Measurement.WaitTime.Monitor.Coeff, 1
TestParameter, Measurement.WaitTime.Monitor.Offset, 0
TestParameter, Function.User.Name, Ohmic
TestParameter, Function.User.Unit, ohm
TestParameter, Function.User.Definition, avg(V1/I1)
TestParameter, Output.Graph.Enabled, true
TestParameter, Output.Graph.XAxis.Data, V1
TestParameter, Output.Graph.XAxis.Scale, Linear
TestParameter, Output.Graph.XAxis.Left, -5
TestParameter, Output.Graph.XAxis.Right, 5
TestParameter, Output.Graph.YAxis.Data, I1
TestParameter, Output.Graph.YAxis.Scale, Linear
TestParameter, Output.Graph.YAxis.Bottom, -0.001
TestParameter, Output.Graph.YAxis.Top, 0.001
TestParameter, Output.Graph.YAxis.Group, 
TestParameter, Output.Scalar.Data, Ohmic
TestParameter, AutoAnalysis.Interpolation, false
TestParameter, AutoAnalysis.Line1.Enabled, false
TestParameter, AutoAnalysis.Line1.Type, 1
TestParameter, AutoAnalysis.Line1.Fix, True
TestParameter, AutoAnalysis.Line1.YAxis, 0
TestParameter, AutoAnalysis.Line1.Point1.Type, 0
TestParameter, AutoAnalysis.Line1.Point1.XY.X, 
TestParameter, AutoAnalysis.Line1.Point1.XY.Y, 
TestParameter, AutoAnalysis.Line1.Point1.Data.Var, 
TestParameter, AutoAnalysis.Line1.Point1.Data.Condition, 
TestParameter, AutoAnalysis.Line1.Point1.Data.Start, false
TestParameter, AutoAnalysis.Line1.Point1.Data.StartVar, 
TestParameter, AutoAnalysis.Line1.Point1.Data.StartCondition, 
TestParameter, AutoAnalysis.Line1.Point2.Type, 0
TestParameter, AutoAnalysis.Line1.Point2.XY.X, 
TestParameter, AutoAnalysis.Line1.Point2.XY.Y, 
TestParameter, AutoAnalysis.Line1.Point2.Data.Var, 
TestParameter, AutoAnalysis.Line1.Point2.Data.Condition, 
TestParameter, AutoAnalysis.Line1.Point2.Data.Start, false
TestParameter, AutoAnalysis.Line1.Point2.Data.StartVar, 
TestParameter, AutoAnalysis.Line1.Point2.Data.StartCondition, 
TestParameter, AutoAnalysis.Line1.GradientExpr, 0
TestParameter, AutoAnalysis.Line2.Enabled, false
TestParameter, AutoAnalysis.Line2.Type, 1
TestParameter, AutoAnalysis.Line2.Fix, True
TestParameter, AutoAnalysis.Line2.YAxis, 0
TestParameter, AutoAnalysis.Line2.Point1.Type, 0
TestParameter, AutoAnalysis.Line2.Point1.XY.X, 
TestParameter, AutoAnalysis.Line2.Point1.XY.Y, 
TestParameter, AutoAnalysis.Line2.Point1.Data.Var, 
TestParameter, AutoAnalysis.Line2.Point1.Data.Condition, 
TestParameter, AutoAnalysis.Line2.Point1.Data.Start, false
TestParameter, AutoAnalysis.Line2.Point1.Data.StartVar, 
TestParameter, AutoAnalysis.Line2.Point1.Data.StartCondition, 
TestParameter, AutoAnalysis.Line2.Point2.Type, 0
TestParameter, AutoAnalysis.Line2.Point2.XY.X, 
TestParameter, AutoAnalysis.Line2.Point2.XY.Y, 
TestParameter, AutoAnalysis.Line2.Point2.Data.Var, 
TestParameter, AutoAnalysis.Line2.Point2.Data.Condition, 
TestParameter, AutoAnalysis.Line2.Point2.Data.Start, false
TestParameter, AutoAnalysis.Line2.Point2.Data.StartVar, 
TestParameter, AutoAnalysis.Line2.Point2.Data.StartCondition, 
TestParameter, AutoAnalysis.Line2.GradientExpr, 0
TestParameter, AutoAnalysis.Marker.Enabled, false
TestParameter, AutoAnalysis.Marker.Data.Var, 
TestParameter, AutoAnalysis.Marker.Data.Condition, 
TestParameter, AutoAnalysis.Marker.Data.Start, false
TestParameter, AutoAnalysis.Marker.Data.StartVar, 
TestParameter, AutoAnalysis.Marker.Data.StartCondition, 
MetaData, TestRecord.EntryPoint, true
MetaData, TestRecord.RecordTime, 01/18/2020 21:36:52
MetaData, TestRecord.TestTarget, 
MetaData, TestRecord.IterationIndex, 22
MetaData, TestRecord.Preservation, true
MetaData, TestRecord.Flag, 
MetaData, TestRecord.Remarks, 
MetaData, TestRecord.LinkKey, e896ee29-13bd-48ce-9a86-3bba8a2f6880
Dimension1, 101, 101, 101
Dimension2, 1, 1, 1
DataName, V1, I1, Ohmic
DataValue, -1, -9.729E-11, 4946437337.4589
DataValue, -0.98000000000000009, -9.182E-11, 
DataValue, -0.96000000000000008, -8.289E-11, 
DataValue, -0.94000000000000006, -8.215E-11, 
DataValue, -0.92, -7.415E-11, 
DataValue, -0.9, -7.25E-11, 
DataValue, -0.88, -6.972E-11, 
DataValue, -0.86, -6.676E-11, 
DataValue, -0.84000000000000008, -6.245E-11, 
DataValue, -0.82000000000000006, -5.975E-11, 
DataValue, -0.8, -5.829E-11, 
DataValue, -0.78, -5.674E-11, 
DataValue, -0.76, -5.412E-11, 
DataValue, -0.74, -4.972E-11, 
DataValue, -0.72000000000000008, -4.858E-11, 
DataValue, -0.70000000000000007, -4.41E-11, 
DataValue, -0.68, -4.493E-11, 
DataValue, -0.66, -3.884E-11, 
DataValue, -0.64, -4.155E-11, 
DataValue, -0.62, -3.522E-11, 
DataValue, -0.6, -3.839E-11, 
DataValue, -0.58000000000000007, -3.358E-11, 
DataValue, -0.56, -3.375E-11, 
DataValue, -0.54, -3.202E-11, 
DataValue, -0.52, -2.948E-11, 
DataValue, -0.5, -2.978E-11, 
DataValue, -0.48000000000000004, -2.481E-11, 
DataValue, -0.46, -2.677E-11, 
DataValue, -0.44, -2.147E-11, 
DataValue, -0.42000000000000004, -2.423E-11, 
DataValue, -0.4, -1.849E-11, 
DataValue, -0.38, -2.11E-11, 
DataValue, -0.36000000000000004, -1.606E-11, 
DataValue, -0.34, -1.756E-11, 
DataValue, -0.32, -1.355E-11, 
DataValue, -0.3, -1.629E-11, 
DataValue, -0.28, -1.327E-11, 
DataValue, -0.26, -1.34E-11, 
DataValue, -0.24000000000000002, -1.126E-11, 
DataValue, -0.22, -1.082E-11, 
DataValue, -0.2, -8.49E-12, 
DataValue, -0.18000000000000002, -6.91E-12, 
DataValue, -0.16, -5.54E-12, 
DataValue, -0.14, 6.9E-13, 
DataValue, -0.12000000000000001, 4.62E-12, 
DataValue, -0.1, 2.033E-11, 
DataValue, -0.08, 3.778E-11, 
DataValue, -0.060000000000000005, 7.859E-11, 
DataValue, -0.04, 1.3389E-10, 
DataValue, -0.02, 2.2114E-10, 
DataValue, 0, 3.2948E-10, 
DataValue, 0.02, 4.6055E-10, 
DataValue, 0.04, 6.0104E-10, 
DataValue, 0.060000000000000005, 7.484E-10, 
DataValue, 0.08, 8.9419E-10, 
DataValue, 0.1, 1.03742E-09, 
DataValue, 0.12000000000000001, 1.17693E-09, 
DataValue, 0.14, 1.31265E-09, 
DataValue, 0.16, 1.4467E-09, 
DataValue, 0.18000000000000002, 1.58355E-09, 
DataValue, 0.2, 1.72182E-09, 
DataValue, 0.22, 1.86888E-09, 
DataValue, 0.24000000000000002, 2.02856E-09, 
DataValue, 0.26, 2.2060199999999998E-09, 
DataValue, 0.28, 2.40672E-09, 
DataValue, 0.3, 2.63398E-09, 
DataValue, 0.32, 2.89385E-09, 
DataValue, 0.34, 3.18678E-09, 
DataValue, 0.36000000000000004, 3.51427E-09, 
DataValue, 0.38, 3.87306E-09, 
DataValue, 0.4, 4.26478E-09, 
DataValue, 0.42000000000000004, 4.68365E-09, 
DataValue, 0.44, 5.13596E-09, 
DataValue, 0.46, 5.60632E-09, 
DataValue, 0.48000000000000004, 6.11124E-09, 
DataValue, 0.5, 6.64172E-09, 
DataValue, 0.52, 7.1884E-09, 
DataValue, 0.54, 7.76112E-09, 
DataValue, 0.56, 8.35235E-09, 
DataValue, 0.58000000000000007, 8.96532E-09, 
DataValue, 0.6, 9.59873E-09, 
DataValue, 0.62, 1.025585E-08, 
DataValue, 0.64, 1.0920099999999998E-08, 
DataValue, 0.66, 1.1629899999999999E-08, 
DataValue, 0.68, 1.2358399999999999E-08, 
DataValue, 0.70000000000000007, 1.3114199999999998E-08, 
DataValue, 0.72000000000000008, 1.38808E-08, 
DataValue, 0.74, 1.4671299999999999E-08, 
DataValue, 0.76, 1.54683E-08, 
DataValue, 0.78, 1.62804E-08, 
DataValue, 0.8, 1.71089E-08, 
DataValue, 0.82000000000000006, 1.79522E-08, 
DataValue, 0.84000000000000008, 1.8828899999999997E-08, 
DataValue, 0.86, 1.9710699999999997E-08, 
DataValue, 0.88, 2.0595999999999998E-08, 
DataValue, 0.9, 2.1494999999999998E-08, 
DataValue, 0.92, 2.2443299999999998E-08, 
DataValue, 0.94000000000000006, 2.3372499999999996E-08, 
DataValue, 0.96000000000000008, 2.4310899999999996E-08, 
DataValue, 0.98000000000000009, 2.5257499999999996E-08, 
DataValue, 1, 2.6224499999999998E-08, 