
SetupTitle, WW
PrimitiveTest, I/V Sweep
TestParameter, Context.MainFrame, B1500A
TestParameter, Channel.UnitType, SMU, SMU
TestParameter, Channel.Unit, SMU2:HP, SMU1:HP
TestParameter, Channel.IName, I1, I4
TestParameter, Channel.VName, V1, V4
TestParameter, Channel.Mode, V, COMMON
TestParameter, Channel.Func, VAR1, CONST
TestParameter, Channel.Index, 
TestParameter, Channel.Time, 
TestParameter, Measurement.Port.Unit, SMU2:HP, SMU1:HP
TestParameter, Measurement.Port.SeriesResistor, NONE, NONE
TestParameter, Measurement.Port.Filter, ON, ON
TestParameter, Measurement.Port.OutputVoltageComparison, 0, 0
TestParameter, Measurement.Primary.Locus, Single
TestParameter, Measurement.Primary.Scale, LINEAR
TestParameter, Measurement.Primary.Start, -1
TestParameter, Measurement.Primary.Stop, 1
TestParameter, Measurement.Primary.Step, 0.02
TestParameter, Measurement.Primary.Compliance, 0.01
TestParameter, Measurement.Primary.PowerCompliance, 0
TestParameter, Measurement.Aborting.Condition, CONTINUE AT ANY
TestParameter, Measurement.PostOutput.Value, START
TestParameter, Measurement.PostOutput.Retention, OFF
TestParameter, Measurement.Bias.Source, -1, 0
TestParameter, Measurement.Bias.Compliance, 0.01, 1
TestParameter, Measurement.Monitor.Unit, SMU2:HP, SMU1:HP
TestParameter, Measurement.Monitor.Adc, HR ADC, HR ADC
TestParameter, Measurement.Monitor.Measurement, Compliance Side, Compliance Side
TestParameter, Measurement.Monitor.RangingMode, AUTO, AUTO
TestParameter, Measurement.Monitor.RangeBoundary, , 
TestParameter, Measurement.Monitor.RangeRating, BY FULL RANGE, BY FULL RANGE
TestParameter, Measurement.Monitor.RangeRatingCoeff, 50, 50
TestParameter, Measurement.Timing.Hold, 0
TestParameter, Measurement.Timing.Delay, 0.001
TestParameter, Measurement.Adc.HighSpeed.Mode, AUTO
TestParameter, Measurement.Adc.HighSpeed.Coeff, 1
TestParameter, Measurement.Adc.HighResolution.AutoZero, OFF
TestParameter, Measurement.Adc.HighResolution.Mode, PLC
TestParameter, Measurement.Adc.HighResolution.Coeff, 1
TestParameter, Measurement.WaitTime.Source.Coeff, 1
TestParameter, Measurement.WaitTime.Source.Offset, 0
TestParameter, Measurement.WaitTime.Monitor.Coeff, 1
TestParameter, Measurement.WaitTime.Monitor.Offset, 0
TestParameter, Function.User.Name, Ohmic
TestParameter, Function.User.Unit, ohm
TestParameter, Function.User.Definition, avg(V1/I1)
TestParameter, Output.Graph.Enabled, true
TestParameter, Output.Graph.XAxis.Data, V1
TestParameter, Output.Graph.XAxis.Scale, Linear
TestParameter, Output.Graph.XAxis.Left, -5
TestParameter, Output.Graph.XAxis.Right, 5
TestParameter, Output.Graph.YAxis.Data, I1
TestParameter, Output.Graph.YAxis.Scale, Linear
TestParameter, Output.Graph.YAxis.Bottom, -0.001
TestParameter, Output.Graph.YAxis.Top, 0.001
TestParameter, Output.Graph.YAxis.Group, 
TestParameter, Output.Scalar.Data, Ohmic
TestParameter, AutoAnalysis.Interpolation, false
TestParameter, AutoAnalysis.Line1.Enabled, false
TestParameter, AutoAnalysis.Line1.Type, 1
TestParameter, AutoAnalysis.Line1.Fix, True
TestParameter, AutoAnalysis.Line1.YAxis, 0
TestParameter, AutoAnalysis.Line1.Point1.Type, 0
TestParameter, AutoAnalysis.Line1.Point1.XY.X, 
TestParameter, AutoAnalysis.Line1.Point1.XY.Y, 
TestParameter, AutoAnalysis.Line1.Point1.Data.Var, 
TestParameter, AutoAnalysis.Line1.Point1.Data.Condition, 
TestParameter, AutoAnalysis.Line1.Point1.Data.Start, false
TestParameter, AutoAnalysis.Line1.Point1.Data.StartVar, 
TestParameter, AutoAnalysis.Line1.Point1.Data.StartCondition, 
TestParameter, AutoAnalysis.Line1.Point2.Type, 0
TestParameter, AutoAnalysis.Line1.Point2.XY.X, 
TestParameter, AutoAnalysis.Line1.Point2.XY.Y, 
TestParameter, AutoAnalysis.Line1.Point2.Data.Var, 
TestParameter, AutoAnalysis.Line1.Point2.Data.Condition, 
TestParameter, AutoAnalysis.Line1.Point2.Data.Start, false
TestParameter, AutoAnalysis.Line1.Point2.Data.StartVar, 
TestParameter, AutoAnalysis.Line1.Point2.Data.StartCondition, 
TestParameter, AutoAnalysis.Line1.GradientExpr, 0
TestParameter, AutoAnalysis.Line2.Enabled, false
TestParameter, AutoAnalysis.Line2.Type, 1
TestParameter, AutoAnalysis.Line2.Fix, True
TestParameter, AutoAnalysis.Line2.YAxis, 0
TestParameter, AutoAnalysis.Line2.Point1.Type, 0
TestParameter, AutoAnalysis.Line2.Point1.XY.X, 
TestParameter, AutoAnalysis.Line2.Point1.XY.Y, 
TestParameter, AutoAnalysis.Line2.Point1.Data.Var, 
TestParameter, AutoAnalysis.Line2.Point1.Data.Condition, 
TestParameter, AutoAnalysis.Line2.Point1.Data.Start, false
TestParameter, AutoAnalysis.Line2.Point1.Data.StartVar, 
TestParameter, AutoAnalysis.Line2.Point1.Data.StartCondition, 
TestParameter, AutoAnalysis.Line2.Point2.Type, 0
TestParameter, AutoAnalysis.Line2.Point2.XY.X, 
TestParameter, AutoAnalysis.Line2.Point2.XY.Y, 
TestParameter, AutoAnalysis.Line2.Point2.Data.Var, 
TestParameter, AutoAnalysis.Line2.Point2.Data.Condition, 
TestParameter, AutoAnalysis.Line2.Point2.Data.Start, false
TestParameter, AutoAnalysis.Line2.Point2.Data.StartVar, 
TestParameter, AutoAnalysis.Line2.Point2.Data.StartCondition, 
TestParameter, AutoAnalysis.Line2.GradientExpr, 0
TestParameter, AutoAnalysis.Marker.Enabled, false
TestParameter, AutoAnalysis.Marker.Data.Var, 
TestParameter, AutoAnalysis.Marker.Data.Condition, 
TestParameter, AutoAnalysis.Marker.Data.Start, false
TestParameter, AutoAnalysis.Marker.Data.StartVar, 
TestParameter, AutoAnalysis.Marker.Data.StartCondition, 
MetaData, TestRecord.EntryPoint, true
MetaData, TestRecord.RecordTime, 01/18/2020 21:36:25
MetaData, TestRecord.TestTarget, 
MetaData, TestRecord.IterationIndex, 21
MetaData, TestRecord.Preservation, true
MetaData, TestRecord.Flag, 
MetaData, TestRecord.Remarks, 
MetaData, TestRecord.LinkKey, 098f8501-d10e-4dcb-9582-553bf2a0bc8b
Dimension1, 101, 101, 101
Dimension2, 1, 1, 1
DataName, V1, I1, Ohmic
DataValue, -1, -9.529E-11, 4813797598.9723425
DataValue, -0.98000000000000009, -8.108E-11, 
DataValue, -0.96000000000000008, -7.855E-11, 
DataValue, -0.94000000000000006, -7.02E-11, 
DataValue, -0.92, -6.961E-11, 
DataValue, -0.9, -6.354E-11, 
DataValue, -0.88, -6.219E-11, 
DataValue, -0.86, -5.72E-11, 
DataValue, -0.84000000000000008, -5.933E-11, 
DataValue, -0.82000000000000006, -5.402E-11, 
DataValue, -0.8, -5.244E-11, 
DataValue, -0.78, -4.995E-11, 
DataValue, -0.76, -4.811E-11, 
DataValue, -0.74, -4.541E-11, 
DataValue, -0.72000000000000008, -4.396E-11, 
DataValue, -0.70000000000000007, -4.112E-11, 
DataValue, -0.68, -3.945E-11, 
DataValue, -0.66, -3.865E-11, 
DataValue, -0.64, -3.327E-11, 
DataValue, -0.62, -3.456E-11, 
DataValue, -0.6, -2.832E-11, 
DataValue, -0.58000000000000007, -3.04E-11, 
DataValue, -0.56, -2.549E-11, 
DataValue, -0.54, -2.811E-11, 
DataValue, -0.52, -2.352E-11, 
DataValue, -0.5, -2.421E-11, 
DataValue, -0.48000000000000004, -2.317E-11, 
DataValue, -0.46, -2.059E-11, 
DataValue, -0.44, -2.036E-11, 
DataValue, -0.42000000000000004, -1.676E-11, 
DataValue, -0.4, -1.852E-11, 
DataValue, -0.38, -1.345E-11, 
DataValue, -0.36000000000000004, -1.596E-11, 
DataValue, -0.34, -1.09E-11, 
DataValue, -0.32, -1.31E-11, 
DataValue, -0.3, -9.49E-12, 
DataValue, -0.28, -1.074E-11, 
DataValue, -0.26, -9.25E-12, 
DataValue, -0.24000000000000002, -8.06E-12, 
DataValue, -0.22, -8.11E-12, 
DataValue, -0.2, -4.34E-12, 
DataValue, -0.18000000000000002, -4.53E-12, 
DataValue, -0.16, 5.8E-13, 
DataValue, -0.14, 1.48E-12, 
DataValue, -0.12000000000000001, 1.092E-11, 
DataValue, -0.1, 1.845E-11, 
DataValue, -0.08, 4.18E-11, 
DataValue, -0.060000000000000005, 7.467E-11, 
DataValue, -0.04, 1.321E-10, 
DataValue, -0.02, 2.1543E-10, 
DataValue, 0, 3.2207E-10, 
DataValue, 0.02, 4.5411E-10, 
DataValue, 0.04, 5.9274E-10, 
DataValue, 0.060000000000000005, 7.4135E-10, 
DataValue, 0.08, 8.8504E-10, 
DataValue, 0.1, 1.03325E-09, 
DataValue, 0.12000000000000001, 1.173E-09, 
DataValue, 0.14, 1.31557E-09, 
DataValue, 0.16, 1.44934E-09, 
DataValue, 0.18000000000000002, 1.59009E-09, 
DataValue, 0.2, 1.73413E-09, 
DataValue, 0.22, 1.88201E-09, 
DataValue, 0.24000000000000002, 2.0418E-09, 
DataValue, 0.26, 2.2162E-09, 
DataValue, 0.28, 2.41104E-09, 
DataValue, 0.3, 2.63372E-09, 
DataValue, 0.32, 2.88547E-09, 
DataValue, 0.34, 3.17137E-09, 
DataValue, 0.36000000000000004, 3.49345E-09, 
DataValue, 0.38, 3.84802E-09, 
DataValue, 0.4, 4.23167E-09, 
DataValue, 0.42000000000000004, 4.64829E-09, 
DataValue, 0.44, 5.09038E-09, 
DataValue, 0.46, 5.56246E-09, 
DataValue, 0.48000000000000004, 6.05478E-09, 
DataValue, 0.5, 6.57056E-09, 
DataValue, 0.52, 7.11096E-09, 
DataValue, 0.54, 7.67417E-09, 
DataValue, 0.56, 8.25204E-09, 
DataValue, 0.58000000000000007, 8.85657E-09, 
DataValue, 0.6, 9.47809E-09, 
DataValue, 0.62, 1.01272E-08, 
DataValue, 0.64, 1.0763499999999999E-08, 
DataValue, 0.66, 1.1452599999999998E-08, 
DataValue, 0.68, 1.2160699999999999E-08, 
DataValue, 0.70000000000000007, 1.2892899999999998E-08, 
DataValue, 0.72000000000000008, 1.36283E-08, 
DataValue, 0.74, 1.4390099999999999E-08, 
DataValue, 0.76, 1.5161E-08, 
DataValue, 0.78, 1.5947199999999998E-08, 
DataValue, 0.8, 1.6750799999999998E-08, 
DataValue, 0.82000000000000006, 1.7568599999999998E-08, 
DataValue, 0.84000000000000008, 1.83926E-08, 
DataValue, 0.86, 1.92375E-08, 
DataValue, 0.88, 2.00945E-08, 
DataValue, 0.9, 2.09629E-08, 
DataValue, 0.92, 2.1850199999999998E-08, 
DataValue, 0.94000000000000006, 2.2746899999999996E-08, 
DataValue, 0.96000000000000008, 2.36564E-08, 
DataValue, 0.98000000000000009, 2.4568199999999996E-08, 
DataValue, 1, 2.54922E-08, 