
SetupTitle, WW
PrimitiveTest, I/V Sweep
TestParameter, Context.MainFrame, B1500A
TestParameter, Channel.UnitType, SMU, SMU
TestParameter, Channel.Unit, SMU2:HP, SMU1:HP
TestParameter, Channel.IName, I1, I4
TestParameter, Channel.VName, V1, V4
TestParameter, Channel.Mode, V, COMMON
TestParameter, Channel.Func, VAR1, CONST
TestParameter, Channel.Index, 
TestParameter, Channel.Time, 
TestParameter, Measurement.Port.Unit, SMU2:HP, SMU1:HP
TestParameter, Measurement.Port.SeriesResistor, NONE, NONE
TestParameter, Measurement.Port.Filter, ON, ON
TestParameter, Measurement.Port.OutputVoltageComparison, 0, 0
TestParameter, Measurement.Primary.Locus, Single
TestParameter, Measurement.Primary.Scale, LINEAR
TestParameter, Measurement.Primary.Start, -1
TestParameter, Measurement.Primary.Stop, 1
TestParameter, Measurement.Primary.Step, 0.02
TestParameter, Measurement.Primary.Compliance, 0.01
TestParameter, Measurement.Primary.PowerCompliance, 0
TestParameter, Measurement.Aborting.Condition, CONTINUE AT ANY
TestParameter, Measurement.PostOutput.Value, START
TestParameter, Measurement.PostOutput.Retention, OFF
TestParameter, Measurement.Bias.Source, -1, 0
TestParameter, Measurement.Bias.Compliance, 0.01, 1
TestParameter, Measurement.Monitor.Unit, SMU2:HP, SMU1:HP
TestParameter, Measurement.Monitor.Adc, HR ADC, HR ADC
TestParameter, Measurement.Monitor.Measurement, Compliance Side, Compliance Side
TestParameter, Measurement.Monitor.RangingMode, AUTO, AUTO
TestParameter, Measurement.Monitor.RangeBoundary, , 
TestParameter, Measurement.Monitor.RangeRating, BY FULL RANGE, BY FULL RANGE
TestParameter, Measurement.Monitor.RangeRatingCoeff, 50, 50
TestParameter, Measurement.Timing.Hold, 0
TestParameter, Measurement.Timing.Delay, 0.001
TestParameter, Measurement.Adc.HighSpeed.Mode, AUTO
TestParameter, Measurement.Adc.HighSpeed.Coeff, 1
TestParameter, Measurement.Adc.HighResolution.AutoZero, OFF
TestParameter, Measurement.Adc.HighResolution.Mode, PLC
TestParameter, Measurement.Adc.HighResolution.Coeff, 1
TestParameter, Measurement.WaitTime.Source.Coeff, 1
TestParameter, Measurement.WaitTime.Source.Offset, 0
TestParameter, Measurement.WaitTime.Monitor.Coeff, 1
TestParameter, Measurement.WaitTime.Monitor.Offset, 0
TestParameter, Function.User.Name, Ohmic
TestParameter, Function.User.Unit, ohm
TestParameter, Function.User.Definition, avg(V1/I1)
TestParameter, Output.Graph.Enabled, true
TestParameter, Output.Graph.XAxis.Data, V1
TestParameter, Output.Graph.XAxis.Scale, Linear
TestParameter, Output.Graph.XAxis.Left, -5
TestParameter, Output.Graph.XAxis.Right, 5
TestParameter, Output.Graph.YAxis.Data, I1
TestParameter, Output.Graph.YAxis.Scale, Linear
TestParameter, Output.Graph.YAxis.Bottom, -0.001
TestParameter, Output.Graph.YAxis.Top, 0.001
TestParameter, Output.Graph.YAxis.Group, 
TestParameter, Output.Scalar.Data, Ohmic
TestParameter, AutoAnalysis.Interpolation, false
TestParameter, AutoAnalysis.Line1.Enabled, false
TestParameter, AutoAnalysis.Line1.Type, 1
TestParameter, AutoAnalysis.Line1.Fix, True
TestParameter, AutoAnalysis.Line1.YAxis, 0
TestParameter, AutoAnalysis.Line1.Point1.Type, 0
TestParameter, AutoAnalysis.Line1.Point1.XY.X, 
TestParameter, AutoAnalysis.Line1.Point1.XY.Y, 
TestParameter, AutoAnalysis.Line1.Point1.Data.Var, 
TestParameter, AutoAnalysis.Line1.Point1.Data.Condition, 
TestParameter, AutoAnalysis.Line1.Point1.Data.Start, false
TestParameter, AutoAnalysis.Line1.Point1.Data.StartVar, 
TestParameter, AutoAnalysis.Line1.Point1.Data.StartCondition, 
TestParameter, AutoAnalysis.Line1.Point2.Type, 0
TestParameter, AutoAnalysis.Line1.Point2.XY.X, 
TestParameter, AutoAnalysis.Line1.Point2.XY.Y, 
TestParameter, AutoAnalysis.Line1.Point2.Data.Var, 
TestParameter, AutoAnalysis.Line1.Point2.Data.Condition, 
TestParameter, AutoAnalysis.Line1.Point2.Data.Start, false
TestParameter, AutoAnalysis.Line1.Point2.Data.StartVar, 
TestParameter, AutoAnalysis.Line1.Point2.Data.StartCondition, 
TestParameter, AutoAnalysis.Line1.GradientExpr, 0
TestParameter, AutoAnalysis.Line2.Enabled, false
TestParameter, AutoAnalysis.Line2.Type, 1
TestParameter, AutoAnalysis.Line2.Fix, True
TestParameter, AutoAnalysis.Line2.YAxis, 0
TestParameter, AutoAnalysis.Line2.Point1.Type, 0
TestParameter, AutoAnalysis.Line2.Point1.XY.X, 
TestParameter, AutoAnalysis.Line2.Point1.XY.Y, 
TestParameter, AutoAnalysis.Line2.Point1.Data.Var, 
TestParameter, AutoAnalysis.Line2.Point1.Data.Condition, 
TestParameter, AutoAnalysis.Line2.Point1.Data.Start, false
TestParameter, AutoAnalysis.Line2.Point1.Data.StartVar, 
TestParameter, AutoAnalysis.Line2.Point1.Data.StartCondition, 
TestParameter, AutoAnalysis.Line2.Point2.Type, 0
TestParameter, AutoAnalysis.Line2.Point2.XY.X, 
TestParameter, AutoAnalysis.Line2.Point2.XY.Y, 
TestParameter, AutoAnalysis.Line2.Point2.Data.Var, 
TestParameter, AutoAnalysis.Line2.Point2.Data.Condition, 
TestParameter, AutoAnalysis.Line2.Point2.Data.Start, false
TestParameter, AutoAnalysis.Line2.Point2.Data.StartVar, 
TestParameter, AutoAnalysis.Line2.Point2.Data.StartCondition, 
TestParameter, AutoAnalysis.Line2.GradientExpr, 0
TestParameter, AutoAnalysis.Marker.Enabled, false
TestParameter, AutoAnalysis.Marker.Data.Var, 
TestParameter, AutoAnalysis.Marker.Data.Condition, 
TestParameter, AutoAnalysis.Marker.Data.Start, false
TestParameter, AutoAnalysis.Marker.Data.StartVar, 
TestParameter, AutoAnalysis.Marker.Data.StartCondition, 
MetaData, TestRecord.EntryPoint, true
MetaData, TestRecord.RecordTime, 01/18/2020 21:35:38
MetaData, TestRecord.TestTarget, 
MetaData, TestRecord.IterationIndex, 19
MetaData, TestRecord.Preservation, true
MetaData, TestRecord.Flag, 
MetaData, TestRecord.Remarks, 
MetaData, TestRecord.LinkKey, 1560c8f2-83f7-4988-8260-c73f846f4c63
Dimension1, 101, 101, 101
Dimension2, 1, 1, 1
DataName, V1, I1, Ohmic
DataValue, -1, -8.548E-11, 12015684690.190544
DataValue, -0.98000000000000009, -7.171E-11, 
DataValue, -0.96000000000000008, -7.119E-11, 
DataValue, -0.94000000000000006, -6.348E-11, 
DataValue, -0.92, -6.311E-11, 
DataValue, -0.9, -5.944E-11, 
DataValue, -0.88, -5.561E-11, 
DataValue, -0.86, -5.496E-11, 
DataValue, -0.84000000000000008, -4.89E-11, 
DataValue, -0.82000000000000006, -4.985E-11, 
DataValue, -0.8, -4.272E-11, 
DataValue, -0.78, -4.56E-11, 
DataValue, -0.76, -3.806E-11, 
DataValue, -0.74, -4.185E-11, 
DataValue, -0.72000000000000008, -3.614E-11, 
DataValue, -0.70000000000000007, -3.73E-11, 
DataValue, -0.68, -3.551E-11, 
DataValue, -0.66, -3.21E-11, 
DataValue, -0.64, -3.294E-11, 
DataValue, -0.62, -2.613E-11, 
DataValue, -0.6, -3.024E-11, 
DataValue, -0.58000000000000007, -2.226E-11, 
DataValue, -0.56, -2.698E-11, 
DataValue, -0.54, -1.974E-11, 
DataValue, -0.52, -2.399E-11, 
DataValue, -0.5, -1.809E-11, 
DataValue, -0.48000000000000004, -2.008E-11, 
DataValue, -0.46, -1.908E-11, 
DataValue, -0.44, -1.562E-11, 
DataValue, -0.42000000000000004, -1.772E-11, 
DataValue, -0.4, -1.13E-11, 
DataValue, -0.38, -1.626E-11, 
DataValue, -0.36000000000000004, -7.82E-12, 
DataValue, -0.34, -1.333E-11, 
DataValue, -0.32, -6.03E-12, 
DataValue, -0.3, -1.065E-11, 
DataValue, -0.28, -4.45E-12, 
DataValue, -0.26, -8.91E-12, 
DataValue, -0.24000000000000002, -2.76E-12, 
DataValue, -0.22, -6.67E-12, 
DataValue, -0.2, -5.8E-13, 
DataValue, -0.18000000000000002, -4.19E-12, 
DataValue, -0.16, 2.27E-12, 
DataValue, -0.14, 1.5E-12, 
DataValue, -0.12000000000000001, 7.52E-12, 
DataValue, -0.1, 1.956E-11, 
DataValue, -0.08, 3.626E-11, 
DataValue, -0.060000000000000005, 7.513E-11, 
DataValue, -0.04, 1.2468E-10, 
DataValue, -0.02, 2.1139E-10, 
DataValue, 0, 3.1091E-10, 
DataValue, 0.02, 4.4286E-10, 
DataValue, 0.04, 5.7678E-10, 
DataValue, 0.060000000000000005, 7.2663E-10, 
DataValue, 0.08, 8.7031E-10, 
DataValue, 0.1, 1.01662E-09, 
DataValue, 0.12000000000000001, 1.15821E-09, 
DataValue, 0.14, 1.29893E-09, 
DataValue, 0.16, 1.43678E-09, 
DataValue, 0.18000000000000002, 1.57494E-09, 
DataValue, 0.2, 1.71637E-09, 
DataValue, 0.22, 1.86361E-09, 
DataValue, 0.24000000000000002, 2.02388E-09, 
DataValue, 0.26, 2.19688E-09, 
DataValue, 0.28, 2.39262E-09, 
DataValue, 0.3, 2.61162E-09, 
DataValue, 0.32, 2.86265E-09, 
DataValue, 0.34, 3.14359E-09, 
DataValue, 0.36000000000000004, 3.46452E-09, 
DataValue, 0.38, 3.8141E-09, 
DataValue, 0.4, 4.19879E-09, 
DataValue, 0.42000000000000004, 4.60992E-09, 
DataValue, 0.44, 5.05032E-09, 
DataValue, 0.46, 5.5151E-09, 
DataValue, 0.48000000000000004, 6.00441E-09, 
DataValue, 0.5, 6.51386E-09, 
DataValue, 0.52, 7.05403E-09, 
DataValue, 0.54, 7.60725E-09, 
DataValue, 0.56, 8.18226E-09, 
DataValue, 0.58000000000000007, 8.7686E-09, 
DataValue, 0.6, 9.37414E-09, 
DataValue, 0.62, 9.99775E-09, 
DataValue, 0.64, 1.06373E-08, 
DataValue, 0.66, 1.1317599999999999E-08, 
DataValue, 0.68, 1.2009999999999998E-08, 
DataValue, 0.70000000000000007, 1.2711999999999998E-08, 
DataValue, 0.72000000000000008, 1.3429699999999999E-08, 
DataValue, 0.74, 1.4170999999999998E-08, 
DataValue, 0.76, 1.49124E-08, 
DataValue, 0.78, 1.5672499999999997E-08, 
DataValue, 0.8, 1.6446299999999997E-08, 
DataValue, 0.82000000000000006, 1.7224899999999998E-08, 
DataValue, 0.84000000000000008, 1.8034899999999997E-08, 
DataValue, 0.86, 1.88558E-08, 
DataValue, 0.88, 1.96725E-08, 
DataValue, 0.9, 2.0516799999999997E-08, 
DataValue, 0.92, 2.1365199999999997E-08, 
DataValue, 0.94000000000000006, 2.2213E-08, 
DataValue, 0.96000000000000008, 2.3078299999999996E-08, 
DataValue, 0.98000000000000009, 2.39684E-08, 
DataValue, 1, 2.4843099999999998E-08, 