
SetupTitle, WW
PrimitiveTest, I/V Sweep
TestParameter, Context.MainFrame, B1500A
TestParameter, Channel.UnitType, SMU, SMU
TestParameter, Channel.Unit, SMU2:HP, SMU1:HP
TestParameter, Channel.IName, I1, I4
TestParameter, Channel.VName, V1, V4
TestParameter, Channel.Mode, V, COMMON
TestParameter, Channel.Func, VAR1, CONST
TestParameter, Channel.Index, 
TestParameter, Channel.Time, 
TestParameter, Measurement.Port.Unit, SMU2:HP, SMU1:HP
TestParameter, Measurement.Port.SeriesResistor, NONE, NONE
TestParameter, Measurement.Port.Filter, ON, ON
TestParameter, Measurement.Port.OutputVoltageComparison, 0, 0
TestParameter, Measurement.Primary.Locus, Single
TestParameter, Measurement.Primary.Scale, LINEAR
TestParameter, Measurement.Primary.Start, -1
TestParameter, Measurement.Primary.Stop, 1
TestParameter, Measurement.Primary.Step, 0.02
TestParameter, Measurement.Primary.Compliance, 0.01
TestParameter, Measurement.Primary.PowerCompliance, 0
TestParameter, Measurement.Aborting.Condition, CONTINUE AT ANY
TestParameter, Measurement.PostOutput.Value, START
TestParameter, Measurement.PostOutput.Retention, OFF
TestParameter, Measurement.Bias.Source, -1, 0
TestParameter, Measurement.Bias.Compliance, 0.01, 1
TestParameter, Measurement.Monitor.Unit, SMU2:HP, SMU1:HP
TestParameter, Measurement.Monitor.Adc, HR ADC, HR ADC
TestParameter, Measurement.Monitor.Measurement, Compliance Side, Compliance Side
TestParameter, Measurement.Monitor.RangingMode, AUTO, AUTO
TestParameter, Measurement.Monitor.RangeBoundary, , 
TestParameter, Measurement.Monitor.RangeRating, BY FULL RANGE, BY FULL RANGE
TestParameter, Measurement.Monitor.RangeRatingCoeff, 50, 50
TestParameter, Measurement.Timing.Hold, 0
TestParameter, Measurement.Timing.Delay, 0.001
TestParameter, Measurement.Adc.HighSpeed.Mode, AUTO
TestParameter, Measurement.Adc.HighSpeed.Coeff, 1
TestParameter, Measurement.Adc.HighResolution.AutoZero, OFF
TestParameter, Measurement.Adc.HighResolution.Mode, PLC
TestParameter, Measurement.Adc.HighResolution.Coeff, 1
TestParameter, Measurement.WaitTime.Source.Coeff, 1
TestParameter, Measurement.WaitTime.Source.Offset, 0
TestParameter, Measurement.WaitTime.Monitor.Coeff, 1
TestParameter, Measurement.WaitTime.Monitor.Offset, 0
TestParameter, Function.User.Name, Ohmic
TestParameter, Function.User.Unit, ohm
TestParameter, Function.User.Definition, avg(V1/I1)
TestParameter, Output.Graph.Enabled, true
TestParameter, Output.Graph.XAxis.Data, V1
TestParameter, Output.Graph.XAxis.Scale, Linear
TestParameter, Output.Graph.XAxis.Left, -5
TestParameter, Output.Graph.XAxis.Right, 5
TestParameter, Output.Graph.YAxis.Data, I1
TestParameter, Output.Graph.YAxis.Scale, Linear
TestParameter, Output.Graph.YAxis.Bottom, -0.001
TestParameter, Output.Graph.YAxis.Top, 0.001
TestParameter, Output.Graph.YAxis.Group, 
TestParameter, Output.Scalar.Data, Ohmic
TestParameter, AutoAnalysis.Interpolation, false
TestParameter, AutoAnalysis.Line1.Enabled, false
TestParameter, AutoAnalysis.Line1.Type, 1
TestParameter, AutoAnalysis.Line1.Fix, True
TestParameter, AutoAnalysis.Line1.YAxis, 0
TestParameter, AutoAnalysis.Line1.Point1.Type, 0
TestParameter, AutoAnalysis.Line1.Point1.XY.X, 
TestParameter, AutoAnalysis.Line1.Point1.XY.Y, 
TestParameter, AutoAnalysis.Line1.Point1.Data.Var, 
TestParameter, AutoAnalysis.Line1.Point1.Data.Condition, 
TestParameter, AutoAnalysis.Line1.Point1.Data.Start, false
TestParameter, AutoAnalysis.Line1.Point1.Data.StartVar, 
TestParameter, AutoAnalysis.Line1.Point1.Data.StartCondition, 
TestParameter, AutoAnalysis.Line1.Point2.Type, 0
TestParameter, AutoAnalysis.Line1.Point2.XY.X, 
TestParameter, AutoAnalysis.Line1.Point2.XY.Y, 
TestParameter, AutoAnalysis.Line1.Point2.Data.Var, 
TestParameter, AutoAnalysis.Line1.Point2.Data.Condition, 
TestParameter, AutoAnalysis.Line1.Point2.Data.Start, false
TestParameter, AutoAnalysis.Line1.Point2.Data.StartVar, 
TestParameter, AutoAnalysis.Line1.Point2.Data.StartCondition, 
TestParameter, AutoAnalysis.Line1.GradientExpr, 0
TestParameter, AutoAnalysis.Line2.Enabled, false
TestParameter, AutoAnalysis.Line2.Type, 1
TestParameter, AutoAnalysis.Line2.Fix, True
TestParameter, AutoAnalysis.Line2.YAxis, 0
TestParameter, AutoAnalysis.Line2.Point1.Type, 0
TestParameter, AutoAnalysis.Line2.Point1.XY.X, 
TestParameter, AutoAnalysis.Line2.Point1.XY.Y, 
TestParameter, AutoAnalysis.Line2.Point1.Data.Var, 
TestParameter, AutoAnalysis.Line2.Point1.Data.Condition, 
TestParameter, AutoAnalysis.Line2.Point1.Data.Start, false
TestParameter, AutoAnalysis.Line2.Point1.Data.StartVar, 
TestParameter, AutoAnalysis.Line2.Point1.Data.StartCondition, 
TestParameter, AutoAnalysis.Line2.Point2.Type, 0
TestParameter, AutoAnalysis.Line2.Point2.XY.X, 
TestParameter, AutoAnalysis.Line2.Point2.XY.Y, 
TestParameter, AutoAnalysis.Line2.Point2.Data.Var, 
TestParameter, AutoAnalysis.Line2.Point2.Data.Condition, 
TestParameter, AutoAnalysis.Line2.Point2.Data.Start, false
TestParameter, AutoAnalysis.Line2.Point2.Data.StartVar, 
TestParameter, AutoAnalysis.Line2.Point2.Data.StartCondition, 
TestParameter, AutoAnalysis.Line2.GradientExpr, 0
TestParameter, AutoAnalysis.Marker.Enabled, false
TestParameter, AutoAnalysis.Marker.Data.Var, 
TestParameter, AutoAnalysis.Marker.Data.Condition, 
TestParameter, AutoAnalysis.Marker.Data.Start, false
TestParameter, AutoAnalysis.Marker.Data.StartVar, 
TestParameter, AutoAnalysis.Marker.Data.StartCondition, 
MetaData, TestRecord.EntryPoint, true
MetaData, TestRecord.RecordTime, 01/18/2020 21:35:08
MetaData, TestRecord.TestTarget, 
MetaData, TestRecord.IterationIndex, 18
MetaData, TestRecord.Preservation, true
MetaData, TestRecord.Flag, 
MetaData, TestRecord.Remarks, 
MetaData, TestRecord.LinkKey, 8e2fb83a-e203-4ced-9bf7-a32c724daf73
Dimension1, 101, 101, 101
Dimension2, 1, 1, 1
DataName, V1, I1, Ohmic
DataValue, -1, -8.263E-11, 13870087444.144629
DataValue, -0.98000000000000009, -7.248E-11, 
DataValue, -0.96000000000000008, -6.981E-11, 
DataValue, -0.94000000000000006, -6.17E-11, 
DataValue, -0.92, -6.3E-11, 
DataValue, -0.9, -5.41E-11, 
DataValue, -0.88, -5.693E-11, 
DataValue, -0.86, -4.911E-11, 
DataValue, -0.84000000000000008, -5.053E-11, 
DataValue, -0.82000000000000006, -4.499E-11, 
DataValue, -0.8, -4.272E-11, 
DataValue, -0.78, -4.048E-11, 
DataValue, -0.76, -3.912E-11, 
DataValue, -0.74, -3.717E-11, 
DataValue, -0.72000000000000008, -3.518E-11, 
DataValue, -0.70000000000000007, -3.315E-11, 
DataValue, -0.68, -3.177E-11, 
DataValue, -0.66, -3.031E-11, 
DataValue, -0.64, -2.893E-11, 
DataValue, -0.62, -2.751E-11, 
DataValue, -0.6, -2.539E-11, 
DataValue, -0.58000000000000007, -2.398E-11, 
DataValue, -0.56, -2.222E-11, 
DataValue, -0.54, -2.32E-11, 
DataValue, -0.52, -1.938E-11, 
DataValue, -0.5, -2.298E-11, 
DataValue, -0.48000000000000004, -1.643E-11, 
DataValue, -0.46, -2.145E-11, 
DataValue, -0.44, -1.478E-11, 
DataValue, -0.42000000000000004, -1.914E-11, 
DataValue, -0.4, -1.32E-11, 
DataValue, -0.38, -1.578E-11, 
DataValue, -0.36000000000000004, -1.143E-11, 
DataValue, -0.34, -1.086E-11, 
DataValue, -0.32, -9.39E-12, 
DataValue, -0.3, -8.57E-12, 
DataValue, -0.28, -7.57E-12, 
DataValue, -0.26, -6.06E-12, 
DataValue, -0.24000000000000002, -7.19E-12, 
DataValue, -0.22, -3.88E-12, 
DataValue, -0.2, -6.37E-12, 
DataValue, -0.18000000000000002, -4.3E-13, 
DataValue, -0.16, -3.87E-12, 
DataValue, -0.14, 5.08E-12, 
DataValue, -0.12000000000000001, 5.26E-12, 
DataValue, -0.1, 2.194E-11, 
DataValue, -0.08, 3.711E-11, 
DataValue, -0.060000000000000005, 7.573E-11, 
DataValue, -0.04, 1.265E-10, 
DataValue, -0.02, 2.0953E-10, 
DataValue, 0, 3.0781E-10, 
DataValue, 0.02, 4.3428E-10, 
DataValue, 0.04, 5.6502E-10, 
DataValue, 0.060000000000000005, 7.0837E-10, 
DataValue, 0.08, 8.4831E-10, 
DataValue, 0.1, 9.8922E-10, 
DataValue, 0.12000000000000001, 1.12637E-09, 
DataValue, 0.14, 1.26139E-09, 
DataValue, 0.16, 1.3927E-09, 
DataValue, 0.18000000000000002, 1.52614E-09, 
DataValue, 0.2, 1.66069E-09, 
DataValue, 0.22, 1.80176E-09, 
DataValue, 0.24000000000000002, 1.95295E-09, 
DataValue, 0.26, 2.11884E-09, 
DataValue, 0.28, 2.30793E-09, 
DataValue, 0.3, 2.52074E-09, 
DataValue, 0.32, 2.76665E-09, 
DataValue, 0.34, 3.04182E-09, 
DataValue, 0.36000000000000004, 3.35579E-09, 
DataValue, 0.38, 3.69796E-09, 
DataValue, 0.4, 4.07492E-09, 
DataValue, 0.42000000000000004, 4.47964E-09, 
DataValue, 0.44, 4.91181E-09, 
DataValue, 0.46, 5.36861E-09, 
DataValue, 0.48000000000000004, 5.85214E-09, 
DataValue, 0.5, 6.35566E-09, 
DataValue, 0.52, 6.8835399999999996E-09, 
DataValue, 0.54, 7.42709E-09, 
DataValue, 0.56, 7.98714E-09, 
DataValue, 0.58000000000000007, 8.56611E-09, 
DataValue, 0.6, 9.15447E-09, 
DataValue, 0.62, 9.77341E-09, 
DataValue, 0.64, 1.03955E-08, 
DataValue, 0.66, 1.10407E-08, 
DataValue, 0.68, 1.1722399999999999E-08, 
DataValue, 0.70000000000000007, 1.24143E-08, 
DataValue, 0.72000000000000008, 1.3129099999999998E-08, 
DataValue, 0.74, 1.3860399999999998E-08, 
DataValue, 0.76, 1.4598099999999998E-08, 
DataValue, 0.78, 1.53548E-08, 
DataValue, 0.8, 1.6118399999999998E-08, 
DataValue, 0.82000000000000006, 1.6886499999999997E-08, 
DataValue, 0.84000000000000008, 1.76757E-08, 
DataValue, 0.86, 1.84793E-08, 
DataValue, 0.88, 1.9272E-08, 
DataValue, 0.9, 2.0092599999999998E-08, 
DataValue, 0.92, 2.0910699999999998E-08, 
DataValue, 0.94000000000000006, 2.17826E-08, 
DataValue, 0.96000000000000008, 2.2637199999999997E-08, 
DataValue, 0.98000000000000009, 2.35087E-08, 
DataValue, 1, 2.4382999999999997E-08, 