
SetupTitle, WW
PrimitiveTest, I/V Sweep
TestParameter, Context.MainFrame, B1500A
TestParameter, Channel.UnitType, SMU, SMU
TestParameter, Channel.Unit, SMU2:HP, SMU1:HP
TestParameter, Channel.IName, I1, I4
TestParameter, Channel.VName, V1, V4
TestParameter, Channel.Mode, V, COMMON
TestParameter, Channel.Func, VAR1, CONST
TestParameter, Channel.Index, 
TestParameter, Channel.Time, 
TestParameter, Measurement.Port.Unit, SMU2:HP, SMU1:HP
TestParameter, Measurement.Port.SeriesResistor, NONE, NONE
TestParameter, Measurement.Port.Filter, ON, ON
TestParameter, Measurement.Port.OutputVoltageComparison, 0, 0
TestParameter, Measurement.Primary.Locus, Single
TestParameter, Measurement.Primary.Scale, LINEAR
TestParameter, Measurement.Primary.Start, -1
TestParameter, Measurement.Primary.Stop, 1
TestParameter, Measurement.Primary.Step, 0.02
TestParameter, Measurement.Primary.Compliance, 0.01
TestParameter, Measurement.Primary.PowerCompliance, 0
TestParameter, Measurement.Aborting.Condition, CONTINUE AT ANY
TestParameter, Measurement.PostOutput.Value, START
TestParameter, Measurement.PostOutput.Retention, OFF
TestParameter, Measurement.Bias.Source, -1, 0
TestParameter, Measurement.Bias.Compliance, 0.01, 1
TestParameter, Measurement.Monitor.Unit, SMU2:HP, SMU1:HP
TestParameter, Measurement.Monitor.Adc, HR ADC, HR ADC
TestParameter, Measurement.Monitor.Measurement, Compliance Side, Compliance Side
TestParameter, Measurement.Monitor.RangingMode, AUTO, AUTO
TestParameter, Measurement.Monitor.RangeBoundary, , 
TestParameter, Measurement.Monitor.RangeRating, BY FULL RANGE, BY FULL RANGE
TestParameter, Measurement.Monitor.RangeRatingCoeff, 50, 50
TestParameter, Measurement.Timing.Hold, 0
TestParameter, Measurement.Timing.Delay, 0.001
TestParameter, Measurement.Adc.HighSpeed.Mode, AUTO
TestParameter, Measurement.Adc.HighSpeed.Coeff, 1
TestParameter, Measurement.Adc.HighResolution.AutoZero, OFF
TestParameter, Measurement.Adc.HighResolution.Mode, PLC
TestParameter, Measurement.Adc.HighResolution.Coeff, 1
TestParameter, Measurement.WaitTime.Source.Coeff, 1
TestParameter, Measurement.WaitTime.Source.Offset, 0
TestParameter, Measurement.WaitTime.Monitor.Coeff, 1
TestParameter, Measurement.WaitTime.Monitor.Offset, 0
TestParameter, Function.User.Name, Ohmic
TestParameter, Function.User.Unit, ohm
TestParameter, Function.User.Definition, avg(V1/I1)
TestParameter, Output.Graph.Enabled, true
TestParameter, Output.Graph.XAxis.Data, V1
TestParameter, Output.Graph.XAxis.Scale, Linear
TestParameter, Output.Graph.XAxis.Left, -5
TestParameter, Output.Graph.XAxis.Right, 5
TestParameter, Output.Graph.YAxis.Data, I1
TestParameter, Output.Graph.YAxis.Scale, Linear
TestParameter, Output.Graph.YAxis.Bottom, -0.001
TestParameter, Output.Graph.YAxis.Top, 0.001
TestParameter, Output.Graph.YAxis.Group, 
TestParameter, Output.Scalar.Data, Ohmic
TestParameter, AutoAnalysis.Interpolation, false
TestParameter, AutoAnalysis.Line1.Enabled, false
TestParameter, AutoAnalysis.Line1.Type, 1
TestParameter, AutoAnalysis.Line1.Fix, True
TestParameter, AutoAnalysis.Line1.YAxis, 0
TestParameter, AutoAnalysis.Line1.Point1.Type, 0
TestParameter, AutoAnalysis.Line1.Point1.XY.X, 
TestParameter, AutoAnalysis.Line1.Point1.XY.Y, 
TestParameter, AutoAnalysis.Line1.Point1.Data.Var, 
TestParameter, AutoAnalysis.Line1.Point1.Data.Condition, 
TestParameter, AutoAnalysis.Line1.Point1.Data.Start, false
TestParameter, AutoAnalysis.Line1.Point1.Data.StartVar, 
TestParameter, AutoAnalysis.Line1.Point1.Data.StartCondition, 
TestParameter, AutoAnalysis.Line1.Point2.Type, 0
TestParameter, AutoAnalysis.Line1.Point2.XY.X, 
TestParameter, AutoAnalysis.Line1.Point2.XY.Y, 
TestParameter, AutoAnalysis.Line1.Point2.Data.Var, 
TestParameter, AutoAnalysis.Line1.Point2.Data.Condition, 
TestParameter, AutoAnalysis.Line1.Point2.Data.Start, false
TestParameter, AutoAnalysis.Line1.Point2.Data.StartVar, 
TestParameter, AutoAnalysis.Line1.Point2.Data.StartCondition, 
TestParameter, AutoAnalysis.Line1.GradientExpr, 0
TestParameter, AutoAnalysis.Line2.Enabled, false
TestParameter, AutoAnalysis.Line2.Type, 1
TestParameter, AutoAnalysis.Line2.Fix, True
TestParameter, AutoAnalysis.Line2.YAxis, 0
TestParameter, AutoAnalysis.Line2.Point1.Type, 0
TestParameter, AutoAnalysis.Line2.Point1.XY.X, 
TestParameter, AutoAnalysis.Line2.Point1.XY.Y, 
TestParameter, AutoAnalysis.Line2.Point1.Data.Var, 
TestParameter, AutoAnalysis.Line2.Point1.Data.Condition, 
TestParameter, AutoAnalysis.Line2.Point1.Data.Start, false
TestParameter, AutoAnalysis.Line2.Point1.Data.StartVar, 
TestParameter, AutoAnalysis.Line2.Point1.Data.StartCondition, 
TestParameter, AutoAnalysis.Line2.Point2.Type, 0
TestParameter, AutoAnalysis.Line2.Point2.XY.X, 
TestParameter, AutoAnalysis.Line2.Point2.XY.Y, 
TestParameter, AutoAnalysis.Line2.Point2.Data.Var, 
TestParameter, AutoAnalysis.Line2.Point2.Data.Condition, 
TestParameter, AutoAnalysis.Line2.Point2.Data.Start, false
TestParameter, AutoAnalysis.Line2.Point2.Data.StartVar, 
TestParameter, AutoAnalysis.Line2.Point2.Data.StartCondition, 
TestParameter, AutoAnalysis.Line2.GradientExpr, 0
TestParameter, AutoAnalysis.Marker.Enabled, false
TestParameter, AutoAnalysis.Marker.Data.Var, 
TestParameter, AutoAnalysis.Marker.Data.Condition, 
TestParameter, AutoAnalysis.Marker.Data.Start, false
TestParameter, AutoAnalysis.Marker.Data.StartVar, 
TestParameter, AutoAnalysis.Marker.Data.StartCondition, 
MetaData, TestRecord.EntryPoint, true
MetaData, TestRecord.RecordTime, 01/18/2020 21:33:49
MetaData, TestRecord.TestTarget, 
MetaData, TestRecord.IterationIndex, 15
MetaData, TestRecord.Preservation, true
MetaData, TestRecord.Flag, 
MetaData, TestRecord.Remarks, 
MetaData, TestRecord.LinkKey, 110af86e-7a72-48b8-a2ac-9dc0236d0b35
Dimension1, 101, 101, 101
Dimension2, 1, 1, 1
DataName, V1, I1, Ohmic
DataValue, -1, -8.067E-11, 47252242966.7036
DataValue, -0.98000000000000009, -6.783E-11, 
DataValue, -0.96000000000000008, -6.519E-11, 
DataValue, -0.94000000000000006, -5.653E-11, 
DataValue, -0.92, -5.727E-11, 
DataValue, -0.9, -5.007E-11, 
DataValue, -0.88, -5.053E-11, 
DataValue, -0.86, -4.582E-11, 
DataValue, -0.84000000000000008, -4.668E-11, 
DataValue, -0.82000000000000006, -4.224E-11, 
DataValue, -0.8, -4.066E-11, 
DataValue, -0.78, -3.791E-11, 
DataValue, -0.76, -3.689E-11, 
DataValue, -0.74, -3.487E-11, 
DataValue, -0.72000000000000008, -3.414E-11, 
DataValue, -0.70000000000000007, -2.933E-11, 
DataValue, -0.68, -3.086E-11, 
DataValue, -0.66, -2.857E-11, 
DataValue, -0.64, -2.838E-11, 
DataValue, -0.62, -2.625E-11, 
DataValue, -0.6, -2.486E-11, 
DataValue, -0.58000000000000007, -2.38E-11, 
DataValue, -0.56, -2.277E-11, 
DataValue, -0.54, -2.081E-11, 
DataValue, -0.52, -1.95E-11, 
DataValue, -0.5, -1.912E-11, 
DataValue, -0.48000000000000004, -1.587E-11, 
DataValue, -0.46, -1.751E-11, 
DataValue, -0.44, -1.281E-11, 
DataValue, -0.42000000000000004, -1.603E-11, 
DataValue, -0.4, -1.119E-11, 
DataValue, -0.38, -1.401E-11, 
DataValue, -0.36000000000000004, -1.006E-11, 
DataValue, -0.34, -1.134E-11, 
DataValue, -0.32, -9.57E-12, 
DataValue, -0.3, -8.37E-12, 
DataValue, -0.28, -8.5E-12, 
DataValue, -0.26, -5.32E-12, 
DataValue, -0.24000000000000002, -6.95E-12, 
DataValue, -0.22, -2.18E-12, 
DataValue, -0.2, -4.7399999999999996E-12, 
DataValue, -0.18000000000000002, -5E-14, 
DataValue, -0.16, -1.5E-12, 
DataValue, -0.14, 5.17E-12, 
DataValue, -0.12000000000000001, 8.78E-12, 
DataValue, -0.1, 2.07E-11, 
DataValue, -0.08, 4.148E-11, 
DataValue, -0.060000000000000005, 7.488E-11, 
DataValue, -0.04, 1.3128E-10, 
DataValue, -0.02, 2.0578E-10, 
DataValue, 0, 3.0762E-10, 
DataValue, 0.02, 4.2101E-10, 
DataValue, 0.04, 5.5221E-10, 
DataValue, 0.060000000000000005, 6.8117E-10, 
DataValue, 0.08, 8.1602E-10, 
DataValue, 0.1, 9.438E-10, 
DataValue, 0.12000000000000001, 1.07357E-09, 
DataValue, 0.14, 1.19581E-09, 
DataValue, 0.16, 1.3179E-09, 
DataValue, 0.18000000000000002, 1.44179E-09, 
DataValue, 0.2, 1.56837E-09, 
DataValue, 0.22, 1.70186E-09, 
DataValue, 0.24000000000000002, 1.84674E-09, 
DataValue, 0.26, 2.00871E-09, 
DataValue, 0.28, 2.19356E-09, 
DataValue, 0.3, 2.40432E-09, 
DataValue, 0.32, 2.64681E-09, 
DataValue, 0.34, 2.92046E-09, 
DataValue, 0.36000000000000004, 3.23114E-09, 
DataValue, 0.38, 3.5657E-09, 
DataValue, 0.4, 3.93609E-09, 
DataValue, 0.42000000000000004, 4.33285E-09, 
DataValue, 0.44, 4.77528E-09, 
DataValue, 0.46, 5.20569E-09, 
DataValue, 0.48000000000000004, 5.67713E-09, 
DataValue, 0.5, 6.18435E-09, 
DataValue, 0.52, 6.69713E-09, 
DataValue, 0.54, 7.22707E-09, 
DataValue, 0.56, 7.76392E-09, 
DataValue, 0.58000000000000007, 8.33667E-09, 
DataValue, 0.6, 8.92869E-09, 
DataValue, 0.62, 9.54535E-09, 
DataValue, 0.64, 1.015346E-08, 
DataValue, 0.66, 1.07655E-08, 
DataValue, 0.68, 1.1430799999999999E-08, 
DataValue, 0.70000000000000007, 1.2113899999999998E-08, 
DataValue, 0.72000000000000008, 1.2801799999999999E-08, 
DataValue, 0.74, 1.3518599999999998E-08, 
DataValue, 0.76, 1.4226399999999998E-08, 
DataValue, 0.78, 1.49532E-08, 
DataValue, 0.8, 1.5692399999999998E-08, 
DataValue, 0.82000000000000006, 1.6458799999999998E-08, 
DataValue, 0.84000000000000008, 1.7227699999999997E-08, 
DataValue, 0.86, 1.8014599999999998E-08, 
DataValue, 0.88, 1.8794999999999997E-08, 
DataValue, 0.9, 1.95829E-08, 
DataValue, 0.92, 2.0387699999999997E-08, 
DataValue, 0.94000000000000006, 2.1198199999999997E-08, 
DataValue, 0.96000000000000008, 2.2045399999999998E-08, 
DataValue, 0.98000000000000009, 2.2861099999999997E-08, 
DataValue, 1, 2.37023E-08, 