
SetupTitle, WW
PrimitiveTest, I/V Sweep
TestParameter, Context.MainFrame, B1500A
TestParameter, Channel.UnitType, SMU, SMU
TestParameter, Channel.Unit, SMU2:HP, SMU1:HP
TestParameter, Channel.IName, I1, I4
TestParameter, Channel.VName, V1, V4
TestParameter, Channel.Mode, V, COMMON
TestParameter, Channel.Func, VAR1, CONST
TestParameter, Channel.Index, 
TestParameter, Channel.Time, 
TestParameter, Measurement.Port.Unit, SMU2:HP, SMU1:HP
TestParameter, Measurement.Port.SeriesResistor, NONE, NONE
TestParameter, Measurement.Port.Filter, ON, ON
TestParameter, Measurement.Port.OutputVoltageComparison, 0, 0
TestParameter, Measurement.Primary.Locus, Single
TestParameter, Measurement.Primary.Scale, LINEAR
TestParameter, Measurement.Primary.Start, -1
TestParameter, Measurement.Primary.Stop, 1
TestParameter, Measurement.Primary.Step, 0.02
TestParameter, Measurement.Primary.Compliance, 0.01
TestParameter, Measurement.Primary.PowerCompliance, 0
TestParameter, Measurement.Aborting.Condition, CONTINUE AT ANY
TestParameter, Measurement.PostOutput.Value, START
TestParameter, Measurement.PostOutput.Retention, OFF
TestParameter, Measurement.Bias.Source, -1, 0
TestParameter, Measurement.Bias.Compliance, 0.01, 1
TestParameter, Measurement.Monitor.Unit, SMU2:HP, SMU1:HP
TestParameter, Measurement.Monitor.Adc, HR ADC, HR ADC
TestParameter, Measurement.Monitor.Measurement, Compliance Side, Compliance Side
TestParameter, Measurement.Monitor.RangingMode, AUTO, AUTO
TestParameter, Measurement.Monitor.RangeBoundary, , 
TestParameter, Measurement.Monitor.RangeRating, BY FULL RANGE, BY FULL RANGE
TestParameter, Measurement.Monitor.RangeRatingCoeff, 50, 50
TestParameter, Measurement.Timing.Hold, 0
TestParameter, Measurement.Timing.Delay, 0.001
TestParameter, Measurement.Adc.HighSpeed.Mode, AUTO
TestParameter, Measurement.Adc.HighSpeed.Coeff, 1
TestParameter, Measurement.Adc.HighResolution.AutoZero, OFF
TestParameter, Measurement.Adc.HighResolution.Mode, PLC
TestParameter, Measurement.Adc.HighResolution.Coeff, 1
TestParameter, Measurement.WaitTime.Source.Coeff, 1
TestParameter, Measurement.WaitTime.Source.Offset, 0
TestParameter, Measurement.WaitTime.Monitor.Coeff, 1
TestParameter, Measurement.WaitTime.Monitor.Offset, 0
TestParameter, Function.User.Name, Ohmic
TestParameter, Function.User.Unit, ohm
TestParameter, Function.User.Definition, avg(V1/I1)
TestParameter, Output.Graph.Enabled, true
TestParameter, Output.Graph.XAxis.Data, V1
TestParameter, Output.Graph.XAxis.Scale, Linear
TestParameter, Output.Graph.XAxis.Left, -5
TestParameter, Output.Graph.XAxis.Right, 5
TestParameter, Output.Graph.YAxis.Data, I1
TestParameter, Output.Graph.YAxis.Scale, Linear
TestParameter, Output.Graph.YAxis.Bottom, -0.001
TestParameter, Output.Graph.YAxis.Top, 0.001
TestParameter, Output.Graph.YAxis.Group, 
TestParameter, Output.Scalar.Data, Ohmic
TestParameter, AutoAnalysis.Interpolation, false
TestParameter, AutoAnalysis.Line1.Enabled, false
TestParameter, AutoAnalysis.Line1.Type, 1
TestParameter, AutoAnalysis.Line1.Fix, True
TestParameter, AutoAnalysis.Line1.YAxis, 0
TestParameter, AutoAnalysis.Line1.Point1.Type, 0
TestParameter, AutoAnalysis.Line1.Point1.XY.X, 
TestParameter, AutoAnalysis.Line1.Point1.XY.Y, 
TestParameter, AutoAnalysis.Line1.Point1.Data.Var, 
TestParameter, AutoAnalysis.Line1.Point1.Data.Condition, 
TestParameter, AutoAnalysis.Line1.Point1.Data.Start, false
TestParameter, AutoAnalysis.Line1.Point1.Data.StartVar, 
TestParameter, AutoAnalysis.Line1.Point1.Data.StartCondition, 
TestParameter, AutoAnalysis.Line1.Point2.Type, 0
TestParameter, AutoAnalysis.Line1.Point2.XY.X, 
TestParameter, AutoAnalysis.Line1.Point2.XY.Y, 
TestParameter, AutoAnalysis.Line1.Point2.Data.Var, 
TestParameter, AutoAnalysis.Line1.Point2.Data.Condition, 
TestParameter, AutoAnalysis.Line1.Point2.Data.Start, false
TestParameter, AutoAnalysis.Line1.Point2.Data.StartVar, 
TestParameter, AutoAnalysis.Line1.Point2.Data.StartCondition, 
TestParameter, AutoAnalysis.Line1.GradientExpr, 0
TestParameter, AutoAnalysis.Line2.Enabled, false
TestParameter, AutoAnalysis.Line2.Type, 1
TestParameter, AutoAnalysis.Line2.Fix, True
TestParameter, AutoAnalysis.Line2.YAxis, 0
TestParameter, AutoAnalysis.Line2.Point1.Type, 0
TestParameter, AutoAnalysis.Line2.Point1.XY.X, 
TestParameter, AutoAnalysis.Line2.Point1.XY.Y, 
TestParameter, AutoAnalysis.Line2.Point1.Data.Var, 
TestParameter, AutoAnalysis.Line2.Point1.Data.Condition, 
TestParameter, AutoAnalysis.Line2.Point1.Data.Start, false
TestParameter, AutoAnalysis.Line2.Point1.Data.StartVar, 
TestParameter, AutoAnalysis.Line2.Point1.Data.StartCondition, 
TestParameter, AutoAnalysis.Line2.Point2.Type, 0
TestParameter, AutoAnalysis.Line2.Point2.XY.X, 
TestParameter, AutoAnalysis.Line2.Point2.XY.Y, 
TestParameter, AutoAnalysis.Line2.Point2.Data.Var, 
TestParameter, AutoAnalysis.Line2.Point2.Data.Condition, 
TestParameter, AutoAnalysis.Line2.Point2.Data.Start, false
TestParameter, AutoAnalysis.Line2.Point2.Data.StartVar, 
TestParameter, AutoAnalysis.Line2.Point2.Data.StartCondition, 
TestParameter, AutoAnalysis.Line2.GradientExpr, 0
TestParameter, AutoAnalysis.Marker.Enabled, false
TestParameter, AutoAnalysis.Marker.Data.Var, 
TestParameter, AutoAnalysis.Marker.Data.Condition, 
TestParameter, AutoAnalysis.Marker.Data.Start, false
TestParameter, AutoAnalysis.Marker.Data.StartVar, 
TestParameter, AutoAnalysis.Marker.Data.StartCondition, 
MetaData, TestRecord.EntryPoint, true
MetaData, TestRecord.RecordTime, 01/18/2020 21:31:35
MetaData, TestRecord.TestTarget, 
MetaData, TestRecord.IterationIndex, 11
MetaData, TestRecord.Preservation, true
MetaData, TestRecord.Flag, 
MetaData, TestRecord.Remarks, 
MetaData, TestRecord.LinkKey, cc627250-f13a-4608-b952-d1daaee3ff09
Dimension1, 101, 101, 101
Dimension2, 1, 1, 1
DataName, V1, I1, Ohmic
DataValue, -1, -7.533E-11, 11734327595.200455
DataValue, -0.98000000000000009, -6.106E-11, 
DataValue, -0.96000000000000008, -6.018E-11, 
DataValue, -0.94000000000000006, -5.023E-11, 
DataValue, -0.92, -5.226E-11, 
DataValue, -0.9, -4.381E-11, 
DataValue, -0.88, -4.505E-11, 
DataValue, -0.86, -3.968E-11, 
DataValue, -0.84000000000000008, -3.663E-11, 
DataValue, -0.82000000000000006, -3.662E-11, 
DataValue, -0.8, -3.184E-11, 
DataValue, -0.78, -3.456E-11, 
DataValue, -0.76, -2.796E-11, 
DataValue, -0.74, -3.201E-11, 
DataValue, -0.72000000000000008, -2.469E-11, 
DataValue, -0.70000000000000007, -2.926E-11, 
DataValue, -0.68, -2.213E-11, 
DataValue, -0.66, -2.456E-11, 
DataValue, -0.64, -2E-11, 
DataValue, -0.62, -1.845E-11, 
DataValue, -0.6, -1.811E-11, 
DataValue, -0.58000000000000007, -1.606E-11, 
DataValue, -0.56, -1.551E-11, 
DataValue, -0.54, -1.378E-11, 
DataValue, -0.52, -1.488E-11, 
DataValue, -0.5, -1.081E-11, 
DataValue, -0.48000000000000004, -1.45E-11, 
DataValue, -0.46, -9.28E-12, 
DataValue, -0.44, -1.375E-11, 
DataValue, -0.42000000000000004, -7.05E-12, 
DataValue, -0.4, -1.202E-11, 
DataValue, -0.38, -5.52E-12, 
DataValue, -0.36000000000000004, -8.38E-12, 
DataValue, -0.34, -4.17E-12, 
DataValue, -0.32, -3.56E-12, 
DataValue, -0.3, -2.93E-12, 
DataValue, -0.28, -1.51E-12, 
DataValue, -0.26, -3.08E-12, 
DataValue, -0.24000000000000002, 6.7E-13, 
DataValue, -0.22, -3.16E-12, 
DataValue, -0.2, 2.61E-12, 
DataValue, -0.18000000000000002, -2.24E-12, 
DataValue, -0.16, 5.78E-12, 
DataValue, -0.14, 3.31E-12, 
DataValue, -0.12000000000000001, 1.465E-11, 
DataValue, -0.1, 2.181E-11, 
DataValue, -0.08, 4.414E-11, 
DataValue, -0.060000000000000005, 7.851E-11, 
DataValue, -0.04, 1.3153E-10, 
DataValue, -0.02, 2.0801E-10, 
DataValue, 0, 3.0656E-10, 
DataValue, 0.02, 4.2369E-10, 
DataValue, 0.04, 5.512E-10, 
DataValue, 0.060000000000000005, 6.8685E-10, 
DataValue, 0.08, 8.2191E-10, 
DataValue, 0.1, 9.5718E-10, 
DataValue, 0.12000000000000001, 1.0899E-09, 
DataValue, 0.14, 1.21713E-09, 
DataValue, 0.16, 1.34891E-09, 
DataValue, 0.18000000000000002, 1.47464E-09, 
DataValue, 0.2, 1.60607E-09, 
DataValue, 0.22, 1.73904E-09, 
DataValue, 0.24000000000000002, 1.88414E-09, 
DataValue, 0.26, 2.04056E-09, 
DataValue, 0.28, 2.21854E-09, 
DataValue, 0.3, 2.4173099999999998E-09, 
DataValue, 0.32, 2.65197E-09, 
DataValue, 0.34, 2.91336E-09, 
DataValue, 0.36000000000000004, 3.21094E-09, 
DataValue, 0.38, 3.53707E-09, 
DataValue, 0.4, 3.89531E-09, 
DataValue, 0.42000000000000004, 4.2822E-09, 
DataValue, 0.44, 4.69426E-09, 
DataValue, 0.46, 5.12502E-09, 
DataValue, 0.48000000000000004, 5.57983E-09, 
DataValue, 0.5, 6.05865E-09, 
DataValue, 0.52, 6.55061E-09, 
DataValue, 0.54, 7.06789E-09, 
DataValue, 0.56, 7.59535E-09, 
DataValue, 0.58000000000000007, 8.13768E-09, 
DataValue, 0.6, 8.69447E-09, 
DataValue, 0.62, 9.26964E-09, 
DataValue, 0.64, 9.84895E-09, 
DataValue, 0.66, 1.044945E-08, 
DataValue, 0.68, 1.1050399999999998E-08, 
DataValue, 0.70000000000000007, 1.16912E-08, 
DataValue, 0.72000000000000008, 1.23477E-08, 
DataValue, 0.74, 1.30064E-08, 
DataValue, 0.76, 1.3688899999999999E-08, 
DataValue, 0.78, 1.4376099999999998E-08, 
DataValue, 0.8, 1.5076399999999997E-08, 
DataValue, 0.82000000000000006, 1.57842E-08, 
DataValue, 0.84000000000000008, 1.65044E-08, 
DataValue, 0.86, 1.72327E-08, 
DataValue, 0.88, 1.79702E-08, 
DataValue, 0.9, 1.8728599999999997E-08, 
DataValue, 0.92, 1.948E-08, 
DataValue, 0.94000000000000006, 2.0255699999999997E-08, 
DataValue, 0.96000000000000008, 2.1001499999999998E-08, 
DataValue, 0.98000000000000009, 2.1784399999999997E-08, 
DataValue, 1, 2.25701E-08, 