
SetupTitle, WW
PrimitiveTest, I/V Sweep
TestParameter, Context.MainFrame, B1500A
TestParameter, Channel.UnitType, SMU, SMU
TestParameter, Channel.Unit, SMU2:HP, SMU1:HP
TestParameter, Channel.IName, I1, I4
TestParameter, Channel.VName, V1, V4
TestParameter, Channel.Mode, V, COMMON
TestParameter, Channel.Func, VAR1, CONST
TestParameter, Channel.Index, 
TestParameter, Channel.Time, 
TestParameter, Measurement.Port.Unit, SMU2:HP, SMU1:HP
TestParameter, Measurement.Port.SeriesResistor, NONE, NONE
TestParameter, Measurement.Port.Filter, ON, ON
TestParameter, Measurement.Port.OutputVoltageComparison, 0, 0
TestParameter, Measurement.Primary.Locus, Single
TestParameter, Measurement.Primary.Scale, LINEAR
TestParameter, Measurement.Primary.Start, -1
TestParameter, Measurement.Primary.Stop, 1
TestParameter, Measurement.Primary.Step, 0.02
TestParameter, Measurement.Primary.Compliance, 0.01
TestParameter, Measurement.Primary.PowerCompliance, 0
TestParameter, Measurement.Aborting.Condition, CONTINUE AT ANY
TestParameter, Measurement.PostOutput.Value, START
TestParameter, Measurement.PostOutput.Retention, OFF
TestParameter, Measurement.Bias.Source, -1, 0
TestParameter, Measurement.Bias.Compliance, 0.01, 1
TestParameter, Measurement.Monitor.Unit, SMU2:HP, SMU1:HP
TestParameter, Measurement.Monitor.Adc, HR ADC, HR ADC
TestParameter, Measurement.Monitor.Measurement, Compliance Side, Compliance Side
TestParameter, Measurement.Monitor.RangingMode, AUTO, AUTO
TestParameter, Measurement.Monitor.RangeBoundary, , 
TestParameter, Measurement.Monitor.RangeRating, BY FULL RANGE, BY FULL RANGE
TestParameter, Measurement.Monitor.RangeRatingCoeff, 50, 50
TestParameter, Measurement.Timing.Hold, 0
TestParameter, Measurement.Timing.Delay, 0.001
TestParameter, Measurement.Adc.HighSpeed.Mode, AUTO
TestParameter, Measurement.Adc.HighSpeed.Coeff, 1
TestParameter, Measurement.Adc.HighResolution.AutoZero, OFF
TestParameter, Measurement.Adc.HighResolution.Mode, PLC
TestParameter, Measurement.Adc.HighResolution.Coeff, 1
TestParameter, Measurement.WaitTime.Source.Coeff, 1
TestParameter, Measurement.WaitTime.Source.Offset, 0
TestParameter, Measurement.WaitTime.Monitor.Coeff, 1
TestParameter, Measurement.WaitTime.Monitor.Offset, 0
TestParameter, Function.User.Name, Ohmic
TestParameter, Function.User.Unit, ohm
TestParameter, Function.User.Definition, avg(V1/I1)
TestParameter, Output.Graph.Enabled, true
TestParameter, Output.Graph.XAxis.Data, V1
TestParameter, Output.Graph.XAxis.Scale, Linear
TestParameter, Output.Graph.XAxis.Left, -5
TestParameter, Output.Graph.XAxis.Right, 5
TestParameter, Output.Graph.YAxis.Data, I1
TestParameter, Output.Graph.YAxis.Scale, Linear
TestParameter, Output.Graph.YAxis.Bottom, -0.001
TestParameter, Output.Graph.YAxis.Top, 0.001
TestParameter, Output.Graph.YAxis.Group, 
TestParameter, Output.Scalar.Data, Ohmic
TestParameter, AutoAnalysis.Interpolation, false
TestParameter, AutoAnalysis.Line1.Enabled, false
TestParameter, AutoAnalysis.Line1.Type, 1
TestParameter, AutoAnalysis.Line1.Fix, True
TestParameter, AutoAnalysis.Line1.YAxis, 0
TestParameter, AutoAnalysis.Line1.Point1.Type, 0
TestParameter, AutoAnalysis.Line1.Point1.XY.X, 
TestParameter, AutoAnalysis.Line1.Point1.XY.Y, 
TestParameter, AutoAnalysis.Line1.Point1.Data.Var, 
TestParameter, AutoAnalysis.Line1.Point1.Data.Condition, 
TestParameter, AutoAnalysis.Line1.Point1.Data.Start, false
TestParameter, AutoAnalysis.Line1.Point1.Data.StartVar, 
TestParameter, AutoAnalysis.Line1.Point1.Data.StartCondition, 
TestParameter, AutoAnalysis.Line1.Point2.Type, 0
TestParameter, AutoAnalysis.Line1.Point2.XY.X, 
TestParameter, AutoAnalysis.Line1.Point2.XY.Y, 
TestParameter, AutoAnalysis.Line1.Point2.Data.Var, 
TestParameter, AutoAnalysis.Line1.Point2.Data.Condition, 
TestParameter, AutoAnalysis.Line1.Point2.Data.Start, false
TestParameter, AutoAnalysis.Line1.Point2.Data.StartVar, 
TestParameter, AutoAnalysis.Line1.Point2.Data.StartCondition, 
TestParameter, AutoAnalysis.Line1.GradientExpr, 0
TestParameter, AutoAnalysis.Line2.Enabled, false
TestParameter, AutoAnalysis.Line2.Type, 1
TestParameter, AutoAnalysis.Line2.Fix, True
TestParameter, AutoAnalysis.Line2.YAxis, 0
TestParameter, AutoAnalysis.Line2.Point1.Type, 0
TestParameter, AutoAnalysis.Line2.Point1.XY.X, 
TestParameter, AutoAnalysis.Line2.Point1.XY.Y, 
TestParameter, AutoAnalysis.Line2.Point1.Data.Var, 
TestParameter, AutoAnalysis.Line2.Point1.Data.Condition, 
TestParameter, AutoAnalysis.Line2.Point1.Data.Start, false
TestParameter, AutoAnalysis.Line2.Point1.Data.StartVar, 
TestParameter, AutoAnalysis.Line2.Point1.Data.StartCondition, 
TestParameter, AutoAnalysis.Line2.Point2.Type, 0
TestParameter, AutoAnalysis.Line2.Point2.XY.X, 
TestParameter, AutoAnalysis.Line2.Point2.XY.Y, 
TestParameter, AutoAnalysis.Line2.Point2.Data.Var, 
TestParameter, AutoAnalysis.Line2.Point2.Data.Condition, 
TestParameter, AutoAnalysis.Line2.Point2.Data.Start, false
TestParameter, AutoAnalysis.Line2.Point2.Data.StartVar, 
TestParameter, AutoAnalysis.Line2.Point2.Data.StartCondition, 
TestParameter, AutoAnalysis.Line2.GradientExpr, 0
TestParameter, AutoAnalysis.Marker.Enabled, false
TestParameter, AutoAnalysis.Marker.Data.Var, 
TestParameter, AutoAnalysis.Marker.Data.Condition, 
TestParameter, AutoAnalysis.Marker.Data.Start, false
TestParameter, AutoAnalysis.Marker.Data.StartVar, 
TestParameter, AutoAnalysis.Marker.Data.StartCondition, 
MetaData, TestRecord.EntryPoint, true
MetaData, TestRecord.RecordTime, 01/18/2020 19:26:08
MetaData, TestRecord.TestTarget, 
MetaData, TestRecord.IterationIndex, 69
MetaData, TestRecord.Preservation, true
MetaData, TestRecord.Flag, 
MetaData, TestRecord.Remarks, 
MetaData, TestRecord.LinkKey, 33991710-4bd6-4e8e-98dd-089ad8c0a0f8
Dimension1, 101, 101, 101
Dimension2, 1, 1, 1
DataName, V1, I1, Ohmic
DataValue, -1, -2.2691E-10, 2813703507.7660909
DataValue, -0.98000000000000009, -2.1715E-10, 
DataValue, -0.96000000000000008, -2.1106E-10, 
DataValue, -0.94000000000000006, -2.0457E-10, 
DataValue, -0.92, -1.9777E-10, 
DataValue, -0.9, -1.9256E-10, 
DataValue, -0.88, -1.8681E-10, 
DataValue, -0.86, -1.7233E-10, 
DataValue, -0.84000000000000008, -1.7147E-10, 
DataValue, -0.82000000000000006, -1.6183E-10, 
DataValue, -0.8, -1.5604E-10, 
DataValue, -0.78, -1.5146E-10, 
DataValue, -0.76, -1.4284E-10, 
DataValue, -0.74, -1.3935E-10, 
DataValue, -0.72000000000000008, -1.3572E-10, 
DataValue, -0.70000000000000007, -1.2873E-10, 
DataValue, -0.68, -1.2681E-10, 
DataValue, -0.66, -1.2158E-10, 
DataValue, -0.64, -1.1707E-10, 
DataValue, -0.62, -1.1003E-10, 
DataValue, -0.6, -1.0926E-10, 
DataValue, -0.58000000000000007, -1.0224E-10, 
DataValue, -0.56, -9.571E-11, 
DataValue, -0.54, -8.977E-11, 
DataValue, -0.52, -8.896E-11, 
DataValue, -0.5, -8.48E-11, 
DataValue, -0.48000000000000004, -8.5E-11, 
DataValue, -0.46, -7.81E-11, 
DataValue, -0.44, -7.395E-11, 
DataValue, -0.42000000000000004, -7.247E-11, 
DataValue, -0.4, -6.832E-11, 
DataValue, -0.38, -6.092E-11, 
DataValue, -0.36000000000000004, -6.435E-11, 
DataValue, -0.34, -5.942E-11, 
DataValue, -0.32, -5.762E-11, 
DataValue, -0.3, -5.307E-11, 
DataValue, -0.28, -4.78E-11, 
DataValue, -0.26, -4.683E-11, 
DataValue, -0.24000000000000002, -4.649E-11, 
DataValue, -0.22, -4.156E-11, 
DataValue, -0.2, -3.637E-11, 
DataValue, -0.18000000000000002, -3.434E-11, 
DataValue, -0.16, -2.758E-11, 
DataValue, -0.14, -5.49E-12, 
DataValue, -0.12000000000000001, -3.381E-11, 
DataValue, -0.1, -3.015E-11, 
DataValue, -0.08, -1.46E-11, 
DataValue, -0.060000000000000005, 1.38E-12, 
DataValue, -0.04, 1.977E-11, 
DataValue, -0.02, 4.229E-11, 
DataValue, 0, 7.294E-11, 
DataValue, 0.02, 1.055E-10, 
DataValue, 0.04, 1.3032E-10, 
DataValue, 0.060000000000000005, 1.5357E-10, 
DataValue, 0.08, 1.6894E-10, 
DataValue, 0.1, 1.8437E-10, 
DataValue, 0.12000000000000001, 1.9677E-10, 
DataValue, 0.14, 2.1033E-10, 
DataValue, 0.16, 2.18E-10, 
DataValue, 0.18000000000000002, 2.267E-10, 
DataValue, 0.2, 2.3644E-10, 
DataValue, 0.22, 2.4785E-10, 
DataValue, 0.24000000000000002, 2.5796E-10, 
DataValue, 0.26, 2.6875E-10, 
DataValue, 0.28, 2.7828E-10, 
DataValue, 0.3, 2.9152E-10, 
DataValue, 0.32, 2.9881E-10, 
DataValue, 0.34, 3.1152E-10, 
DataValue, 0.36000000000000004, 3.1409E-10, 
DataValue, 0.38, 3.2693E-10, 
DataValue, 0.4, 3.2874E-10, 
DataValue, 0.42000000000000004, 3.4344E-10, 
DataValue, 0.44, 3.4999E-10, 
DataValue, 0.46, 3.5797E-10, 
DataValue, 0.48000000000000004, 3.6869E-10, 
DataValue, 0.5, 3.8014E-10, 
DataValue, 0.52, 3.8604E-10, 
DataValue, 0.54, 3.9813E-10, 
DataValue, 0.56, 4.0289E-10, 
DataValue, 0.58000000000000007, 4.1235E-10, 
DataValue, 0.6, 4.2101E-10, 
DataValue, 0.62, 4.314E-10, 
DataValue, 0.64, 4.4287999999999997E-10, 
DataValue, 0.66, 4.4762E-10, 
DataValue, 0.68, 4.5654E-10, 
DataValue, 0.70000000000000007, 4.6661E-10, 
DataValue, 0.72000000000000008, 4.764E-10, 
DataValue, 0.74, 4.8451E-10, 
DataValue, 0.76, 4.9436E-10, 
DataValue, 0.78, 5.0348E-10, 
DataValue, 0.8, 5.0964E-10, 
DataValue, 0.82000000000000006, 5.2267E-10, 
DataValue, 0.84000000000000008, 5.2886E-10, 
DataValue, 0.86, 5.3912E-10, 
DataValue, 0.88, 5.4766E-10, 
DataValue, 0.9, 5.5605E-10, 
DataValue, 0.92, 5.6431E-10, 
DataValue, 0.94000000000000006, 5.7751E-10, 
DataValue, 0.96000000000000008, 5.7882E-10, 
DataValue, 0.98000000000000009, 5.8739E-10, 
DataValue, 1, 6.0139E-10, 