
SetupTitle, WW
PrimitiveTest, I/V Sweep
TestParameter, Context.MainFrame, B1500A
TestParameter, Channel.UnitType, SMU, SMU
TestParameter, Channel.Unit, SMU2:HP, SMU1:HP
TestParameter, Channel.IName, I1, I4
TestParameter, Channel.VName, V1, V4
TestParameter, Channel.Mode, V, COMMON
TestParameter, Channel.Func, VAR1, CONST
TestParameter, Channel.Index, 
TestParameter, Channel.Time, 
TestParameter, Measurement.Port.Unit, SMU2:HP, SMU1:HP
TestParameter, Measurement.Port.SeriesResistor, NONE, NONE
TestParameter, Measurement.Port.Filter, ON, ON
TestParameter, Measurement.Port.OutputVoltageComparison, 0, 0
TestParameter, Measurement.Primary.Locus, Single
TestParameter, Measurement.Primary.Scale, LINEAR
TestParameter, Measurement.Primary.Start, -1
TestParameter, Measurement.Primary.Stop, 1
TestParameter, Measurement.Primary.Step, 0.02
TestParameter, Measurement.Primary.Compliance, 0.01
TestParameter, Measurement.Primary.PowerCompliance, 0
TestParameter, Measurement.Aborting.Condition, CONTINUE AT ANY
TestParameter, Measurement.PostOutput.Value, START
TestParameter, Measurement.PostOutput.Retention, OFF
TestParameter, Measurement.Bias.Source, -1, 0
TestParameter, Measurement.Bias.Compliance, 0.01, 1
TestParameter, Measurement.Monitor.Unit, SMU2:HP, SMU1:HP
TestParameter, Measurement.Monitor.Adc, HR ADC, HR ADC
TestParameter, Measurement.Monitor.Measurement, Compliance Side, Compliance Side
TestParameter, Measurement.Monitor.RangingMode, AUTO, AUTO
TestParameter, Measurement.Monitor.RangeBoundary, , 
TestParameter, Measurement.Monitor.RangeRating, BY FULL RANGE, BY FULL RANGE
TestParameter, Measurement.Monitor.RangeRatingCoeff, 50, 50
TestParameter, Measurement.Timing.Hold, 0
TestParameter, Measurement.Timing.Delay, 0.001
TestParameter, Measurement.Adc.HighSpeed.Mode, AUTO
TestParameter, Measurement.Adc.HighSpeed.Coeff, 1
TestParameter, Measurement.Adc.HighResolution.AutoZero, OFF
TestParameter, Measurement.Adc.HighResolution.Mode, PLC
TestParameter, Measurement.Adc.HighResolution.Coeff, 1
TestParameter, Measurement.WaitTime.Source.Coeff, 1
TestParameter, Measurement.WaitTime.Source.Offset, 0
TestParameter, Measurement.WaitTime.Monitor.Coeff, 1
TestParameter, Measurement.WaitTime.Monitor.Offset, 0
TestParameter, Function.User.Name, Ohmic
TestParameter, Function.User.Unit, ohm
TestParameter, Function.User.Definition, avg(V1/I1)
TestParameter, Output.Graph.Enabled, true
TestParameter, Output.Graph.XAxis.Data, V1
TestParameter, Output.Graph.XAxis.Scale, Linear
TestParameter, Output.Graph.XAxis.Left, -5
TestParameter, Output.Graph.XAxis.Right, 5
TestParameter, Output.Graph.YAxis.Data, I1
TestParameter, Output.Graph.YAxis.Scale, Linear
TestParameter, Output.Graph.YAxis.Bottom, -0.001
TestParameter, Output.Graph.YAxis.Top, 0.001
TestParameter, Output.Graph.YAxis.Group, 
TestParameter, Output.Scalar.Data, Ohmic
TestParameter, AutoAnalysis.Interpolation, false
TestParameter, AutoAnalysis.Line1.Enabled, false
TestParameter, AutoAnalysis.Line1.Type, 1
TestParameter, AutoAnalysis.Line1.Fix, True
TestParameter, AutoAnalysis.Line1.YAxis, 0
TestParameter, AutoAnalysis.Line1.Point1.Type, 0
TestParameter, AutoAnalysis.Line1.Point1.XY.X, 
TestParameter, AutoAnalysis.Line1.Point1.XY.Y, 
TestParameter, AutoAnalysis.Line1.Point1.Data.Var, 
TestParameter, AutoAnalysis.Line1.Point1.Data.Condition, 
TestParameter, AutoAnalysis.Line1.Point1.Data.Start, false
TestParameter, AutoAnalysis.Line1.Point1.Data.StartVar, 
TestParameter, AutoAnalysis.Line1.Point1.Data.StartCondition, 
TestParameter, AutoAnalysis.Line1.Point2.Type, 0
TestParameter, AutoAnalysis.Line1.Point2.XY.X, 
TestParameter, AutoAnalysis.Line1.Point2.XY.Y, 
TestParameter, AutoAnalysis.Line1.Point2.Data.Var, 
TestParameter, AutoAnalysis.Line1.Point2.Data.Condition, 
TestParameter, AutoAnalysis.Line1.Point2.Data.Start, false
TestParameter, AutoAnalysis.Line1.Point2.Data.StartVar, 
TestParameter, AutoAnalysis.Line1.Point2.Data.StartCondition, 
TestParameter, AutoAnalysis.Line1.GradientExpr, 0
TestParameter, AutoAnalysis.Line2.Enabled, false
TestParameter, AutoAnalysis.Line2.Type, 1
TestParameter, AutoAnalysis.Line2.Fix, True
TestParameter, AutoAnalysis.Line2.YAxis, 0
TestParameter, AutoAnalysis.Line2.Point1.Type, 0
TestParameter, AutoAnalysis.Line2.Point1.XY.X, 
TestParameter, AutoAnalysis.Line2.Point1.XY.Y, 
TestParameter, AutoAnalysis.Line2.Point1.Data.Var, 
TestParameter, AutoAnalysis.Line2.Point1.Data.Condition, 
TestParameter, AutoAnalysis.Line2.Point1.Data.Start, false
TestParameter, AutoAnalysis.Line2.Point1.Data.StartVar, 
TestParameter, AutoAnalysis.Line2.Point1.Data.StartCondition, 
TestParameter, AutoAnalysis.Line2.Point2.Type, 0
TestParameter, AutoAnalysis.Line2.Point2.XY.X, 
TestParameter, AutoAnalysis.Line2.Point2.XY.Y, 
TestParameter, AutoAnalysis.Line2.Point2.Data.Var, 
TestParameter, AutoAnalysis.Line2.Point2.Data.Condition, 
TestParameter, AutoAnalysis.Line2.Point2.Data.Start, false
TestParameter, AutoAnalysis.Line2.Point2.Data.StartVar, 
TestParameter, AutoAnalysis.Line2.Point2.Data.StartCondition, 
TestParameter, AutoAnalysis.Line2.GradientExpr, 0
TestParameter, AutoAnalysis.Marker.Enabled, false
TestParameter, AutoAnalysis.Marker.Data.Var, 
TestParameter, AutoAnalysis.Marker.Data.Condition, 
TestParameter, AutoAnalysis.Marker.Data.Start, false
TestParameter, AutoAnalysis.Marker.Data.StartVar, 
TestParameter, AutoAnalysis.Marker.Data.StartCondition, 
MetaData, TestRecord.EntryPoint, true
MetaData, TestRecord.RecordTime, 01/18/2020 19:25:00
MetaData, TestRecord.TestTarget, 
MetaData, TestRecord.IterationIndex, 67
MetaData, TestRecord.Preservation, true
MetaData, TestRecord.Flag, 
MetaData, TestRecord.Remarks, 
MetaData, TestRecord.LinkKey, 9df4fb36-844f-4594-86c6-a8cabbd6f7bb
Dimension1, 101, 101, 101
Dimension2, 1, 1, 1
DataName, V1, I1, Ohmic
DataValue, -1, -2.1268E-10, 3670959580.5610533
DataValue, -0.98000000000000009, -2.0341E-10, 
DataValue, -0.96000000000000008, -1.9855E-10, 
DataValue, -0.94000000000000006, -1.8931E-10, 
DataValue, -0.92, -1.7922E-10, 
DataValue, -0.9, -1.6979E-10, 
DataValue, -0.88, -1.6772E-10, 
DataValue, -0.86, -1.5765E-10, 
DataValue, -0.84000000000000008, -1.5401E-10, 
DataValue, -0.82000000000000006, -1.4286E-10, 
DataValue, -0.8, -1.3993E-10, 
DataValue, -0.78, -1.3565E-10, 
DataValue, -0.76, -1.3171E-10, 
DataValue, -0.74, -1.2077E-10, 
DataValue, -0.72000000000000008, -1.1725E-10, 
DataValue, -0.70000000000000007, -1.0924E-10, 
DataValue, -0.68, -1.0784E-10, 
DataValue, -0.66, -1.019E-10, 
DataValue, -0.64, -9.859E-11, 
DataValue, -0.62, -9.057E-11, 
DataValue, -0.6, -8.671E-11, 
DataValue, -0.58000000000000007, -8.313E-11, 
DataValue, -0.56, -8.097E-11, 
DataValue, -0.54, -7.115E-11, 
DataValue, -0.52, -6.818E-11, 
DataValue, -0.5, -6.6409999999999993E-11, 
DataValue, -0.48000000000000004, -6.704E-11, 
DataValue, -0.46, -5.998E-11, 
DataValue, -0.44, -6.332E-11, 
DataValue, -0.42000000000000004, -5.724E-11, 
DataValue, -0.4, -5.447E-11, 
DataValue, -0.38, -5.149E-11, 
DataValue, -0.36000000000000004, -4.809E-11, 
DataValue, -0.34, -4.388E-11, 
DataValue, -0.32, -4.028E-11, 
DataValue, -0.3, -3.785E-11, 
DataValue, -0.28, -3.517E-11, 
DataValue, -0.26, -3.039E-11, 
DataValue, -0.24000000000000002, -3.204E-11, 
DataValue, -0.22, -2.694E-11, 
DataValue, -0.2, -2.485E-11, 
DataValue, -0.18000000000000002, -1.977E-11, 
DataValue, -0.16, -2.067E-11, 
DataValue, -0.14, -1.676E-11, 
DataValue, -0.12000000000000001, -1.536E-11, 
DataValue, -0.1, -5.62E-12, 
DataValue, -0.08, 6.45E-12, 
DataValue, -0.060000000000000005, 2.351E-11, 
DataValue, -0.04, 4.097E-11, 
DataValue, -0.02, 5.67E-11, 
DataValue, 0, 9.078E-11, 
DataValue, 0.02, 1.179E-10, 
DataValue, 0.04, 1.3121E-10, 
DataValue, 0.060000000000000005, 1.451E-10, 
DataValue, 0.08, 1.5353E-10, 
DataValue, 0.1, 1.6432E-10, 
DataValue, 0.12000000000000001, 1.7432E-10, 
DataValue, 0.14, 1.9132E-10, 
DataValue, 0.16, 1.9681E-10, 
DataValue, 0.18000000000000002, 2.0164E-10, 
DataValue, 0.2, 2.1496E-10, 
DataValue, 0.22, 2.2913E-10, 
DataValue, 0.24000000000000002, 2.3173E-10, 
DataValue, 0.26, 2.4456E-10, 
DataValue, 0.28, 2.5495E-10, 
DataValue, 0.3, 2.6686E-10, 
DataValue, 0.32, 2.8483E-10, 
DataValue, 0.34, 3.0162E-10, 
DataValue, 0.36000000000000004, 3.0378E-10, 
DataValue, 0.38, 2.9556E-10, 
DataValue, 0.4, 3.1944E-10, 
DataValue, 0.42000000000000004, 3.3825E-10, 
DataValue, 0.44, 3.416E-10, 
DataValue, 0.46, 3.527E-10, 
DataValue, 0.48000000000000004, 3.5803E-10, 
DataValue, 0.5, 3.701E-10, 
DataValue, 0.52, 3.7659E-10, 
DataValue, 0.54, 3.8533E-10, 
DataValue, 0.56, 3.8985E-10, 
DataValue, 0.58000000000000007, 4.0044E-10, 
DataValue, 0.6, 4.0957E-10, 
DataValue, 0.62, 4.1885E-10, 
DataValue, 0.64, 4.2775E-10, 
DataValue, 0.66, 4.4138E-10, 
DataValue, 0.68, 4.4207E-10, 
DataValue, 0.70000000000000007, 4.4848E-10, 
DataValue, 0.72000000000000008, 4.4603E-10, 
DataValue, 0.74, 4.5935E-10, 
DataValue, 0.76, 4.6943E-10, 
DataValue, 0.78, 4.8084E-10, 
DataValue, 0.8, 4.87E-10, 
DataValue, 0.82000000000000006, 4.9528E-10, 
DataValue, 0.84000000000000008, 4.9833E-10, 
DataValue, 0.86, 5.0745E-10, 
DataValue, 0.88, 5.1681E-10, 
DataValue, 0.9, 5.2846E-10, 
DataValue, 0.92, 5.3186E-10, 
DataValue, 0.94000000000000006, 5.4176E-10, 
DataValue, 0.96000000000000008, 5.5118E-10, 
DataValue, 0.98000000000000009, 5.5812E-10, 
DataValue, 1, 5.6552E-10, 