
SetupTitle, WW
PrimitiveTest, I/V Sweep
TestParameter, Context.MainFrame, B1500A
TestParameter, Channel.UnitType, SMU, SMU
TestParameter, Channel.Unit, SMU2:HP, SMU1:HP
TestParameter, Channel.IName, I1, I4
TestParameter, Channel.VName, V1, V4
TestParameter, Channel.Mode, V, COMMON
TestParameter, Channel.Func, VAR1, CONST
TestParameter, Channel.Index, 
TestParameter, Channel.Time, 
TestParameter, Measurement.Port.Unit, SMU2:HP, SMU1:HP
TestParameter, Measurement.Port.SeriesResistor, NONE, NONE
TestParameter, Measurement.Port.Filter, ON, ON
TestParameter, Measurement.Port.OutputVoltageComparison, 0, 0
TestParameter, Measurement.Primary.Locus, Single
TestParameter, Measurement.Primary.Scale, LINEAR
TestParameter, Measurement.Primary.Start, -1
TestParameter, Measurement.Primary.Stop, 1
TestParameter, Measurement.Primary.Step, 0.02
TestParameter, Measurement.Primary.Compliance, 0.01
TestParameter, Measurement.Primary.PowerCompliance, 0
TestParameter, Measurement.Aborting.Condition, CONTINUE AT ANY
TestParameter, Measurement.PostOutput.Value, START
TestParameter, Measurement.PostOutput.Retention, OFF
TestParameter, Measurement.Bias.Source, -1, 0
TestParameter, Measurement.Bias.Compliance, 0.01, 1
TestParameter, Measurement.Monitor.Unit, SMU2:HP, SMU1:HP
TestParameter, Measurement.Monitor.Adc, HR ADC, HR ADC
TestParameter, Measurement.Monitor.Measurement, Compliance Side, Compliance Side
TestParameter, Measurement.Monitor.RangingMode, AUTO, AUTO
TestParameter, Measurement.Monitor.RangeBoundary, , 
TestParameter, Measurement.Monitor.RangeRating, BY FULL RANGE, BY FULL RANGE
TestParameter, Measurement.Monitor.RangeRatingCoeff, 50, 50
TestParameter, Measurement.Timing.Hold, 0
TestParameter, Measurement.Timing.Delay, 0.001
TestParameter, Measurement.Adc.HighSpeed.Mode, AUTO
TestParameter, Measurement.Adc.HighSpeed.Coeff, 1
TestParameter, Measurement.Adc.HighResolution.AutoZero, OFF
TestParameter, Measurement.Adc.HighResolution.Mode, PLC
TestParameter, Measurement.Adc.HighResolution.Coeff, 1
TestParameter, Measurement.WaitTime.Source.Coeff, 1
TestParameter, Measurement.WaitTime.Source.Offset, 0
TestParameter, Measurement.WaitTime.Monitor.Coeff, 1
TestParameter, Measurement.WaitTime.Monitor.Offset, 0
TestParameter, Function.User.Name, Ohmic
TestParameter, Function.User.Unit, ohm
TestParameter, Function.User.Definition, avg(V1/I1)
TestParameter, Output.Graph.Enabled, true
TestParameter, Output.Graph.XAxis.Data, V1
TestParameter, Output.Graph.XAxis.Scale, Linear
TestParameter, Output.Graph.XAxis.Left, -5
TestParameter, Output.Graph.XAxis.Right, 5
TestParameter, Output.Graph.YAxis.Data, I1
TestParameter, Output.Graph.YAxis.Scale, Linear
TestParameter, Output.Graph.YAxis.Bottom, -0.001
TestParameter, Output.Graph.YAxis.Top, 0.001
TestParameter, Output.Graph.YAxis.Group, 
TestParameter, Output.Scalar.Data, Ohmic
TestParameter, AutoAnalysis.Interpolation, false
TestParameter, AutoAnalysis.Line1.Enabled, false
TestParameter, AutoAnalysis.Line1.Type, 1
TestParameter, AutoAnalysis.Line1.Fix, True
TestParameter, AutoAnalysis.Line1.YAxis, 0
TestParameter, AutoAnalysis.Line1.Point1.Type, 0
TestParameter, AutoAnalysis.Line1.Point1.XY.X, 
TestParameter, AutoAnalysis.Line1.Point1.XY.Y, 
TestParameter, AutoAnalysis.Line1.Point1.Data.Var, 
TestParameter, AutoAnalysis.Line1.Point1.Data.Condition, 
TestParameter, AutoAnalysis.Line1.Point1.Data.Start, false
TestParameter, AutoAnalysis.Line1.Point1.Data.StartVar, 
TestParameter, AutoAnalysis.Line1.Point1.Data.StartCondition, 
TestParameter, AutoAnalysis.Line1.Point2.Type, 0
TestParameter, AutoAnalysis.Line1.Point2.XY.X, 
TestParameter, AutoAnalysis.Line1.Point2.XY.Y, 
TestParameter, AutoAnalysis.Line1.Point2.Data.Var, 
TestParameter, AutoAnalysis.Line1.Point2.Data.Condition, 
TestParameter, AutoAnalysis.Line1.Point2.Data.Start, false
TestParameter, AutoAnalysis.Line1.Point2.Data.StartVar, 
TestParameter, AutoAnalysis.Line1.Point2.Data.StartCondition, 
TestParameter, AutoAnalysis.Line1.GradientExpr, 0
TestParameter, AutoAnalysis.Line2.Enabled, false
TestParameter, AutoAnalysis.Line2.Type, 1
TestParameter, AutoAnalysis.Line2.Fix, True
TestParameter, AutoAnalysis.Line2.YAxis, 0
TestParameter, AutoAnalysis.Line2.Point1.Type, 0
TestParameter, AutoAnalysis.Line2.Point1.XY.X, 
TestParameter, AutoAnalysis.Line2.Point1.XY.Y, 
TestParameter, AutoAnalysis.Line2.Point1.Data.Var, 
TestParameter, AutoAnalysis.Line2.Point1.Data.Condition, 
TestParameter, AutoAnalysis.Line2.Point1.Data.Start, false
TestParameter, AutoAnalysis.Line2.Point1.Data.StartVar, 
TestParameter, AutoAnalysis.Line2.Point1.Data.StartCondition, 
TestParameter, AutoAnalysis.Line2.Point2.Type, 0
TestParameter, AutoAnalysis.Line2.Point2.XY.X, 
TestParameter, AutoAnalysis.Line2.Point2.XY.Y, 
TestParameter, AutoAnalysis.Line2.Point2.Data.Var, 
TestParameter, AutoAnalysis.Line2.Point2.Data.Condition, 
TestParameter, AutoAnalysis.Line2.Point2.Data.Start, false
TestParameter, AutoAnalysis.Line2.Point2.Data.StartVar, 
TestParameter, AutoAnalysis.Line2.Point2.Data.StartCondition, 
TestParameter, AutoAnalysis.Line2.GradientExpr, 0
TestParameter, AutoAnalysis.Marker.Enabled, false
TestParameter, AutoAnalysis.Marker.Data.Var, 
TestParameter, AutoAnalysis.Marker.Data.Condition, 
TestParameter, AutoAnalysis.Marker.Data.Start, false
TestParameter, AutoAnalysis.Marker.Data.StartVar, 
TestParameter, AutoAnalysis.Marker.Data.StartCondition, 
MetaData, TestRecord.EntryPoint, true
MetaData, TestRecord.RecordTime, 01/18/2020 19:24:22
MetaData, TestRecord.TestTarget, 
MetaData, TestRecord.IterationIndex, 66
MetaData, TestRecord.Preservation, true
MetaData, TestRecord.Flag, 
MetaData, TestRecord.Remarks, 
MetaData, TestRecord.LinkKey, e278008f-fa12-4a29-86cd-dd3953ff43cd
Dimension1, 101, 101, 101
Dimension2, 1, 1, 1
DataName, V1, I1, Ohmic
DataValue, -1, -2.1184E-10, 3379211551.6073976
DataValue, -0.98000000000000009, -1.9391E-10, 
DataValue, -0.96000000000000008, -1.8656E-10, 
DataValue, -0.94000000000000006, -1.8152E-10, 
DataValue, -0.92, -1.7037E-10, 
DataValue, -0.9, -1.6237E-10, 
DataValue, -0.88, -1.5443E-10, 
DataValue, -0.86, -1.4796E-10, 
DataValue, -0.84000000000000008, -1.4235E-10, 
DataValue, -0.82000000000000006, -1.3664E-10, 
DataValue, -0.8, -1.3168E-10, 
DataValue, -0.78, -1.2712E-10, 
DataValue, -0.76, -1.1857E-10, 
DataValue, -0.74, -1.1829E-10, 
DataValue, -0.72000000000000008, -1.092E-10, 
DataValue, -0.70000000000000007, -1.0792E-10, 
DataValue, -0.68, -1.0294E-10, 
DataValue, -0.66, -9.834E-11, 
DataValue, -0.64, -9.311E-11, 
DataValue, -0.62, -8.885E-11, 
DataValue, -0.6, -8.424E-11, 
DataValue, -0.58000000000000007, -7.952E-11, 
DataValue, -0.56, -7.443E-11, 
DataValue, -0.54, -7.288E-11, 
DataValue, -0.52, -6.686E-11, 
DataValue, -0.5, -6.606E-11, 
DataValue, -0.48000000000000004, -5.966E-11, 
DataValue, -0.46, -5.869E-11, 
DataValue, -0.44, -5.509E-11, 
DataValue, -0.42000000000000004, -5.317E-11, 
DataValue, -0.4, -4.858E-11, 
DataValue, -0.38, -4.685E-11, 
DataValue, -0.36000000000000004, -4.229E-11, 
DataValue, -0.34, -4.221E-11, 
DataValue, -0.32, -3.457E-11, 
DataValue, -0.3, -3.614E-11, 
DataValue, -0.28, -2.85E-11, 
DataValue, -0.26, -3.038E-11, 
DataValue, -0.24000000000000002, -2.245E-11, 
DataValue, -0.22, -2.542E-11, 
DataValue, -0.2, -2.267E-11, 
DataValue, -0.18000000000000002, -2.176E-11, 
DataValue, -0.16, -1.81E-11, 
DataValue, -0.14, -1.614E-11, 
DataValue, -0.12000000000000001, -1.02E-11, 
DataValue, -0.1, -7.57E-12, 
DataValue, -0.08, 1.31E-12, 
DataValue, -0.060000000000000005, 9.39E-12, 
DataValue, -0.04, 2.585E-11, 
DataValue, -0.02, 4.504E-11, 
DataValue, 0, 7.12E-11, 
DataValue, 0.02, 9.433E-11, 
DataValue, 0.04, 1.1692E-10, 
DataValue, 0.060000000000000005, 1.3229E-10, 
DataValue, 0.08, 1.4891E-10, 
DataValue, 0.1, 1.6021E-10, 
DataValue, 0.12000000000000001, 1.7166E-10, 
DataValue, 0.14, 1.7724E-10, 
DataValue, 0.16, 1.918E-10, 
DataValue, 0.18000000000000002, 1.9923E-10, 
DataValue, 0.2, 2.0912E-10, 
DataValue, 0.22, 2.1506E-10, 
DataValue, 0.24000000000000002, 2.2991E-10, 
DataValue, 0.26, 2.3502E-10, 
DataValue, 0.28, 2.4551E-10, 
DataValue, 0.3, 2.5061E-10, 
DataValue, 0.32, 2.6237E-10, 
DataValue, 0.34, 2.7183E-10, 
DataValue, 0.36000000000000004, 2.7825E-10, 
DataValue, 0.38, 2.8529E-10, 
DataValue, 0.4, 2.9418E-10, 
DataValue, 0.42000000000000004, 3.0713E-10, 
DataValue, 0.44, 3.1807E-10, 
DataValue, 0.46, 3.2658E-10, 
DataValue, 0.48000000000000004, 3.3435E-10, 
DataValue, 0.5, 3.4174E-10, 
DataValue, 0.52, 3.542E-10, 
DataValue, 0.54, 3.6226E-10, 
DataValue, 0.56, 3.7036E-10, 
DataValue, 0.58000000000000007, 3.7794E-10, 
DataValue, 0.6, 3.9306E-10, 
DataValue, 0.62, 3.9983E-10, 
DataValue, 0.64, 4.0441E-10, 
DataValue, 0.66, 4.1607E-10, 
DataValue, 0.68, 4.2062E-10, 
DataValue, 0.70000000000000007, 4.2869E-10, 
DataValue, 0.72000000000000008, 4.3946E-10, 
DataValue, 0.74, 4.4762E-10, 
DataValue, 0.76, 4.567E-10, 
DataValue, 0.78, 4.6442E-10, 
DataValue, 0.8, 4.6934E-10, 
DataValue, 0.82000000000000006, 4.7712E-10, 
DataValue, 0.84000000000000008, 4.8313E-10, 
DataValue, 0.86, 4.9206E-10, 
DataValue, 0.88, 5.0257E-10, 
DataValue, 0.9, 5.1015E-10, 
DataValue, 0.92, 5.1932E-10, 
DataValue, 0.94000000000000006, 5.2592E-10, 
DataValue, 0.96000000000000008, 5.3527E-10, 
DataValue, 0.98000000000000009, 5.393E-10, 
DataValue, 1, 5.5038E-10, 