
SetupTitle, WW
PrimitiveTest, I/V Sweep
TestParameter, Context.MainFrame, B1500A
TestParameter, Channel.UnitType, SMU, SMU
TestParameter, Channel.Unit, SMU2:HP, SMU1:HP
TestParameter, Channel.IName, I1, I4
TestParameter, Channel.VName, V1, V4
TestParameter, Channel.Mode, V, COMMON
TestParameter, Channel.Func, VAR1, CONST
TestParameter, Channel.Index, 
TestParameter, Channel.Time, 
TestParameter, Measurement.Port.Unit, SMU2:HP, SMU1:HP
TestParameter, Measurement.Port.SeriesResistor, NONE, NONE
TestParameter, Measurement.Port.Filter, ON, ON
TestParameter, Measurement.Port.OutputVoltageComparison, 0, 0
TestParameter, Measurement.Primary.Locus, Single
TestParameter, Measurement.Primary.Scale, LINEAR
TestParameter, Measurement.Primary.Start, -1
TestParameter, Measurement.Primary.Stop, 1
TestParameter, Measurement.Primary.Step, 0.02
TestParameter, Measurement.Primary.Compliance, 0.01
TestParameter, Measurement.Primary.PowerCompliance, 0
TestParameter, Measurement.Aborting.Condition, CONTINUE AT ANY
TestParameter, Measurement.PostOutput.Value, START
TestParameter, Measurement.PostOutput.Retention, OFF
TestParameter, Measurement.Bias.Source, -1, 0
TestParameter, Measurement.Bias.Compliance, 0.01, 1
TestParameter, Measurement.Monitor.Unit, SMU2:HP, SMU1:HP
TestParameter, Measurement.Monitor.Adc, HR ADC, HR ADC
TestParameter, Measurement.Monitor.Measurement, Compliance Side, Compliance Side
TestParameter, Measurement.Monitor.RangingMode, AUTO, AUTO
TestParameter, Measurement.Monitor.RangeBoundary, , 
TestParameter, Measurement.Monitor.RangeRating, BY FULL RANGE, BY FULL RANGE
TestParameter, Measurement.Monitor.RangeRatingCoeff, 50, 50
TestParameter, Measurement.Timing.Hold, 0
TestParameter, Measurement.Timing.Delay, 0.001
TestParameter, Measurement.Adc.HighSpeed.Mode, AUTO
TestParameter, Measurement.Adc.HighSpeed.Coeff, 1
TestParameter, Measurement.Adc.HighResolution.AutoZero, OFF
TestParameter, Measurement.Adc.HighResolution.Mode, PLC
TestParameter, Measurement.Adc.HighResolution.Coeff, 1
TestParameter, Measurement.WaitTime.Source.Coeff, 1
TestParameter, Measurement.WaitTime.Source.Offset, 0
TestParameter, Measurement.WaitTime.Monitor.Coeff, 1
TestParameter, Measurement.WaitTime.Monitor.Offset, 0
TestParameter, Function.User.Name, Ohmic
TestParameter, Function.User.Unit, ohm
TestParameter, Function.User.Definition, avg(V1/I1)
TestParameter, Output.Graph.Enabled, true
TestParameter, Output.Graph.XAxis.Data, V1
TestParameter, Output.Graph.XAxis.Scale, Linear
TestParameter, Output.Graph.XAxis.Left, -5
TestParameter, Output.Graph.XAxis.Right, 5
TestParameter, Output.Graph.YAxis.Data, I1
TestParameter, Output.Graph.YAxis.Scale, Linear
TestParameter, Output.Graph.YAxis.Bottom, -0.001
TestParameter, Output.Graph.YAxis.Top, 0.001
TestParameter, Output.Graph.YAxis.Group, 
TestParameter, Output.Scalar.Data, Ohmic
TestParameter, AutoAnalysis.Interpolation, false
TestParameter, AutoAnalysis.Line1.Enabled, false
TestParameter, AutoAnalysis.Line1.Type, 1
TestParameter, AutoAnalysis.Line1.Fix, True
TestParameter, AutoAnalysis.Line1.YAxis, 0
TestParameter, AutoAnalysis.Line1.Point1.Type, 0
TestParameter, AutoAnalysis.Line1.Point1.XY.X, 
TestParameter, AutoAnalysis.Line1.Point1.XY.Y, 
TestParameter, AutoAnalysis.Line1.Point1.Data.Var, 
TestParameter, AutoAnalysis.Line1.Point1.Data.Condition, 
TestParameter, AutoAnalysis.Line1.Point1.Data.Start, false
TestParameter, AutoAnalysis.Line1.Point1.Data.StartVar, 
TestParameter, AutoAnalysis.Line1.Point1.Data.StartCondition, 
TestParameter, AutoAnalysis.Line1.Point2.Type, 0
TestParameter, AutoAnalysis.Line1.Point2.XY.X, 
TestParameter, AutoAnalysis.Line1.Point2.XY.Y, 
TestParameter, AutoAnalysis.Line1.Point2.Data.Var, 
TestParameter, AutoAnalysis.Line1.Point2.Data.Condition, 
TestParameter, AutoAnalysis.Line1.Point2.Data.Start, false
TestParameter, AutoAnalysis.Line1.Point2.Data.StartVar, 
TestParameter, AutoAnalysis.Line1.Point2.Data.StartCondition, 
TestParameter, AutoAnalysis.Line1.GradientExpr, 0
TestParameter, AutoAnalysis.Line2.Enabled, false
TestParameter, AutoAnalysis.Line2.Type, 1
TestParameter, AutoAnalysis.Line2.Fix, True
TestParameter, AutoAnalysis.Line2.YAxis, 0
TestParameter, AutoAnalysis.Line2.Point1.Type, 0
TestParameter, AutoAnalysis.Line2.Point1.XY.X, 
TestParameter, AutoAnalysis.Line2.Point1.XY.Y, 
TestParameter, AutoAnalysis.Line2.Point1.Data.Var, 
TestParameter, AutoAnalysis.Line2.Point1.Data.Condition, 
TestParameter, AutoAnalysis.Line2.Point1.Data.Start, false
TestParameter, AutoAnalysis.Line2.Point1.Data.StartVar, 
TestParameter, AutoAnalysis.Line2.Point1.Data.StartCondition, 
TestParameter, AutoAnalysis.Line2.Point2.Type, 0
TestParameter, AutoAnalysis.Line2.Point2.XY.X, 
TestParameter, AutoAnalysis.Line2.Point2.XY.Y, 
TestParameter, AutoAnalysis.Line2.Point2.Data.Var, 
TestParameter, AutoAnalysis.Line2.Point2.Data.Condition, 
TestParameter, AutoAnalysis.Line2.Point2.Data.Start, false
TestParameter, AutoAnalysis.Line2.Point2.Data.StartVar, 
TestParameter, AutoAnalysis.Line2.Point2.Data.StartCondition, 
TestParameter, AutoAnalysis.Line2.GradientExpr, 0
TestParameter, AutoAnalysis.Marker.Enabled, false
TestParameter, AutoAnalysis.Marker.Data.Var, 
TestParameter, AutoAnalysis.Marker.Data.Condition, 
TestParameter, AutoAnalysis.Marker.Data.Start, false
TestParameter, AutoAnalysis.Marker.Data.StartVar, 
TestParameter, AutoAnalysis.Marker.Data.StartCondition, 
MetaData, TestRecord.EntryPoint, true
MetaData, TestRecord.RecordTime, 01/18/2020 19:23:20
MetaData, TestRecord.TestTarget, 
MetaData, TestRecord.IterationIndex, 64
MetaData, TestRecord.Preservation, true
MetaData, TestRecord.Flag, 
MetaData, TestRecord.Remarks, 
MetaData, TestRecord.LinkKey, 22053fc2-e77c-4153-94f9-8d1b0f363c14
Dimension1, 101, 101, 101
Dimension2, 1, 1, 1
DataName, V1, I1, Ohmic
DataValue, -1, -1.8821E-10, 4269905096.3868175
DataValue, -0.98000000000000009, -1.7638E-10, 
DataValue, -0.96000000000000008, -1.6755E-10, 
DataValue, -0.94000000000000006, -1.5857E-10, 
DataValue, -0.92, -1.5252E-10, 
DataValue, -0.9, -1.4659E-10, 
DataValue, -0.88, -1.4168E-10, 
DataValue, -0.86, -1.3766E-10, 
DataValue, -0.84000000000000008, -1.3124E-10, 
DataValue, -0.82000000000000006, -1.2448E-10, 
DataValue, -0.8, -1.1809E-10, 
DataValue, -0.78, -1.1619E-10, 
DataValue, -0.76, -1.0777E-10, 
DataValue, -0.74, -1.0449E-10, 
DataValue, -0.72000000000000008, -9.993E-11, 
DataValue, -0.70000000000000007, -9.494E-11, 
DataValue, -0.68, -9.163E-11, 
DataValue, -0.66, -8.608E-11, 
DataValue, -0.64, -8.151E-11, 
DataValue, -0.62, -7.705E-11, 
DataValue, -0.6, -7.362E-11, 
DataValue, -0.58000000000000007, -7.091E-11, 
DataValue, -0.56, -6.514E-11, 
DataValue, -0.54, -5.993E-11, 
DataValue, -0.52, -6.052E-11, 
DataValue, -0.5, -5.909E-11, 
DataValue, -0.48000000000000004, -5.367E-11, 
DataValue, -0.46, -5.09E-11, 
DataValue, -0.44, -4.465E-11, 
DataValue, -0.42000000000000004, -4.651E-11, 
DataValue, -0.4, -4.255E-11, 
DataValue, -0.38, -3.88E-11, 
DataValue, -0.36000000000000004, -3.628E-11, 
DataValue, -0.34, -3.449E-11, 
DataValue, -0.32, -3.149E-11, 
DataValue, -0.3, -3.003E-11, 
DataValue, -0.28, -2.691E-11, 
DataValue, -0.26, -2.225E-11, 
DataValue, -0.24000000000000002, -2.081E-11, 
DataValue, -0.22, -1.996E-11, 
DataValue, -0.2, -1.577E-11, 
DataValue, -0.18000000000000002, -1.435E-11, 
DataValue, -0.16, -1.343E-11, 
DataValue, -0.14, -1.251E-11, 
DataValue, -0.12000000000000001, -8.48E-12, 
DataValue, -0.1, -6.69E-12, 
DataValue, -0.08, 2.2E-12, 
DataValue, -0.060000000000000005, 1.086E-11, 
DataValue, -0.04, 2.658E-11, 
DataValue, -0.02, 4.646E-11, 
DataValue, 0, 6.88E-11, 
DataValue, 0.02, 8.838E-11, 
DataValue, 0.04, 1.0973E-10, 
DataValue, 0.060000000000000005, 1.2449E-10, 
DataValue, 0.08, 1.3749E-10, 
DataValue, 0.1, 1.4867E-10, 
DataValue, 0.12000000000000001, 1.6138E-10, 
DataValue, 0.14, 1.6874E-10, 
DataValue, 0.16, 1.7944E-10, 
DataValue, 0.18000000000000002, 1.876E-10, 
DataValue, 0.2, 1.9364E-10, 
DataValue, 0.22, 2.0359E-10, 
DataValue, 0.24000000000000002, 2.0949E-10, 
DataValue, 0.26, 2.1561E-10, 
DataValue, 0.28, 2.2501E-10, 
DataValue, 0.3, 2.3399E-10, 
DataValue, 0.32, 2.415E-10, 
DataValue, 0.34, 2.4912E-10, 
DataValue, 0.36000000000000004, 2.605E-10, 
DataValue, 0.38, 2.6836E-10, 
DataValue, 0.4, 2.7764E-10, 
DataValue, 0.42000000000000004, 2.8528E-10, 
DataValue, 0.44, 2.9428E-10, 
DataValue, 0.46, 2.9969E-10, 
DataValue, 0.48000000000000004, 3.1043E-10, 
DataValue, 0.5, 3.1622E-10, 
DataValue, 0.52, 3.2538E-10, 
DataValue, 0.54, 3.3077E-10, 
DataValue, 0.56, 3.3935E-10, 
DataValue, 0.58000000000000007, 3.488E-10, 
DataValue, 0.6, 3.5771E-10, 
DataValue, 0.62, 3.6198E-10, 
DataValue, 0.64, 3.7084E-10, 
DataValue, 0.66, 3.8006E-10, 
DataValue, 0.68, 3.864E-10, 
DataValue, 0.70000000000000007, 3.9277E-10, 
DataValue, 0.72000000000000008, 4.0588E-10, 
DataValue, 0.74, 4.0924E-10, 
DataValue, 0.76, 4.1784E-10, 
DataValue, 0.78, 4.2166E-10, 
DataValue, 0.8, 4.3284E-10, 
DataValue, 0.82000000000000006, 4.3474E-10, 
DataValue, 0.84000000000000008, 4.4553E-10, 
DataValue, 0.86, 4.4918E-10, 
DataValue, 0.88, 4.6137E-10, 
DataValue, 0.9, 4.6684E-10, 
DataValue, 0.92, 4.7345E-10, 
DataValue, 0.94000000000000006, 4.7766E-10, 
DataValue, 0.96000000000000008, 4.8977E-10, 
DataValue, 0.98000000000000009, 4.9446999999999995E-10, 
DataValue, 1, 5.0476E-10, 