
SetupTitle, WW
PrimitiveTest, I/V Sweep
TestParameter, Context.MainFrame, B1500A
TestParameter, Channel.UnitType, SMU, SMU
TestParameter, Channel.Unit, SMU2:HP, SMU1:HP
TestParameter, Channel.IName, I1, I4
TestParameter, Channel.VName, V1, V4
TestParameter, Channel.Mode, V, COMMON
TestParameter, Channel.Func, VAR1, CONST
TestParameter, Channel.Index, 
TestParameter, Channel.Time, 
TestParameter, Measurement.Port.Unit, SMU2:HP, SMU1:HP
TestParameter, Measurement.Port.SeriesResistor, NONE, NONE
TestParameter, Measurement.Port.Filter, ON, ON
TestParameter, Measurement.Port.OutputVoltageComparison, 0, 0
TestParameter, Measurement.Primary.Locus, Single
TestParameter, Measurement.Primary.Scale, LINEAR
TestParameter, Measurement.Primary.Start, -1
TestParameter, Measurement.Primary.Stop, 1
TestParameter, Measurement.Primary.Step, 0.02
TestParameter, Measurement.Primary.Compliance, 0.01
TestParameter, Measurement.Primary.PowerCompliance, 0
TestParameter, Measurement.Aborting.Condition, CONTINUE AT ANY
TestParameter, Measurement.PostOutput.Value, START
TestParameter, Measurement.PostOutput.Retention, OFF
TestParameter, Measurement.Bias.Source, -1, 0
TestParameter, Measurement.Bias.Compliance, 0.01, 1
TestParameter, Measurement.Monitor.Unit, SMU2:HP, SMU1:HP
TestParameter, Measurement.Monitor.Adc, HR ADC, HR ADC
TestParameter, Measurement.Monitor.Measurement, Compliance Side, Compliance Side
TestParameter, Measurement.Monitor.RangingMode, AUTO, AUTO
TestParameter, Measurement.Monitor.RangeBoundary, , 
TestParameter, Measurement.Monitor.RangeRating, BY FULL RANGE, BY FULL RANGE
TestParameter, Measurement.Monitor.RangeRatingCoeff, 50, 50
TestParameter, Measurement.Timing.Hold, 0
TestParameter, Measurement.Timing.Delay, 0.001
TestParameter, Measurement.Adc.HighSpeed.Mode, AUTO
TestParameter, Measurement.Adc.HighSpeed.Coeff, 1
TestParameter, Measurement.Adc.HighResolution.AutoZero, OFF
TestParameter, Measurement.Adc.HighResolution.Mode, PLC
TestParameter, Measurement.Adc.HighResolution.Coeff, 1
TestParameter, Measurement.WaitTime.Source.Coeff, 1
TestParameter, Measurement.WaitTime.Source.Offset, 0
TestParameter, Measurement.WaitTime.Monitor.Coeff, 1
TestParameter, Measurement.WaitTime.Monitor.Offset, 0
TestParameter, Function.User.Name, Ohmic
TestParameter, Function.User.Unit, ohm
TestParameter, Function.User.Definition, avg(V1/I1)
TestParameter, Output.Graph.Enabled, true
TestParameter, Output.Graph.XAxis.Data, V1
TestParameter, Output.Graph.XAxis.Scale, Linear
TestParameter, Output.Graph.XAxis.Left, -5
TestParameter, Output.Graph.XAxis.Right, 5
TestParameter, Output.Graph.YAxis.Data, I1
TestParameter, Output.Graph.YAxis.Scale, Linear
TestParameter, Output.Graph.YAxis.Bottom, -0.001
TestParameter, Output.Graph.YAxis.Top, 0.001
TestParameter, Output.Graph.YAxis.Group, 
TestParameter, Output.Scalar.Data, Ohmic
TestParameter, AutoAnalysis.Interpolation, false
TestParameter, AutoAnalysis.Line1.Enabled, false
TestParameter, AutoAnalysis.Line1.Type, 1
TestParameter, AutoAnalysis.Line1.Fix, True
TestParameter, AutoAnalysis.Line1.YAxis, 0
TestParameter, AutoAnalysis.Line1.Point1.Type, 0
TestParameter, AutoAnalysis.Line1.Point1.XY.X, 
TestParameter, AutoAnalysis.Line1.Point1.XY.Y, 
TestParameter, AutoAnalysis.Line1.Point1.Data.Var, 
TestParameter, AutoAnalysis.Line1.Point1.Data.Condition, 
TestParameter, AutoAnalysis.Line1.Point1.Data.Start, false
TestParameter, AutoAnalysis.Line1.Point1.Data.StartVar, 
TestParameter, AutoAnalysis.Line1.Point1.Data.StartCondition, 
TestParameter, AutoAnalysis.Line1.Point2.Type, 0
TestParameter, AutoAnalysis.Line1.Point2.XY.X, 
TestParameter, AutoAnalysis.Line1.Point2.XY.Y, 
TestParameter, AutoAnalysis.Line1.Point2.Data.Var, 
TestParameter, AutoAnalysis.Line1.Point2.Data.Condition, 
TestParameter, AutoAnalysis.Line1.Point2.Data.Start, false
TestParameter, AutoAnalysis.Line1.Point2.Data.StartVar, 
TestParameter, AutoAnalysis.Line1.Point2.Data.StartCondition, 
TestParameter, AutoAnalysis.Line1.GradientExpr, 0
TestParameter, AutoAnalysis.Line2.Enabled, false
TestParameter, AutoAnalysis.Line2.Type, 1
TestParameter, AutoAnalysis.Line2.Fix, True
TestParameter, AutoAnalysis.Line2.YAxis, 0
TestParameter, AutoAnalysis.Line2.Point1.Type, 0
TestParameter, AutoAnalysis.Line2.Point1.XY.X, 
TestParameter, AutoAnalysis.Line2.Point1.XY.Y, 
TestParameter, AutoAnalysis.Line2.Point1.Data.Var, 
TestParameter, AutoAnalysis.Line2.Point1.Data.Condition, 
TestParameter, AutoAnalysis.Line2.Point1.Data.Start, false
TestParameter, AutoAnalysis.Line2.Point1.Data.StartVar, 
TestParameter, AutoAnalysis.Line2.Point1.Data.StartCondition, 
TestParameter, AutoAnalysis.Line2.Point2.Type, 0
TestParameter, AutoAnalysis.Line2.Point2.XY.X, 
TestParameter, AutoAnalysis.Line2.Point2.XY.Y, 
TestParameter, AutoAnalysis.Line2.Point2.Data.Var, 
TestParameter, AutoAnalysis.Line2.Point2.Data.Condition, 
TestParameter, AutoAnalysis.Line2.Point2.Data.Start, false
TestParameter, AutoAnalysis.Line2.Point2.Data.StartVar, 
TestParameter, AutoAnalysis.Line2.Point2.Data.StartCondition, 
TestParameter, AutoAnalysis.Line2.GradientExpr, 0
TestParameter, AutoAnalysis.Marker.Enabled, false
TestParameter, AutoAnalysis.Marker.Data.Var, 
TestParameter, AutoAnalysis.Marker.Data.Condition, 
TestParameter, AutoAnalysis.Marker.Data.Start, false
TestParameter, AutoAnalysis.Marker.Data.StartVar, 
TestParameter, AutoAnalysis.Marker.Data.StartCondition, 
MetaData, TestRecord.EntryPoint, true
MetaData, TestRecord.RecordTime, 01/18/2020 19:20:53
MetaData, TestRecord.TestTarget, 
MetaData, TestRecord.IterationIndex, 60
MetaData, TestRecord.Preservation, true
MetaData, TestRecord.Flag, 
MetaData, TestRecord.Remarks, 
MetaData, TestRecord.LinkKey, 2f829023-0825-4ac9-946b-4bb21f5cc6aa
Dimension1, 101, 101, 101
Dimension2, 1, 1, 1
DataName, V1, I1, Ohmic
DataValue, -1, -1.6898E-10, 5135264689.4133673
DataValue, -0.98000000000000009, -1.5434E-10, 
DataValue, -0.96000000000000008, -1.5245E-10, 
DataValue, -0.94000000000000006, -1.4801E-10, 
DataValue, -0.92, -1.4263E-10, 
DataValue, -0.9, -1.3289E-10, 
DataValue, -0.88, -1.2872E-10, 
DataValue, -0.86, -1.236E-10, 
DataValue, -0.84000000000000008, -1.2008E-10, 
DataValue, -0.82000000000000006, -1.0992E-10, 
DataValue, -0.8, -1.1044E-10, 
DataValue, -0.78, -1.0025E-10, 
DataValue, -0.76, -1.0194E-10, 
DataValue, -0.74, -9.514E-11, 
DataValue, -0.72000000000000008, -9.079E-11, 
DataValue, -0.70000000000000007, -8.69E-11, 
DataValue, -0.68, -8.173E-11, 
DataValue, -0.66, -7.474E-11, 
DataValue, -0.64, -7.058E-11, 
DataValue, -0.62, -6.368E-11, 
DataValue, -0.6, -6.719E-11, 
DataValue, -0.58000000000000007, -5.75E-11, 
DataValue, -0.56, -5.682E-11, 
DataValue, -0.54, -5.089E-11, 
DataValue, -0.52, -5.227E-11, 
DataValue, -0.5, -4.888E-11, 
DataValue, -0.48000000000000004, -4.771E-11, 
DataValue, -0.46, -4.334E-11, 
DataValue, -0.44, -4.342E-11, 
DataValue, -0.42000000000000004, -3.678E-11, 
DataValue, -0.4, -3.759E-11, 
DataValue, -0.38, -3.333E-11, 
DataValue, -0.36000000000000004, -3.335E-11, 
DataValue, -0.34, -2.885E-11, 
DataValue, -0.32, -3.065E-11, 
DataValue, -0.3, -2.503E-11, 
DataValue, -0.28, -2.526E-11, 
DataValue, -0.26, -1.865E-11, 
DataValue, -0.24000000000000002, -1.979E-11, 
DataValue, -0.22, -1.484E-11, 
DataValue, -0.2, -1.589E-11, 
DataValue, -0.18000000000000002, -1.035E-11, 
DataValue, -0.16, -1.051E-11, 
DataValue, -0.14, -6.85E-12, 
DataValue, -0.12000000000000001, -7.35E-12, 
DataValue, -0.1, -1.18E-12, 
DataValue, -0.08, 9.2E-13, 
DataValue, -0.060000000000000005, 1.094E-11, 
DataValue, -0.04, 2.17E-11, 
DataValue, -0.02, 4.071E-11, 
DataValue, 0, 5.63E-11, 
DataValue, 0.02, 7.647E-11, 
DataValue, 0.04, 9.049E-11, 
DataValue, 0.060000000000000005, 1.0671E-10, 
DataValue, 0.08, 1.1636E-10, 
DataValue, 0.1, 1.3048E-10, 
DataValue, 0.12000000000000001, 1.376E-10, 
DataValue, 0.14, 1.4947E-10, 
DataValue, 0.16, 1.5437E-10, 
DataValue, 0.18000000000000002, 1.6649E-10, 
DataValue, 0.2, 1.7036E-10, 
DataValue, 0.22, 1.8109E-10, 
DataValue, 0.24000000000000002, 1.8672E-10, 
DataValue, 0.26, 1.9796E-10, 
DataValue, 0.28, 2.0473E-10, 
DataValue, 0.3, 2.1405E-10, 
DataValue, 0.32, 2.2063E-10, 
DataValue, 0.34, 2.3158E-10, 
DataValue, 0.36000000000000004, 2.381E-10, 
DataValue, 0.38, 2.4684E-10, 
DataValue, 0.4, 2.5277E-10, 
DataValue, 0.42000000000000004, 2.6248E-10, 
DataValue, 0.44, 2.6848E-10, 
DataValue, 0.46, 2.805E-10, 
DataValue, 0.48000000000000004, 2.9034E-10, 
DataValue, 0.5, 2.9823E-10, 
DataValue, 0.52, 3.0838E-10, 
DataValue, 0.54, 3.149E-10, 
DataValue, 0.56, 3.2577E-10, 
DataValue, 0.58000000000000007, 3.3307E-10, 
DataValue, 0.6, 3.3797E-10, 
DataValue, 0.62, 3.4601E-10, 
DataValue, 0.64, 3.5008E-10, 
DataValue, 0.66, 3.6079E-10, 
DataValue, 0.68, 3.6735E-10, 
DataValue, 0.70000000000000007, 3.7656E-10, 
DataValue, 0.72000000000000008, 3.8359E-10, 
DataValue, 0.74, 3.9497E-10, 
DataValue, 0.76, 3.9982E-10, 
DataValue, 0.78, 4.0765E-10, 
DataValue, 0.8, 4.1589E-10, 
DataValue, 0.82000000000000006, 4.2343E-10, 
DataValue, 0.84000000000000008, 4.2952E-10, 
DataValue, 0.86, 4.4072E-10, 
DataValue, 0.88, 4.4569E-10, 
DataValue, 0.9, 4.5429E-10, 
DataValue, 0.92, 4.6203E-10, 
DataValue, 0.94000000000000006, 4.7449E-10, 
DataValue, 0.96000000000000008, 4.8228E-10, 
DataValue, 0.98000000000000009, 4.9054E-10, 
DataValue, 1, 4.9583E-10, 