
SetupTitle, WW
PrimitiveTest, I/V Sweep
TestParameter, Context.MainFrame, B1500A
TestParameter, Channel.UnitType, SMU, SMU
TestParameter, Channel.Unit, SMU2:HP, SMU1:HP
TestParameter, Channel.IName, I1, I4
TestParameter, Channel.VName, V1, V4
TestParameter, Channel.Mode, V, COMMON
TestParameter, Channel.Func, VAR1, CONST
TestParameter, Channel.Index, 
TestParameter, Channel.Time, 
TestParameter, Measurement.Port.Unit, SMU2:HP, SMU1:HP
TestParameter, Measurement.Port.SeriesResistor, NONE, NONE
TestParameter, Measurement.Port.Filter, ON, ON
TestParameter, Measurement.Port.OutputVoltageComparison, 0, 0
TestParameter, Measurement.Primary.Locus, Single
TestParameter, Measurement.Primary.Scale, LINEAR
TestParameter, Measurement.Primary.Start, -1
TestParameter, Measurement.Primary.Stop, 1
TestParameter, Measurement.Primary.Step, 0.02
TestParameter, Measurement.Primary.Compliance, 0.01
TestParameter, Measurement.Primary.PowerCompliance, 0
TestParameter, Measurement.Aborting.Condition, CONTINUE AT ANY
TestParameter, Measurement.PostOutput.Value, START
TestParameter, Measurement.PostOutput.Retention, OFF
TestParameter, Measurement.Bias.Source, -1, 0
TestParameter, Measurement.Bias.Compliance, 0.01, 1
TestParameter, Measurement.Monitor.Unit, SMU2:HP, SMU1:HP
TestParameter, Measurement.Monitor.Adc, HR ADC, HR ADC
TestParameter, Measurement.Monitor.Measurement, Compliance Side, Compliance Side
TestParameter, Measurement.Monitor.RangingMode, AUTO, AUTO
TestParameter, Measurement.Monitor.RangeBoundary, , 
TestParameter, Measurement.Monitor.RangeRating, BY FULL RANGE, BY FULL RANGE
TestParameter, Measurement.Monitor.RangeRatingCoeff, 50, 50
TestParameter, Measurement.Timing.Hold, 0
TestParameter, Measurement.Timing.Delay, 0.001
TestParameter, Measurement.Adc.HighSpeed.Mode, AUTO
TestParameter, Measurement.Adc.HighSpeed.Coeff, 1
TestParameter, Measurement.Adc.HighResolution.AutoZero, OFF
TestParameter, Measurement.Adc.HighResolution.Mode, PLC
TestParameter, Measurement.Adc.HighResolution.Coeff, 1
TestParameter, Measurement.WaitTime.Source.Coeff, 1
TestParameter, Measurement.WaitTime.Source.Offset, 0
TestParameter, Measurement.WaitTime.Monitor.Coeff, 1
TestParameter, Measurement.WaitTime.Monitor.Offset, 0
TestParameter, Function.User.Name, Ohmic
TestParameter, Function.User.Unit, ohm
TestParameter, Function.User.Definition, avg(V1/I1)
TestParameter, Output.Graph.Enabled, true
TestParameter, Output.Graph.XAxis.Data, V1
TestParameter, Output.Graph.XAxis.Scale, Linear
TestParameter, Output.Graph.XAxis.Left, -5
TestParameter, Output.Graph.XAxis.Right, 5
TestParameter, Output.Graph.YAxis.Data, I1
TestParameter, Output.Graph.YAxis.Scale, Linear
TestParameter, Output.Graph.YAxis.Bottom, -0.001
TestParameter, Output.Graph.YAxis.Top, 0.001
TestParameter, Output.Graph.YAxis.Group, 
TestParameter, Output.Scalar.Data, Ohmic
TestParameter, AutoAnalysis.Interpolation, false
TestParameter, AutoAnalysis.Line1.Enabled, false
TestParameter, AutoAnalysis.Line1.Type, 1
TestParameter, AutoAnalysis.Line1.Fix, True
TestParameter, AutoAnalysis.Line1.YAxis, 0
TestParameter, AutoAnalysis.Line1.Point1.Type, 0
TestParameter, AutoAnalysis.Line1.Point1.XY.X, 
TestParameter, AutoAnalysis.Line1.Point1.XY.Y, 
TestParameter, AutoAnalysis.Line1.Point1.Data.Var, 
TestParameter, AutoAnalysis.Line1.Point1.Data.Condition, 
TestParameter, AutoAnalysis.Line1.Point1.Data.Start, false
TestParameter, AutoAnalysis.Line1.Point1.Data.StartVar, 
TestParameter, AutoAnalysis.Line1.Point1.Data.StartCondition, 
TestParameter, AutoAnalysis.Line1.Point2.Type, 0
TestParameter, AutoAnalysis.Line1.Point2.XY.X, 
TestParameter, AutoAnalysis.Line1.Point2.XY.Y, 
TestParameter, AutoAnalysis.Line1.Point2.Data.Var, 
TestParameter, AutoAnalysis.Line1.Point2.Data.Condition, 
TestParameter, AutoAnalysis.Line1.Point2.Data.Start, false
TestParameter, AutoAnalysis.Line1.Point2.Data.StartVar, 
TestParameter, AutoAnalysis.Line1.Point2.Data.StartCondition, 
TestParameter, AutoAnalysis.Line1.GradientExpr, 0
TestParameter, AutoAnalysis.Line2.Enabled, false
TestParameter, AutoAnalysis.Line2.Type, 1
TestParameter, AutoAnalysis.Line2.Fix, True
TestParameter, AutoAnalysis.Line2.YAxis, 0
TestParameter, AutoAnalysis.Line2.Point1.Type, 0
TestParameter, AutoAnalysis.Line2.Point1.XY.X, 
TestParameter, AutoAnalysis.Line2.Point1.XY.Y, 
TestParameter, AutoAnalysis.Line2.Point1.Data.Var, 
TestParameter, AutoAnalysis.Line2.Point1.Data.Condition, 
TestParameter, AutoAnalysis.Line2.Point1.Data.Start, false
TestParameter, AutoAnalysis.Line2.Point1.Data.StartVar, 
TestParameter, AutoAnalysis.Line2.Point1.Data.StartCondition, 
TestParameter, AutoAnalysis.Line2.Point2.Type, 0
TestParameter, AutoAnalysis.Line2.Point2.XY.X, 
TestParameter, AutoAnalysis.Line2.Point2.XY.Y, 
TestParameter, AutoAnalysis.Line2.Point2.Data.Var, 
TestParameter, AutoAnalysis.Line2.Point2.Data.Condition, 
TestParameter, AutoAnalysis.Line2.Point2.Data.Start, false
TestParameter, AutoAnalysis.Line2.Point2.Data.StartVar, 
TestParameter, AutoAnalysis.Line2.Point2.Data.StartCondition, 
TestParameter, AutoAnalysis.Line2.GradientExpr, 0
TestParameter, AutoAnalysis.Marker.Enabled, false
TestParameter, AutoAnalysis.Marker.Data.Var, 
TestParameter, AutoAnalysis.Marker.Data.Condition, 
TestParameter, AutoAnalysis.Marker.Data.Start, false
TestParameter, AutoAnalysis.Marker.Data.StartVar, 
TestParameter, AutoAnalysis.Marker.Data.StartCondition, 
MetaData, TestRecord.EntryPoint, true
MetaData, TestRecord.RecordTime, 01/18/2020 19:18:38
MetaData, TestRecord.TestTarget, 
MetaData, TestRecord.IterationIndex, 56
MetaData, TestRecord.Preservation, true
MetaData, TestRecord.Flag, 
MetaData, TestRecord.Remarks, 
MetaData, TestRecord.LinkKey, 4a112add-1c04-4be7-812f-f440a5c32a75
Dimension1, 101, 101, 101
Dimension2, 1, 1, 1
DataName, V1, I1, Ohmic
DataValue, -1, -1.5031E-10, 5421027205.7052183
DataValue, -0.98000000000000009, -1.461E-10, 
DataValue, -0.96000000000000008, -1.3378E-10, 
DataValue, -0.94000000000000006, -1.3301E-10, 
DataValue, -0.92, -1.2566E-10, 
DataValue, -0.9, -1.2198E-10, 
DataValue, -0.88, -1.1713E-10, 
DataValue, -0.86, -1.1688E-10, 
DataValue, -0.84000000000000008, -1.0838E-10, 
DataValue, -0.82000000000000006, -1.0582E-10, 
DataValue, -0.8, -9.851E-11, 
DataValue, -0.78, -9.722E-11, 
DataValue, -0.76, -9.579E-11, 
DataValue, -0.74, -1.0038E-10, 
DataValue, -0.72000000000000008, -8.53E-11, 
DataValue, -0.70000000000000007, -8.526E-11, 
DataValue, -0.68, -7.91E-11, 
DataValue, -0.66, -7.879E-11, 
DataValue, -0.64, -7.023E-11, 
DataValue, -0.62, -6.989E-11, 
DataValue, -0.6, -6.501E-11, 
DataValue, -0.58000000000000007, -6.627E-11, 
DataValue, -0.56, -5.989E-11, 
DataValue, -0.54, -5.924E-11, 
DataValue, -0.52, -6.108E-11, 
DataValue, -0.5, -5.4E-11, 
DataValue, -0.48000000000000004, -5.044E-11, 
DataValue, -0.46, -4.78E-11, 
DataValue, -0.44, -4.223E-11, 
DataValue, -0.42000000000000004, -4.595E-11, 
DataValue, -0.4, -4.172E-11, 
DataValue, -0.38, -3.691E-11, 
DataValue, -0.36000000000000004, -3.105E-11, 
DataValue, -0.34, -2.943E-11, 
DataValue, -0.32, -2.715E-11, 
DataValue, -0.3, -2.559E-11, 
DataValue, -0.28, -2.016E-11, 
DataValue, -0.26, -2.6E-11, 
DataValue, -0.24000000000000002, -1.845E-11, 
DataValue, -0.22, -1.915E-11, 
DataValue, -0.2, -1.497E-11, 
DataValue, -0.18000000000000002, -1.392E-11, 
DataValue, -0.16, -1.302E-11, 
DataValue, -0.14, -9.47E-12, 
DataValue, -0.12000000000000001, -4.55E-12, 
DataValue, -0.1, -2.28E-12, 
DataValue, -0.08, 7.43E-12, 
DataValue, -0.060000000000000005, 1.107E-11, 
DataValue, -0.04, 2.525E-11, 
DataValue, -0.02, 3.712E-11, 
DataValue, 0, 5.754E-11, 
DataValue, 0.02, 7.268E-11, 
DataValue, 0.04, 9.028E-11, 
DataValue, 0.060000000000000005, 1.0222E-10, 
DataValue, 0.08, 1.1263E-10, 
DataValue, 0.1, 1.2234E-10, 
DataValue, 0.12000000000000001, 1.3316E-10, 
DataValue, 0.14, 1.3949E-10, 
DataValue, 0.16, 1.4939E-10, 
DataValue, 0.18000000000000002, 1.5386E-10, 
DataValue, 0.2, 1.6365E-10, 
DataValue, 0.22, 1.7095E-10, 
DataValue, 0.24000000000000002, 1.8084E-10, 
DataValue, 0.26, 1.8658E-10, 
DataValue, 0.28, 1.9366E-10, 
DataValue, 0.3, 2.0131E-10, 
DataValue, 0.32, 2.1159E-10, 
DataValue, 0.34, 2.1843E-10, 
DataValue, 0.36000000000000004, 2.2863E-10, 
DataValue, 0.38, 2.3619E-10, 
DataValue, 0.4, 2.4476E-10, 
DataValue, 0.42000000000000004, 2.5095E-10, 
DataValue, 0.44, 2.632E-10, 
DataValue, 0.46, 2.6712E-10, 
DataValue, 0.48000000000000004, 2.8036E-10, 
DataValue, 0.5, 2.8879E-10, 
DataValue, 0.52, 2.9961E-10, 
DataValue, 0.54, 3.0462E-10, 
DataValue, 0.56, 3.1419E-10, 
DataValue, 0.58000000000000007, 3.2416E-10, 
DataValue, 0.6, 3.3024E-10, 
DataValue, 0.62, 3.3825E-10, 
DataValue, 0.64, 3.4941E-10, 
DataValue, 0.66, 3.5623E-10, 
DataValue, 0.68, 3.6497E-10, 
DataValue, 0.70000000000000007, 3.7741E-10, 
DataValue, 0.72000000000000008, 3.8397E-10, 
DataValue, 0.74, 3.9284E-10, 
DataValue, 0.76, 4.0283E-10, 
DataValue, 0.78, 4.0781E-10, 
DataValue, 0.8, 4.1678E-10, 
DataValue, 0.82000000000000006, 4.2798E-10, 
DataValue, 0.84000000000000008, 4.3753E-10, 
DataValue, 0.86, 4.4406E-10, 
DataValue, 0.88, 4.5211E-10, 
DataValue, 0.9, 4.6124E-10, 
DataValue, 0.92, 4.6963E-10, 
DataValue, 0.94000000000000006, 4.7794E-10, 
DataValue, 0.96000000000000008, 4.8872E-10, 
DataValue, 0.98000000000000009, 4.9643E-10, 
DataValue, 1, 5.0642E-10, 