
SetupTitle, WW
PrimitiveTest, I/V Sweep
TestParameter, Context.MainFrame, B1500A
TestParameter, Channel.UnitType, SMU, SMU
TestParameter, Channel.Unit, SMU2:HP, SMU1:HP
TestParameter, Channel.IName, I1, I4
TestParameter, Channel.VName, V1, V4
TestParameter, Channel.Mode, V, COMMON
TestParameter, Channel.Func, VAR1, CONST
TestParameter, Channel.Index, 
TestParameter, Channel.Time, 
TestParameter, Measurement.Port.Unit, SMU2:HP, SMU1:HP
TestParameter, Measurement.Port.SeriesResistor, NONE, NONE
TestParameter, Measurement.Port.Filter, ON, ON
TestParameter, Measurement.Port.OutputVoltageComparison, 0, 0
TestParameter, Measurement.Primary.Locus, Single
TestParameter, Measurement.Primary.Scale, LINEAR
TestParameter, Measurement.Primary.Start, -1
TestParameter, Measurement.Primary.Stop, 1
TestParameter, Measurement.Primary.Step, 0.02
TestParameter, Measurement.Primary.Compliance, 0.01
TestParameter, Measurement.Primary.PowerCompliance, 0
TestParameter, Measurement.Aborting.Condition, CONTINUE AT ANY
TestParameter, Measurement.PostOutput.Value, START
TestParameter, Measurement.PostOutput.Retention, OFF
TestParameter, Measurement.Bias.Source, -1, 0
TestParameter, Measurement.Bias.Compliance, 0.01, 1
TestParameter, Measurement.Monitor.Unit, SMU2:HP, SMU1:HP
TestParameter, Measurement.Monitor.Adc, HR ADC, HR ADC
TestParameter, Measurement.Monitor.Measurement, Compliance Side, Compliance Side
TestParameter, Measurement.Monitor.RangingMode, AUTO, AUTO
TestParameter, Measurement.Monitor.RangeBoundary, , 
TestParameter, Measurement.Monitor.RangeRating, BY FULL RANGE, BY FULL RANGE
TestParameter, Measurement.Monitor.RangeRatingCoeff, 50, 50
TestParameter, Measurement.Timing.Hold, 0
TestParameter, Measurement.Timing.Delay, 0.001
TestParameter, Measurement.Adc.HighSpeed.Mode, AUTO
TestParameter, Measurement.Adc.HighSpeed.Coeff, 1
TestParameter, Measurement.Adc.HighResolution.AutoZero, OFF
TestParameter, Measurement.Adc.HighResolution.Mode, PLC
TestParameter, Measurement.Adc.HighResolution.Coeff, 1
TestParameter, Measurement.WaitTime.Source.Coeff, 1
TestParameter, Measurement.WaitTime.Source.Offset, 0
TestParameter, Measurement.WaitTime.Monitor.Coeff, 1
TestParameter, Measurement.WaitTime.Monitor.Offset, 0
TestParameter, Function.User.Name, Ohmic
TestParameter, Function.User.Unit, ohm
TestParameter, Function.User.Definition, avg(V1/I1)
TestParameter, Output.Graph.Enabled, true
TestParameter, Output.Graph.XAxis.Data, V1
TestParameter, Output.Graph.XAxis.Scale, Linear
TestParameter, Output.Graph.XAxis.Left, -5
TestParameter, Output.Graph.XAxis.Right, 5
TestParameter, Output.Graph.YAxis.Data, I1
TestParameter, Output.Graph.YAxis.Scale, Linear
TestParameter, Output.Graph.YAxis.Bottom, -0.001
TestParameter, Output.Graph.YAxis.Top, 0.001
TestParameter, Output.Graph.YAxis.Group, 
TestParameter, Output.Scalar.Data, Ohmic
TestParameter, AutoAnalysis.Interpolation, false
TestParameter, AutoAnalysis.Line1.Enabled, false
TestParameter, AutoAnalysis.Line1.Type, 1
TestParameter, AutoAnalysis.Line1.Fix, True
TestParameter, AutoAnalysis.Line1.YAxis, 0
TestParameter, AutoAnalysis.Line1.Point1.Type, 0
TestParameter, AutoAnalysis.Line1.Point1.XY.X, 
TestParameter, AutoAnalysis.Line1.Point1.XY.Y, 
TestParameter, AutoAnalysis.Line1.Point1.Data.Var, 
TestParameter, AutoAnalysis.Line1.Point1.Data.Condition, 
TestParameter, AutoAnalysis.Line1.Point1.Data.Start, false
TestParameter, AutoAnalysis.Line1.Point1.Data.StartVar, 
TestParameter, AutoAnalysis.Line1.Point1.Data.StartCondition, 
TestParameter, AutoAnalysis.Line1.Point2.Type, 0
TestParameter, AutoAnalysis.Line1.Point2.XY.X, 
TestParameter, AutoAnalysis.Line1.Point2.XY.Y, 
TestParameter, AutoAnalysis.Line1.Point2.Data.Var, 
TestParameter, AutoAnalysis.Line1.Point2.Data.Condition, 
TestParameter, AutoAnalysis.Line1.Point2.Data.Start, false
TestParameter, AutoAnalysis.Line1.Point2.Data.StartVar, 
TestParameter, AutoAnalysis.Line1.Point2.Data.StartCondition, 
TestParameter, AutoAnalysis.Line1.GradientExpr, 0
TestParameter, AutoAnalysis.Line2.Enabled, false
TestParameter, AutoAnalysis.Line2.Type, 1
TestParameter, AutoAnalysis.Line2.Fix, True
TestParameter, AutoAnalysis.Line2.YAxis, 0
TestParameter, AutoAnalysis.Line2.Point1.Type, 0
TestParameter, AutoAnalysis.Line2.Point1.XY.X, 
TestParameter, AutoAnalysis.Line2.Point1.XY.Y, 
TestParameter, AutoAnalysis.Line2.Point1.Data.Var, 
TestParameter, AutoAnalysis.Line2.Point1.Data.Condition, 
TestParameter, AutoAnalysis.Line2.Point1.Data.Start, false
TestParameter, AutoAnalysis.Line2.Point1.Data.StartVar, 
TestParameter, AutoAnalysis.Line2.Point1.Data.StartCondition, 
TestParameter, AutoAnalysis.Line2.Point2.Type, 0
TestParameter, AutoAnalysis.Line2.Point2.XY.X, 
TestParameter, AutoAnalysis.Line2.Point2.XY.Y, 
TestParameter, AutoAnalysis.Line2.Point2.Data.Var, 
TestParameter, AutoAnalysis.Line2.Point2.Data.Condition, 
TestParameter, AutoAnalysis.Line2.Point2.Data.Start, false
TestParameter, AutoAnalysis.Line2.Point2.Data.StartVar, 
TestParameter, AutoAnalysis.Line2.Point2.Data.StartCondition, 
TestParameter, AutoAnalysis.Line2.GradientExpr, 0
TestParameter, AutoAnalysis.Marker.Enabled, false
TestParameter, AutoAnalysis.Marker.Data.Var, 
TestParameter, AutoAnalysis.Marker.Data.Condition, 
TestParameter, AutoAnalysis.Marker.Data.Start, false
TestParameter, AutoAnalysis.Marker.Data.StartVar, 
TestParameter, AutoAnalysis.Marker.Data.StartCondition, 
MetaData, TestRecord.EntryPoint, true
MetaData, TestRecord.RecordTime, 01/18/2020 19:18:07
MetaData, TestRecord.TestTarget, 
MetaData, TestRecord.IterationIndex, 55
MetaData, TestRecord.Preservation, true
MetaData, TestRecord.Flag, 
MetaData, TestRecord.Remarks, 
MetaData, TestRecord.LinkKey, 6246f611-6cd5-45ff-9ac9-acb3a8fe27f6
Dimension1, 101, 101, 101
Dimension2, 1, 1, 1
DataName, V1, I1, Ohmic
DataValue, -1, -1.7685E-10, 5075226993.1490641
DataValue, -0.98000000000000009, -1.6943E-10, 
DataValue, -0.96000000000000008, -1.6422E-10, 
DataValue, -0.94000000000000006, -1.6063E-10, 
DataValue, -0.92, -1.5212E-10, 
DataValue, -0.9, -1.4447E-10, 
DataValue, -0.88, -1.3982E-10, 
DataValue, -0.86, -1.3579E-10, 
DataValue, -0.84000000000000008, -1.3071E-10, 
DataValue, -0.82000000000000006, -1.2748E-10, 
DataValue, -0.8, -1.199E-10, 
DataValue, -0.78, -1.131E-10, 
DataValue, -0.76, -1.1189E-10, 
DataValue, -0.74, -1.0645E-10, 
DataValue, -0.72000000000000008, -1.0333E-10, 
DataValue, -0.70000000000000007, -9.49E-11, 
DataValue, -0.68, -9.329E-11, 
DataValue, -0.66, -9.092E-11, 
DataValue, -0.64, -8.627E-11, 
DataValue, -0.62, -8.623E-11, 
DataValue, -0.6, -8.442E-11, 
DataValue, -0.58000000000000007, -7.741E-11, 
DataValue, -0.56, -7.485E-11, 
DataValue, -0.54, -7.0159999999999993E-11, 
DataValue, -0.52, -6.49E-11, 
DataValue, -0.5, -6.179E-11, 
DataValue, -0.48000000000000004, -5.767E-11, 
DataValue, -0.46, -5.193E-11, 
DataValue, -0.44, -4.952E-11, 
DataValue, -0.42000000000000004, -4.295E-11, 
DataValue, -0.4, -3.915E-11, 
DataValue, -0.38, -3.714E-11, 
DataValue, -0.36000000000000004, -3.147E-11, 
DataValue, -0.34, -2.811E-11, 
DataValue, -0.32, -2.567E-11, 
DataValue, -0.3, -2.464E-11, 
DataValue, -0.28, -2.204E-11, 
DataValue, -0.26, -2.169E-11, 
DataValue, -0.24000000000000002, -1.949E-11, 
DataValue, -0.22, -1.628E-11, 
DataValue, -0.2, -1.324E-11, 
DataValue, -0.18000000000000002, -1.143E-11, 
DataValue, -0.16, -9.97E-12, 
DataValue, -0.14, -7.55E-12, 
DataValue, -0.12000000000000001, -5.14E-12, 
DataValue, -0.1, -2.3E-12, 
DataValue, -0.08, 4.45E-12, 
DataValue, -0.060000000000000005, 1.17E-11, 
DataValue, -0.04, 2.344E-11, 
DataValue, -0.02, 3.782E-11, 
DataValue, 0, 5.728E-11, 
DataValue, 0.02, 7.707E-11, 
DataValue, 0.04, 9.302E-11, 
DataValue, 0.060000000000000005, 1.0975E-10, 
DataValue, 0.08, 1.2058E-10, 
DataValue, 0.1, 1.3058E-10, 
DataValue, 0.12000000000000001, 1.386E-10, 
DataValue, 0.14, 1.4777E-10, 
DataValue, 0.16, 1.5536E-10, 
DataValue, 0.18000000000000002, 1.6266E-10, 
DataValue, 0.2, 1.7075E-10, 
DataValue, 0.22, 1.7748E-10, 
DataValue, 0.24000000000000002, 1.8805E-10, 
DataValue, 0.26, 1.9717E-10, 
DataValue, 0.28, 2.0487E-10, 
DataValue, 0.3, 2.1934E-10, 
DataValue, 0.32, 2.2334E-10, 
DataValue, 0.34, 2.3422E-10, 
DataValue, 0.36000000000000004, 2.424E-10, 
DataValue, 0.38, 2.5048E-10, 
DataValue, 0.4, 2.612E-10, 
DataValue, 0.42000000000000004, 2.7206E-10, 
DataValue, 0.44, 2.8321E-10, 
DataValue, 0.46, 2.8816E-10, 
DataValue, 0.48000000000000004, 3.0041E-10, 
DataValue, 0.5, 3.063E-10, 
DataValue, 0.52, 3.1445E-10, 
DataValue, 0.54, 3.2679E-10, 
DataValue, 0.56, 3.3618E-10, 
DataValue, 0.58000000000000007, 3.4662E-10, 
DataValue, 0.6, 3.5802E-10, 
DataValue, 0.62, 3.6655E-10, 
DataValue, 0.64, 3.7746E-10, 
DataValue, 0.66, 3.8811E-10, 
DataValue, 0.68, 3.9606E-10, 
DataValue, 0.70000000000000007, 4.0617E-10, 
DataValue, 0.72000000000000008, 4.1458E-10, 
DataValue, 0.74, 4.2443E-10, 
DataValue, 0.76, 4.348E-10, 
DataValue, 0.78, 4.4628E-10, 
DataValue, 0.8, 4.6025E-10, 
DataValue, 0.82000000000000006, 4.7037E-10, 
DataValue, 0.84000000000000008, 4.7991E-10, 
DataValue, 0.86, 4.854E-10, 
DataValue, 0.88, 4.9498E-10, 
DataValue, 0.9, 5.0651E-10, 
DataValue, 0.92, 5.1233E-10, 
DataValue, 0.94000000000000006, 5.2377E-10, 
DataValue, 0.96000000000000008, 5.3181E-10, 
DataValue, 0.98000000000000009, 5.4317E-10, 
DataValue, 1, 5.543E-10, 