
SetupTitle, WW
PrimitiveTest, I/V Sweep
TestParameter, Context.MainFrame, B1500A
TestParameter, Channel.UnitType, SMU, SMU
TestParameter, Channel.Unit, SMU2:HP, SMU1:HP
TestParameter, Channel.IName, I1, I4
TestParameter, Channel.VName, V1, V4
TestParameter, Channel.Mode, V, COMMON
TestParameter, Channel.Func, VAR1, CONST
TestParameter, Channel.Index, 
TestParameter, Channel.Time, 
TestParameter, Measurement.Port.Unit, SMU2:HP, SMU1:HP
TestParameter, Measurement.Port.SeriesResistor, NONE, NONE
TestParameter, Measurement.Port.Filter, ON, ON
TestParameter, Measurement.Port.OutputVoltageComparison, 0, 0
TestParameter, Measurement.Primary.Locus, Single
TestParameter, Measurement.Primary.Scale, LINEAR
TestParameter, Measurement.Primary.Start, -1
TestParameter, Measurement.Primary.Stop, 1
TestParameter, Measurement.Primary.Step, 0.02
TestParameter, Measurement.Primary.Compliance, 0.01
TestParameter, Measurement.Primary.PowerCompliance, 0
TestParameter, Measurement.Aborting.Condition, CONTINUE AT ANY
TestParameter, Measurement.PostOutput.Value, START
TestParameter, Measurement.PostOutput.Retention, OFF
TestParameter, Measurement.Bias.Source, -1, 0
TestParameter, Measurement.Bias.Compliance, 0.01, 1
TestParameter, Measurement.Monitor.Unit, SMU2:HP, SMU1:HP
TestParameter, Measurement.Monitor.Adc, HR ADC, HR ADC
TestParameter, Measurement.Monitor.Measurement, Compliance Side, Compliance Side
TestParameter, Measurement.Monitor.RangingMode, AUTO, AUTO
TestParameter, Measurement.Monitor.RangeBoundary, , 
TestParameter, Measurement.Monitor.RangeRating, BY FULL RANGE, BY FULL RANGE
TestParameter, Measurement.Monitor.RangeRatingCoeff, 50, 50
TestParameter, Measurement.Timing.Hold, 0
TestParameter, Measurement.Timing.Delay, 0.001
TestParameter, Measurement.Adc.HighSpeed.Mode, AUTO
TestParameter, Measurement.Adc.HighSpeed.Coeff, 1
TestParameter, Measurement.Adc.HighResolution.AutoZero, OFF
TestParameter, Measurement.Adc.HighResolution.Mode, PLC
TestParameter, Measurement.Adc.HighResolution.Coeff, 1
TestParameter, Measurement.WaitTime.Source.Coeff, 1
TestParameter, Measurement.WaitTime.Source.Offset, 0
TestParameter, Measurement.WaitTime.Monitor.Coeff, 1
TestParameter, Measurement.WaitTime.Monitor.Offset, 0
TestParameter, Function.User.Name, Ohmic
TestParameter, Function.User.Unit, ohm
TestParameter, Function.User.Definition, avg(V1/I1)
TestParameter, Output.Graph.Enabled, true
TestParameter, Output.Graph.XAxis.Data, V1
TestParameter, Output.Graph.XAxis.Scale, Linear
TestParameter, Output.Graph.XAxis.Left, -5
TestParameter, Output.Graph.XAxis.Right, 5
TestParameter, Output.Graph.YAxis.Data, I1
TestParameter, Output.Graph.YAxis.Scale, Linear
TestParameter, Output.Graph.YAxis.Bottom, -0.001
TestParameter, Output.Graph.YAxis.Top, 0.001
TestParameter, Output.Graph.YAxis.Group, 
TestParameter, Output.Scalar.Data, Ohmic
TestParameter, AutoAnalysis.Interpolation, false
TestParameter, AutoAnalysis.Line1.Enabled, false
TestParameter, AutoAnalysis.Line1.Type, 1
TestParameter, AutoAnalysis.Line1.Fix, True
TestParameter, AutoAnalysis.Line1.YAxis, 0
TestParameter, AutoAnalysis.Line1.Point1.Type, 0
TestParameter, AutoAnalysis.Line1.Point1.XY.X, 
TestParameter, AutoAnalysis.Line1.Point1.XY.Y, 
TestParameter, AutoAnalysis.Line1.Point1.Data.Var, 
TestParameter, AutoAnalysis.Line1.Point1.Data.Condition, 
TestParameter, AutoAnalysis.Line1.Point1.Data.Start, false
TestParameter, AutoAnalysis.Line1.Point1.Data.StartVar, 
TestParameter, AutoAnalysis.Line1.Point1.Data.StartCondition, 
TestParameter, AutoAnalysis.Line1.Point2.Type, 0
TestParameter, AutoAnalysis.Line1.Point2.XY.X, 
TestParameter, AutoAnalysis.Line1.Point2.XY.Y, 
TestParameter, AutoAnalysis.Line1.Point2.Data.Var, 
TestParameter, AutoAnalysis.Line1.Point2.Data.Condition, 
TestParameter, AutoAnalysis.Line1.Point2.Data.Start, false
TestParameter, AutoAnalysis.Line1.Point2.Data.StartVar, 
TestParameter, AutoAnalysis.Line1.Point2.Data.StartCondition, 
TestParameter, AutoAnalysis.Line1.GradientExpr, 0
TestParameter, AutoAnalysis.Line2.Enabled, false
TestParameter, AutoAnalysis.Line2.Type, 1
TestParameter, AutoAnalysis.Line2.Fix, True
TestParameter, AutoAnalysis.Line2.YAxis, 0
TestParameter, AutoAnalysis.Line2.Point1.Type, 0
TestParameter, AutoAnalysis.Line2.Point1.XY.X, 
TestParameter, AutoAnalysis.Line2.Point1.XY.Y, 
TestParameter, AutoAnalysis.Line2.Point1.Data.Var, 
TestParameter, AutoAnalysis.Line2.Point1.Data.Condition, 
TestParameter, AutoAnalysis.Line2.Point1.Data.Start, false
TestParameter, AutoAnalysis.Line2.Point1.Data.StartVar, 
TestParameter, AutoAnalysis.Line2.Point1.Data.StartCondition, 
TestParameter, AutoAnalysis.Line2.Point2.Type, 0
TestParameter, AutoAnalysis.Line2.Point2.XY.X, 
TestParameter, AutoAnalysis.Line2.Point2.XY.Y, 
TestParameter, AutoAnalysis.Line2.Point2.Data.Var, 
TestParameter, AutoAnalysis.Line2.Point2.Data.Condition, 
TestParameter, AutoAnalysis.Line2.Point2.Data.Start, false
TestParameter, AutoAnalysis.Line2.Point2.Data.StartVar, 
TestParameter, AutoAnalysis.Line2.Point2.Data.StartCondition, 
TestParameter, AutoAnalysis.Line2.GradientExpr, 0
TestParameter, AutoAnalysis.Marker.Enabled, false
TestParameter, AutoAnalysis.Marker.Data.Var, 
TestParameter, AutoAnalysis.Marker.Data.Condition, 
TestParameter, AutoAnalysis.Marker.Data.Start, false
TestParameter, AutoAnalysis.Marker.Data.StartVar, 
TestParameter, AutoAnalysis.Marker.Data.StartCondition, 
MetaData, TestRecord.EntryPoint, true
MetaData, TestRecord.RecordTime, 01/18/2020 19:16:33
MetaData, TestRecord.TestTarget, 
MetaData, TestRecord.IterationIndex, 52
MetaData, TestRecord.Preservation, true
MetaData, TestRecord.Flag, 
MetaData, TestRecord.Remarks, 
MetaData, TestRecord.LinkKey, 2f613613-6e31-4b56-8926-ffc188c66f7e
Dimension1, 101, 101, 101
Dimension2, 1, 1, 1
DataName, V1, I1, Ohmic
DataValue, -1, -1.8E-10, 4448473981.9072847
DataValue, -0.98000000000000009, -1.6977E-10, 
DataValue, -0.96000000000000008, -1.5972E-10, 
DataValue, -0.94000000000000006, -1.528E-10, 
DataValue, -0.92, -1.555E-10, 
DataValue, -0.9, -1.5086E-10, 
DataValue, -0.88, -1.4752E-10, 
DataValue, -0.86, -1.4156E-10, 
DataValue, -0.84000000000000008, -1.4515E-10, 
DataValue, -0.82000000000000006, -1.3582E-10, 
DataValue, -0.8, -1.2843E-10, 
DataValue, -0.78, -1.2586E-10, 
DataValue, -0.76, -1.1978E-10, 
DataValue, -0.74, -1.1507E-10, 
DataValue, -0.72000000000000008, -1.1127E-10, 
DataValue, -0.70000000000000007, -1.0875E-10, 
DataValue, -0.68, -1.0304E-10, 
DataValue, -0.66, -1.0481E-10, 
DataValue, -0.64, -9.713E-11, 
DataValue, -0.62, -9.334E-11, 
DataValue, -0.6, -8.84E-11, 
DataValue, -0.58000000000000007, -8.493E-11, 
DataValue, -0.56, -8.061E-11, 
DataValue, -0.54, -7.686E-11, 
DataValue, -0.52, -7.361E-11, 
DataValue, -0.5, -6.916E-11, 
DataValue, -0.48000000000000004, -6.478E-11, 
DataValue, -0.46, -6.035E-11, 
DataValue, -0.44, -5.623E-11, 
DataValue, -0.42000000000000004, -5.37E-11, 
DataValue, -0.4, -4.789E-11, 
DataValue, -0.38, -4.596E-11, 
DataValue, -0.36000000000000004, -4.168E-11, 
DataValue, -0.34, -3.883E-11, 
DataValue, -0.32, -3.62E-11, 
DataValue, -0.3, -3.406E-11, 
DataValue, -0.28, -3.034E-11, 
DataValue, -0.26, -2.856E-11, 
DataValue, -0.24000000000000002, -2.377E-11, 
DataValue, -0.22, -2.168E-11, 
DataValue, -0.2, -1.767E-11, 
DataValue, -0.18000000000000002, -1.615E-11, 
DataValue, -0.16, -1.311E-11, 
DataValue, -0.14, -1.081E-11, 
DataValue, -0.12000000000000001, -4.65E-12, 
DataValue, -0.1, -2.35E-12, 
DataValue, -0.08, 7.65E-12, 
DataValue, -0.060000000000000005, 1.426E-11, 
DataValue, -0.04, 2.8E-11, 
DataValue, -0.02, 4.534E-11, 
DataValue, 0, 6.751E-11, 
DataValue, 0.02, 8.734E-11, 
DataValue, 0.04, 1.0811E-10, 
DataValue, 0.060000000000000005, 1.236E-10, 
DataValue, 0.08, 1.3525E-10, 
DataValue, 0.1, 1.4594E-10, 
DataValue, 0.12000000000000001, 1.5688E-10, 
DataValue, 0.14, 1.6657E-10, 
DataValue, 0.16, 1.7427E-10, 
DataValue, 0.18000000000000002, 1.8381E-10, 
DataValue, 0.2, 1.9526E-10, 
DataValue, 0.22, 2.0466E-10, 
DataValue, 0.24000000000000002, 2.1364E-10, 
DataValue, 0.26, 2.2256E-10, 
DataValue, 0.28, 2.332E-10, 
DataValue, 0.3, 2.4332E-10, 
DataValue, 0.32, 2.5193E-10, 
DataValue, 0.34, 2.6454E-10, 
DataValue, 0.36000000000000004, 2.7538E-10, 
DataValue, 0.38, 2.8531E-10, 
DataValue, 0.4, 2.9517E-10, 
DataValue, 0.42000000000000004, 3.0675E-10, 
DataValue, 0.44, 3.1717E-10, 
DataValue, 0.46, 3.2518E-10, 
DataValue, 0.48000000000000004, 3.3712E-10, 
DataValue, 0.5, 3.4793E-10, 
DataValue, 0.52, 3.6112E-10, 
DataValue, 0.54, 3.7379E-10, 
DataValue, 0.56, 3.858E-10, 
DataValue, 0.58000000000000007, 3.9671E-10, 
DataValue, 0.6, 4.0803E-10, 
DataValue, 0.62, 4.201E-10, 
DataValue, 0.64, 4.3585E-10, 
DataValue, 0.66, 4.4339E-10, 
DataValue, 0.68, 4.6129E-10, 
DataValue, 0.70000000000000007, 4.7035E-10, 
DataValue, 0.72000000000000008, 4.8327E-10, 
DataValue, 0.74, 4.9079E-10, 
DataValue, 0.76, 5.0457E-10, 
DataValue, 0.78, 5.1505E-10, 
DataValue, 0.8, 5.3043E-10, 
DataValue, 0.82000000000000006, 5.4334E-10, 
DataValue, 0.84000000000000008, 5.5758E-10, 
DataValue, 0.86, 5.6587E-10, 
DataValue, 0.88, 5.7846E-10, 
DataValue, 0.9, 5.9317E-10, 
DataValue, 0.92, 6.113E-10, 
DataValue, 0.94000000000000006, 6.2056E-10, 
DataValue, 0.96000000000000008, 6.3354E-10, 
DataValue, 0.98000000000000009, 6.5078E-10, 
DataValue, 1, 6.6619E-10, 