
SetupTitle, WW
PrimitiveTest, I/V Sweep
TestParameter, Context.MainFrame, B1500A
TestParameter, Channel.UnitType, SMU, SMU
TestParameter, Channel.Unit, SMU2:HP, SMU1:HP
TestParameter, Channel.IName, I1, I4
TestParameter, Channel.VName, V1, V4
TestParameter, Channel.Mode, V, COMMON
TestParameter, Channel.Func, VAR1, CONST
TestParameter, Channel.Index, 
TestParameter, Channel.Time, 
TestParameter, Measurement.Port.Unit, SMU2:HP, SMU1:HP
TestParameter, Measurement.Port.SeriesResistor, NONE, NONE
TestParameter, Measurement.Port.Filter, ON, ON
TestParameter, Measurement.Port.OutputVoltageComparison, 0, 0
TestParameter, Measurement.Primary.Locus, Single
TestParameter, Measurement.Primary.Scale, LINEAR
TestParameter, Measurement.Primary.Start, -1
TestParameter, Measurement.Primary.Stop, 1
TestParameter, Measurement.Primary.Step, 0.02
TestParameter, Measurement.Primary.Compliance, 0.01
TestParameter, Measurement.Primary.PowerCompliance, 0
TestParameter, Measurement.Aborting.Condition, CONTINUE AT ANY
TestParameter, Measurement.PostOutput.Value, START
TestParameter, Measurement.PostOutput.Retention, OFF
TestParameter, Measurement.Bias.Source, -1, 0
TestParameter, Measurement.Bias.Compliance, 0.01, 1
TestParameter, Measurement.Monitor.Unit, SMU2:HP, SMU1:HP
TestParameter, Measurement.Monitor.Adc, HR ADC, HR ADC
TestParameter, Measurement.Monitor.Measurement, Compliance Side, Compliance Side
TestParameter, Measurement.Monitor.RangingMode, AUTO, AUTO
TestParameter, Measurement.Monitor.RangeBoundary, , 
TestParameter, Measurement.Monitor.RangeRating, BY FULL RANGE, BY FULL RANGE
TestParameter, Measurement.Monitor.RangeRatingCoeff, 50, 50
TestParameter, Measurement.Timing.Hold, 0
TestParameter, Measurement.Timing.Delay, 0.001
TestParameter, Measurement.Adc.HighSpeed.Mode, AUTO
TestParameter, Measurement.Adc.HighSpeed.Coeff, 1
TestParameter, Measurement.Adc.HighResolution.AutoZero, OFF
TestParameter, Measurement.Adc.HighResolution.Mode, PLC
TestParameter, Measurement.Adc.HighResolution.Coeff, 1
TestParameter, Measurement.WaitTime.Source.Coeff, 1
TestParameter, Measurement.WaitTime.Source.Offset, 0
TestParameter, Measurement.WaitTime.Monitor.Coeff, 1
TestParameter, Measurement.WaitTime.Monitor.Offset, 0
TestParameter, Function.User.Name, Ohmic
TestParameter, Function.User.Unit, ohm
TestParameter, Function.User.Definition, avg(V1/I1)
TestParameter, Output.Graph.Enabled, true
TestParameter, Output.Graph.XAxis.Data, V1
TestParameter, Output.Graph.XAxis.Scale, Linear
TestParameter, Output.Graph.XAxis.Left, -5
TestParameter, Output.Graph.XAxis.Right, 5
TestParameter, Output.Graph.YAxis.Data, I1
TestParameter, Output.Graph.YAxis.Scale, Linear
TestParameter, Output.Graph.YAxis.Bottom, -0.001
TestParameter, Output.Graph.YAxis.Top, 0.001
TestParameter, Output.Graph.YAxis.Group, 
TestParameter, Output.Scalar.Data, Ohmic
TestParameter, AutoAnalysis.Interpolation, false
TestParameter, AutoAnalysis.Line1.Enabled, false
TestParameter, AutoAnalysis.Line1.Type, 1
TestParameter, AutoAnalysis.Line1.Fix, True
TestParameter, AutoAnalysis.Line1.YAxis, 0
TestParameter, AutoAnalysis.Line1.Point1.Type, 0
TestParameter, AutoAnalysis.Line1.Point1.XY.X, 
TestParameter, AutoAnalysis.Line1.Point1.XY.Y, 
TestParameter, AutoAnalysis.Line1.Point1.Data.Var, 
TestParameter, AutoAnalysis.Line1.Point1.Data.Condition, 
TestParameter, AutoAnalysis.Line1.Point1.Data.Start, false
TestParameter, AutoAnalysis.Line1.Point1.Data.StartVar, 
TestParameter, AutoAnalysis.Line1.Point1.Data.StartCondition, 
TestParameter, AutoAnalysis.Line1.Point2.Type, 0
TestParameter, AutoAnalysis.Line1.Point2.XY.X, 
TestParameter, AutoAnalysis.Line1.Point2.XY.Y, 
TestParameter, AutoAnalysis.Line1.Point2.Data.Var, 
TestParameter, AutoAnalysis.Line1.Point2.Data.Condition, 
TestParameter, AutoAnalysis.Line1.Point2.Data.Start, false
TestParameter, AutoAnalysis.Line1.Point2.Data.StartVar, 
TestParameter, AutoAnalysis.Line1.Point2.Data.StartCondition, 
TestParameter, AutoAnalysis.Line1.GradientExpr, 0
TestParameter, AutoAnalysis.Line2.Enabled, false
TestParameter, AutoAnalysis.Line2.Type, 1
TestParameter, AutoAnalysis.Line2.Fix, True
TestParameter, AutoAnalysis.Line2.YAxis, 0
TestParameter, AutoAnalysis.Line2.Point1.Type, 0
TestParameter, AutoAnalysis.Line2.Point1.XY.X, 
TestParameter, AutoAnalysis.Line2.Point1.XY.Y, 
TestParameter, AutoAnalysis.Line2.Point1.Data.Var, 
TestParameter, AutoAnalysis.Line2.Point1.Data.Condition, 
TestParameter, AutoAnalysis.Line2.Point1.Data.Start, false
TestParameter, AutoAnalysis.Line2.Point1.Data.StartVar, 
TestParameter, AutoAnalysis.Line2.Point1.Data.StartCondition, 
TestParameter, AutoAnalysis.Line2.Point2.Type, 0
TestParameter, AutoAnalysis.Line2.Point2.XY.X, 
TestParameter, AutoAnalysis.Line2.Point2.XY.Y, 
TestParameter, AutoAnalysis.Line2.Point2.Data.Var, 
TestParameter, AutoAnalysis.Line2.Point2.Data.Condition, 
TestParameter, AutoAnalysis.Line2.Point2.Data.Start, false
TestParameter, AutoAnalysis.Line2.Point2.Data.StartVar, 
TestParameter, AutoAnalysis.Line2.Point2.Data.StartCondition, 
TestParameter, AutoAnalysis.Line2.GradientExpr, 0
TestParameter, AutoAnalysis.Marker.Enabled, false
TestParameter, AutoAnalysis.Marker.Data.Var, 
TestParameter, AutoAnalysis.Marker.Data.Condition, 
TestParameter, AutoAnalysis.Marker.Data.Start, false
TestParameter, AutoAnalysis.Marker.Data.StartVar, 
TestParameter, AutoAnalysis.Marker.Data.StartCondition, 
MetaData, TestRecord.EntryPoint, true
MetaData, TestRecord.RecordTime, 01/18/2020 19:16:03
MetaData, TestRecord.TestTarget, 
MetaData, TestRecord.IterationIndex, 51
MetaData, TestRecord.Preservation, true
MetaData, TestRecord.Flag, 
MetaData, TestRecord.Remarks, 
MetaData, TestRecord.LinkKey, eb3988da-111d-4b4d-8c18-d6e23a42721f
Dimension1, 101, 101, 101
Dimension2, 1, 1, 1
DataName, V1, I1, Ohmic
DataValue, -1, -1.6107E-10, 5395571871.2558022
DataValue, -0.98000000000000009, -1.5433E-10, 
DataValue, -0.96000000000000008, -1.5037E-10, 
DataValue, -0.94000000000000006, -1.5079E-10, 
DataValue, -0.92, -1.414E-10, 
DataValue, -0.9, -1.3797E-10, 
DataValue, -0.88, -1.3471E-10, 
DataValue, -0.86, -1.2986E-10, 
DataValue, -0.84000000000000008, -1.2566E-10, 
DataValue, -0.82000000000000006, -1.2341E-10, 
DataValue, -0.8, -1.1926E-10, 
DataValue, -0.78, -1.1415E-10, 
DataValue, -0.76, -1.1281E-10, 
DataValue, -0.74, -1.1153E-10, 
DataValue, -0.72000000000000008, -1.0254E-10, 
DataValue, -0.70000000000000007, -1.0244E-10, 
DataValue, -0.68, -9.33E-11, 
DataValue, -0.66, -9.352E-11, 
DataValue, -0.64, -8.543E-11, 
DataValue, -0.62, -8.661E-11, 
DataValue, -0.6, -7.757E-11, 
DataValue, -0.58000000000000007, -7.971E-11, 
DataValue, -0.56, -7.653E-11, 
DataValue, -0.54, -7.493E-11, 
DataValue, -0.52, -6.879E-11, 
DataValue, -0.5, -6.627E-11, 
DataValue, -0.48000000000000004, -5.787E-11, 
DataValue, -0.46, -5.938E-11, 
DataValue, -0.44, -5.37E-11, 
DataValue, -0.42000000000000004, -5.079E-11, 
DataValue, -0.4, -4.669E-11, 
DataValue, -0.38, -4.655E-11, 
DataValue, -0.36000000000000004, -4.064E-11, 
DataValue, -0.34, -3.939E-11, 
DataValue, -0.32, -3.284E-11, 
DataValue, -0.3, -3.169E-11, 
DataValue, -0.28, -2.573E-11, 
DataValue, -0.26, -2.603E-11, 
DataValue, -0.24000000000000002, -2.018E-11, 
DataValue, -0.22, -2.013E-11, 
DataValue, -0.2, -1.528E-11, 
DataValue, -0.18000000000000002, -1.39E-11, 
DataValue, -0.16, -1.135E-11, 
DataValue, -0.14, -8.76E-12, 
DataValue, -0.12000000000000001, -2.94E-12, 
DataValue, -0.1, -1.12E-12, 
DataValue, -0.08, 9.88E-12, 
DataValue, -0.060000000000000005, 1.456E-11, 
DataValue, -0.04, 3.198E-11, 
DataValue, -0.02, 4.644E-11, 
DataValue, 0, 7.006E-11, 
DataValue, 0.02, 8.806E-11, 
DataValue, 0.04, 1.0951E-10, 
DataValue, 0.060000000000000005, 1.2141E-10, 
DataValue, 0.08, 1.3609E-10, 
DataValue, 0.1, 1.4554E-10, 
DataValue, 0.12000000000000001, 1.5755E-10, 
DataValue, 0.14, 1.6463E-10, 
DataValue, 0.16, 1.7606E-10, 
DataValue, 0.18000000000000002, 1.8354E-10, 
DataValue, 0.2, 1.9461E-10, 
DataValue, 0.22, 2.0159E-10, 
DataValue, 0.24000000000000002, 2.1307E-10, 
DataValue, 0.26, 2.2041E-10, 
DataValue, 0.28, 2.3176E-10, 
DataValue, 0.3, 2.3823E-10, 
DataValue, 0.32, 2.5251E-10, 
DataValue, 0.34, 2.6039E-10, 
DataValue, 0.36000000000000004, 2.722E-10, 
DataValue, 0.38, 2.8001E-10, 
DataValue, 0.4, 2.9402E-10, 
DataValue, 0.42000000000000004, 2.9949E-10, 
DataValue, 0.44, 3.0878E-10, 
DataValue, 0.46, 3.2049E-10, 
DataValue, 0.48000000000000004, 3.377E-10, 
DataValue, 0.5, 3.4458E-10, 
DataValue, 0.52, 3.5644E-10, 
DataValue, 0.54, 3.6734E-10, 
DataValue, 0.56, 3.8432E-10, 
DataValue, 0.58000000000000007, 3.947E-10, 
DataValue, 0.6, 4.1408E-10, 
DataValue, 0.62, 4.2E-10, 
DataValue, 0.64, 4.3405E-10, 
DataValue, 0.66, 4.4085E-10, 
DataValue, 0.68, 4.583E-10, 
DataValue, 0.70000000000000007, 4.7163E-10, 
DataValue, 0.72000000000000008, 4.8392E-10, 
DataValue, 0.74, 4.9819E-10, 
DataValue, 0.76, 5.0908E-10, 
DataValue, 0.78, 5.1645E-10, 
DataValue, 0.8, 5.328E-10, 
DataValue, 0.82000000000000006, 5.4103E-10, 
DataValue, 0.84000000000000008, 5.5916E-10, 
DataValue, 0.86, 5.6525E-10, 
DataValue, 0.88, 5.8224E-10, 
DataValue, 0.9, 5.8912E-10, 
DataValue, 0.92, 6.0482E-10, 
DataValue, 0.94000000000000006, 6.1443E-10, 
DataValue, 0.96000000000000008, 6.309E-10, 
DataValue, 0.98000000000000009, 6.4073E-10, 
DataValue, 1, 6.5414E-10, 