
SetupTitle, WW
PrimitiveTest, I/V Sweep
TestParameter, Context.MainFrame, B1500A
TestParameter, Channel.UnitType, SMU, SMU
TestParameter, Channel.Unit, SMU2:HP, SMU1:HP
TestParameter, Channel.IName, I1, I4
TestParameter, Channel.VName, V1, V4
TestParameter, Channel.Mode, V, COMMON
TestParameter, Channel.Func, VAR1, CONST
TestParameter, Channel.Index, 
TestParameter, Channel.Time, 
TestParameter, Measurement.Port.Unit, SMU2:HP, SMU1:HP
TestParameter, Measurement.Port.SeriesResistor, NONE, NONE
TestParameter, Measurement.Port.Filter, ON, ON
TestParameter, Measurement.Port.OutputVoltageComparison, 0, 0
TestParameter, Measurement.Primary.Locus, Single
TestParameter, Measurement.Primary.Scale, LINEAR
TestParameter, Measurement.Primary.Start, -1
TestParameter, Measurement.Primary.Stop, 1
TestParameter, Measurement.Primary.Step, 0.02
TestParameter, Measurement.Primary.Compliance, 0.01
TestParameter, Measurement.Primary.PowerCompliance, 0
TestParameter, Measurement.Aborting.Condition, CONTINUE AT ANY
TestParameter, Measurement.PostOutput.Value, START
TestParameter, Measurement.PostOutput.Retention, OFF
TestParameter, Measurement.Bias.Source, -1, 0
TestParameter, Measurement.Bias.Compliance, 0.01, 1
TestParameter, Measurement.Monitor.Unit, SMU2:HP, SMU1:HP
TestParameter, Measurement.Monitor.Adc, HR ADC, HR ADC
TestParameter, Measurement.Monitor.Measurement, Compliance Side, Compliance Side
TestParameter, Measurement.Monitor.RangingMode, AUTO, AUTO
TestParameter, Measurement.Monitor.RangeBoundary, , 
TestParameter, Measurement.Monitor.RangeRating, BY FULL RANGE, BY FULL RANGE
TestParameter, Measurement.Monitor.RangeRatingCoeff, 50, 50
TestParameter, Measurement.Timing.Hold, 0
TestParameter, Measurement.Timing.Delay, 0.001
TestParameter, Measurement.Adc.HighSpeed.Mode, AUTO
TestParameter, Measurement.Adc.HighSpeed.Coeff, 1
TestParameter, Measurement.Adc.HighResolution.AutoZero, OFF
TestParameter, Measurement.Adc.HighResolution.Mode, PLC
TestParameter, Measurement.Adc.HighResolution.Coeff, 1
TestParameter, Measurement.WaitTime.Source.Coeff, 1
TestParameter, Measurement.WaitTime.Source.Offset, 0
TestParameter, Measurement.WaitTime.Monitor.Coeff, 1
TestParameter, Measurement.WaitTime.Monitor.Offset, 0
TestParameter, Function.User.Name, Ohmic
TestParameter, Function.User.Unit, ohm
TestParameter, Function.User.Definition, avg(V1/I1)
TestParameter, Output.Graph.Enabled, true
TestParameter, Output.Graph.XAxis.Data, V1
TestParameter, Output.Graph.XAxis.Scale, Linear
TestParameter, Output.Graph.XAxis.Left, -5
TestParameter, Output.Graph.XAxis.Right, 5
TestParameter, Output.Graph.YAxis.Data, I1
TestParameter, Output.Graph.YAxis.Scale, Linear
TestParameter, Output.Graph.YAxis.Bottom, -0.001
TestParameter, Output.Graph.YAxis.Top, 0.001
TestParameter, Output.Graph.YAxis.Group, 
TestParameter, Output.Scalar.Data, Ohmic
TestParameter, AutoAnalysis.Interpolation, false
TestParameter, AutoAnalysis.Line1.Enabled, false
TestParameter, AutoAnalysis.Line1.Type, 1
TestParameter, AutoAnalysis.Line1.Fix, True
TestParameter, AutoAnalysis.Line1.YAxis, 0
TestParameter, AutoAnalysis.Line1.Point1.Type, 0
TestParameter, AutoAnalysis.Line1.Point1.XY.X, 
TestParameter, AutoAnalysis.Line1.Point1.XY.Y, 
TestParameter, AutoAnalysis.Line1.Point1.Data.Var, 
TestParameter, AutoAnalysis.Line1.Point1.Data.Condition, 
TestParameter, AutoAnalysis.Line1.Point1.Data.Start, false
TestParameter, AutoAnalysis.Line1.Point1.Data.StartVar, 
TestParameter, AutoAnalysis.Line1.Point1.Data.StartCondition, 
TestParameter, AutoAnalysis.Line1.Point2.Type, 0
TestParameter, AutoAnalysis.Line1.Point2.XY.X, 
TestParameter, AutoAnalysis.Line1.Point2.XY.Y, 
TestParameter, AutoAnalysis.Line1.Point2.Data.Var, 
TestParameter, AutoAnalysis.Line1.Point2.Data.Condition, 
TestParameter, AutoAnalysis.Line1.Point2.Data.Start, false
TestParameter, AutoAnalysis.Line1.Point2.Data.StartVar, 
TestParameter, AutoAnalysis.Line1.Point2.Data.StartCondition, 
TestParameter, AutoAnalysis.Line1.GradientExpr, 0
TestParameter, AutoAnalysis.Line2.Enabled, false
TestParameter, AutoAnalysis.Line2.Type, 1
TestParameter, AutoAnalysis.Line2.Fix, True
TestParameter, AutoAnalysis.Line2.YAxis, 0
TestParameter, AutoAnalysis.Line2.Point1.Type, 0
TestParameter, AutoAnalysis.Line2.Point1.XY.X, 
TestParameter, AutoAnalysis.Line2.Point1.XY.Y, 
TestParameter, AutoAnalysis.Line2.Point1.Data.Var, 
TestParameter, AutoAnalysis.Line2.Point1.Data.Condition, 
TestParameter, AutoAnalysis.Line2.Point1.Data.Start, false
TestParameter, AutoAnalysis.Line2.Point1.Data.StartVar, 
TestParameter, AutoAnalysis.Line2.Point1.Data.StartCondition, 
TestParameter, AutoAnalysis.Line2.Point2.Type, 0
TestParameter, AutoAnalysis.Line2.Point2.XY.X, 
TestParameter, AutoAnalysis.Line2.Point2.XY.Y, 
TestParameter, AutoAnalysis.Line2.Point2.Data.Var, 
TestParameter, AutoAnalysis.Line2.Point2.Data.Condition, 
TestParameter, AutoAnalysis.Line2.Point2.Data.Start, false
TestParameter, AutoAnalysis.Line2.Point2.Data.StartVar, 
TestParameter, AutoAnalysis.Line2.Point2.Data.StartCondition, 
TestParameter, AutoAnalysis.Line2.GradientExpr, 0
TestParameter, AutoAnalysis.Marker.Enabled, false
TestParameter, AutoAnalysis.Marker.Data.Var, 
TestParameter, AutoAnalysis.Marker.Data.Condition, 
TestParameter, AutoAnalysis.Marker.Data.Start, false
TestParameter, AutoAnalysis.Marker.Data.StartVar, 
TestParameter, AutoAnalysis.Marker.Data.StartCondition, 
MetaData, TestRecord.EntryPoint, true
MetaData, TestRecord.RecordTime, 01/18/2020 19:15:32
MetaData, TestRecord.TestTarget, 
MetaData, TestRecord.IterationIndex, 50
MetaData, TestRecord.Preservation, true
MetaData, TestRecord.Flag, 
MetaData, TestRecord.Remarks, 
MetaData, TestRecord.LinkKey, efae2e01-b69c-4c39-aa56-3684a762e79a
Dimension1, 101, 101, 101
Dimension2, 1, 1, 1
DataName, V1, I1, Ohmic
DataValue, -1, -1.6601E-10, 5249602626.9600754
DataValue, -0.98000000000000009, -1.5667E-10, 
DataValue, -0.96000000000000008, -1.5275E-10, 
DataValue, -0.94000000000000006, -1.4465E-10, 
DataValue, -0.92, -1.4548E-10, 
DataValue, -0.9, -1.3638E-10, 
DataValue, -0.88, -1.3588E-10, 
DataValue, -0.86, -1.2998E-10, 
DataValue, -0.84000000000000008, -1.3076E-10, 
DataValue, -0.82000000000000006, -1.2508E-10, 
DataValue, -0.8, -1.2383E-10, 
DataValue, -0.78, -1.1882E-10, 
DataValue, -0.76, -1.178E-10, 
DataValue, -0.74, -1.0853E-10, 
DataValue, -0.72000000000000008, -1.0696999999999999E-10, 
DataValue, -0.70000000000000007, -9.769E-11, 
DataValue, -0.68, -9.744E-11, 
DataValue, -0.66, -9.268E-11, 
DataValue, -0.64, -8.979E-11, 
DataValue, -0.62, -8.593E-11, 
DataValue, -0.6, -8.009E-11, 
DataValue, -0.58000000000000007, -7.11E-11, 
DataValue, -0.56, -7.46E-11, 
DataValue, -0.54, -6.593E-11, 
DataValue, -0.52, -6.886E-11, 
DataValue, -0.5, -6.012E-11, 
DataValue, -0.48000000000000004, -5.546E-11, 
DataValue, -0.46, -4.712E-11, 
DataValue, -0.44, -4.574E-11, 
DataValue, -0.42000000000000004, -4.173E-11, 
DataValue, -0.4, -4.25E-11, 
DataValue, -0.38, -3.808E-11, 
DataValue, -0.36000000000000004, -3.677E-11, 
DataValue, -0.34, -3.128E-11, 
DataValue, -0.32, -2.845E-11, 
DataValue, -0.3, -2.207E-11, 
DataValue, -0.28, -2.144E-11, 
DataValue, -0.26, -1.651E-11, 
DataValue, -0.24000000000000002, -1.587E-11, 
DataValue, -0.22, -1.104E-11, 
DataValue, -0.2, -9.71E-12, 
DataValue, -0.18000000000000002, -6.34E-12, 
DataValue, -0.16, -4.66E-12, 
DataValue, -0.14, -1.21E-12, 
DataValue, -0.12000000000000001, 2.19E-12, 
DataValue, -0.1, 7.44E-12, 
DataValue, -0.08, 1.102E-11, 
DataValue, -0.060000000000000005, 2.246E-11, 
DataValue, -0.04, 3.429E-11, 
DataValue, -0.02, 5.254E-11, 
DataValue, 0, 7.128E-11, 
DataValue, 0.02, 9.247E-11, 
DataValue, 0.04, 1.0773E-10, 
DataValue, 0.060000000000000005, 1.2518E-10, 
DataValue, 0.08, 1.3478E-10, 
DataValue, 0.1, 1.4829E-10, 
DataValue, 0.12000000000000001, 1.5551E-10, 
DataValue, 0.14, 1.6736E-10, 
DataValue, 0.16, 1.7418E-10, 
DataValue, 0.18000000000000002, 1.847E-10, 
DataValue, 0.2, 1.9137E-10, 
DataValue, 0.22, 2.0108E-10, 
DataValue, 0.24000000000000002, 2.0996E-10, 
DataValue, 0.26, 2.2143E-10, 
DataValue, 0.28, 2.2816E-10, 
DataValue, 0.3, 2.4239E-10, 
DataValue, 0.32, 2.5031E-10, 
DataValue, 0.34, 2.6199E-10, 
DataValue, 0.36000000000000004, 2.6983E-10, 
DataValue, 0.38, 2.8482E-10, 
DataValue, 0.4, 2.8906E-10, 
DataValue, 0.42000000000000004, 3.0512E-10, 
DataValue, 0.44, 3.0863E-10, 
DataValue, 0.46, 3.2284E-10, 
DataValue, 0.48000000000000004, 3.334E-10, 
DataValue, 0.5, 3.4672E-10, 
DataValue, 0.52, 3.5617E-10, 
DataValue, 0.54, 3.667E-10, 
DataValue, 0.56, 3.7868E-10, 
DataValue, 0.58000000000000007, 3.9023E-10, 
DataValue, 0.6, 4.0454E-10, 
DataValue, 0.62, 4.1253E-10, 
DataValue, 0.64, 4.2403E-10, 
DataValue, 0.66, 4.4065E-10, 
DataValue, 0.68, 4.5168E-10, 
DataValue, 0.70000000000000007, 4.6567E-10, 
DataValue, 0.72000000000000008, 4.7335E-10, 
DataValue, 0.74, 4.9272E-10, 
DataValue, 0.76, 5.0236E-10, 
DataValue, 0.78, 5.1699E-10, 
DataValue, 0.8, 5.2831E-10, 
DataValue, 0.82000000000000006, 5.3979E-10, 
DataValue, 0.84000000000000008, 5.5353E-10, 
DataValue, 0.86, 5.7016E-10, 
DataValue, 0.88, 5.7391E-10, 
DataValue, 0.9, 5.9122E-10, 
DataValue, 0.92, 6.0778E-10, 
DataValue, 0.94000000000000006, 6.2173E-10, 
DataValue, 0.96000000000000008, 6.3432E-10, 
DataValue, 0.98000000000000009, 6.4647E-10, 
DataValue, 1, 6.5314E-10, 