
SetupTitle, WW
PrimitiveTest, I/V Sweep
TestParameter, Context.MainFrame, B1500A
TestParameter, Channel.UnitType, SMU, SMU
TestParameter, Channel.Unit, SMU2:HP, SMU1:HP
TestParameter, Channel.IName, I1, I4
TestParameter, Channel.VName, V1, V4
TestParameter, Channel.Mode, V, COMMON
TestParameter, Channel.Func, VAR1, CONST
TestParameter, Channel.Index, 
TestParameter, Channel.Time, 
TestParameter, Measurement.Port.Unit, SMU2:HP, SMU1:HP
TestParameter, Measurement.Port.SeriesResistor, NONE, NONE
TestParameter, Measurement.Port.Filter, ON, ON
TestParameter, Measurement.Port.OutputVoltageComparison, 0, 0
TestParameter, Measurement.Primary.Locus, Single
TestParameter, Measurement.Primary.Scale, LINEAR
TestParameter, Measurement.Primary.Start, -1
TestParameter, Measurement.Primary.Stop, 1
TestParameter, Measurement.Primary.Step, 0.02
TestParameter, Measurement.Primary.Compliance, 0.01
TestParameter, Measurement.Primary.PowerCompliance, 0
TestParameter, Measurement.Aborting.Condition, CONTINUE AT ANY
TestParameter, Measurement.PostOutput.Value, START
TestParameter, Measurement.PostOutput.Retention, OFF
TestParameter, Measurement.Bias.Source, -1, 0
TestParameter, Measurement.Bias.Compliance, 0.01, 1
TestParameter, Measurement.Monitor.Unit, SMU2:HP, SMU1:HP
TestParameter, Measurement.Monitor.Adc, HR ADC, HR ADC
TestParameter, Measurement.Monitor.Measurement, Compliance Side, Compliance Side
TestParameter, Measurement.Monitor.RangingMode, AUTO, AUTO
TestParameter, Measurement.Monitor.RangeBoundary, , 
TestParameter, Measurement.Monitor.RangeRating, BY FULL RANGE, BY FULL RANGE
TestParameter, Measurement.Monitor.RangeRatingCoeff, 50, 50
TestParameter, Measurement.Timing.Hold, 0
TestParameter, Measurement.Timing.Delay, 0.001
TestParameter, Measurement.Adc.HighSpeed.Mode, AUTO
TestParameter, Measurement.Adc.HighSpeed.Coeff, 1
TestParameter, Measurement.Adc.HighResolution.AutoZero, OFF
TestParameter, Measurement.Adc.HighResolution.Mode, PLC
TestParameter, Measurement.Adc.HighResolution.Coeff, 1
TestParameter, Measurement.WaitTime.Source.Coeff, 1
TestParameter, Measurement.WaitTime.Source.Offset, 0
TestParameter, Measurement.WaitTime.Monitor.Coeff, 1
TestParameter, Measurement.WaitTime.Monitor.Offset, 0
TestParameter, Function.User.Name, Ohmic
TestParameter, Function.User.Unit, ohm
TestParameter, Function.User.Definition, avg(V1/I1)
TestParameter, Output.Graph.Enabled, true
TestParameter, Output.Graph.XAxis.Data, V1
TestParameter, Output.Graph.XAxis.Scale, Linear
TestParameter, Output.Graph.XAxis.Left, -5
TestParameter, Output.Graph.XAxis.Right, 5
TestParameter, Output.Graph.YAxis.Data, I1
TestParameter, Output.Graph.YAxis.Scale, Linear
TestParameter, Output.Graph.YAxis.Bottom, -0.001
TestParameter, Output.Graph.YAxis.Top, 0.001
TestParameter, Output.Graph.YAxis.Group, 
TestParameter, Output.Scalar.Data, Ohmic
TestParameter, AutoAnalysis.Interpolation, false
TestParameter, AutoAnalysis.Line1.Enabled, false
TestParameter, AutoAnalysis.Line1.Type, 1
TestParameter, AutoAnalysis.Line1.Fix, True
TestParameter, AutoAnalysis.Line1.YAxis, 0
TestParameter, AutoAnalysis.Line1.Point1.Type, 0
TestParameter, AutoAnalysis.Line1.Point1.XY.X, 
TestParameter, AutoAnalysis.Line1.Point1.XY.Y, 
TestParameter, AutoAnalysis.Line1.Point1.Data.Var, 
TestParameter, AutoAnalysis.Line1.Point1.Data.Condition, 
TestParameter, AutoAnalysis.Line1.Point1.Data.Start, false
TestParameter, AutoAnalysis.Line1.Point1.Data.StartVar, 
TestParameter, AutoAnalysis.Line1.Point1.Data.StartCondition, 
TestParameter, AutoAnalysis.Line1.Point2.Type, 0
TestParameter, AutoAnalysis.Line1.Point2.XY.X, 
TestParameter, AutoAnalysis.Line1.Point2.XY.Y, 
TestParameter, AutoAnalysis.Line1.Point2.Data.Var, 
TestParameter, AutoAnalysis.Line1.Point2.Data.Condition, 
TestParameter, AutoAnalysis.Line1.Point2.Data.Start, false
TestParameter, AutoAnalysis.Line1.Point2.Data.StartVar, 
TestParameter, AutoAnalysis.Line1.Point2.Data.StartCondition, 
TestParameter, AutoAnalysis.Line1.GradientExpr, 0
TestParameter, AutoAnalysis.Line2.Enabled, false
TestParameter, AutoAnalysis.Line2.Type, 1
TestParameter, AutoAnalysis.Line2.Fix, True
TestParameter, AutoAnalysis.Line2.YAxis, 0
TestParameter, AutoAnalysis.Line2.Point1.Type, 0
TestParameter, AutoAnalysis.Line2.Point1.XY.X, 
TestParameter, AutoAnalysis.Line2.Point1.XY.Y, 
TestParameter, AutoAnalysis.Line2.Point1.Data.Var, 
TestParameter, AutoAnalysis.Line2.Point1.Data.Condition, 
TestParameter, AutoAnalysis.Line2.Point1.Data.Start, false
TestParameter, AutoAnalysis.Line2.Point1.Data.StartVar, 
TestParameter, AutoAnalysis.Line2.Point1.Data.StartCondition, 
TestParameter, AutoAnalysis.Line2.Point2.Type, 0
TestParameter, AutoAnalysis.Line2.Point2.XY.X, 
TestParameter, AutoAnalysis.Line2.Point2.XY.Y, 
TestParameter, AutoAnalysis.Line2.Point2.Data.Var, 
TestParameter, AutoAnalysis.Line2.Point2.Data.Condition, 
TestParameter, AutoAnalysis.Line2.Point2.Data.Start, false
TestParameter, AutoAnalysis.Line2.Point2.Data.StartVar, 
TestParameter, AutoAnalysis.Line2.Point2.Data.StartCondition, 
TestParameter, AutoAnalysis.Line2.GradientExpr, 0
TestParameter, AutoAnalysis.Marker.Enabled, false
TestParameter, AutoAnalysis.Marker.Data.Var, 
TestParameter, AutoAnalysis.Marker.Data.Condition, 
TestParameter, AutoAnalysis.Marker.Data.Start, false
TestParameter, AutoAnalysis.Marker.Data.StartVar, 
TestParameter, AutoAnalysis.Marker.Data.StartCondition, 
MetaData, TestRecord.EntryPoint, true
MetaData, TestRecord.RecordTime, 01/18/2020 19:15:00
MetaData, TestRecord.TestTarget, 
MetaData, TestRecord.IterationIndex, 49
MetaData, TestRecord.Preservation, true
MetaData, TestRecord.Flag, 
MetaData, TestRecord.Remarks, 
MetaData, TestRecord.LinkKey, 4e774e95-84ec-4d1d-8420-29e44e4d6a93
Dimension1, 101, 101, 101
Dimension2, 1, 1, 1
DataName, V1, I1, Ohmic
DataValue, -1, -1.5047E-10, 4162884106.4554043
DataValue, -0.98000000000000009, -1.6558E-10, 
DataValue, -0.96000000000000008, -1.4899E-10, 
DataValue, -0.94000000000000006, -1.4037E-10, 
DataValue, -0.92, -1.3018E-10, 
DataValue, -0.9, -1.2906E-10, 
DataValue, -0.88, -1.2053E-10, 
DataValue, -0.86, -1.2041E-10, 
DataValue, -0.84000000000000008, -1.1503E-10, 
DataValue, -0.82000000000000006, -1.1211E-10, 
DataValue, -0.8, -1.074E-10, 
DataValue, -0.78, -1.0731E-10, 
DataValue, -0.76, -1.0367E-10, 
DataValue, -0.74, -1.0156E-10, 
DataValue, -0.72000000000000008, -1.0913E-10, 
DataValue, -0.70000000000000007, -9.613E-11, 
DataValue, -0.68, -8.846E-11, 
DataValue, -0.66, -8.384E-11, 
DataValue, -0.64, -7.8679999999999994E-11, 
DataValue, -0.62, -7.543E-11, 
DataValue, -0.6, -7.08E-11, 
DataValue, -0.58000000000000007, -7.14E-11, 
DataValue, -0.56, -6.432E-11, 
DataValue, -0.54, -6.339E-11, 
DataValue, -0.52, -5.744E-11, 
DataValue, -0.5, -5.667E-11, 
DataValue, -0.48000000000000004, -5.406E-11, 
DataValue, -0.46, -5.086E-11, 
DataValue, -0.44, -4.559E-11, 
DataValue, -0.42000000000000004, -4.576E-11, 
DataValue, -0.4, -4.081E-11, 
DataValue, -0.38, -3.941E-11, 
DataValue, -0.36000000000000004, -3.393E-11, 
DataValue, -0.34, -3.317E-11, 
DataValue, -0.32, -2.871E-11, 
DataValue, -0.3, -3.952E-11, 
DataValue, -0.28, -2.947E-11, 
DataValue, -0.26, -2.716E-11, 
DataValue, -0.24000000000000002, -2.209E-11, 
DataValue, -0.22, -2.102E-11, 
DataValue, -0.2, -1.547E-11, 
DataValue, -0.18000000000000002, -1.65E-11, 
DataValue, -0.16, -9.38E-12, 
DataValue, -0.14, -1.066E-11, 
DataValue, -0.12000000000000001, -5.69E-12, 
DataValue, -0.1, -2.088E-11, 
DataValue, -0.08, 1.7E-12, 
DataValue, -0.060000000000000005, 9.6E-12, 
DataValue, -0.04, 2.751E-11, 
DataValue, -0.02, 4.389E-11, 
DataValue, 0, 6.751E-11, 
DataValue, 0.02, 8.639E-11, 
DataValue, 0.04, 1.0787E-10, 
DataValue, 0.060000000000000005, 1.211E-10, 
DataValue, 0.08, 1.3637E-10, 
DataValue, 0.1, 1.4593E-10, 
DataValue, 0.12000000000000001, 1.5802E-10, 
DataValue, 0.14, 1.6652E-10, 
DataValue, 0.16, 1.7729E-10, 
DataValue, 0.18000000000000002, 1.8388E-10, 
DataValue, 0.2, 1.9598E-10, 
DataValue, 0.22, 2.0281E-10, 
DataValue, 0.24000000000000002, 2.1625E-10, 
DataValue, 0.26, 2.2251E-10, 
DataValue, 0.28, 2.3367E-10, 
DataValue, 0.3, 2.4268E-10, 
DataValue, 0.32, 2.5463E-10, 
DataValue, 0.34, 2.6144E-10, 
DataValue, 0.36000000000000004, 2.7269E-10, 
DataValue, 0.38, 2.7868E-10, 
DataValue, 0.4, 2.9127E-10, 
DataValue, 0.42000000000000004, 2.96E-10, 
DataValue, 0.44, 3.1314E-10, 
DataValue, 0.46, 3.2221E-10, 
DataValue, 0.48000000000000004, 3.3615E-10, 
DataValue, 0.5, 3.4372E-10, 
DataValue, 0.52, 3.6261E-10, 
DataValue, 0.54, 3.7309E-10, 
DataValue, 0.56, 3.8528E-10, 
DataValue, 0.58000000000000007, 3.8913E-10, 
DataValue, 0.6, 4.1055E-10, 
DataValue, 0.62, 4.2132E-10, 
DataValue, 0.64, 4.328E-10, 
DataValue, 0.66, 4.4321E-10, 
DataValue, 0.68, 4.6011E-10, 
DataValue, 0.70000000000000007, 4.6899E-10, 
DataValue, 0.72000000000000008, 4.7921E-10, 
DataValue, 0.74, 4.8855E-10, 
DataValue, 0.76, 5.0528E-10, 
DataValue, 0.78, 5.1761E-10, 
DataValue, 0.8, 5.2749E-10, 
DataValue, 0.82000000000000006, 5.4091E-10, 
DataValue, 0.84000000000000008, 5.5335E-10, 
DataValue, 0.86, 5.6151E-10, 
DataValue, 0.88, 5.7682E-10, 
DataValue, 0.9, 5.8694E-10, 
DataValue, 0.92, 6.0206E-10, 
DataValue, 0.94000000000000006, 6.1622E-10, 
DataValue, 0.96000000000000008, 6.2709E-10, 
DataValue, 0.98000000000000009, 6.3832E-10, 
DataValue, 1, 6.5405E-10, 