
SetupTitle, WW
PrimitiveTest, I/V Sweep
TestParameter, Context.MainFrame, B1500A
TestParameter, Channel.UnitType, SMU, SMU
TestParameter, Channel.Unit, SMU2:HP, SMU1:HP
TestParameter, Channel.IName, I1, I4
TestParameter, Channel.VName, V1, V4
TestParameter, Channel.Mode, V, COMMON
TestParameter, Channel.Func, VAR1, CONST
TestParameter, Channel.Index, 
TestParameter, Channel.Time, 
TestParameter, Measurement.Port.Unit, SMU2:HP, SMU1:HP
TestParameter, Measurement.Port.SeriesResistor, NONE, NONE
TestParameter, Measurement.Port.Filter, ON, ON
TestParameter, Measurement.Port.OutputVoltageComparison, 0, 0
TestParameter, Measurement.Primary.Locus, Single
TestParameter, Measurement.Primary.Scale, LINEAR
TestParameter, Measurement.Primary.Start, -1
TestParameter, Measurement.Primary.Stop, 1
TestParameter, Measurement.Primary.Step, 0.02
TestParameter, Measurement.Primary.Compliance, 0.01
TestParameter, Measurement.Primary.PowerCompliance, 0
TestParameter, Measurement.Aborting.Condition, CONTINUE AT ANY
TestParameter, Measurement.PostOutput.Value, START
TestParameter, Measurement.PostOutput.Retention, OFF
TestParameter, Measurement.Bias.Source, -1, 0
TestParameter, Measurement.Bias.Compliance, 0.01, 1
TestParameter, Measurement.Monitor.Unit, SMU2:HP, SMU1:HP
TestParameter, Measurement.Monitor.Adc, HR ADC, HR ADC
TestParameter, Measurement.Monitor.Measurement, Compliance Side, Compliance Side
TestParameter, Measurement.Monitor.RangingMode, AUTO, AUTO
TestParameter, Measurement.Monitor.RangeBoundary, , 
TestParameter, Measurement.Monitor.RangeRating, BY FULL RANGE, BY FULL RANGE
TestParameter, Measurement.Monitor.RangeRatingCoeff, 50, 50
TestParameter, Measurement.Timing.Hold, 0
TestParameter, Measurement.Timing.Delay, 0.001
TestParameter, Measurement.Adc.HighSpeed.Mode, AUTO
TestParameter, Measurement.Adc.HighSpeed.Coeff, 1
TestParameter, Measurement.Adc.HighResolution.AutoZero, OFF
TestParameter, Measurement.Adc.HighResolution.Mode, PLC
TestParameter, Measurement.Adc.HighResolution.Coeff, 1
TestParameter, Measurement.WaitTime.Source.Coeff, 1
TestParameter, Measurement.WaitTime.Source.Offset, 0
TestParameter, Measurement.WaitTime.Monitor.Coeff, 1
TestParameter, Measurement.WaitTime.Monitor.Offset, 0
TestParameter, Function.User.Name, Ohmic
TestParameter, Function.User.Unit, ohm
TestParameter, Function.User.Definition, avg(V1/I1)
TestParameter, Output.Graph.Enabled, true
TestParameter, Output.Graph.XAxis.Data, V1
TestParameter, Output.Graph.XAxis.Scale, Linear
TestParameter, Output.Graph.XAxis.Left, -5
TestParameter, Output.Graph.XAxis.Right, 5
TestParameter, Output.Graph.YAxis.Data, I1
TestParameter, Output.Graph.YAxis.Scale, Linear
TestParameter, Output.Graph.YAxis.Bottom, -0.001
TestParameter, Output.Graph.YAxis.Top, 0.001
TestParameter, Output.Graph.YAxis.Group, 
TestParameter, Output.Scalar.Data, Ohmic
TestParameter, AutoAnalysis.Interpolation, false
TestParameter, AutoAnalysis.Line1.Enabled, false
TestParameter, AutoAnalysis.Line1.Type, 1
TestParameter, AutoAnalysis.Line1.Fix, True
TestParameter, AutoAnalysis.Line1.YAxis, 0
TestParameter, AutoAnalysis.Line1.Point1.Type, 0
TestParameter, AutoAnalysis.Line1.Point1.XY.X, 
TestParameter, AutoAnalysis.Line1.Point1.XY.Y, 
TestParameter, AutoAnalysis.Line1.Point1.Data.Var, 
TestParameter, AutoAnalysis.Line1.Point1.Data.Condition, 
TestParameter, AutoAnalysis.Line1.Point1.Data.Start, false
TestParameter, AutoAnalysis.Line1.Point1.Data.StartVar, 
TestParameter, AutoAnalysis.Line1.Point1.Data.StartCondition, 
TestParameter, AutoAnalysis.Line1.Point2.Type, 0
TestParameter, AutoAnalysis.Line1.Point2.XY.X, 
TestParameter, AutoAnalysis.Line1.Point2.XY.Y, 
TestParameter, AutoAnalysis.Line1.Point2.Data.Var, 
TestParameter, AutoAnalysis.Line1.Point2.Data.Condition, 
TestParameter, AutoAnalysis.Line1.Point2.Data.Start, false
TestParameter, AutoAnalysis.Line1.Point2.Data.StartVar, 
TestParameter, AutoAnalysis.Line1.Point2.Data.StartCondition, 
TestParameter, AutoAnalysis.Line1.GradientExpr, 0
TestParameter, AutoAnalysis.Line2.Enabled, false
TestParameter, AutoAnalysis.Line2.Type, 1
TestParameter, AutoAnalysis.Line2.Fix, True
TestParameter, AutoAnalysis.Line2.YAxis, 0
TestParameter, AutoAnalysis.Line2.Point1.Type, 0
TestParameter, AutoAnalysis.Line2.Point1.XY.X, 
TestParameter, AutoAnalysis.Line2.Point1.XY.Y, 
TestParameter, AutoAnalysis.Line2.Point1.Data.Var, 
TestParameter, AutoAnalysis.Line2.Point1.Data.Condition, 
TestParameter, AutoAnalysis.Line2.Point1.Data.Start, false
TestParameter, AutoAnalysis.Line2.Point1.Data.StartVar, 
TestParameter, AutoAnalysis.Line2.Point1.Data.StartCondition, 
TestParameter, AutoAnalysis.Line2.Point2.Type, 0
TestParameter, AutoAnalysis.Line2.Point2.XY.X, 
TestParameter, AutoAnalysis.Line2.Point2.XY.Y, 
TestParameter, AutoAnalysis.Line2.Point2.Data.Var, 
TestParameter, AutoAnalysis.Line2.Point2.Data.Condition, 
TestParameter, AutoAnalysis.Line2.Point2.Data.Start, false
TestParameter, AutoAnalysis.Line2.Point2.Data.StartVar, 
TestParameter, AutoAnalysis.Line2.Point2.Data.StartCondition, 
TestParameter, AutoAnalysis.Line2.GradientExpr, 0
TestParameter, AutoAnalysis.Marker.Enabled, false
TestParameter, AutoAnalysis.Marker.Data.Var, 
TestParameter, AutoAnalysis.Marker.Data.Condition, 
TestParameter, AutoAnalysis.Marker.Data.Start, false
TestParameter, AutoAnalysis.Marker.Data.StartVar, 
TestParameter, AutoAnalysis.Marker.Data.StartCondition, 
MetaData, TestRecord.EntryPoint, true
MetaData, TestRecord.RecordTime, 01/18/2020 19:13:32
MetaData, TestRecord.TestTarget, 
MetaData, TestRecord.IterationIndex, 46
MetaData, TestRecord.Preservation, true
MetaData, TestRecord.Flag, 
MetaData, TestRecord.Remarks, 
MetaData, TestRecord.LinkKey, 6047734e-597e-4b3e-b593-13cb103ffc51
Dimension1, 101, 101, 101
Dimension2, 1, 1, 1
DataName, V1, I1, Ohmic
DataValue, -1, -1.4227E-10, 5428291223.7632227
DataValue, -0.98000000000000009, -1.3722E-10, 
DataValue, -0.96000000000000008, -1.2932E-10, 
DataValue, -0.94000000000000006, -1.2196E-10, 
DataValue, -0.92, -1.2254E-10, 
DataValue, -0.9, -1.1646E-10, 
DataValue, -0.88, -1.1149E-10, 
DataValue, -0.86, -1.01E-10, 
DataValue, -0.84000000000000008, -1.0053E-10, 
DataValue, -0.82000000000000006, -9.508E-11, 
DataValue, -0.8, -9.786E-11, 
DataValue, -0.78, -9.119E-11, 
DataValue, -0.76, -9.019E-11, 
DataValue, -0.74, -8.507E-11, 
DataValue, -0.72000000000000008, -8.146E-11, 
DataValue, -0.70000000000000007, -7.628E-11, 
DataValue, -0.68, -7.384E-11, 
DataValue, -0.66, -7.198E-11, 
DataValue, -0.64, -7.182E-11, 
DataValue, -0.62, -6.586E-11, 
DataValue, -0.6, -6.653E-11, 
DataValue, -0.58000000000000007, -5.95E-11, 
DataValue, -0.56, -6.22E-11, 
DataValue, -0.54, -5.643E-11, 
DataValue, -0.52, -5.541E-11, 
DataValue, -0.5, -4.937E-11, 
DataValue, -0.48000000000000004, -4.882E-11, 
DataValue, -0.46, -4.492E-11, 
DataValue, -0.44, -4.502E-11, 
DataValue, -0.42000000000000004, -3.897E-11, 
DataValue, -0.4, -3.776E-11, 
DataValue, -0.38, -3.367E-11, 
DataValue, -0.36000000000000004, -3.401E-11, 
DataValue, -0.34, -2.647E-11, 
DataValue, -0.32, -2.747E-11, 
DataValue, -0.3, -2.198E-11, 
DataValue, -0.28, -2.196E-11, 
DataValue, -0.26, -1.814E-11, 
DataValue, -0.24000000000000002, -1.856E-11, 
DataValue, -0.22, -1.199E-11, 
DataValue, -0.2, -1.398E-11, 
DataValue, -0.18000000000000002, -7.77E-12, 
DataValue, -0.16, -9.01E-12, 
DataValue, -0.14, -3.35E-12, 
DataValue, -0.12000000000000001, -3.64E-12, 
DataValue, -0.1, 4.05E-12, 
DataValue, -0.08, 6.34E-12, 
DataValue, -0.060000000000000005, 2.077E-11, 
DataValue, -0.04, 2.989E-11, 
DataValue, -0.02, 4.949E-11, 
DataValue, 0, 6.605E-11, 
DataValue, 0.02, 9.064E-11, 
DataValue, 0.04, 1.0561E-10, 
DataValue, 0.060000000000000005, 1.1989E-10, 
DataValue, 0.08, 1.3009E-10, 
DataValue, 0.1, 1.4402E-10, 
DataValue, 0.12000000000000001, 1.4979E-10, 
DataValue, 0.14, 1.6256E-10, 
DataValue, 0.16, 1.6759E-10, 
DataValue, 0.18000000000000002, 1.7979E-10, 
DataValue, 0.2, 1.8625E-10, 
DataValue, 0.22, 1.959E-10, 
DataValue, 0.24000000000000002, 1.9987E-10, 
DataValue, 0.26, 2.1674E-10, 
DataValue, 0.28, 2.2471E-10, 
DataValue, 0.3, 2.3347E-10, 
DataValue, 0.32, 2.4233E-10, 
DataValue, 0.34, 2.5431E-10, 
DataValue, 0.36000000000000004, 2.5784E-10, 
DataValue, 0.38, 2.7065E-10, 
DataValue, 0.4, 2.7917E-10, 
DataValue, 0.42000000000000004, 2.9265E-10, 
DataValue, 0.44, 3.021E-10, 
DataValue, 0.46, 3.1174E-10, 
DataValue, 0.48000000000000004, 3.2204E-10, 
DataValue, 0.5, 3.3433E-10, 
DataValue, 0.52, 3.4106E-10, 
DataValue, 0.54, 3.5773E-10, 
DataValue, 0.56, 3.6267E-10, 
DataValue, 0.58000000000000007, 3.7584E-10, 
DataValue, 0.6, 3.8287E-10, 
DataValue, 0.62, 3.9568E-10, 
DataValue, 0.64, 4.068E-10, 
DataValue, 0.66, 4.2227E-10, 
DataValue, 0.68, 4.2926E-10, 
DataValue, 0.70000000000000007, 4.3822E-10, 
DataValue, 0.72000000000000008, 4.4185E-10, 
DataValue, 0.74, 4.6354E-10, 
DataValue, 0.76, 4.6994E-10, 
DataValue, 0.78, 4.8729E-10, 
DataValue, 0.8, 4.9495E-10, 
DataValue, 0.82000000000000006, 5.094E-10, 
DataValue, 0.84000000000000008, 5.2383E-10, 
DataValue, 0.86, 5.3409E-10, 
DataValue, 0.88, 5.4091E-10, 
DataValue, 0.9, 5.5244E-10, 
DataValue, 0.92, 5.6536E-10, 
DataValue, 0.94000000000000006, 5.7726E-10, 
DataValue, 0.96000000000000008, 5.903E-10, 
DataValue, 0.98000000000000009, 5.9779E-10, 
DataValue, 1, 6.1213E-10, 