
SetupTitle, WW
PrimitiveTest, I/V Sweep
TestParameter, Context.MainFrame, B1500A
TestParameter, Channel.UnitType, SMU, SMU
TestParameter, Channel.Unit, SMU2:HP, SMU1:HP
TestParameter, Channel.IName, I1, I4
TestParameter, Channel.VName, V1, V4
TestParameter, Channel.Mode, V, COMMON
TestParameter, Channel.Func, VAR1, CONST
TestParameter, Channel.Index, 
TestParameter, Channel.Time, 
TestParameter, Measurement.Port.Unit, SMU2:HP, SMU1:HP
TestParameter, Measurement.Port.SeriesResistor, NONE, NONE
TestParameter, Measurement.Port.Filter, ON, ON
TestParameter, Measurement.Port.OutputVoltageComparison, 0, 0
TestParameter, Measurement.Primary.Locus, Single
TestParameter, Measurement.Primary.Scale, LINEAR
TestParameter, Measurement.Primary.Start, -1
TestParameter, Measurement.Primary.Stop, 1
TestParameter, Measurement.Primary.Step, 0.02
TestParameter, Measurement.Primary.Compliance, 0.01
TestParameter, Measurement.Primary.PowerCompliance, 0
TestParameter, Measurement.Aborting.Condition, CONTINUE AT ANY
TestParameter, Measurement.PostOutput.Value, START
TestParameter, Measurement.PostOutput.Retention, OFF
TestParameter, Measurement.Bias.Source, -1, 0
TestParameter, Measurement.Bias.Compliance, 0.01, 1
TestParameter, Measurement.Monitor.Unit, SMU2:HP, SMU1:HP
TestParameter, Measurement.Monitor.Adc, HR ADC, HR ADC
TestParameter, Measurement.Monitor.Measurement, Compliance Side, Compliance Side
TestParameter, Measurement.Monitor.RangingMode, AUTO, AUTO
TestParameter, Measurement.Monitor.RangeBoundary, , 
TestParameter, Measurement.Monitor.RangeRating, BY FULL RANGE, BY FULL RANGE
TestParameter, Measurement.Monitor.RangeRatingCoeff, 50, 50
TestParameter, Measurement.Timing.Hold, 0
TestParameter, Measurement.Timing.Delay, 0.001
TestParameter, Measurement.Adc.HighSpeed.Mode, AUTO
TestParameter, Measurement.Adc.HighSpeed.Coeff, 1
TestParameter, Measurement.Adc.HighResolution.AutoZero, OFF
TestParameter, Measurement.Adc.HighResolution.Mode, PLC
TestParameter, Measurement.Adc.HighResolution.Coeff, 1
TestParameter, Measurement.WaitTime.Source.Coeff, 1
TestParameter, Measurement.WaitTime.Source.Offset, 0
TestParameter, Measurement.WaitTime.Monitor.Coeff, 1
TestParameter, Measurement.WaitTime.Monitor.Offset, 0
TestParameter, Function.User.Name, Ohmic
TestParameter, Function.User.Unit, ohm
TestParameter, Function.User.Definition, avg(V1/I1)
TestParameter, Output.Graph.Enabled, true
TestParameter, Output.Graph.XAxis.Data, V1
TestParameter, Output.Graph.XAxis.Scale, Linear
TestParameter, Output.Graph.XAxis.Left, -5
TestParameter, Output.Graph.XAxis.Right, 5
TestParameter, Output.Graph.YAxis.Data, I1
TestParameter, Output.Graph.YAxis.Scale, Linear
TestParameter, Output.Graph.YAxis.Bottom, -0.001
TestParameter, Output.Graph.YAxis.Top, 0.001
TestParameter, Output.Graph.YAxis.Group, 
TestParameter, Output.Scalar.Data, Ohmic
TestParameter, AutoAnalysis.Interpolation, false
TestParameter, AutoAnalysis.Line1.Enabled, false
TestParameter, AutoAnalysis.Line1.Type, 1
TestParameter, AutoAnalysis.Line1.Fix, True
TestParameter, AutoAnalysis.Line1.YAxis, 0
TestParameter, AutoAnalysis.Line1.Point1.Type, 0
TestParameter, AutoAnalysis.Line1.Point1.XY.X, 
TestParameter, AutoAnalysis.Line1.Point1.XY.Y, 
TestParameter, AutoAnalysis.Line1.Point1.Data.Var, 
TestParameter, AutoAnalysis.Line1.Point1.Data.Condition, 
TestParameter, AutoAnalysis.Line1.Point1.Data.Start, false
TestParameter, AutoAnalysis.Line1.Point1.Data.StartVar, 
TestParameter, AutoAnalysis.Line1.Point1.Data.StartCondition, 
TestParameter, AutoAnalysis.Line1.Point2.Type, 0
TestParameter, AutoAnalysis.Line1.Point2.XY.X, 
TestParameter, AutoAnalysis.Line1.Point2.XY.Y, 
TestParameter, AutoAnalysis.Line1.Point2.Data.Var, 
TestParameter, AutoAnalysis.Line1.Point2.Data.Condition, 
TestParameter, AutoAnalysis.Line1.Point2.Data.Start, false
TestParameter, AutoAnalysis.Line1.Point2.Data.StartVar, 
TestParameter, AutoAnalysis.Line1.Point2.Data.StartCondition, 
TestParameter, AutoAnalysis.Line1.GradientExpr, 0
TestParameter, AutoAnalysis.Line2.Enabled, false
TestParameter, AutoAnalysis.Line2.Type, 1
TestParameter, AutoAnalysis.Line2.Fix, True
TestParameter, AutoAnalysis.Line2.YAxis, 0
TestParameter, AutoAnalysis.Line2.Point1.Type, 0
TestParameter, AutoAnalysis.Line2.Point1.XY.X, 
TestParameter, AutoAnalysis.Line2.Point1.XY.Y, 
TestParameter, AutoAnalysis.Line2.Point1.Data.Var, 
TestParameter, AutoAnalysis.Line2.Point1.Data.Condition, 
TestParameter, AutoAnalysis.Line2.Point1.Data.Start, false
TestParameter, AutoAnalysis.Line2.Point1.Data.StartVar, 
TestParameter, AutoAnalysis.Line2.Point1.Data.StartCondition, 
TestParameter, AutoAnalysis.Line2.Point2.Type, 0
TestParameter, AutoAnalysis.Line2.Point2.XY.X, 
TestParameter, AutoAnalysis.Line2.Point2.XY.Y, 
TestParameter, AutoAnalysis.Line2.Point2.Data.Var, 
TestParameter, AutoAnalysis.Line2.Point2.Data.Condition, 
TestParameter, AutoAnalysis.Line2.Point2.Data.Start, false
TestParameter, AutoAnalysis.Line2.Point2.Data.StartVar, 
TestParameter, AutoAnalysis.Line2.Point2.Data.StartCondition, 
TestParameter, AutoAnalysis.Line2.GradientExpr, 0
TestParameter, AutoAnalysis.Marker.Enabled, false
TestParameter, AutoAnalysis.Marker.Data.Var, 
TestParameter, AutoAnalysis.Marker.Data.Condition, 
TestParameter, AutoAnalysis.Marker.Data.Start, false
TestParameter, AutoAnalysis.Marker.Data.StartVar, 
TestParameter, AutoAnalysis.Marker.Data.StartCondition, 
MetaData, TestRecord.EntryPoint, true
MetaData, TestRecord.RecordTime, 01/18/2020 19:12:15
MetaData, TestRecord.TestTarget, 
MetaData, TestRecord.IterationIndex, 44
MetaData, TestRecord.Preservation, true
MetaData, TestRecord.Flag, 
MetaData, TestRecord.Remarks, 
MetaData, TestRecord.LinkKey, 81b72980-9be9-4320-812e-469c463bd500
Dimension1, 101, 101, 101
Dimension2, 1, 1, 1
DataName, V1, I1, Ohmic
DataValue, -1, -1.5234E-10, 5089880204.5005512
DataValue, -0.98000000000000009, -1.4605E-10, 
DataValue, -0.96000000000000008, -1.3662E-10, 
DataValue, -0.94000000000000006, -1.3557E-10, 
DataValue, -0.92, -1.2896E-10, 
DataValue, -0.9, -1.2905E-10, 
DataValue, -0.88, -1.2402E-10, 
DataValue, -0.86, -1.1696E-10, 
DataValue, -0.84000000000000008, -1.1514E-10, 
DataValue, -0.82000000000000006, -1.1121E-10, 
DataValue, -0.8, -1.0188E-10, 
DataValue, -0.78, -1.0631E-10, 
DataValue, -0.76, -9.868E-11, 
DataValue, -0.74, -9.836E-11, 
DataValue, -0.72000000000000008, -9.188E-11, 
DataValue, -0.70000000000000007, -8.739E-11, 
DataValue, -0.68, -8.112E-11, 
DataValue, -0.66, -8.423E-11, 
DataValue, -0.64, -7.922E-11, 
DataValue, -0.62, -7.58E-11, 
DataValue, -0.6, -7.362E-11, 
DataValue, -0.58000000000000007, -7.412E-11, 
DataValue, -0.56, -6.559E-11, 
DataValue, -0.54, -6.573E-11, 
DataValue, -0.52, -5.889E-11, 
DataValue, -0.5, -6.017E-11, 
DataValue, -0.48000000000000004, -5.248E-11, 
DataValue, -0.46, -5.448E-11, 
DataValue, -0.44, -4.76E-11, 
DataValue, -0.42000000000000004, -4.793E-11, 
DataValue, -0.4, -4.135E-11, 
DataValue, -0.38, -3.978E-11, 
DataValue, -0.36000000000000004, -3.658E-11, 
DataValue, -0.34, -3.547E-11, 
DataValue, -0.32, -2.98E-11, 
DataValue, -0.3, -3.126E-11, 
DataValue, -0.28, -2.461E-11, 
DataValue, -0.26, -2.428E-11, 
DataValue, -0.24000000000000002, -1.985E-11, 
DataValue, -0.22, -2.032E-11, 
DataValue, -0.2, -1.386E-11, 
DataValue, -0.18000000000000002, -1.514E-11, 
DataValue, -0.16, -9.77E-12, 
DataValue, -0.14, -1.073E-11, 
DataValue, -0.12000000000000001, -3.67E-12, 
DataValue, -0.1, -2.95E-12, 
DataValue, -0.08, 6.64E-12, 
DataValue, -0.060000000000000005, 1.144E-11, 
DataValue, -0.04, 2.824E-11, 
DataValue, -0.02, 4.121E-11, 
DataValue, 0, 6.169E-11, 
DataValue, 0.02, 7.737E-11, 
DataValue, 0.04, 9.642E-11, 
DataValue, 0.060000000000000005, 1.0802E-10, 
DataValue, 0.08, 1.2197E-10, 
DataValue, 0.1, 1.3109E-10, 
DataValue, 0.12000000000000001, 1.4336E-10, 
DataValue, 0.14, 1.4819E-10, 
DataValue, 0.16, 1.5876E-10, 
DataValue, 0.18000000000000002, 1.6229E-10, 
DataValue, 0.2, 1.7528E-10, 
DataValue, 0.22, 1.7982E-10, 
DataValue, 0.24000000000000002, 1.9129E-10, 
DataValue, 0.26, 1.9502E-10, 
DataValue, 0.28, 2.0763E-10, 
DataValue, 0.3, 2.1095E-10, 
DataValue, 0.32, 2.255E-10, 
DataValue, 0.34, 2.321E-10, 
DataValue, 0.36000000000000004, 2.4479E-10, 
DataValue, 0.38, 2.4971E-10, 
DataValue, 0.4, 2.6067E-10, 
DataValue, 0.42000000000000004, 2.6659E-10, 
DataValue, 0.44, 2.7901E-10, 
DataValue, 0.46, 2.8659E-10, 
DataValue, 0.48000000000000004, 2.9964E-10, 
DataValue, 0.5, 3.033E-10, 
DataValue, 0.52, 3.1607E-10, 
DataValue, 0.54, 3.2559E-10, 
DataValue, 0.56, 3.3635E-10, 
DataValue, 0.58000000000000007, 3.4823E-10, 
DataValue, 0.6, 3.6152E-10, 
DataValue, 0.62, 3.7032E-10, 
DataValue, 0.64, 3.8907E-10, 
DataValue, 0.66, 3.9143E-10, 
DataValue, 0.68, 4.0812E-10, 
DataValue, 0.70000000000000007, 4.1313E-10, 
DataValue, 0.72000000000000008, 4.2456E-10, 
DataValue, 0.74, 4.3415E-10, 
DataValue, 0.76, 4.4908E-10, 
DataValue, 0.78, 4.5354E-10, 
DataValue, 0.8, 4.6651E-10, 
DataValue, 0.82000000000000006, 4.7599E-10, 
DataValue, 0.84000000000000008, 4.8736E-10, 
DataValue, 0.86, 4.889E-10, 
DataValue, 0.88, 5.0498E-10, 
DataValue, 0.9, 5.18E-10, 
DataValue, 0.92, 5.3007E-10, 
DataValue, 0.94000000000000006, 5.4009E-10, 
DataValue, 0.96000000000000008, 5.5186E-10, 
DataValue, 0.98000000000000009, 5.5869E-10, 
DataValue, 1, 5.7165E-10, 