
SetupTitle, WW
PrimitiveTest, I/V Sweep
TestParameter, Context.MainFrame, B1500A
TestParameter, Channel.UnitType, SMU, SMU
TestParameter, Channel.Unit, SMU2:HP, SMU1:HP
TestParameter, Channel.IName, I1, I4
TestParameter, Channel.VName, V1, V4
TestParameter, Channel.Mode, V, COMMON
TestParameter, Channel.Func, VAR1, CONST
TestParameter, Channel.Index, 
TestParameter, Channel.Time, 
TestParameter, Measurement.Port.Unit, SMU2:HP, SMU1:HP
TestParameter, Measurement.Port.SeriesResistor, NONE, NONE
TestParameter, Measurement.Port.Filter, ON, ON
TestParameter, Measurement.Port.OutputVoltageComparison, 0, 0
TestParameter, Measurement.Primary.Locus, Single
TestParameter, Measurement.Primary.Scale, LINEAR
TestParameter, Measurement.Primary.Start, -1
TestParameter, Measurement.Primary.Stop, 1
TestParameter, Measurement.Primary.Step, 0.02
TestParameter, Measurement.Primary.Compliance, 0.01
TestParameter, Measurement.Primary.PowerCompliance, 0
TestParameter, Measurement.Aborting.Condition, CONTINUE AT ANY
TestParameter, Measurement.PostOutput.Value, START
TestParameter, Measurement.PostOutput.Retention, OFF
TestParameter, Measurement.Bias.Source, -1, 0
TestParameter, Measurement.Bias.Compliance, 0.01, 1
TestParameter, Measurement.Monitor.Unit, SMU2:HP, SMU1:HP
TestParameter, Measurement.Monitor.Adc, HR ADC, HR ADC
TestParameter, Measurement.Monitor.Measurement, Compliance Side, Compliance Side
TestParameter, Measurement.Monitor.RangingMode, AUTO, AUTO
TestParameter, Measurement.Monitor.RangeBoundary, , 
TestParameter, Measurement.Monitor.RangeRating, BY FULL RANGE, BY FULL RANGE
TestParameter, Measurement.Monitor.RangeRatingCoeff, 50, 50
TestParameter, Measurement.Timing.Hold, 0
TestParameter, Measurement.Timing.Delay, 0.001
TestParameter, Measurement.Adc.HighSpeed.Mode, AUTO
TestParameter, Measurement.Adc.HighSpeed.Coeff, 1
TestParameter, Measurement.Adc.HighResolution.AutoZero, OFF
TestParameter, Measurement.Adc.HighResolution.Mode, PLC
TestParameter, Measurement.Adc.HighResolution.Coeff, 1
TestParameter, Measurement.WaitTime.Source.Coeff, 1
TestParameter, Measurement.WaitTime.Source.Offset, 0
TestParameter, Measurement.WaitTime.Monitor.Coeff, 1
TestParameter, Measurement.WaitTime.Monitor.Offset, 0
TestParameter, Function.User.Name, Ohmic
TestParameter, Function.User.Unit, ohm
TestParameter, Function.User.Definition, avg(V1/I1)
TestParameter, Output.Graph.Enabled, true
TestParameter, Output.Graph.XAxis.Data, V1
TestParameter, Output.Graph.XAxis.Scale, Linear
TestParameter, Output.Graph.XAxis.Left, -5
TestParameter, Output.Graph.XAxis.Right, 5
TestParameter, Output.Graph.YAxis.Data, I1
TestParameter, Output.Graph.YAxis.Scale, Linear
TestParameter, Output.Graph.YAxis.Bottom, -0.001
TestParameter, Output.Graph.YAxis.Top, 0.001
TestParameter, Output.Graph.YAxis.Group, 
TestParameter, Output.Scalar.Data, Ohmic
TestParameter, AutoAnalysis.Interpolation, false
TestParameter, AutoAnalysis.Line1.Enabled, false
TestParameter, AutoAnalysis.Line1.Type, 1
TestParameter, AutoAnalysis.Line1.Fix, True
TestParameter, AutoAnalysis.Line1.YAxis, 0
TestParameter, AutoAnalysis.Line1.Point1.Type, 0
TestParameter, AutoAnalysis.Line1.Point1.XY.X, 
TestParameter, AutoAnalysis.Line1.Point1.XY.Y, 
TestParameter, AutoAnalysis.Line1.Point1.Data.Var, 
TestParameter, AutoAnalysis.Line1.Point1.Data.Condition, 
TestParameter, AutoAnalysis.Line1.Point1.Data.Start, false
TestParameter, AutoAnalysis.Line1.Point1.Data.StartVar, 
TestParameter, AutoAnalysis.Line1.Point1.Data.StartCondition, 
TestParameter, AutoAnalysis.Line1.Point2.Type, 0
TestParameter, AutoAnalysis.Line1.Point2.XY.X, 
TestParameter, AutoAnalysis.Line1.Point2.XY.Y, 
TestParameter, AutoAnalysis.Line1.Point2.Data.Var, 
TestParameter, AutoAnalysis.Line1.Point2.Data.Condition, 
TestParameter, AutoAnalysis.Line1.Point2.Data.Start, false
TestParameter, AutoAnalysis.Line1.Point2.Data.StartVar, 
TestParameter, AutoAnalysis.Line1.Point2.Data.StartCondition, 
TestParameter, AutoAnalysis.Line1.GradientExpr, 0
TestParameter, AutoAnalysis.Line2.Enabled, false
TestParameter, AutoAnalysis.Line2.Type, 1
TestParameter, AutoAnalysis.Line2.Fix, True
TestParameter, AutoAnalysis.Line2.YAxis, 0
TestParameter, AutoAnalysis.Line2.Point1.Type, 0
TestParameter, AutoAnalysis.Line2.Point1.XY.X, 
TestParameter, AutoAnalysis.Line2.Point1.XY.Y, 
TestParameter, AutoAnalysis.Line2.Point1.Data.Var, 
TestParameter, AutoAnalysis.Line2.Point1.Data.Condition, 
TestParameter, AutoAnalysis.Line2.Point1.Data.Start, false
TestParameter, AutoAnalysis.Line2.Point1.Data.StartVar, 
TestParameter, AutoAnalysis.Line2.Point1.Data.StartCondition, 
TestParameter, AutoAnalysis.Line2.Point2.Type, 0
TestParameter, AutoAnalysis.Line2.Point2.XY.X, 
TestParameter, AutoAnalysis.Line2.Point2.XY.Y, 
TestParameter, AutoAnalysis.Line2.Point2.Data.Var, 
TestParameter, AutoAnalysis.Line2.Point2.Data.Condition, 
TestParameter, AutoAnalysis.Line2.Point2.Data.Start, false
TestParameter, AutoAnalysis.Line2.Point2.Data.StartVar, 
TestParameter, AutoAnalysis.Line2.Point2.Data.StartCondition, 
TestParameter, AutoAnalysis.Line2.GradientExpr, 0
TestParameter, AutoAnalysis.Marker.Enabled, false
TestParameter, AutoAnalysis.Marker.Data.Var, 
TestParameter, AutoAnalysis.Marker.Data.Condition, 
TestParameter, AutoAnalysis.Marker.Data.Start, false
TestParameter, AutoAnalysis.Marker.Data.StartVar, 
TestParameter, AutoAnalysis.Marker.Data.StartCondition, 
MetaData, TestRecord.EntryPoint, true
MetaData, TestRecord.RecordTime, 01/18/2020 19:11:10
MetaData, TestRecord.TestTarget, 
MetaData, TestRecord.IterationIndex, 42
MetaData, TestRecord.Preservation, true
MetaData, TestRecord.Flag, 
MetaData, TestRecord.Remarks, 
MetaData, TestRecord.LinkKey, 1e2a1702-772c-41d5-b4e6-5c0495d0e391
Dimension1, 101, 101, 101
Dimension2, 1, 1, 1
DataName, V1, I1, Ohmic
DataValue, -1, -1.2117E-10, 3862389567.1504283
DataValue, -0.98000000000000009, -1.1431E-10, 
DataValue, -0.96000000000000008, -1.0765E-10, 
DataValue, -0.94000000000000006, -1.0033E-10, 
DataValue, -0.92, -9.94E-11, 
DataValue, -0.9, -9.438E-11, 
DataValue, -0.88, -9.374E-11, 
DataValue, -0.86, -9.012E-11, 
DataValue, -0.84000000000000008, -9.008E-11, 
DataValue, -0.82000000000000006, -8.32E-11, 
DataValue, -0.8, -8.656E-11, 
DataValue, -0.78, -8E-11, 
DataValue, -0.76, -8.026E-11, 
DataValue, -0.74, -7.703E-11, 
DataValue, -0.72000000000000008, -7.466E-11, 
DataValue, -0.70000000000000007, -6.85E-11, 
DataValue, -0.68, -6.918E-11, 
DataValue, -0.66, -6.181E-11, 
DataValue, -0.64, -6.377E-11, 
DataValue, -0.62, -5.918E-11, 
DataValue, -0.6, -5.67E-11, 
DataValue, -0.58000000000000007, -5.039E-11, 
DataValue, -0.56, -5.27E-11, 
DataValue, -0.54, -4.758E-11, 
DataValue, -0.52, -4.812E-11, 
DataValue, -0.5, -4.389E-11, 
DataValue, -0.48000000000000004, -4.362E-11, 
DataValue, -0.46, -4.224E-11, 
DataValue, -0.44, -4.139E-11, 
DataValue, -0.42000000000000004, -3.667E-11, 
DataValue, -0.4, -3.581E-11, 
DataValue, -0.38, -3.036E-11, 
DataValue, -0.36000000000000004, -3.184E-11, 
DataValue, -0.34, -2.627E-11, 
DataValue, -0.32, -2.596E-11, 
DataValue, -0.3, -2.109E-11, 
DataValue, -0.28, -2.243E-11, 
DataValue, -0.26, -2.074E-11, 
DataValue, -0.24000000000000002, -2.016E-11, 
DataValue, -0.22, -1.23E-11, 
DataValue, -0.2, -1.5E-11, 
DataValue, -0.18000000000000002, -1.009E-11, 
DataValue, -0.16, -1.038E-11, 
DataValue, -0.14, -7.09E-12, 
DataValue, -0.12000000000000001, -5.45E-12, 
DataValue, -0.1, 5.4E-13, 
DataValue, -0.08, 5.39E-12, 
DataValue, -0.060000000000000005, 1.67E-11, 
DataValue, -0.04, 2.8E-11, 
DataValue, -0.02, 4.599E-11, 
DataValue, 0, 6.167E-11, 
DataValue, 0.02, 8.472E-11, 
DataValue, 0.04, 9.738E-11, 
DataValue, 0.060000000000000005, 1.1405E-10, 
DataValue, 0.08, 1.2291E-10, 
DataValue, 0.1, 1.3471E-10, 
DataValue, 0.12000000000000001, 1.4042E-10, 
DataValue, 0.14, 1.4941E-10, 
DataValue, 0.16, 1.544E-10, 
DataValue, 0.18000000000000002, 1.653E-10, 
DataValue, 0.2, 1.6925E-10, 
DataValue, 0.22, 1.7544E-10, 
DataValue, 0.24000000000000002, 1.7938E-10, 
DataValue, 0.26, 1.9134E-10, 
DataValue, 0.28, 1.985E-10, 
DataValue, 0.3, 2.1177E-10, 
DataValue, 0.32, 2.1661E-10, 
DataValue, 0.34, 2.3021E-10, 
DataValue, 0.36000000000000004, 2.3331E-10, 
DataValue, 0.38, 2.445E-10, 
DataValue, 0.4, 2.4593E-10, 
DataValue, 0.42000000000000004, 2.5772E-10, 
DataValue, 0.44, 2.6932E-10, 
DataValue, 0.46, 2.7786E-10, 
DataValue, 0.48000000000000004, 2.8172E-10, 
DataValue, 0.5, 2.9352E-10, 
DataValue, 0.52, 3E-10, 
DataValue, 0.54, 3.1054E-10, 
DataValue, 0.56, 3.1896E-10, 
DataValue, 0.58000000000000007, 3.2819E-10, 
DataValue, 0.6, 3.2751E-10, 
DataValue, 0.62, 3.4588E-10, 
DataValue, 0.64, 3.5158E-10, 
DataValue, 0.66, 3.6474E-10, 
DataValue, 0.68, 3.7216E-10, 
DataValue, 0.70000000000000007, 3.8409E-10, 
DataValue, 0.72000000000000008, 3.9506E-10, 
DataValue, 0.74, 4.0696E-10, 
DataValue, 0.76, 4.1011E-10, 
DataValue, 0.78, 4.2287E-10, 
DataValue, 0.8, 4.278E-10, 
DataValue, 0.82000000000000006, 4.3604E-10, 
DataValue, 0.84000000000000008, 4.419E-10, 
DataValue, 0.86, 4.4982E-10, 
DataValue, 0.88, 4.6192E-10, 
DataValue, 0.9, 4.6874E-10, 
DataValue, 0.92, 4.7812E-10, 
DataValue, 0.94000000000000006, 4.8825E-10, 
DataValue, 0.96000000000000008, 4.9538E-10, 
DataValue, 0.98000000000000009, 5.0703E-10, 
DataValue, 1, 5.1755E-10, 