
SetupTitle, WW
PrimitiveTest, I/V Sweep
TestParameter, Context.MainFrame, B1500A
TestParameter, Channel.UnitType, SMU, SMU
TestParameter, Channel.Unit, SMU2:HP, SMU1:HP
TestParameter, Channel.IName, I1, I4
TestParameter, Channel.VName, V1, V4
TestParameter, Channel.Mode, V, COMMON
TestParameter, Channel.Func, VAR1, CONST
TestParameter, Channel.Index, 
TestParameter, Channel.Time, 
TestParameter, Measurement.Port.Unit, SMU2:HP, SMU1:HP
TestParameter, Measurement.Port.SeriesResistor, NONE, NONE
TestParameter, Measurement.Port.Filter, ON, ON
TestParameter, Measurement.Port.OutputVoltageComparison, 0, 0
TestParameter, Measurement.Primary.Locus, Single
TestParameter, Measurement.Primary.Scale, LINEAR
TestParameter, Measurement.Primary.Start, -1
TestParameter, Measurement.Primary.Stop, 1
TestParameter, Measurement.Primary.Step, 0.02
TestParameter, Measurement.Primary.Compliance, 0.01
TestParameter, Measurement.Primary.PowerCompliance, 0
TestParameter, Measurement.Aborting.Condition, CONTINUE AT ANY
TestParameter, Measurement.PostOutput.Value, START
TestParameter, Measurement.PostOutput.Retention, OFF
TestParameter, Measurement.Bias.Source, -1, 0
TestParameter, Measurement.Bias.Compliance, 0.01, 1
TestParameter, Measurement.Monitor.Unit, SMU2:HP, SMU1:HP
TestParameter, Measurement.Monitor.Adc, HR ADC, HR ADC
TestParameter, Measurement.Monitor.Measurement, Compliance Side, Compliance Side
TestParameter, Measurement.Monitor.RangingMode, AUTO, AUTO
TestParameter, Measurement.Monitor.RangeBoundary, , 
TestParameter, Measurement.Monitor.RangeRating, BY FULL RANGE, BY FULL RANGE
TestParameter, Measurement.Monitor.RangeRatingCoeff, 50, 50
TestParameter, Measurement.Timing.Hold, 0
TestParameter, Measurement.Timing.Delay, 0.001
TestParameter, Measurement.Adc.HighSpeed.Mode, AUTO
TestParameter, Measurement.Adc.HighSpeed.Coeff, 1
TestParameter, Measurement.Adc.HighResolution.AutoZero, OFF
TestParameter, Measurement.Adc.HighResolution.Mode, PLC
TestParameter, Measurement.Adc.HighResolution.Coeff, 1
TestParameter, Measurement.WaitTime.Source.Coeff, 1
TestParameter, Measurement.WaitTime.Source.Offset, 0
TestParameter, Measurement.WaitTime.Monitor.Coeff, 1
TestParameter, Measurement.WaitTime.Monitor.Offset, 0
TestParameter, Function.User.Name, Ohmic
TestParameter, Function.User.Unit, ohm
TestParameter, Function.User.Definition, avg(V1/I1)
TestParameter, Output.Graph.Enabled, true
TestParameter, Output.Graph.XAxis.Data, V1
TestParameter, Output.Graph.XAxis.Scale, Linear
TestParameter, Output.Graph.XAxis.Left, -5
TestParameter, Output.Graph.XAxis.Right, 5
TestParameter, Output.Graph.YAxis.Data, I1
TestParameter, Output.Graph.YAxis.Scale, Linear
TestParameter, Output.Graph.YAxis.Bottom, -0.001
TestParameter, Output.Graph.YAxis.Top, 0.001
TestParameter, Output.Graph.YAxis.Group, 
TestParameter, Output.Scalar.Data, Ohmic
TestParameter, AutoAnalysis.Interpolation, false
TestParameter, AutoAnalysis.Line1.Enabled, false
TestParameter, AutoAnalysis.Line1.Type, 1
TestParameter, AutoAnalysis.Line1.Fix, True
TestParameter, AutoAnalysis.Line1.YAxis, 0
TestParameter, AutoAnalysis.Line1.Point1.Type, 0
TestParameter, AutoAnalysis.Line1.Point1.XY.X, 
TestParameter, AutoAnalysis.Line1.Point1.XY.Y, 
TestParameter, AutoAnalysis.Line1.Point1.Data.Var, 
TestParameter, AutoAnalysis.Line1.Point1.Data.Condition, 
TestParameter, AutoAnalysis.Line1.Point1.Data.Start, false
TestParameter, AutoAnalysis.Line1.Point1.Data.StartVar, 
TestParameter, AutoAnalysis.Line1.Point1.Data.StartCondition, 
TestParameter, AutoAnalysis.Line1.Point2.Type, 0
TestParameter, AutoAnalysis.Line1.Point2.XY.X, 
TestParameter, AutoAnalysis.Line1.Point2.XY.Y, 
TestParameter, AutoAnalysis.Line1.Point2.Data.Var, 
TestParameter, AutoAnalysis.Line1.Point2.Data.Condition, 
TestParameter, AutoAnalysis.Line1.Point2.Data.Start, false
TestParameter, AutoAnalysis.Line1.Point2.Data.StartVar, 
TestParameter, AutoAnalysis.Line1.Point2.Data.StartCondition, 
TestParameter, AutoAnalysis.Line1.GradientExpr, 0
TestParameter, AutoAnalysis.Line2.Enabled, false
TestParameter, AutoAnalysis.Line2.Type, 1
TestParameter, AutoAnalysis.Line2.Fix, True
TestParameter, AutoAnalysis.Line2.YAxis, 0
TestParameter, AutoAnalysis.Line2.Point1.Type, 0
TestParameter, AutoAnalysis.Line2.Point1.XY.X, 
TestParameter, AutoAnalysis.Line2.Point1.XY.Y, 
TestParameter, AutoAnalysis.Line2.Point1.Data.Var, 
TestParameter, AutoAnalysis.Line2.Point1.Data.Condition, 
TestParameter, AutoAnalysis.Line2.Point1.Data.Start, false
TestParameter, AutoAnalysis.Line2.Point1.Data.StartVar, 
TestParameter, AutoAnalysis.Line2.Point1.Data.StartCondition, 
TestParameter, AutoAnalysis.Line2.Point2.Type, 0
TestParameter, AutoAnalysis.Line2.Point2.XY.X, 
TestParameter, AutoAnalysis.Line2.Point2.XY.Y, 
TestParameter, AutoAnalysis.Line2.Point2.Data.Var, 
TestParameter, AutoAnalysis.Line2.Point2.Data.Condition, 
TestParameter, AutoAnalysis.Line2.Point2.Data.Start, false
TestParameter, AutoAnalysis.Line2.Point2.Data.StartVar, 
TestParameter, AutoAnalysis.Line2.Point2.Data.StartCondition, 
TestParameter, AutoAnalysis.Line2.GradientExpr, 0
TestParameter, AutoAnalysis.Marker.Enabled, false
TestParameter, AutoAnalysis.Marker.Data.Var, 
TestParameter, AutoAnalysis.Marker.Data.Condition, 
TestParameter, AutoAnalysis.Marker.Data.Start, false
TestParameter, AutoAnalysis.Marker.Data.StartVar, 
TestParameter, AutoAnalysis.Marker.Data.StartCondition, 
MetaData, TestRecord.EntryPoint, true
MetaData, TestRecord.RecordTime, 01/18/2020 19:10:12
MetaData, TestRecord.TestTarget, 
MetaData, TestRecord.IterationIndex, 40
MetaData, TestRecord.Preservation, true
MetaData, TestRecord.Flag, 
MetaData, TestRecord.Remarks, 
MetaData, TestRecord.LinkKey, b5275053-4725-41d6-975a-735bfda4ab7f
Dimension1, 101, 101, 101
Dimension2, 1, 1, 1
DataName, V1, I1, Ohmic
DataValue, -1, -9.051E-11, 16869474472.51508
DataValue, -0.98000000000000009, -8.09E-11, 
DataValue, -0.96000000000000008, -7.429E-11, 
DataValue, -0.94000000000000006, -7.007E-11, 
DataValue, -0.92, -6.516E-11, 
DataValue, -0.9, -6.217E-11, 
DataValue, -0.88, -5.826E-11, 
DataValue, -0.86, -5.466E-11, 
DataValue, -0.84000000000000008, -5.221E-11, 
DataValue, -0.82000000000000006, -4.729E-11, 
DataValue, -0.8, -5.363E-11, 
DataValue, -0.78, -4.854E-11, 
DataValue, -0.76, -4.68E-11, 
DataValue, -0.74, -4.532E-11, 
DataValue, -0.72000000000000008, -4.243E-11, 
DataValue, -0.70000000000000007, -4.061E-11, 
DataValue, -0.68, -3.777E-11, 
DataValue, -0.66, -3.39E-11, 
DataValue, -0.64, -3.456E-11, 
DataValue, -0.62, -3.149E-11, 
DataValue, -0.6, -3.202E-11, 
DataValue, -0.58000000000000007, -2.922E-11, 
DataValue, -0.56, -2.788E-11, 
DataValue, -0.54, -2.679E-11, 
DataValue, -0.52, -2.409E-11, 
DataValue, -0.5, -2.111E-11, 
DataValue, -0.48000000000000004, -2.132E-11, 
DataValue, -0.46, -1.854E-11, 
DataValue, -0.44, -1.885E-11, 
DataValue, -0.42000000000000004, -1.79E-11, 
DataValue, -0.4, -1.456E-11, 
DataValue, -0.38, -1.372E-11, 
DataValue, -0.36000000000000004, -1.352E-11, 
DataValue, -0.34, -1.169E-11, 
DataValue, -0.32, -1.049E-11, 
DataValue, -0.3, -8.32E-12, 
DataValue, -0.28, -6.06E-12, 
DataValue, -0.26, -6.04E-12, 
DataValue, -0.24000000000000002, -6.01E-12, 
DataValue, -0.22, -3.63E-12, 
DataValue, -0.2, -2.91E-12, 
DataValue, -0.18000000000000002, -2.1E-13, 
DataValue, -0.16, 2E-13, 
DataValue, -0.14, -2.2E-13, 
DataValue, -0.12000000000000001, 4.15E-12, 
DataValue, -0.1, 7.66E-12, 
DataValue, -0.08, 1.27E-11, 
DataValue, -0.060000000000000005, 2.117E-11, 
DataValue, -0.04, 3.375E-11, 
DataValue, -0.02, 4.598E-11, 
DataValue, 0, 6.4E-11, 
DataValue, 0.02, 7.823E-11, 
DataValue, 0.04, 9.367E-11, 
DataValue, 0.060000000000000005, 1.062E-10, 
DataValue, 0.08, 1.1457E-10, 
DataValue, 0.1, 1.24E-10, 
DataValue, 0.12000000000000001, 1.2937E-10, 
DataValue, 0.14, 1.3878E-10, 
DataValue, 0.16, 1.419E-10, 
DataValue, 0.18000000000000002, 1.4816E-10, 
DataValue, 0.2, 1.5626E-10, 
DataValue, 0.22, 1.6136E-10, 
DataValue, 0.24000000000000002, 1.6698E-10, 
DataValue, 0.26, 1.7053E-10, 
DataValue, 0.28, 1.7574E-10, 
DataValue, 0.3, 1.8221E-10, 
DataValue, 0.32, 1.8972E-10, 
DataValue, 0.34, 1.9234E-10, 
DataValue, 0.36000000000000004, 2.0196E-10, 
DataValue, 0.38, 2.0517E-10, 
DataValue, 0.4, 2.1441E-10, 
DataValue, 0.42000000000000004, 2.1766E-10, 
DataValue, 0.44, 2.2825E-10, 
DataValue, 0.46, 2.2882E-10, 
DataValue, 0.48000000000000004, 2.3474E-10, 
DataValue, 0.5, 2.4709E-10, 
DataValue, 0.52, 2.4786E-10, 
DataValue, 0.54, 2.5033E-10, 
DataValue, 0.56, 2.6141E-10, 
DataValue, 0.58000000000000007, 2.6393E-10, 
DataValue, 0.6, 2.7044E-10, 
DataValue, 0.62, 2.8145E-10, 
DataValue, 0.64, 2.8994E-10, 
DataValue, 0.66, 2.9551E-10, 
DataValue, 0.68, 3.0432E-10, 
DataValue, 0.70000000000000007, 3.1058E-10, 
DataValue, 0.72000000000000008, 3.1742E-10, 
DataValue, 0.74, 3.1788E-10, 
DataValue, 0.76, 3.2354E-10, 
DataValue, 0.78, 3.3312E-10, 
DataValue, 0.8, 3.3152E-10, 
DataValue, 0.82000000000000006, 3.4259E-10, 
DataValue, 0.84000000000000008, 3.4505E-10, 
DataValue, 0.86, 3.4867E-10, 
DataValue, 0.88, 3.6399E-10, 
DataValue, 0.9, 3.6561999999999997E-10, 
DataValue, 0.92, 3.7295E-10, 
DataValue, 0.94000000000000006, 3.7965E-10, 
DataValue, 0.96000000000000008, 3.8883E-10, 
DataValue, 0.98000000000000009, 3.89E-10, 
DataValue, 1, 3.9697E-10, 