
SetupTitle, WW
PrimitiveTest, I/V Sweep
TestParameter, Context.MainFrame, B1500A
TestParameter, Channel.UnitType, SMU, SMU
TestParameter, Channel.Unit, SMU2:HP, SMU1:HP
TestParameter, Channel.IName, I1, I4
TestParameter, Channel.VName, V1, V4
TestParameter, Channel.Mode, V, COMMON
TestParameter, Channel.Func, VAR1, CONST
TestParameter, Channel.Index, 
TestParameter, Channel.Time, 
TestParameter, Measurement.Port.Unit, SMU2:HP, SMU1:HP
TestParameter, Measurement.Port.SeriesResistor, NONE, NONE
TestParameter, Measurement.Port.Filter, ON, ON
TestParameter, Measurement.Port.OutputVoltageComparison, 0, 0
TestParameter, Measurement.Primary.Locus, Single
TestParameter, Measurement.Primary.Scale, LINEAR
TestParameter, Measurement.Primary.Start, -1
TestParameter, Measurement.Primary.Stop, 1
TestParameter, Measurement.Primary.Step, 0.02
TestParameter, Measurement.Primary.Compliance, 0.01
TestParameter, Measurement.Primary.PowerCompliance, 0
TestParameter, Measurement.Aborting.Condition, CONTINUE AT ANY
TestParameter, Measurement.PostOutput.Value, START
TestParameter, Measurement.PostOutput.Retention, OFF
TestParameter, Measurement.Bias.Source, -1, 0
TestParameter, Measurement.Bias.Compliance, 0.01, 1
TestParameter, Measurement.Monitor.Unit, SMU2:HP, SMU1:HP
TestParameter, Measurement.Monitor.Adc, HR ADC, HR ADC
TestParameter, Measurement.Monitor.Measurement, Compliance Side, Compliance Side
TestParameter, Measurement.Monitor.RangingMode, AUTO, AUTO
TestParameter, Measurement.Monitor.RangeBoundary, , 
TestParameter, Measurement.Monitor.RangeRating, BY FULL RANGE, BY FULL RANGE
TestParameter, Measurement.Monitor.RangeRatingCoeff, 50, 50
TestParameter, Measurement.Timing.Hold, 0
TestParameter, Measurement.Timing.Delay, 0.001
TestParameter, Measurement.Adc.HighSpeed.Mode, AUTO
TestParameter, Measurement.Adc.HighSpeed.Coeff, 1
TestParameter, Measurement.Adc.HighResolution.AutoZero, OFF
TestParameter, Measurement.Adc.HighResolution.Mode, PLC
TestParameter, Measurement.Adc.HighResolution.Coeff, 1
TestParameter, Measurement.WaitTime.Source.Coeff, 1
TestParameter, Measurement.WaitTime.Source.Offset, 0
TestParameter, Measurement.WaitTime.Monitor.Coeff, 1
TestParameter, Measurement.WaitTime.Monitor.Offset, 0
TestParameter, Function.User.Name, Ohmic
TestParameter, Function.User.Unit, ohm
TestParameter, Function.User.Definition, avg(V1/I1)
TestParameter, Output.Graph.Enabled, true
TestParameter, Output.Graph.XAxis.Data, V1
TestParameter, Output.Graph.XAxis.Scale, Linear
TestParameter, Output.Graph.XAxis.Left, -5
TestParameter, Output.Graph.XAxis.Right, 5
TestParameter, Output.Graph.YAxis.Data, I1
TestParameter, Output.Graph.YAxis.Scale, Linear
TestParameter, Output.Graph.YAxis.Bottom, -0.001
TestParameter, Output.Graph.YAxis.Top, 0.001
TestParameter, Output.Graph.YAxis.Group, 
TestParameter, Output.Scalar.Data, Ohmic
TestParameter, AutoAnalysis.Interpolation, false
TestParameter, AutoAnalysis.Line1.Enabled, false
TestParameter, AutoAnalysis.Line1.Type, 1
TestParameter, AutoAnalysis.Line1.Fix, True
TestParameter, AutoAnalysis.Line1.YAxis, 0
TestParameter, AutoAnalysis.Line1.Point1.Type, 0
TestParameter, AutoAnalysis.Line1.Point1.XY.X, 
TestParameter, AutoAnalysis.Line1.Point1.XY.Y, 
TestParameter, AutoAnalysis.Line1.Point1.Data.Var, 
TestParameter, AutoAnalysis.Line1.Point1.Data.Condition, 
TestParameter, AutoAnalysis.Line1.Point1.Data.Start, false
TestParameter, AutoAnalysis.Line1.Point1.Data.StartVar, 
TestParameter, AutoAnalysis.Line1.Point1.Data.StartCondition, 
TestParameter, AutoAnalysis.Line1.Point2.Type, 0
TestParameter, AutoAnalysis.Line1.Point2.XY.X, 
TestParameter, AutoAnalysis.Line1.Point2.XY.Y, 
TestParameter, AutoAnalysis.Line1.Point2.Data.Var, 
TestParameter, AutoAnalysis.Line1.Point2.Data.Condition, 
TestParameter, AutoAnalysis.Line1.Point2.Data.Start, false
TestParameter, AutoAnalysis.Line1.Point2.Data.StartVar, 
TestParameter, AutoAnalysis.Line1.Point2.Data.StartCondition, 
TestParameter, AutoAnalysis.Line1.GradientExpr, 0
TestParameter, AutoAnalysis.Line2.Enabled, false
TestParameter, AutoAnalysis.Line2.Type, 1
TestParameter, AutoAnalysis.Line2.Fix, True
TestParameter, AutoAnalysis.Line2.YAxis, 0
TestParameter, AutoAnalysis.Line2.Point1.Type, 0
TestParameter, AutoAnalysis.Line2.Point1.XY.X, 
TestParameter, AutoAnalysis.Line2.Point1.XY.Y, 
TestParameter, AutoAnalysis.Line2.Point1.Data.Var, 
TestParameter, AutoAnalysis.Line2.Point1.Data.Condition, 
TestParameter, AutoAnalysis.Line2.Point1.Data.Start, false
TestParameter, AutoAnalysis.Line2.Point1.Data.StartVar, 
TestParameter, AutoAnalysis.Line2.Point1.Data.StartCondition, 
TestParameter, AutoAnalysis.Line2.Point2.Type, 0
TestParameter, AutoAnalysis.Line2.Point2.XY.X, 
TestParameter, AutoAnalysis.Line2.Point2.XY.Y, 
TestParameter, AutoAnalysis.Line2.Point2.Data.Var, 
TestParameter, AutoAnalysis.Line2.Point2.Data.Condition, 
TestParameter, AutoAnalysis.Line2.Point2.Data.Start, false
TestParameter, AutoAnalysis.Line2.Point2.Data.StartVar, 
TestParameter, AutoAnalysis.Line2.Point2.Data.StartCondition, 
TestParameter, AutoAnalysis.Line2.GradientExpr, 0
TestParameter, AutoAnalysis.Marker.Enabled, false
TestParameter, AutoAnalysis.Marker.Data.Var, 
TestParameter, AutoAnalysis.Marker.Data.Condition, 
TestParameter, AutoAnalysis.Marker.Data.Start, false
TestParameter, AutoAnalysis.Marker.Data.StartVar, 
TestParameter, AutoAnalysis.Marker.Data.StartCondition, 
MetaData, TestRecord.EntryPoint, true
MetaData, TestRecord.RecordTime, 01/18/2020 19:08:14
MetaData, TestRecord.TestTarget, 
MetaData, TestRecord.IterationIndex, 37
MetaData, TestRecord.Preservation, true
MetaData, TestRecord.Flag, 
MetaData, TestRecord.Remarks, 
MetaData, TestRecord.LinkKey, 68409812-7148-4698-9f35-3f3d12572580
Dimension1, 101, 101, 101
Dimension2, 1, 1, 1
DataName, V1, I1, Ohmic
DataValue, -1, -7.396E-11, -712144126.42568851
DataValue, -0.98000000000000009, -6.592E-11, 
DataValue, -0.96000000000000008, -5.909E-11, 
DataValue, -0.94000000000000006, -5.645E-11, 
DataValue, -0.92, -5.262E-11, 
DataValue, -0.9, -5.08E-11, 
DataValue, -0.88, -4.59E-11, 
DataValue, -0.86, -4.292E-11, 
DataValue, -0.84000000000000008, -4.104E-11, 
DataValue, -0.82000000000000006, -4.337E-11, 
DataValue, -0.8, -3.718E-11, 
DataValue, -0.78, -3.486E-11, 
DataValue, -0.76, -3.372E-11, 
DataValue, -0.74, -3.328E-11, 
DataValue, -0.72000000000000008, -2.787E-11, 
DataValue, -0.70000000000000007, -2.764E-11, 
DataValue, -0.68, -2.728E-11, 
DataValue, -0.66, -2.545E-11, 
DataValue, -0.64, -2.397E-11, 
DataValue, -0.62, -1.981E-11, 
DataValue, -0.6, -2.085E-11, 
DataValue, -0.58000000000000007, -1.779E-11, 
DataValue, -0.56, -1.602E-11, 
DataValue, -0.54, -1.371E-11, 
DataValue, -0.52, -1.358E-11, 
DataValue, -0.5, -1.296E-11, 
DataValue, -0.48000000000000004, -1.078E-11, 
DataValue, -0.46, -1.21E-11, 
DataValue, -0.44, -1.113E-11, 
DataValue, -0.42000000000000004, -1.198E-11, 
DataValue, -0.4, -8.76E-12, 
DataValue, -0.38, -3.81E-12, 
DataValue, -0.36000000000000004, -1.52E-12, 
DataValue, -0.34, -1.31E-12, 
DataValue, -0.32, 1.65E-12, 
DataValue, -0.3, 2.5E-12, 
DataValue, -0.28, 3E-13, 
DataValue, -0.26, 3.55E-12, 
DataValue, -0.24000000000000002, 3.41E-12, 
DataValue, -0.22, 2.95E-12, 
DataValue, -0.2, 3.15E-12, 
DataValue, -0.18000000000000002, 4.79E-12, 
DataValue, -0.16, 4.77E-12, 
DataValue, -0.14, 6.16E-12, 
DataValue, -0.12000000000000001, 7.7E-12, 
DataValue, -0.1, 1E-11, 
DataValue, -0.08, 1.081E-11, 
DataValue, -0.060000000000000005, 1.588E-11, 
DataValue, -0.04, 1.996E-11, 
DataValue, -0.02, 2.873E-11, 
DataValue, 0, 3.787E-11, 
DataValue, 0.02, 5.147E-11, 
DataValue, 0.04, 5.742E-11, 
DataValue, 0.060000000000000005, 6.753E-11, 
DataValue, 0.08, 7.449E-11, 
DataValue, 0.1, 7.85E-11, 
DataValue, 0.12000000000000001, 8.329E-11, 
DataValue, 0.14, 8.903E-11, 
DataValue, 0.16, 9.123E-11, 
DataValue, 0.18000000000000002, 9.483E-11, 
DataValue, 0.2, 9.661E-11, 
DataValue, 0.22, 1.0048E-10, 
DataValue, 0.24000000000000002, 1.0454E-10, 
DataValue, 0.26, 1.0645E-10, 
DataValue, 0.28, 1.08E-10, 
DataValue, 0.3, 1.106E-10, 
DataValue, 0.32, 1.1833E-10, 
DataValue, 0.34, 1.2027E-10, 
DataValue, 0.36000000000000004, 1.2331E-10, 
DataValue, 0.38, 1.2829E-10, 
DataValue, 0.4, 1.2932E-10, 
DataValue, 0.42000000000000004, 1.3024E-10, 
DataValue, 0.44, 1.359E-10, 
DataValue, 0.46, 1.3931E-10, 
DataValue, 0.48000000000000004, 1.41E-10, 
DataValue, 0.5, 1.4518E-10, 
DataValue, 0.52, 1.5024E-10, 
DataValue, 0.54, 1.519E-10, 
DataValue, 0.56, 1.575E-10, 
DataValue, 0.58000000000000007, 1.602E-10, 
DataValue, 0.6, 1.6388E-10, 
DataValue, 0.62, 1.6485999999999999E-10, 
DataValue, 0.64, 1.6942E-10, 
DataValue, 0.66, 1.737E-10, 
DataValue, 0.68, 1.7945E-10, 
DataValue, 0.70000000000000007, 1.7874E-10, 
DataValue, 0.72000000000000008, 1.8309E-10, 
DataValue, 0.74, 1.8512E-10, 
DataValue, 0.76, 1.9281E-10, 
DataValue, 0.78, 1.9533E-10, 
DataValue, 0.8, 2.0289E-10, 
DataValue, 0.82000000000000006, 1.9481E-10, 
DataValue, 0.84000000000000008, 2.0143E-10, 
DataValue, 0.86, 2.051E-10, 
DataValue, 0.88, 2.1214E-10, 
DataValue, 0.9, 2.1815E-10, 
DataValue, 0.92, 2.2226E-10, 
DataValue, 0.94000000000000006, 2.2394E-10, 
DataValue, 0.96000000000000008, 2.2801E-10, 
DataValue, 0.98000000000000009, 2.3107E-10, 
DataValue, 1, 2.3083E-10, 