
SetupTitle, WW
PrimitiveTest, I/V Sweep
TestParameter, Context.MainFrame, B1500A
TestParameter, Channel.UnitType, SMU, SMU
TestParameter, Channel.Unit, SMU2:HP, SMU1:HP
TestParameter, Channel.IName, I1, I4
TestParameter, Channel.VName, V1, V4
TestParameter, Channel.Mode, V, COMMON
TestParameter, Channel.Func, VAR1, CONST
TestParameter, Channel.Index, 
TestParameter, Channel.Time, 
TestParameter, Measurement.Port.Unit, SMU2:HP, SMU1:HP
TestParameter, Measurement.Port.SeriesResistor, NONE, NONE
TestParameter, Measurement.Port.Filter, ON, ON
TestParameter, Measurement.Port.OutputVoltageComparison, 0, 0
TestParameter, Measurement.Primary.Locus, Single
TestParameter, Measurement.Primary.Scale, LINEAR
TestParameter, Measurement.Primary.Start, -1
TestParameter, Measurement.Primary.Stop, 1
TestParameter, Measurement.Primary.Step, 0.02
TestParameter, Measurement.Primary.Compliance, 0.01
TestParameter, Measurement.Primary.PowerCompliance, 0
TestParameter, Measurement.Aborting.Condition, CONTINUE AT ANY
TestParameter, Measurement.PostOutput.Value, START
TestParameter, Measurement.PostOutput.Retention, OFF
TestParameter, Measurement.Bias.Source, -1, 0
TestParameter, Measurement.Bias.Compliance, 0.01, 1
TestParameter, Measurement.Monitor.Unit, SMU2:HP, SMU1:HP
TestParameter, Measurement.Monitor.Adc, HR ADC, HR ADC
TestParameter, Measurement.Monitor.Measurement, Compliance Side, Compliance Side
TestParameter, Measurement.Monitor.RangingMode, AUTO, AUTO
TestParameter, Measurement.Monitor.RangeBoundary, , 
TestParameter, Measurement.Monitor.RangeRating, BY FULL RANGE, BY FULL RANGE
TestParameter, Measurement.Monitor.RangeRatingCoeff, 50, 50
TestParameter, Measurement.Timing.Hold, 0
TestParameter, Measurement.Timing.Delay, 0.001
TestParameter, Measurement.Adc.HighSpeed.Mode, AUTO
TestParameter, Measurement.Adc.HighSpeed.Coeff, 1
TestParameter, Measurement.Adc.HighResolution.AutoZero, OFF
TestParameter, Measurement.Adc.HighResolution.Mode, PLC
TestParameter, Measurement.Adc.HighResolution.Coeff, 1
TestParameter, Measurement.WaitTime.Source.Coeff, 1
TestParameter, Measurement.WaitTime.Source.Offset, 0
TestParameter, Measurement.WaitTime.Monitor.Coeff, 1
TestParameter, Measurement.WaitTime.Monitor.Offset, 0
TestParameter, Function.User.Name, Ohmic
TestParameter, Function.User.Unit, ohm
TestParameter, Function.User.Definition, avg(V1/I1)
TestParameter, Output.Graph.Enabled, true
TestParameter, Output.Graph.XAxis.Data, V1
TestParameter, Output.Graph.XAxis.Scale, Linear
TestParameter, Output.Graph.XAxis.Left, -5
TestParameter, Output.Graph.XAxis.Right, 5
TestParameter, Output.Graph.YAxis.Data, I1
TestParameter, Output.Graph.YAxis.Scale, Linear
TestParameter, Output.Graph.YAxis.Bottom, -0.001
TestParameter, Output.Graph.YAxis.Top, 0.001
TestParameter, Output.Graph.YAxis.Group, 
TestParameter, Output.Scalar.Data, Ohmic
TestParameter, AutoAnalysis.Interpolation, false
TestParameter, AutoAnalysis.Line1.Enabled, false
TestParameter, AutoAnalysis.Line1.Type, 1
TestParameter, AutoAnalysis.Line1.Fix, True
TestParameter, AutoAnalysis.Line1.YAxis, 0
TestParameter, AutoAnalysis.Line1.Point1.Type, 0
TestParameter, AutoAnalysis.Line1.Point1.XY.X, 
TestParameter, AutoAnalysis.Line1.Point1.XY.Y, 
TestParameter, AutoAnalysis.Line1.Point1.Data.Var, 
TestParameter, AutoAnalysis.Line1.Point1.Data.Condition, 
TestParameter, AutoAnalysis.Line1.Point1.Data.Start, false
TestParameter, AutoAnalysis.Line1.Point1.Data.StartVar, 
TestParameter, AutoAnalysis.Line1.Point1.Data.StartCondition, 
TestParameter, AutoAnalysis.Line1.Point2.Type, 0
TestParameter, AutoAnalysis.Line1.Point2.XY.X, 
TestParameter, AutoAnalysis.Line1.Point2.XY.Y, 
TestParameter, AutoAnalysis.Line1.Point2.Data.Var, 
TestParameter, AutoAnalysis.Line1.Point2.Data.Condition, 
TestParameter, AutoAnalysis.Line1.Point2.Data.Start, false
TestParameter, AutoAnalysis.Line1.Point2.Data.StartVar, 
TestParameter, AutoAnalysis.Line1.Point2.Data.StartCondition, 
TestParameter, AutoAnalysis.Line1.GradientExpr, 0
TestParameter, AutoAnalysis.Line2.Enabled, false
TestParameter, AutoAnalysis.Line2.Type, 1
TestParameter, AutoAnalysis.Line2.Fix, True
TestParameter, AutoAnalysis.Line2.YAxis, 0
TestParameter, AutoAnalysis.Line2.Point1.Type, 0
TestParameter, AutoAnalysis.Line2.Point1.XY.X, 
TestParameter, AutoAnalysis.Line2.Point1.XY.Y, 
TestParameter, AutoAnalysis.Line2.Point1.Data.Var, 
TestParameter, AutoAnalysis.Line2.Point1.Data.Condition, 
TestParameter, AutoAnalysis.Line2.Point1.Data.Start, false
TestParameter, AutoAnalysis.Line2.Point1.Data.StartVar, 
TestParameter, AutoAnalysis.Line2.Point1.Data.StartCondition, 
TestParameter, AutoAnalysis.Line2.Point2.Type, 0
TestParameter, AutoAnalysis.Line2.Point2.XY.X, 
TestParameter, AutoAnalysis.Line2.Point2.XY.Y, 
TestParameter, AutoAnalysis.Line2.Point2.Data.Var, 
TestParameter, AutoAnalysis.Line2.Point2.Data.Condition, 
TestParameter, AutoAnalysis.Line2.Point2.Data.Start, false
TestParameter, AutoAnalysis.Line2.Point2.Data.StartVar, 
TestParameter, AutoAnalysis.Line2.Point2.Data.StartCondition, 
TestParameter, AutoAnalysis.Line2.GradientExpr, 0
TestParameter, AutoAnalysis.Marker.Enabled, false
TestParameter, AutoAnalysis.Marker.Data.Var, 
TestParameter, AutoAnalysis.Marker.Data.Condition, 
TestParameter, AutoAnalysis.Marker.Data.Start, false
TestParameter, AutoAnalysis.Marker.Data.StartVar, 
TestParameter, AutoAnalysis.Marker.Data.StartCondition, 
MetaData, TestRecord.EntryPoint, true
MetaData, TestRecord.RecordTime, 01/18/2020 19:07:45
MetaData, TestRecord.TestTarget, 
MetaData, TestRecord.IterationIndex, 36
MetaData, TestRecord.Preservation, true
MetaData, TestRecord.Flag, 
MetaData, TestRecord.Remarks, 
MetaData, TestRecord.LinkKey, 17400d1e-18ff-4de5-9d6e-9293f2df8f92
Dimension1, 101, 101, 101
Dimension2, 1, 1, 1
DataName, V1, I1, Ohmic
DataValue, -1, -7.682E-11, 37444901318.898773
DataValue, -0.98000000000000009, -6.176E-11, 
DataValue, -0.96000000000000008, -5.873E-11, 
DataValue, -0.94000000000000006, -5.174E-11, 
DataValue, -0.92, -4.9679999999999997E-11, 
DataValue, -0.9, -4.534E-11, 
DataValue, -0.88, -4.424E-11, 
DataValue, -0.86, -4.024E-11, 
DataValue, -0.84000000000000008, -4.031E-11, 
DataValue, -0.82000000000000006, -3.562E-11, 
DataValue, -0.8, -3.698E-11, 
DataValue, -0.78, -3.196E-11, 
DataValue, -0.76, -3.022E-11, 
DataValue, -0.74, -2.874E-11, 
DataValue, -0.72000000000000008, -2.794E-11, 
DataValue, -0.70000000000000007, -2.506E-11, 
DataValue, -0.68, -2.511E-11, 
DataValue, -0.66, -1.989E-11, 
DataValue, -0.64, -2.286E-11, 
DataValue, -0.62, -1.94E-11, 
DataValue, -0.6, -1.864E-11, 
DataValue, -0.58000000000000007, -1.584E-11, 
DataValue, -0.56, -1.543E-11, 
DataValue, -0.54, -1.156E-11, 
DataValue, -0.52, -1.267E-11, 
DataValue, -0.5, -1.009E-11, 
DataValue, -0.48000000000000004, -9.11E-12, 
DataValue, -0.46, -7.34E-12, 
DataValue, -0.44, -7.91E-12, 
DataValue, -0.42000000000000004, -5.37E-12, 
DataValue, -0.4, -4.01E-12, 
DataValue, -0.38, -3.28E-12, 
DataValue, -0.36000000000000004, -2.28E-12, 
DataValue, -0.34, -9.4E-13, 
DataValue, -0.32, -1.1E-13, 
DataValue, -0.3, 7.7E-13, 
DataValue, -0.28, 1.26E-12, 
DataValue, -0.26, 2.57E-12, 
DataValue, -0.24000000000000002, 3.49E-12, 
DataValue, -0.22, 3.49E-12, 
DataValue, -0.2, 4.3E-12, 
DataValue, -0.18000000000000002, 7.11E-12, 
DataValue, -0.16, 7.27E-12, 
DataValue, -0.14, 8.63E-12, 
DataValue, -0.12000000000000001, 7.46E-12, 
DataValue, -0.1, 1.233E-11, 
DataValue, -0.08, 1.282E-11, 
DataValue, -0.060000000000000005, 1.768E-11, 
DataValue, -0.04, 2.163E-11, 
DataValue, -0.02, 3.002E-11, 
DataValue, 0, 3.569E-11, 
DataValue, 0.02, 4.506E-11, 
DataValue, 0.04, 5.12E-11, 
DataValue, 0.060000000000000005, 5.752E-11, 
DataValue, 0.08, 6.236E-11, 
DataValue, 0.1, 6.679E-11, 
DataValue, 0.12000000000000001, 6.901E-11, 
DataValue, 0.14, 7.343E-11, 
DataValue, 0.16, 7.612E-11, 
DataValue, 0.18000000000000002, 7.871E-11, 
DataValue, 0.2, 8.197E-11, 
DataValue, 0.22, 8.671E-11, 
DataValue, 0.24000000000000002, 8.919E-11, 
DataValue, 0.26, 9.319E-11, 
DataValue, 0.28, 9.539E-11, 
DataValue, 0.3, 9.928E-11, 
DataValue, 0.32, 9.865E-11, 
DataValue, 0.34, 1.0209E-10, 
DataValue, 0.36000000000000004, 1.0482E-10, 
DataValue, 0.38, 1.0895E-10, 
DataValue, 0.4, 1.1201E-10, 
DataValue, 0.42000000000000004, 1.1152E-10, 
DataValue, 0.44, 1.1536E-10, 
DataValue, 0.46, 1.2092E-10, 
DataValue, 0.48000000000000004, 1.2204E-10, 
DataValue, 0.5, 1.2586E-10, 
DataValue, 0.52, 1.2954E-10, 
DataValue, 0.54, 1.3483E-10, 
DataValue, 0.56, 1.3453E-10, 
DataValue, 0.58000000000000007, 1.366E-10, 
DataValue, 0.6, 1.3949E-10, 
DataValue, 0.62, 1.4376E-10, 
DataValue, 0.64, 1.4961E-10, 
DataValue, 0.66, 1.5139E-10, 
DataValue, 0.68, 1.5334E-10, 
DataValue, 0.70000000000000007, 1.5432E-10, 
DataValue, 0.72000000000000008, 1.5778E-10, 
DataValue, 0.74, 1.6092E-10, 
DataValue, 0.76, 1.6331E-10, 
DataValue, 0.78, 1.6946E-10, 
DataValue, 0.8, 1.7323E-10, 
DataValue, 0.82000000000000006, 1.7614E-10, 
DataValue, 0.84000000000000008, 1.8105E-10, 
DataValue, 0.86, 1.8144E-10, 
DataValue, 0.88, 1.8681E-10, 
DataValue, 0.9, 1.8833E-10, 
DataValue, 0.92, 1.9029E-10, 
DataValue, 0.94000000000000006, 1.9387E-10, 
DataValue, 0.96000000000000008, 1.959E-10, 
DataValue, 0.98000000000000009, 2.0016E-10, 
DataValue, 1, 2.0183E-10, 