
SetupTitle, WW
PrimitiveTest, I/V Sweep
TestParameter, Context.MainFrame, B1500A
TestParameter, Channel.UnitType, SMU, SMU
TestParameter, Channel.Unit, SMU2:HP, SMU1:HP
TestParameter, Channel.IName, I1, I4
TestParameter, Channel.VName, V1, V4
TestParameter, Channel.Mode, V, COMMON
TestParameter, Channel.Func, VAR1, CONST
TestParameter, Channel.Index, 
TestParameter, Channel.Time, 
TestParameter, Measurement.Port.Unit, SMU2:HP, SMU1:HP
TestParameter, Measurement.Port.SeriesResistor, NONE, NONE
TestParameter, Measurement.Port.Filter, ON, ON
TestParameter, Measurement.Port.OutputVoltageComparison, 0, 0
TestParameter, Measurement.Primary.Locus, Single
TestParameter, Measurement.Primary.Scale, LINEAR
TestParameter, Measurement.Primary.Start, -1
TestParameter, Measurement.Primary.Stop, 1
TestParameter, Measurement.Primary.Step, 0.02
TestParameter, Measurement.Primary.Compliance, 0.01
TestParameter, Measurement.Primary.PowerCompliance, 0
TestParameter, Measurement.Aborting.Condition, CONTINUE AT ANY
TestParameter, Measurement.PostOutput.Value, START
TestParameter, Measurement.PostOutput.Retention, OFF
TestParameter, Measurement.Bias.Source, -1, 0
TestParameter, Measurement.Bias.Compliance, 0.01, 1
TestParameter, Measurement.Monitor.Unit, SMU2:HP, SMU1:HP
TestParameter, Measurement.Monitor.Adc, HR ADC, HR ADC
TestParameter, Measurement.Monitor.Measurement, Compliance Side, Compliance Side
TestParameter, Measurement.Monitor.RangingMode, AUTO, AUTO
TestParameter, Measurement.Monitor.RangeBoundary, , 
TestParameter, Measurement.Monitor.RangeRating, BY FULL RANGE, BY FULL RANGE
TestParameter, Measurement.Monitor.RangeRatingCoeff, 50, 50
TestParameter, Measurement.Timing.Hold, 0
TestParameter, Measurement.Timing.Delay, 0.001
TestParameter, Measurement.Adc.HighSpeed.Mode, AUTO
TestParameter, Measurement.Adc.HighSpeed.Coeff, 1
TestParameter, Measurement.Adc.HighResolution.AutoZero, OFF
TestParameter, Measurement.Adc.HighResolution.Mode, PLC
TestParameter, Measurement.Adc.HighResolution.Coeff, 1
TestParameter, Measurement.WaitTime.Source.Coeff, 1
TestParameter, Measurement.WaitTime.Source.Offset, 0
TestParameter, Measurement.WaitTime.Monitor.Coeff, 1
TestParameter, Measurement.WaitTime.Monitor.Offset, 0
TestParameter, Function.User.Name, Ohmic
TestParameter, Function.User.Unit, ohm
TestParameter, Function.User.Definition, avg(V1/I1)
TestParameter, Output.Graph.Enabled, true
TestParameter, Output.Graph.XAxis.Data, V1
TestParameter, Output.Graph.XAxis.Scale, Linear
TestParameter, Output.Graph.XAxis.Left, -5
TestParameter, Output.Graph.XAxis.Right, 5
TestParameter, Output.Graph.YAxis.Data, I1
TestParameter, Output.Graph.YAxis.Scale, Linear
TestParameter, Output.Graph.YAxis.Bottom, -0.001
TestParameter, Output.Graph.YAxis.Top, 0.001
TestParameter, Output.Graph.YAxis.Group, 
TestParameter, Output.Scalar.Data, Ohmic
TestParameter, AutoAnalysis.Interpolation, false
TestParameter, AutoAnalysis.Line1.Enabled, false
TestParameter, AutoAnalysis.Line1.Type, 1
TestParameter, AutoAnalysis.Line1.Fix, True
TestParameter, AutoAnalysis.Line1.YAxis, 0
TestParameter, AutoAnalysis.Line1.Point1.Type, 0
TestParameter, AutoAnalysis.Line1.Point1.XY.X, 
TestParameter, AutoAnalysis.Line1.Point1.XY.Y, 
TestParameter, AutoAnalysis.Line1.Point1.Data.Var, 
TestParameter, AutoAnalysis.Line1.Point1.Data.Condition, 
TestParameter, AutoAnalysis.Line1.Point1.Data.Start, false
TestParameter, AutoAnalysis.Line1.Point1.Data.StartVar, 
TestParameter, AutoAnalysis.Line1.Point1.Data.StartCondition, 
TestParameter, AutoAnalysis.Line1.Point2.Type, 0
TestParameter, AutoAnalysis.Line1.Point2.XY.X, 
TestParameter, AutoAnalysis.Line1.Point2.XY.Y, 
TestParameter, AutoAnalysis.Line1.Point2.Data.Var, 
TestParameter, AutoAnalysis.Line1.Point2.Data.Condition, 
TestParameter, AutoAnalysis.Line1.Point2.Data.Start, false
TestParameter, AutoAnalysis.Line1.Point2.Data.StartVar, 
TestParameter, AutoAnalysis.Line1.Point2.Data.StartCondition, 
TestParameter, AutoAnalysis.Line1.GradientExpr, 0
TestParameter, AutoAnalysis.Line2.Enabled, false
TestParameter, AutoAnalysis.Line2.Type, 1
TestParameter, AutoAnalysis.Line2.Fix, True
TestParameter, AutoAnalysis.Line2.YAxis, 0
TestParameter, AutoAnalysis.Line2.Point1.Type, 0
TestParameter, AutoAnalysis.Line2.Point1.XY.X, 
TestParameter, AutoAnalysis.Line2.Point1.XY.Y, 
TestParameter, AutoAnalysis.Line2.Point1.Data.Var, 
TestParameter, AutoAnalysis.Line2.Point1.Data.Condition, 
TestParameter, AutoAnalysis.Line2.Point1.Data.Start, false
TestParameter, AutoAnalysis.Line2.Point1.Data.StartVar, 
TestParameter, AutoAnalysis.Line2.Point1.Data.StartCondition, 
TestParameter, AutoAnalysis.Line2.Point2.Type, 0
TestParameter, AutoAnalysis.Line2.Point2.XY.X, 
TestParameter, AutoAnalysis.Line2.Point2.XY.Y, 
TestParameter, AutoAnalysis.Line2.Point2.Data.Var, 
TestParameter, AutoAnalysis.Line2.Point2.Data.Condition, 
TestParameter, AutoAnalysis.Line2.Point2.Data.Start, false
TestParameter, AutoAnalysis.Line2.Point2.Data.StartVar, 
TestParameter, AutoAnalysis.Line2.Point2.Data.StartCondition, 
TestParameter, AutoAnalysis.Line2.GradientExpr, 0
TestParameter, AutoAnalysis.Marker.Enabled, false
TestParameter, AutoAnalysis.Marker.Data.Var, 
TestParameter, AutoAnalysis.Marker.Data.Condition, 
TestParameter, AutoAnalysis.Marker.Data.Start, false
TestParameter, AutoAnalysis.Marker.Data.StartVar, 
TestParameter, AutoAnalysis.Marker.Data.StartCondition, 
MetaData, TestRecord.EntryPoint, true
MetaData, TestRecord.RecordTime, 01/18/2020 19:06:49
MetaData, TestRecord.TestTarget, 
MetaData, TestRecord.IterationIndex, 34
MetaData, TestRecord.Preservation, true
MetaData, TestRecord.Flag, 
MetaData, TestRecord.Remarks, 
MetaData, TestRecord.LinkKey, 583fb8bb-6725-4677-a2a5-15edcf2e6610
Dimension1, 101, 101, 101
Dimension2, 1, 1, 1
DataName, V1, I1, Ohmic
DataValue, -1, -7.462E-11, 5048260346.0265541
DataValue, -0.98000000000000009, -6E-11, 
DataValue, -0.96000000000000008, -5.108E-11, 
DataValue, -0.94000000000000006, -4.839E-11, 
DataValue, -0.92, -4.379E-11, 
DataValue, -0.9, -4.202E-11, 
DataValue, -0.88, -3.763E-11, 
DataValue, -0.86, -3.665E-11, 
DataValue, -0.84000000000000008, -3.274E-11, 
DataValue, -0.82000000000000006, -3.019E-11, 
DataValue, -0.8, -3.034E-11, 
DataValue, -0.78, -2.628E-11, 
DataValue, -0.76, -2.671E-11, 
DataValue, -0.74, -2.407E-11, 
DataValue, -0.72000000000000008, -2.312E-11, 
DataValue, -0.70000000000000007, -1.915E-11, 
DataValue, -0.68, -1.915E-11, 
DataValue, -0.66, -1.749E-11, 
DataValue, -0.64, -1.712E-11, 
DataValue, -0.62, -1.412E-11, 
DataValue, -0.6, -1.354E-11, 
DataValue, -0.58000000000000007, -1.268E-11, 
DataValue, -0.56, -9.62E-12, 
DataValue, -0.54, -1.02E-11, 
DataValue, -0.52, -7.93E-12, 
DataValue, -0.5, -8.17E-12, 
DataValue, -0.48000000000000004, -4.27E-12, 
DataValue, -0.46, -4.89E-12, 
DataValue, -0.44, -3.59E-12, 
DataValue, -0.42000000000000004, -3.49E-12, 
DataValue, -0.4, -1.69E-12, 
DataValue, -0.38, -1.43E-12, 
DataValue, -0.36000000000000004, 8.3E-13, 
DataValue, -0.34, 6.4E-13, 
DataValue, -0.32, 2.74E-12, 
DataValue, -0.3, 2.4E-12, 
DataValue, -0.28, 3.69E-12, 
DataValue, -0.26, 3.44E-12, 
DataValue, -0.24000000000000002, 6.27E-12, 
DataValue, -0.22, 5.39E-12, 
DataValue, -0.2, 7.95E-12, 
DataValue, -0.18000000000000002, 6.77E-12, 
DataValue, -0.16, 1.007E-11, 
DataValue, -0.14, 8E-12, 
DataValue, -0.12000000000000001, 1.15E-11, 
DataValue, -0.1, 1.141E-11, 
DataValue, -0.08, 1.432E-11, 
DataValue, -0.060000000000000005, 1.483E-11, 
DataValue, -0.04, 2.06E-11, 
DataValue, -0.02, 2.22E-11, 
DataValue, 0, 2.789E-11, 
DataValue, 0.02, 3.186E-11, 
DataValue, 0.04, 3.78E-11, 
DataValue, 0.060000000000000005, 4.17E-11, 
DataValue, 0.08, 4.763E-11, 
DataValue, 0.1, 4.978E-11, 
DataValue, 0.12000000000000001, 5.357E-11, 
DataValue, 0.14, 5.413E-11, 
DataValue, 0.16, 5.86E-11, 
DataValue, 0.18000000000000002, 5.827E-11, 
DataValue, 0.2, 6.383E-11, 
DataValue, 0.22, 6.45E-11, 
DataValue, 0.24000000000000002, 6.766E-11, 
DataValue, 0.26, 7.06E-11, 
DataValue, 0.28, 7.343E-11, 
DataValue, 0.3, 7.421E-11, 
DataValue, 0.32, 7.568E-11, 
DataValue, 0.34, 7.751E-11, 
DataValue, 0.36000000000000004, 8.029E-11, 
DataValue, 0.38, 8.024E-11, 
DataValue, 0.4, 8.398E-11, 
DataValue, 0.42000000000000004, 8.978E-11, 
DataValue, 0.44, 9.059E-11, 
DataValue, 0.46, 9.271E-11, 
DataValue, 0.48000000000000004, 9.497E-11, 
DataValue, 0.5, 9.675E-11, 
DataValue, 0.52, 9.708E-11, 
DataValue, 0.54, 1.028E-10, 
DataValue, 0.56, 1.0618E-10, 
DataValue, 0.58000000000000007, 1.0637E-10, 
DataValue, 0.6, 1.0759E-10, 
DataValue, 0.62, 1.1063E-10, 
DataValue, 0.64, 1.1058E-10, 
DataValue, 0.66, 1.1355E-10, 
DataValue, 0.68, 1.1366E-10, 
DataValue, 0.70000000000000007, 1.1821E-10, 
DataValue, 0.72000000000000008, 1.1914E-10, 
DataValue, 0.74, 1.2065E-10, 
DataValue, 0.76, 1.2154E-10, 
DataValue, 0.78, 1.2384E-10, 
DataValue, 0.8, 1.2479E-10, 
DataValue, 0.82000000000000006, 1.3066E-10, 
DataValue, 0.84000000000000008, 1.4084E-10, 
DataValue, 0.86, 1.3626E-10, 
DataValue, 0.88, 1.3826E-10, 
DataValue, 0.9, 1.4486E-10, 
DataValue, 0.92, 1.4472E-10, 
DataValue, 0.94000000000000006, 1.501E-10, 
DataValue, 0.96000000000000008, 1.5088E-10, 
DataValue, 0.98000000000000009, 1.508E-10, 
DataValue, 1, 1.5346E-10, 