
SetupTitle, WW
PrimitiveTest, I/V Sweep
TestParameter, Context.MainFrame, B1500A
TestParameter, Channel.UnitType, SMU, SMU
TestParameter, Channel.Unit, SMU2:HP, SMU1:HP
TestParameter, Channel.IName, I1, I4
TestParameter, Channel.VName, V1, V4
TestParameter, Channel.Mode, V, COMMON
TestParameter, Channel.Func, VAR1, CONST
TestParameter, Channel.Index, 
TestParameter, Channel.Time, 
TestParameter, Measurement.Port.Unit, SMU2:HP, SMU1:HP
TestParameter, Measurement.Port.SeriesResistor, NONE, NONE
TestParameter, Measurement.Port.Filter, ON, ON
TestParameter, Measurement.Port.OutputVoltageComparison, 0, 0
TestParameter, Measurement.Primary.Locus, Single
TestParameter, Measurement.Primary.Scale, LINEAR
TestParameter, Measurement.Primary.Start, -1
TestParameter, Measurement.Primary.Stop, 1
TestParameter, Measurement.Primary.Step, 0.02
TestParameter, Measurement.Primary.Compliance, 0.01
TestParameter, Measurement.Primary.PowerCompliance, 0
TestParameter, Measurement.Aborting.Condition, CONTINUE AT ANY
TestParameter, Measurement.PostOutput.Value, START
TestParameter, Measurement.PostOutput.Retention, OFF
TestParameter, Measurement.Bias.Source, -1, 0
TestParameter, Measurement.Bias.Compliance, 0.01, 1
TestParameter, Measurement.Monitor.Unit, SMU2:HP, SMU1:HP
TestParameter, Measurement.Monitor.Adc, HR ADC, HR ADC
TestParameter, Measurement.Monitor.Measurement, Compliance Side, Compliance Side
TestParameter, Measurement.Monitor.RangingMode, AUTO, AUTO
TestParameter, Measurement.Monitor.RangeBoundary, , 
TestParameter, Measurement.Monitor.RangeRating, BY FULL RANGE, BY FULL RANGE
TestParameter, Measurement.Monitor.RangeRatingCoeff, 50, 50
TestParameter, Measurement.Timing.Hold, 0
TestParameter, Measurement.Timing.Delay, 0.001
TestParameter, Measurement.Adc.HighSpeed.Mode, AUTO
TestParameter, Measurement.Adc.HighSpeed.Coeff, 1
TestParameter, Measurement.Adc.HighResolution.AutoZero, OFF
TestParameter, Measurement.Adc.HighResolution.Mode, PLC
TestParameter, Measurement.Adc.HighResolution.Coeff, 1
TestParameter, Measurement.WaitTime.Source.Coeff, 1
TestParameter, Measurement.WaitTime.Source.Offset, 0
TestParameter, Measurement.WaitTime.Monitor.Coeff, 1
TestParameter, Measurement.WaitTime.Monitor.Offset, 0
TestParameter, Function.User.Name, Ohmic
TestParameter, Function.User.Unit, ohm
TestParameter, Function.User.Definition, avg(V1/I1)
TestParameter, Output.Graph.Enabled, true
TestParameter, Output.Graph.XAxis.Data, V1
TestParameter, Output.Graph.XAxis.Scale, Linear
TestParameter, Output.Graph.XAxis.Left, -5
TestParameter, Output.Graph.XAxis.Right, 5
TestParameter, Output.Graph.YAxis.Data, I1
TestParameter, Output.Graph.YAxis.Scale, Linear
TestParameter, Output.Graph.YAxis.Bottom, -0.001
TestParameter, Output.Graph.YAxis.Top, 0.001
TestParameter, Output.Graph.YAxis.Group, 
TestParameter, Output.Scalar.Data, Ohmic
TestParameter, AutoAnalysis.Interpolation, false
TestParameter, AutoAnalysis.Line1.Enabled, false
TestParameter, AutoAnalysis.Line1.Type, 1
TestParameter, AutoAnalysis.Line1.Fix, True
TestParameter, AutoAnalysis.Line1.YAxis, 0
TestParameter, AutoAnalysis.Line1.Point1.Type, 0
TestParameter, AutoAnalysis.Line1.Point1.XY.X, 
TestParameter, AutoAnalysis.Line1.Point1.XY.Y, 
TestParameter, AutoAnalysis.Line1.Point1.Data.Var, 
TestParameter, AutoAnalysis.Line1.Point1.Data.Condition, 
TestParameter, AutoAnalysis.Line1.Point1.Data.Start, false
TestParameter, AutoAnalysis.Line1.Point1.Data.StartVar, 
TestParameter, AutoAnalysis.Line1.Point1.Data.StartCondition, 
TestParameter, AutoAnalysis.Line1.Point2.Type, 0
TestParameter, AutoAnalysis.Line1.Point2.XY.X, 
TestParameter, AutoAnalysis.Line1.Point2.XY.Y, 
TestParameter, AutoAnalysis.Line1.Point2.Data.Var, 
TestParameter, AutoAnalysis.Line1.Point2.Data.Condition, 
TestParameter, AutoAnalysis.Line1.Point2.Data.Start, false
TestParameter, AutoAnalysis.Line1.Point2.Data.StartVar, 
TestParameter, AutoAnalysis.Line1.Point2.Data.StartCondition, 
TestParameter, AutoAnalysis.Line1.GradientExpr, 0
TestParameter, AutoAnalysis.Line2.Enabled, false
TestParameter, AutoAnalysis.Line2.Type, 1
TestParameter, AutoAnalysis.Line2.Fix, True
TestParameter, AutoAnalysis.Line2.YAxis, 0
TestParameter, AutoAnalysis.Line2.Point1.Type, 0
TestParameter, AutoAnalysis.Line2.Point1.XY.X, 
TestParameter, AutoAnalysis.Line2.Point1.XY.Y, 
TestParameter, AutoAnalysis.Line2.Point1.Data.Var, 
TestParameter, AutoAnalysis.Line2.Point1.Data.Condition, 
TestParameter, AutoAnalysis.Line2.Point1.Data.Start, false
TestParameter, AutoAnalysis.Line2.Point1.Data.StartVar, 
TestParameter, AutoAnalysis.Line2.Point1.Data.StartCondition, 
TestParameter, AutoAnalysis.Line2.Point2.Type, 0
TestParameter, AutoAnalysis.Line2.Point2.XY.X, 
TestParameter, AutoAnalysis.Line2.Point2.XY.Y, 
TestParameter, AutoAnalysis.Line2.Point2.Data.Var, 
TestParameter, AutoAnalysis.Line2.Point2.Data.Condition, 
TestParameter, AutoAnalysis.Line2.Point2.Data.Start, false
TestParameter, AutoAnalysis.Line2.Point2.Data.StartVar, 
TestParameter, AutoAnalysis.Line2.Point2.Data.StartCondition, 
TestParameter, AutoAnalysis.Line2.GradientExpr, 0
TestParameter, AutoAnalysis.Marker.Enabled, false
TestParameter, AutoAnalysis.Marker.Data.Var, 
TestParameter, AutoAnalysis.Marker.Data.Condition, 
TestParameter, AutoAnalysis.Marker.Data.Start, false
TestParameter, AutoAnalysis.Marker.Data.StartVar, 
TestParameter, AutoAnalysis.Marker.Data.StartCondition, 
MetaData, TestRecord.EntryPoint, true
MetaData, TestRecord.RecordTime, 01/18/2020 19:05:39
MetaData, TestRecord.TestTarget, 
MetaData, TestRecord.IterationIndex, 32
MetaData, TestRecord.Preservation, true
MetaData, TestRecord.Flag, 
MetaData, TestRecord.Remarks, 
MetaData, TestRecord.LinkKey, 85e60ff4-05b0-491b-8097-d938c0dec1c9
Dimension1, 101, 101, 101
Dimension2, 1, 1, 1
DataName, V1, I1, Ohmic
DataValue, -1, -6.932E-11, 6903707676.122653
DataValue, -0.98000000000000009, -5.553E-11, 
DataValue, -0.96000000000000008, -4.647E-11, 
DataValue, -0.94000000000000006, -4.096E-11, 
DataValue, -0.92, -3.797E-11, 
DataValue, -0.9, -3.486E-11, 
DataValue, -0.88, -3.272E-11, 
DataValue, -0.86, -2.915E-11, 
DataValue, -0.84000000000000008, -2.791E-11, 
DataValue, -0.82000000000000006, -2.493E-11, 
DataValue, -0.8, -2.205E-11, 
DataValue, -0.78, -2.148E-11, 
DataValue, -0.76, -2.141E-11, 
DataValue, -0.74, -1.953E-11, 
DataValue, -0.72000000000000008, -1.67E-11, 
DataValue, -0.70000000000000007, -1.646E-11, 
DataValue, -0.68, -1.388E-11, 
DataValue, -0.66, -1.456E-11, 
DataValue, -0.64, -1.074E-11, 
DataValue, -0.62, -9.77E-12, 
DataValue, -0.6, -9.01E-12, 
DataValue, -0.58000000000000007, -7.87E-12, 
DataValue, -0.56, -7.51E-12, 
DataValue, -0.54, -6.2E-12, 
DataValue, -0.52, -4.49E-12, 
DataValue, -0.5, -3.81E-12, 
DataValue, -0.48000000000000004, -4.37E-12, 
DataValue, -0.46, -2.43E-12, 
DataValue, -0.44, -2.33E-12, 
DataValue, -0.42000000000000004, 5.2E-13, 
DataValue, -0.4, -5.8E-13, 
DataValue, -0.38, 1.82E-12, 
DataValue, -0.36000000000000004, 6.6E-13, 
DataValue, -0.34, 3.7E-12, 
DataValue, -0.32, 3.07E-12, 
DataValue, -0.3, 4.02E-12, 
DataValue, -0.28, 4.48E-12, 
DataValue, -0.26, 7.3E-12, 
DataValue, -0.24000000000000002, 7.61E-12, 
DataValue, -0.22, 1.178E-11, 
DataValue, -0.2, 1.09E-11, 
DataValue, -0.18000000000000002, 1.321E-11, 
DataValue, -0.16, 1.207E-11, 
DataValue, -0.14, 1.508E-11, 
DataValue, -0.12000000000000001, 1.449E-11, 
DataValue, -0.1, 1.426E-11, 
DataValue, -0.08, 1.663E-11, 
DataValue, -0.060000000000000005, 1.637E-11, 
DataValue, -0.04, 1.677E-11, 
DataValue, -0.02, 2.18E-11, 
DataValue, 0, 2.146E-11, 
DataValue, 0.02, 2.573E-11, 
DataValue, 0.04, 2.682E-11, 
DataValue, 0.060000000000000005, 3.169E-11, 
DataValue, 0.08, 3.267E-11, 
DataValue, 0.1, 3.655E-11, 
DataValue, 0.12000000000000001, 3.638E-11, 
DataValue, 0.14, 4.017E-11, 
DataValue, 0.16, 4.055E-11, 
DataValue, 0.18000000000000002, 4.177E-11, 
DataValue, 0.2, 4.285E-11, 
DataValue, 0.22, 4.45E-11, 
DataValue, 0.24000000000000002, 4.59E-11, 
DataValue, 0.26, 4.774E-11, 
DataValue, 0.28, 4.8769999999999997E-11, 
DataValue, 0.3, 5.128E-11, 
DataValue, 0.32, 5.24E-11, 
DataValue, 0.34, 5.433E-11, 
DataValue, 0.36000000000000004, 5.584E-11, 
DataValue, 0.38, 5.722E-11, 
DataValue, 0.4, 5.845E-11, 
DataValue, 0.42000000000000004, 6.094E-11, 
DataValue, 0.44, 6.12E-11, 
DataValue, 0.46, 6.189E-11, 
DataValue, 0.48000000000000004, 6.397E-11, 
DataValue, 0.5, 6.668E-11, 
DataValue, 0.52, 6.747E-11, 
DataValue, 0.54, 6.814E-11, 
DataValue, 0.56, 7.105E-11, 
DataValue, 0.58000000000000007, 7.557E-11, 
DataValue, 0.6, 7.346E-11, 
DataValue, 0.62, 7.681E-11, 
DataValue, 0.64, 7.666E-11, 
DataValue, 0.66, 7.989E-11, 
DataValue, 0.68, 8.174E-11, 
DataValue, 0.70000000000000007, 8.26E-11, 
DataValue, 0.72000000000000008, 8.475E-11, 
DataValue, 0.74, 8.861E-11, 
DataValue, 0.76, 8.7489E-11, 
DataValue, 0.78, 9.155000000000001E-11, 
DataValue, 0.8, 9.0199000000000013E-11, 
DataValue, 0.82000000000000006, 9.246000000000001E-11, 
DataValue, 0.84000000000000008, 9.4646000000000008E-11, 
DataValue, 0.86, 9.5545E-11, 
DataValue, 0.88, 9.6727000000000011E-11, 
DataValue, 0.9, 9.9361E-11, 
DataValue, 0.92, 1.01183E-10, 
DataValue, 0.94000000000000006, 1.0342200000000001E-10, 
DataValue, 0.96000000000000008, 1.0632300000000001E-10, 
DataValue, 0.98000000000000009, 1.0777500000000001E-10, 
DataValue, 1, 1.0987E-10, 