
SetupTitle, WW
PrimitiveTest, I/V Sweep
TestParameter, Context.MainFrame, B1500A
TestParameter, Channel.UnitType, SMU, SMU
TestParameter, Channel.Unit, SMU2:HP, SMU1:HP
TestParameter, Channel.IName, I1, I4
TestParameter, Channel.VName, V1, V4
TestParameter, Channel.Mode, V, COMMON
TestParameter, Channel.Func, VAR1, CONST
TestParameter, Channel.Index, 
TestParameter, Channel.Time, 
TestParameter, Measurement.Port.Unit, SMU2:HP, SMU1:HP
TestParameter, Measurement.Port.SeriesResistor, NONE, NONE
TestParameter, Measurement.Port.Filter, ON, ON
TestParameter, Measurement.Port.OutputVoltageComparison, 0, 0
TestParameter, Measurement.Primary.Locus, Single
TestParameter, Measurement.Primary.Scale, LINEAR
TestParameter, Measurement.Primary.Start, -1
TestParameter, Measurement.Primary.Stop, 1
TestParameter, Measurement.Primary.Step, 0.02
TestParameter, Measurement.Primary.Compliance, 0.01
TestParameter, Measurement.Primary.PowerCompliance, 0
TestParameter, Measurement.Aborting.Condition, CONTINUE AT ANY
TestParameter, Measurement.PostOutput.Value, START
TestParameter, Measurement.PostOutput.Retention, OFF
TestParameter, Measurement.Bias.Source, -1, 0
TestParameter, Measurement.Bias.Compliance, 0.01, 1
TestParameter, Measurement.Monitor.Unit, SMU2:HP, SMU1:HP
TestParameter, Measurement.Monitor.Adc, HR ADC, HR ADC
TestParameter, Measurement.Monitor.Measurement, Compliance Side, Compliance Side
TestParameter, Measurement.Monitor.RangingMode, AUTO, AUTO
TestParameter, Measurement.Monitor.RangeBoundary, , 
TestParameter, Measurement.Monitor.RangeRating, BY FULL RANGE, BY FULL RANGE
TestParameter, Measurement.Monitor.RangeRatingCoeff, 50, 50
TestParameter, Measurement.Timing.Hold, 0
TestParameter, Measurement.Timing.Delay, 0.001
TestParameter, Measurement.Adc.HighSpeed.Mode, AUTO
TestParameter, Measurement.Adc.HighSpeed.Coeff, 1
TestParameter, Measurement.Adc.HighResolution.AutoZero, OFF
TestParameter, Measurement.Adc.HighResolution.Mode, PLC
TestParameter, Measurement.Adc.HighResolution.Coeff, 1
TestParameter, Measurement.WaitTime.Source.Coeff, 1
TestParameter, Measurement.WaitTime.Source.Offset, 0
TestParameter, Measurement.WaitTime.Monitor.Coeff, 1
TestParameter, Measurement.WaitTime.Monitor.Offset, 0
TestParameter, Function.User.Name, Ohmic
TestParameter, Function.User.Unit, ohm
TestParameter, Function.User.Definition, avg(V1/I1)
TestParameter, Output.Graph.Enabled, true
TestParameter, Output.Graph.XAxis.Data, V1
TestParameter, Output.Graph.XAxis.Scale, Linear
TestParameter, Output.Graph.XAxis.Left, -5
TestParameter, Output.Graph.XAxis.Right, 5
TestParameter, Output.Graph.YAxis.Data, I1
TestParameter, Output.Graph.YAxis.Scale, Linear
TestParameter, Output.Graph.YAxis.Bottom, -0.001
TestParameter, Output.Graph.YAxis.Top, 0.001
TestParameter, Output.Graph.YAxis.Group, 
TestParameter, Output.Scalar.Data, Ohmic
TestParameter, AutoAnalysis.Interpolation, false
TestParameter, AutoAnalysis.Line1.Enabled, false
TestParameter, AutoAnalysis.Line1.Type, 1
TestParameter, AutoAnalysis.Line1.Fix, True
TestParameter, AutoAnalysis.Line1.YAxis, 0
TestParameter, AutoAnalysis.Line1.Point1.Type, 0
TestParameter, AutoAnalysis.Line1.Point1.XY.X, 
TestParameter, AutoAnalysis.Line1.Point1.XY.Y, 
TestParameter, AutoAnalysis.Line1.Point1.Data.Var, 
TestParameter, AutoAnalysis.Line1.Point1.Data.Condition, 
TestParameter, AutoAnalysis.Line1.Point1.Data.Start, false
TestParameter, AutoAnalysis.Line1.Point1.Data.StartVar, 
TestParameter, AutoAnalysis.Line1.Point1.Data.StartCondition, 
TestParameter, AutoAnalysis.Line1.Point2.Type, 0
TestParameter, AutoAnalysis.Line1.Point2.XY.X, 
TestParameter, AutoAnalysis.Line1.Point2.XY.Y, 
TestParameter, AutoAnalysis.Line1.Point2.Data.Var, 
TestParameter, AutoAnalysis.Line1.Point2.Data.Condition, 
TestParameter, AutoAnalysis.Line1.Point2.Data.Start, false
TestParameter, AutoAnalysis.Line1.Point2.Data.StartVar, 
TestParameter, AutoAnalysis.Line1.Point2.Data.StartCondition, 
TestParameter, AutoAnalysis.Line1.GradientExpr, 0
TestParameter, AutoAnalysis.Line2.Enabled, false
TestParameter, AutoAnalysis.Line2.Type, 1
TestParameter, AutoAnalysis.Line2.Fix, True
TestParameter, AutoAnalysis.Line2.YAxis, 0
TestParameter, AutoAnalysis.Line2.Point1.Type, 0
TestParameter, AutoAnalysis.Line2.Point1.XY.X, 
TestParameter, AutoAnalysis.Line2.Point1.XY.Y, 
TestParameter, AutoAnalysis.Line2.Point1.Data.Var, 
TestParameter, AutoAnalysis.Line2.Point1.Data.Condition, 
TestParameter, AutoAnalysis.Line2.Point1.Data.Start, false
TestParameter, AutoAnalysis.Line2.Point1.Data.StartVar, 
TestParameter, AutoAnalysis.Line2.Point1.Data.StartCondition, 
TestParameter, AutoAnalysis.Line2.Point2.Type, 0
TestParameter, AutoAnalysis.Line2.Point2.XY.X, 
TestParameter, AutoAnalysis.Line2.Point2.XY.Y, 
TestParameter, AutoAnalysis.Line2.Point2.Data.Var, 
TestParameter, AutoAnalysis.Line2.Point2.Data.Condition, 
TestParameter, AutoAnalysis.Line2.Point2.Data.Start, false
TestParameter, AutoAnalysis.Line2.Point2.Data.StartVar, 
TestParameter, AutoAnalysis.Line2.Point2.Data.StartCondition, 
TestParameter, AutoAnalysis.Line2.GradientExpr, 0
TestParameter, AutoAnalysis.Marker.Enabled, false
TestParameter, AutoAnalysis.Marker.Data.Var, 
TestParameter, AutoAnalysis.Marker.Data.Condition, 
TestParameter, AutoAnalysis.Marker.Data.Start, false
TestParameter, AutoAnalysis.Marker.Data.StartVar, 
TestParameter, AutoAnalysis.Marker.Data.StartCondition, 
MetaData, TestRecord.EntryPoint, true
MetaData, TestRecord.RecordTime, 01/18/2020 19:05:17
MetaData, TestRecord.TestTarget, 
MetaData, TestRecord.IterationIndex, 31
MetaData, TestRecord.Preservation, true
MetaData, TestRecord.Flag, 
MetaData, TestRecord.Remarks, 
MetaData, TestRecord.LinkKey, f4601414-376b-4729-a952-eb594b016874
Dimension1, 101, 101, 101
Dimension2, 1, 1, 1
DataName, V1, I1, Ohmic
DataValue, -1, -6.407E-11, 58838235206.679756
DataValue, -0.98000000000000009, -4.982E-11, 
DataValue, -0.96000000000000008, -4.379E-11, 
DataValue, -0.94000000000000006, -3.914E-11, 
DataValue, -0.92, -3.617E-11, 
DataValue, -0.9, -3.252E-11, 
DataValue, -0.88, -3.061E-11, 
DataValue, -0.86, -2.817E-11, 
DataValue, -0.84000000000000008, -2.571E-11, 
DataValue, -0.82000000000000006, -2.342E-11, 
DataValue, -0.8, -2.321E-11, 
DataValue, -0.78, -2.116E-11, 
DataValue, -0.76, -1.986E-11, 
DataValue, -0.74, -1.69E-11, 
DataValue, -0.72000000000000008, -1.554E-11, 
DataValue, -0.70000000000000007, -1.537E-11, 
DataValue, -0.68, -1.3E-11, 
DataValue, -0.66, -1.244E-11, 
DataValue, -0.64, -1.21E-11, 
DataValue, -0.62, -9.57E-12, 
DataValue, -0.6, -7.82E-12, 
DataValue, -0.58000000000000007, -6.57E-12, 
DataValue, -0.56, -6.29E-12, 
DataValue, -0.54, -4.7399999999999996E-12, 
DataValue, -0.52, -4.72E-12, 
DataValue, -0.5, -3.45E-12, 
DataValue, -0.48000000000000004, -2.53E-12, 
DataValue, -0.46, -1.71E-12, 
DataValue, -0.44, -9E-14, 
DataValue, -0.42000000000000004, -5.1E-13, 
DataValue, -0.4, 6.7E-13, 
DataValue, -0.38, 7.4E-13, 
DataValue, -0.36000000000000004, 1.51E-12, 
DataValue, -0.34, 2.44E-12, 
DataValue, -0.32, 3.56E-12, 
DataValue, -0.3, 3.87E-12, 
DataValue, -0.28, 4.78E-12, 
DataValue, -0.26, 6.34E-12, 
DataValue, -0.24000000000000002, 5.34E-12, 
DataValue, -0.22, 6.62E-12, 
DataValue, -0.2, 7.34E-12, 
DataValue, -0.18000000000000002, 7.76E-12, 
DataValue, -0.16, 8E-12, 
DataValue, -0.14, 9.57E-12, 
DataValue, -0.12000000000000001, 9.53E-12, 
DataValue, -0.1, 1.062E-11, 
DataValue, -0.08, 1.209E-11, 
DataValue, -0.060000000000000005, 1.351E-11, 
DataValue, -0.04, 1.552E-11, 
DataValue, -0.02, 1.729E-11, 
DataValue, 0, 1.98E-11, 
DataValue, 0.02, 2.331E-11, 
DataValue, 0.04, 2.584E-11, 
DataValue, 0.060000000000000005, 2.794E-11, 
DataValue, 0.08, 3.18E-11, 
DataValue, 0.1, 3.329E-11, 
DataValue, 0.12000000000000001, 3.583E-11, 
DataValue, 0.14, 3.732E-11, 
DataValue, 0.16, 3.899E-11, 
DataValue, 0.18000000000000002, 3.948E-11, 
DataValue, 0.2, 4.072E-11, 
DataValue, 0.22, 4.127E-11, 
DataValue, 0.24000000000000002, 4.317E-11, 
DataValue, 0.26, 4.491E-11, 
DataValue, 0.28, 4.531E-11, 
DataValue, 0.3, 4.712E-11, 
DataValue, 0.32, 4.827E-11, 
DataValue, 0.34, 5.007E-11, 
DataValue, 0.36000000000000004, 5.028E-11, 
DataValue, 0.38, 5.307E-11, 
DataValue, 0.4, 5.5E-11, 
DataValue, 0.42000000000000004, 5.432E-11, 
DataValue, 0.44, 5.534E-11, 
DataValue, 0.46, 5.818E-11, 
DataValue, 0.48000000000000004, 5.852E-11, 
DataValue, 0.5, 6.141E-11, 
DataValue, 0.52, 6.288E-11, 
DataValue, 0.54, 6.474E-11, 
DataValue, 0.56, 6.442E-11, 
DataValue, 0.58000000000000007, 6.619E-11, 
DataValue, 0.6, 6.783E-11, 
DataValue, 0.62, 6.958E-11, 
DataValue, 0.64, 7.033E-11, 
DataValue, 0.66, 7.255E-11, 
DataValue, 0.68, 7.271E-11, 
DataValue, 0.70000000000000007, 7.566E-11, 
DataValue, 0.72000000000000008, 7.803E-11, 
DataValue, 0.74, 7.604E-11, 
DataValue, 0.76, 7.934E-11, 
DataValue, 0.78, 8.2122E-11, 
DataValue, 0.8, 8.2384000000000012E-11, 
DataValue, 0.82000000000000006, 8.249E-11, 
DataValue, 0.84000000000000008, 8.6569000000000009E-11, 
DataValue, 0.86, 8.461500000000001E-11, 
DataValue, 0.88, 8.5571E-11, 
DataValue, 0.9, 8.7641E-11, 
DataValue, 0.92, 8.8796000000000011E-11, 
DataValue, 0.94000000000000006, 8.715E-11, 
DataValue, 0.96000000000000008, 9.2300000000000007E-11, 
DataValue, 0.98000000000000009, 9.2821E-11, 
DataValue, 1, 9.5839E-11, 