
SetupTitle, WW
PrimitiveTest, I/V Sweep
TestParameter, Context.MainFrame, B1500A
TestParameter, Channel.UnitType, SMU, SMU
TestParameter, Channel.Unit, SMU2:HP, SMU1:HP
TestParameter, Channel.IName, I1, I4
TestParameter, Channel.VName, V1, V4
TestParameter, Channel.Mode, V, COMMON
TestParameter, Channel.Func, VAR1, CONST
TestParameter, Channel.Index, 
TestParameter, Channel.Time, 
TestParameter, Measurement.Port.Unit, SMU2:HP, SMU1:HP
TestParameter, Measurement.Port.SeriesResistor, NONE, NONE
TestParameter, Measurement.Port.Filter, ON, ON
TestParameter, Measurement.Port.OutputVoltageComparison, 0, 0
TestParameter, Measurement.Primary.Locus, Single
TestParameter, Measurement.Primary.Scale, LINEAR
TestParameter, Measurement.Primary.Start, -1
TestParameter, Measurement.Primary.Stop, 1
TestParameter, Measurement.Primary.Step, 0.02
TestParameter, Measurement.Primary.Compliance, 0.01
TestParameter, Measurement.Primary.PowerCompliance, 0
TestParameter, Measurement.Aborting.Condition, CONTINUE AT ANY
TestParameter, Measurement.PostOutput.Value, START
TestParameter, Measurement.PostOutput.Retention, OFF
TestParameter, Measurement.Bias.Source, -1, 0
TestParameter, Measurement.Bias.Compliance, 0.01, 1
TestParameter, Measurement.Monitor.Unit, SMU2:HP, SMU1:HP
TestParameter, Measurement.Monitor.Adc, HR ADC, HR ADC
TestParameter, Measurement.Monitor.Measurement, Compliance Side, Compliance Side
TestParameter, Measurement.Monitor.RangingMode, AUTO, AUTO
TestParameter, Measurement.Monitor.RangeBoundary, , 
TestParameter, Measurement.Monitor.RangeRating, BY FULL RANGE, BY FULL RANGE
TestParameter, Measurement.Monitor.RangeRatingCoeff, 50, 50
TestParameter, Measurement.Timing.Hold, 0
TestParameter, Measurement.Timing.Delay, 0.001
TestParameter, Measurement.Adc.HighSpeed.Mode, AUTO
TestParameter, Measurement.Adc.HighSpeed.Coeff, 1
TestParameter, Measurement.Adc.HighResolution.AutoZero, OFF
TestParameter, Measurement.Adc.HighResolution.Mode, PLC
TestParameter, Measurement.Adc.HighResolution.Coeff, 1
TestParameter, Measurement.WaitTime.Source.Coeff, 1
TestParameter, Measurement.WaitTime.Source.Offset, 0
TestParameter, Measurement.WaitTime.Monitor.Coeff, 1
TestParameter, Measurement.WaitTime.Monitor.Offset, 0
TestParameter, Function.User.Name, Ohmic
TestParameter, Function.User.Unit, ohm
TestParameter, Function.User.Definition, avg(V1/I1)
TestParameter, Output.Graph.Enabled, true
TestParameter, Output.Graph.XAxis.Data, V1
TestParameter, Output.Graph.XAxis.Scale, Linear
TestParameter, Output.Graph.XAxis.Left, -5
TestParameter, Output.Graph.XAxis.Right, 5
TestParameter, Output.Graph.YAxis.Data, I1
TestParameter, Output.Graph.YAxis.Scale, Linear
TestParameter, Output.Graph.YAxis.Bottom, -0.001
TestParameter, Output.Graph.YAxis.Top, 0.001
TestParameter, Output.Graph.YAxis.Group, 
TestParameter, Output.Scalar.Data, Ohmic
TestParameter, AutoAnalysis.Interpolation, false
TestParameter, AutoAnalysis.Line1.Enabled, false
TestParameter, AutoAnalysis.Line1.Type, 1
TestParameter, AutoAnalysis.Line1.Fix, True
TestParameter, AutoAnalysis.Line1.YAxis, 0
TestParameter, AutoAnalysis.Line1.Point1.Type, 0
TestParameter, AutoAnalysis.Line1.Point1.XY.X, 
TestParameter, AutoAnalysis.Line1.Point1.XY.Y, 
TestParameter, AutoAnalysis.Line1.Point1.Data.Var, 
TestParameter, AutoAnalysis.Line1.Point1.Data.Condition, 
TestParameter, AutoAnalysis.Line1.Point1.Data.Start, false
TestParameter, AutoAnalysis.Line1.Point1.Data.StartVar, 
TestParameter, AutoAnalysis.Line1.Point1.Data.StartCondition, 
TestParameter, AutoAnalysis.Line1.Point2.Type, 0
TestParameter, AutoAnalysis.Line1.Point2.XY.X, 
TestParameter, AutoAnalysis.Line1.Point2.XY.Y, 
TestParameter, AutoAnalysis.Line1.Point2.Data.Var, 
TestParameter, AutoAnalysis.Line1.Point2.Data.Condition, 
TestParameter, AutoAnalysis.Line1.Point2.Data.Start, false
TestParameter, AutoAnalysis.Line1.Point2.Data.StartVar, 
TestParameter, AutoAnalysis.Line1.Point2.Data.StartCondition, 
TestParameter, AutoAnalysis.Line1.GradientExpr, 0
TestParameter, AutoAnalysis.Line2.Enabled, false
TestParameter, AutoAnalysis.Line2.Type, 1
TestParameter, AutoAnalysis.Line2.Fix, True
TestParameter, AutoAnalysis.Line2.YAxis, 0
TestParameter, AutoAnalysis.Line2.Point1.Type, 0
TestParameter, AutoAnalysis.Line2.Point1.XY.X, 
TestParameter, AutoAnalysis.Line2.Point1.XY.Y, 
TestParameter, AutoAnalysis.Line2.Point1.Data.Var, 
TestParameter, AutoAnalysis.Line2.Point1.Data.Condition, 
TestParameter, AutoAnalysis.Line2.Point1.Data.Start, false
TestParameter, AutoAnalysis.Line2.Point1.Data.StartVar, 
TestParameter, AutoAnalysis.Line2.Point1.Data.StartCondition, 
TestParameter, AutoAnalysis.Line2.Point2.Type, 0
TestParameter, AutoAnalysis.Line2.Point2.XY.X, 
TestParameter, AutoAnalysis.Line2.Point2.XY.Y, 
TestParameter, AutoAnalysis.Line2.Point2.Data.Var, 
TestParameter, AutoAnalysis.Line2.Point2.Data.Condition, 
TestParameter, AutoAnalysis.Line2.Point2.Data.Start, false
TestParameter, AutoAnalysis.Line2.Point2.Data.StartVar, 
TestParameter, AutoAnalysis.Line2.Point2.Data.StartCondition, 
TestParameter, AutoAnalysis.Line2.GradientExpr, 0
TestParameter, AutoAnalysis.Marker.Enabled, false
TestParameter, AutoAnalysis.Marker.Data.Var, 
TestParameter, AutoAnalysis.Marker.Data.Condition, 
TestParameter, AutoAnalysis.Marker.Data.Start, false
TestParameter, AutoAnalysis.Marker.Data.StartVar, 
TestParameter, AutoAnalysis.Marker.Data.StartCondition, 
MetaData, TestRecord.EntryPoint, true
MetaData, TestRecord.RecordTime, 01/18/2020 19:04:36
MetaData, TestRecord.TestTarget, 
MetaData, TestRecord.IterationIndex, 30
MetaData, TestRecord.Preservation, true
MetaData, TestRecord.Flag, 
MetaData, TestRecord.Remarks, 
MetaData, TestRecord.LinkKey, cec95fe9-32d5-42c5-8768-f233c29b7a6f
Dimension1, 101, 101, 101
Dimension2, 1, 1, 1
DataName, V1, I1, Ohmic
DataValue, -1, -6.63E-11, 21161194370.245358
DataValue, -0.98000000000000009, -5.72E-11, 
DataValue, -0.96000000000000008, -5.071E-11, 
DataValue, -0.94000000000000006, -4.61E-11, 
DataValue, -0.92, -4.225E-11, 
DataValue, -0.9, -3.924E-11, 
DataValue, -0.88, -3.693E-11, 
DataValue, -0.86, -3.48E-11, 
DataValue, -0.84000000000000008, -3.158E-11, 
DataValue, -0.82000000000000006, -3.049E-11, 
DataValue, -0.8, -2.82E-11, 
DataValue, -0.78, -2.55E-11, 
DataValue, -0.76, -2.482E-11, 
DataValue, -0.74, -2.34E-11, 
DataValue, -0.72000000000000008, -2.23E-11, 
DataValue, -0.70000000000000007, -2.027E-11, 
DataValue, -0.68, -1.918E-11, 
DataValue, -0.66, -1.796E-11, 
DataValue, -0.64, -1.673E-11, 
DataValue, -0.62, -1.5E-11, 
DataValue, -0.6, -1.334E-11, 
DataValue, -0.58000000000000007, -1.278E-11, 
DataValue, -0.56, -1.151E-11, 
DataValue, -0.54, -1.098E-11, 
DataValue, -0.52, -9.69E-12, 
DataValue, -0.5, -8.88E-12, 
DataValue, -0.48000000000000004, -7.58E-12, 
DataValue, -0.46, -7.28E-12, 
DataValue, -0.44, -6.14E-12, 
DataValue, -0.42000000000000004, -5.36E-12, 
DataValue, -0.4, -4.66E-12, 
DataValue, -0.38, -3.11E-12, 
DataValue, -0.36000000000000004, -2.92E-12, 
DataValue, -0.34, -1.28E-12, 
DataValue, -0.32, -1.26E-12, 
DataValue, -0.3, -5.4E-13, 
DataValue, -0.28, 9.2E-13, 
DataValue, -0.26, 2.29E-12, 
DataValue, -0.24000000000000002, 2.19E-12, 
DataValue, -0.22, 2.64E-12, 
DataValue, -0.2, 3.33E-12, 
DataValue, -0.18000000000000002, 4.19E-12, 
DataValue, -0.16, 4.56E-12, 
DataValue, -0.14, 4.66E-12, 
DataValue, -0.12000000000000001, 5.77E-12, 
DataValue, -0.1, 7.19E-12, 
DataValue, -0.08, 9.41E-12, 
DataValue, -0.060000000000000005, 9.2E-12, 
DataValue, -0.04, 1.168E-11, 
DataValue, -0.02, 1.344E-11, 
DataValue, 0, 1.632E-11, 
DataValue, 0.02, 2.016E-11, 
DataValue, 0.04, 2.154E-11, 
DataValue, 0.060000000000000005, 2.348E-11, 
DataValue, 0.08, 2.527E-11, 
DataValue, 0.1, 2.79E-11, 
DataValue, 0.12000000000000001, 2.941E-11, 
DataValue, 0.14, 3.11E-11, 
DataValue, 0.16, 3.267E-11, 
DataValue, 0.18000000000000002, 3.226E-11, 
DataValue, 0.2, 3.42E-11, 
DataValue, 0.22, 3.598E-11, 
DataValue, 0.24000000000000002, 3.645E-11, 
DataValue, 0.26, 3.838E-11, 
DataValue, 0.28, 4.11E-11, 
DataValue, 0.3, 4.128E-11, 
DataValue, 0.32, 4.345E-11, 
DataValue, 0.34, 4.377E-11, 
DataValue, 0.36000000000000004, 4.403E-11, 
DataValue, 0.38, 4.48E-11, 
DataValue, 0.4, 4.608E-11, 
DataValue, 0.42000000000000004, 4.601E-11, 
DataValue, 0.44, 4.7E-11, 
DataValue, 0.46, 4.834E-11, 
DataValue, 0.48000000000000004, 5.12E-11, 
DataValue, 0.5, 5.206E-11, 
DataValue, 0.52, 5.31E-11, 
DataValue, 0.54, 5.496E-11, 
DataValue, 0.56, 5.584E-11, 
DataValue, 0.58000000000000007, 5.68E-11, 
DataValue, 0.6, 5.958E-11, 
DataValue, 0.62, 6.051E-11, 
DataValue, 0.64, 6.152E-11, 
DataValue, 0.66, 6.315E-11, 
DataValue, 0.68, 6.443E-11, 
DataValue, 0.70000000000000007, 6.585E-11, 
DataValue, 0.72000000000000008, 6.815E-11, 
DataValue, 0.74, 6.872E-11, 
DataValue, 0.76, 7.0004E-11, 
DataValue, 0.78, 7.1450000000000009E-11, 
DataValue, 0.8, 7.2148E-11, 
DataValue, 0.82000000000000006, 7.2706E-11, 
DataValue, 0.84000000000000008, 7.315E-11, 
DataValue, 0.86, 7.4169E-11, 
DataValue, 0.88, 7.517900000000001E-11, 
DataValue, 0.9, 7.5827000000000011E-11, 
DataValue, 0.92, 7.745700000000001E-11, 
DataValue, 0.94000000000000006, 7.893800000000001E-11, 
DataValue, 0.96000000000000008, 8.1916E-11, 
DataValue, 0.98000000000000009, 8.2291E-11, 
DataValue, 1, 8.4717E-11, 