
SetupTitle, WW
PrimitiveTest, I/V Sweep
TestParameter, Context.MainFrame, B1500A
TestParameter, Channel.UnitType, SMU, SMU
TestParameter, Channel.Unit, SMU2:HP, SMU1:HP
TestParameter, Channel.IName, I1, I4
TestParameter, Channel.VName, V1, V4
TestParameter, Channel.Mode, V, COMMON
TestParameter, Channel.Func, VAR1, CONST
TestParameter, Channel.Index, 
TestParameter, Channel.Time, 
TestParameter, Measurement.Port.Unit, SMU2:HP, SMU1:HP
TestParameter, Measurement.Port.SeriesResistor, NONE, NONE
TestParameter, Measurement.Port.Filter, ON, ON
TestParameter, Measurement.Port.OutputVoltageComparison, 0, 0
TestParameter, Measurement.Primary.Locus, Single
TestParameter, Measurement.Primary.Scale, LINEAR
TestParameter, Measurement.Primary.Start, -1
TestParameter, Measurement.Primary.Stop, 1
TestParameter, Measurement.Primary.Step, 0.02
TestParameter, Measurement.Primary.Compliance, 0.01
TestParameter, Measurement.Primary.PowerCompliance, 0
TestParameter, Measurement.Aborting.Condition, CONTINUE AT ANY
TestParameter, Measurement.PostOutput.Value, START
TestParameter, Measurement.PostOutput.Retention, OFF
TestParameter, Measurement.Bias.Source, -1, 0
TestParameter, Measurement.Bias.Compliance, 0.01, 1
TestParameter, Measurement.Monitor.Unit, SMU2:HP, SMU1:HP
TestParameter, Measurement.Monitor.Adc, HR ADC, HR ADC
TestParameter, Measurement.Monitor.Measurement, Compliance Side, Compliance Side
TestParameter, Measurement.Monitor.RangingMode, AUTO, AUTO
TestParameter, Measurement.Monitor.RangeBoundary, , 
TestParameter, Measurement.Monitor.RangeRating, BY FULL RANGE, BY FULL RANGE
TestParameter, Measurement.Monitor.RangeRatingCoeff, 50, 50
TestParameter, Measurement.Timing.Hold, 0
TestParameter, Measurement.Timing.Delay, 0.001
TestParameter, Measurement.Adc.HighSpeed.Mode, AUTO
TestParameter, Measurement.Adc.HighSpeed.Coeff, 1
TestParameter, Measurement.Adc.HighResolution.AutoZero, OFF
TestParameter, Measurement.Adc.HighResolution.Mode, PLC
TestParameter, Measurement.Adc.HighResolution.Coeff, 1
TestParameter, Measurement.WaitTime.Source.Coeff, 1
TestParameter, Measurement.WaitTime.Source.Offset, 0
TestParameter, Measurement.WaitTime.Monitor.Coeff, 1
TestParameter, Measurement.WaitTime.Monitor.Offset, 0
TestParameter, Function.User.Name, Ohmic
TestParameter, Function.User.Unit, ohm
TestParameter, Function.User.Definition, avg(V1/I1)
TestParameter, Output.Graph.Enabled, true
TestParameter, Output.Graph.XAxis.Data, V1
TestParameter, Output.Graph.XAxis.Scale, Linear
TestParameter, Output.Graph.XAxis.Left, -5
TestParameter, Output.Graph.XAxis.Right, 5
TestParameter, Output.Graph.YAxis.Data, I1
TestParameter, Output.Graph.YAxis.Scale, Linear
TestParameter, Output.Graph.YAxis.Bottom, -0.001
TestParameter, Output.Graph.YAxis.Top, 0.001
TestParameter, Output.Graph.YAxis.Group, 
TestParameter, Output.Scalar.Data, Ohmic
TestParameter, AutoAnalysis.Interpolation, false
TestParameter, AutoAnalysis.Line1.Enabled, false
TestParameter, AutoAnalysis.Line1.Type, 1
TestParameter, AutoAnalysis.Line1.Fix, True
TestParameter, AutoAnalysis.Line1.YAxis, 0
TestParameter, AutoAnalysis.Line1.Point1.Type, 0
TestParameter, AutoAnalysis.Line1.Point1.XY.X, 
TestParameter, AutoAnalysis.Line1.Point1.XY.Y, 
TestParameter, AutoAnalysis.Line1.Point1.Data.Var, 
TestParameter, AutoAnalysis.Line1.Point1.Data.Condition, 
TestParameter, AutoAnalysis.Line1.Point1.Data.Start, false
TestParameter, AutoAnalysis.Line1.Point1.Data.StartVar, 
TestParameter, AutoAnalysis.Line1.Point1.Data.StartCondition, 
TestParameter, AutoAnalysis.Line1.Point2.Type, 0
TestParameter, AutoAnalysis.Line1.Point2.XY.X, 
TestParameter, AutoAnalysis.Line1.Point2.XY.Y, 
TestParameter, AutoAnalysis.Line1.Point2.Data.Var, 
TestParameter, AutoAnalysis.Line1.Point2.Data.Condition, 
TestParameter, AutoAnalysis.Line1.Point2.Data.Start, false
TestParameter, AutoAnalysis.Line1.Point2.Data.StartVar, 
TestParameter, AutoAnalysis.Line1.Point2.Data.StartCondition, 
TestParameter, AutoAnalysis.Line1.GradientExpr, 0
TestParameter, AutoAnalysis.Line2.Enabled, false
TestParameter, AutoAnalysis.Line2.Type, 1
TestParameter, AutoAnalysis.Line2.Fix, True
TestParameter, AutoAnalysis.Line2.YAxis, 0
TestParameter, AutoAnalysis.Line2.Point1.Type, 0
TestParameter, AutoAnalysis.Line2.Point1.XY.X, 
TestParameter, AutoAnalysis.Line2.Point1.XY.Y, 
TestParameter, AutoAnalysis.Line2.Point1.Data.Var, 
TestParameter, AutoAnalysis.Line2.Point1.Data.Condition, 
TestParameter, AutoAnalysis.Line2.Point1.Data.Start, false
TestParameter, AutoAnalysis.Line2.Point1.Data.StartVar, 
TestParameter, AutoAnalysis.Line2.Point1.Data.StartCondition, 
TestParameter, AutoAnalysis.Line2.Point2.Type, 0
TestParameter, AutoAnalysis.Line2.Point2.XY.X, 
TestParameter, AutoAnalysis.Line2.Point2.XY.Y, 
TestParameter, AutoAnalysis.Line2.Point2.Data.Var, 
TestParameter, AutoAnalysis.Line2.Point2.Data.Condition, 
TestParameter, AutoAnalysis.Line2.Point2.Data.Start, false
TestParameter, AutoAnalysis.Line2.Point2.Data.StartVar, 
TestParameter, AutoAnalysis.Line2.Point2.Data.StartCondition, 
TestParameter, AutoAnalysis.Line2.GradientExpr, 0
TestParameter, AutoAnalysis.Marker.Enabled, false
TestParameter, AutoAnalysis.Marker.Data.Var, 
TestParameter, AutoAnalysis.Marker.Data.Condition, 
TestParameter, AutoAnalysis.Marker.Data.Start, false
TestParameter, AutoAnalysis.Marker.Data.StartVar, 
TestParameter, AutoAnalysis.Marker.Data.StartCondition, 
MetaData, TestRecord.EntryPoint, true
MetaData, TestRecord.RecordTime, 01/18/2020 19:03:41
MetaData, TestRecord.TestTarget, 
MetaData, TestRecord.IterationIndex, 29
MetaData, TestRecord.Preservation, true
MetaData, TestRecord.Flag, 
MetaData, TestRecord.Remarks, 
MetaData, TestRecord.LinkKey, 847f8728-3926-4f7b-99e0-5d5a6b54ba94
Dimension1, 101, 101, 101
Dimension2, 1, 1, 1
DataName, V1, I1, Ohmic
DataValue, -1, -2.266E-11, -43172557270.367142
DataValue, -0.98000000000000009, -1.711E-11, 
DataValue, -0.96000000000000008, -1.35E-11, 
DataValue, -0.94000000000000006, -1.114E-11, 
DataValue, -0.92, -9.82E-12, 
DataValue, -0.9, -8.23E-12, 
DataValue, -0.88, -7.65E-12, 
DataValue, -0.86, -6.64E-12, 
DataValue, -0.84000000000000008, -6.12E-12, 
DataValue, -0.82000000000000006, -5.73E-12, 
DataValue, -0.8, -4.84E-12, 
DataValue, -0.78, -4.62E-12, 
DataValue, -0.76, -4.37E-12, 
DataValue, -0.74, -4.05E-12, 
DataValue, -0.72000000000000008, -3.28E-12, 
DataValue, -0.70000000000000007, -3.11E-12, 
DataValue, -0.68, -3.08E-12, 
DataValue, -0.66, -2.76E-12, 
DataValue, -0.64, -2.52E-12, 
DataValue, -0.62, -2.28E-12, 
DataValue, -0.6, -2E-12, 
DataValue, -0.58000000000000007, -1.67E-12, 
DataValue, -0.56, -1.53E-12, 
DataValue, -0.54, -1.17E-12, 
DataValue, -0.52, -1.38E-12, 
DataValue, -0.5, -9.9E-13, 
DataValue, -0.48000000000000004, -1E-12, 
DataValue, -0.46, -6.3E-13, 
DataValue, -0.44, -2.3E-13, 
DataValue, -0.42000000000000004, -9E-14, 
DataValue, -0.4, 2.2E-13, 
DataValue, -0.38, 4E-14, 
DataValue, -0.36000000000000004, 6E-14, 
DataValue, -0.34, 5.7E-13, 
DataValue, -0.32, 6E-13, 
DataValue, -0.3, 8.2E-13, 
DataValue, -0.28, 8.9E-13, 
DataValue, -0.26, 1.35E-12, 
DataValue, -0.24000000000000002, 1.39E-12, 
DataValue, -0.22, 1.99E-12, 
DataValue, -0.2, 1.76E-12, 
DataValue, -0.18000000000000002, 1.91E-12, 
DataValue, -0.16, 2.26E-12, 
DataValue, -0.14, 2.47E-12, 
DataValue, -0.12000000000000001, 2.76E-12, 
DataValue, -0.1, 2.86E-12, 
DataValue, -0.08, 3.25E-12, 
DataValue, -0.060000000000000005, 3.52E-12, 
DataValue, -0.04, 3.65E-12, 
DataValue, -0.02, 4.09E-12, 
DataValue, 0, 4.36E-12, 
DataValue, 0.02, 4.57E-12, 
DataValue, 0.04, 5.45E-12, 
DataValue, 0.060000000000000005, 6.31E-12, 
DataValue, 0.08, 6.46E-12, 
DataValue, 0.1, 7.07E-12, 
DataValue, 0.12000000000000001, 7.21E-12, 
DataValue, 0.14, 7.11E-12, 
DataValue, 0.16, 6.98E-12, 
DataValue, 0.18000000000000002, 7.3E-12, 
DataValue, 0.2, 7.91E-12, 
DataValue, 0.22, 7.61E-12, 
DataValue, 0.24000000000000002, 7.74E-12, 
DataValue, 0.26, 8.31E-12, 
DataValue, 0.28, 7.95E-12, 
DataValue, 0.3, 8.24E-12, 
DataValue, 0.32, 8.52E-12, 
DataValue, 0.34, 8.16E-12, 
DataValue, 0.36000000000000004, 8.74E-12, 
DataValue, 0.38, 8.835000000000001E-12, 
DataValue, 0.4, 9.011E-12, 
DataValue, 0.42000000000000004, 9.2420000000000012E-12, 
DataValue, 0.44, 9.437E-12, 
DataValue, 0.46, 9.2450000000000011E-12, 
DataValue, 0.48000000000000004, 9.556E-12, 
DataValue, 0.5, 9.6460000000000015E-12, 
DataValue, 0.52, 1.0056000000000002E-11, 
DataValue, 0.54, 9.928E-12, 
DataValue, 0.56, 9.9740000000000009E-12, 
DataValue, 0.58000000000000007, 1.0151E-11, 
DataValue, 0.6, 1.0317000000000001E-11, 
DataValue, 0.62, 1.0249000000000001E-11, 
DataValue, 0.64, 1.0455000000000001E-11, 
DataValue, 0.66, 1.0721E-11, 
DataValue, 0.68, 1.059E-11, 
DataValue, 0.70000000000000007, 1.0814000000000001E-11, 
DataValue, 0.72000000000000008, 1.0554E-11, 
DataValue, 0.74, 1.0824000000000002E-11, 
DataValue, 0.76, 1.1039000000000001E-11, 
DataValue, 0.78, 1.1318000000000002E-11, 
DataValue, 0.8, 1.1040000000000001E-11, 
DataValue, 0.82000000000000006, 1.1641E-11, 
DataValue, 0.84000000000000008, 1.1648E-11, 
DataValue, 0.86, 1.1925E-11, 
DataValue, 0.88, 1.1706E-11, 
DataValue, 0.9, 1.1644000000000002E-11, 
DataValue, 0.92, 1.1985000000000001E-11, 
DataValue, 0.94000000000000006, 1.2295000000000001E-11, 
DataValue, 0.96000000000000008, 1.2225000000000002E-11, 
DataValue, 0.98000000000000009, 1.2433000000000001E-11, 
DataValue, 1, 1.3022000000000002E-11, 