
SetupTitle, WW
PrimitiveTest, I/V Sweep
TestParameter, Context.MainFrame, B1500A
TestParameter, Channel.UnitType, SMU, SMU
TestParameter, Channel.Unit, SMU2:HP, SMU1:HP
TestParameter, Channel.IName, I1, I4
TestParameter, Channel.VName, V1, V4
TestParameter, Channel.Mode, V, COMMON
TestParameter, Channel.Func, VAR1, CONST
TestParameter, Channel.Index, 
TestParameter, Channel.Time, 
TestParameter, Measurement.Port.Unit, SMU2:HP, SMU1:HP
TestParameter, Measurement.Port.SeriesResistor, NONE, NONE
TestParameter, Measurement.Port.Filter, ON, ON
TestParameter, Measurement.Port.OutputVoltageComparison, 0, 0
TestParameter, Measurement.Primary.Locus, Single
TestParameter, Measurement.Primary.Scale, LINEAR
TestParameter, Measurement.Primary.Start, -5
TestParameter, Measurement.Primary.Stop, 5
TestParameter, Measurement.Primary.Step, 0.1
TestParameter, Measurement.Primary.Compliance, 0.1
TestParameter, Measurement.Primary.PowerCompliance, 0
TestParameter, Measurement.Aborting.Condition, CONTINUE AT ANY
TestParameter, Measurement.PostOutput.Value, START
TestParameter, Measurement.PostOutput.Retention, OFF
TestParameter, Measurement.Bias.Source, -5, 0
TestParameter, Measurement.Bias.Compliance, 0.1, 1
TestParameter, Measurement.Monitor.Unit, SMU2:HP, SMU1:HP
TestParameter, Measurement.Monitor.Adc, HR ADC, HR ADC
TestParameter, Measurement.Monitor.Measurement, Compliance Side, Compliance Side
TestParameter, Measurement.Monitor.RangingMode, AUTO, AUTO
TestParameter, Measurement.Monitor.RangeBoundary, , 
TestParameter, Measurement.Monitor.RangeRating, BY FULL RANGE, BY FULL RANGE
TestParameter, Measurement.Monitor.RangeRatingCoeff, 50, 50
TestParameter, Measurement.Timing.Hold, 0
TestParameter, Measurement.Timing.Delay, 0.001
TestParameter, Measurement.Adc.HighSpeed.Mode, AUTO
TestParameter, Measurement.Adc.HighSpeed.Coeff, 1
TestParameter, Measurement.Adc.HighResolution.AutoZero, OFF
TestParameter, Measurement.Adc.HighResolution.Mode, PLC
TestParameter, Measurement.Adc.HighResolution.Coeff, 1
TestParameter, Measurement.WaitTime.Source.Coeff, 1
TestParameter, Measurement.WaitTime.Source.Offset, 0
TestParameter, Measurement.WaitTime.Monitor.Coeff, 1
TestParameter, Measurement.WaitTime.Monitor.Offset, 0
TestParameter, Function.User.Name, Ohmic
TestParameter, Function.User.Unit, ohm
TestParameter, Function.User.Definition, avg(V1/I1)
TestParameter, Output.Graph.Enabled, true
TestParameter, Output.Graph.XAxis.Data, V1
TestParameter, Output.Graph.XAxis.Scale, Linear
TestParameter, Output.Graph.XAxis.Left, -5
TestParameter, Output.Graph.XAxis.Right, 5
TestParameter, Output.Graph.YAxis.Data, I1
TestParameter, Output.Graph.YAxis.Scale, Linear
TestParameter, Output.Graph.YAxis.Bottom, -0.001
TestParameter, Output.Graph.YAxis.Top, 0.001
TestParameter, Output.Graph.YAxis.Group, 
TestParameter, Output.Scalar.Data, Ohmic
TestParameter, AutoAnalysis.Interpolation, false
TestParameter, AutoAnalysis.Line1.Enabled, false
TestParameter, AutoAnalysis.Line1.Type, 1
TestParameter, AutoAnalysis.Line1.Fix, True
TestParameter, AutoAnalysis.Line1.YAxis, 0
TestParameter, AutoAnalysis.Line1.Point1.Type, 0
TestParameter, AutoAnalysis.Line1.Point1.XY.X, 
TestParameter, AutoAnalysis.Line1.Point1.XY.Y, 
TestParameter, AutoAnalysis.Line1.Point1.Data.Var, 
TestParameter, AutoAnalysis.Line1.Point1.Data.Condition, 
TestParameter, AutoAnalysis.Line1.Point1.Data.Start, false
TestParameter, AutoAnalysis.Line1.Point1.Data.StartVar, 
TestParameter, AutoAnalysis.Line1.Point1.Data.StartCondition, 
TestParameter, AutoAnalysis.Line1.Point2.Type, 0
TestParameter, AutoAnalysis.Line1.Point2.XY.X, 
TestParameter, AutoAnalysis.Line1.Point2.XY.Y, 
TestParameter, AutoAnalysis.Line1.Point2.Data.Var, 
TestParameter, AutoAnalysis.Line1.Point2.Data.Condition, 
TestParameter, AutoAnalysis.Line1.Point2.Data.Start, false
TestParameter, AutoAnalysis.Line1.Point2.Data.StartVar, 
TestParameter, AutoAnalysis.Line1.Point2.Data.StartCondition, 
TestParameter, AutoAnalysis.Line1.GradientExpr, 0
TestParameter, AutoAnalysis.Line2.Enabled, false
TestParameter, AutoAnalysis.Line2.Type, 1
TestParameter, AutoAnalysis.Line2.Fix, True
TestParameter, AutoAnalysis.Line2.YAxis, 0
TestParameter, AutoAnalysis.Line2.Point1.Type, 0
TestParameter, AutoAnalysis.Line2.Point1.XY.X, 
TestParameter, AutoAnalysis.Line2.Point1.XY.Y, 
TestParameter, AutoAnalysis.Line2.Point1.Data.Var, 
TestParameter, AutoAnalysis.Line2.Point1.Data.Condition, 
TestParameter, AutoAnalysis.Line2.Point1.Data.Start, false
TestParameter, AutoAnalysis.Line2.Point1.Data.StartVar, 
TestParameter, AutoAnalysis.Line2.Point1.Data.StartCondition, 
TestParameter, AutoAnalysis.Line2.Point2.Type, 0
TestParameter, AutoAnalysis.Line2.Point2.XY.X, 
TestParameter, AutoAnalysis.Line2.Point2.XY.Y, 
TestParameter, AutoAnalysis.Line2.Point2.Data.Var, 
TestParameter, AutoAnalysis.Line2.Point2.Data.Condition, 
TestParameter, AutoAnalysis.Line2.Point2.Data.Start, false
TestParameter, AutoAnalysis.Line2.Point2.Data.StartVar, 
TestParameter, AutoAnalysis.Line2.Point2.Data.StartCondition, 
TestParameter, AutoAnalysis.Line2.GradientExpr, 0
TestParameter, AutoAnalysis.Marker.Enabled, false
TestParameter, AutoAnalysis.Marker.Data.Var, 
TestParameter, AutoAnalysis.Marker.Data.Condition, 
TestParameter, AutoAnalysis.Marker.Data.Start, false
TestParameter, AutoAnalysis.Marker.Data.StartVar, 
TestParameter, AutoAnalysis.Marker.Data.StartCondition, 
MetaData, TestRecord.EntryPoint, true
MetaData, TestRecord.RecordTime, 09/05/2020 14:14:52
MetaData, TestRecord.TestTarget, 
MetaData, TestRecord.IterationIndex, 44
MetaData, TestRecord.Preservation, true
MetaData, TestRecord.Flag, 
MetaData, TestRecord.Remarks, 
MetaData, TestRecord.LinkKey, b027ae1d-3334-4586-8a04-6897d47234a2
Dimension1, 101, 101, 101
Dimension2, 1, 1, 1
DataName, V1, I1, Ohmic
DataValue, -5, -3.7372999999999995E-09, 823047121.1994133
DataValue, -4.9, -3.5996E-09, 
DataValue, -4.8, -3.5183999999999998E-09, 
DataValue, -4.7, -3.4542999999999995E-09, 
DataValue, -4.6000000000000005, -3.4115999999999997E-09, 
DataValue, -4.5, -3.3468999999999997E-09, 
DataValue, -4.4, -3.2505E-09, 
DataValue, -4.3, -3.2788E-09, 
DataValue, -4.2, -3.2337999999999997E-09, 
DataValue, -4.1, -3.2078999999999996E-09, 
DataValue, -4, -3.1577999999999996E-09, 
DataValue, -3.9, -3.1049E-09, 
DataValue, -3.8000000000000003, -3.0648999999999996E-09, 
DataValue, -3.7, -3.0378999999999996E-09, 
DataValue, -3.6, -2.9707999999999997E-09, 
DataValue, -3.5, -2.9841999999999997E-09, 
DataValue, -3.4, -2.9512999999999995E-09, 
DataValue, -3.3000000000000003, -2.8886999999999998E-09, 
DataValue, -3.2, -2.8647E-09, 
DataValue, -3.1, -2.7976E-09, 
DataValue, -3, -2.7709999999999996E-09, 
DataValue, -2.9, -2.7147999999999998E-09, 
DataValue, -2.8000000000000003, -2.6962E-09, 
DataValue, -2.7, -2.6573E-09, 
DataValue, -2.6, -2.5957999999999997E-09, 
DataValue, -2.5, -2.5983999999999996E-09, 
DataValue, -2.4, -2.5891999999999997E-09, 
DataValue, -2.3000000000000003, -2.5672999999999996E-09, 
DataValue, -2.2, -2.5185999999999996E-09, 
DataValue, -2.1, -2.4738E-09, 
DataValue, -2, -2.4174999999999996E-09, 
DataValue, -1.9000000000000001, -2.4127999999999998E-09, 
DataValue, -1.8, -2.4030999999999997E-09, 
DataValue, -1.7, -2.3898999999999998E-09, 
DataValue, -1.6, -2.3276999999999997E-09, 
DataValue, -1.5, -2.2938999999999997E-09, 
DataValue, -1.4000000000000001, -2.2532999999999997E-09, 
DataValue, -1.3, -2.2332999999999997E-09, 
DataValue, -1.2, -2.1686999999999998E-09, 
DataValue, -1.1, -2.1328E-09, 
DataValue, -1, -2.0752999999999996E-09, 
DataValue, -0.9, -2.0081999999999997E-09, 
DataValue, -0.8, -1.9848E-09, 
DataValue, -0.70000000000000007, -1.9627E-09, 
DataValue, -0.6, -1.9079E-09, 
DataValue, -0.5, -1.8599999999999998E-09, 
DataValue, -0.4, -1.7566999999999997E-09, 
DataValue, -0.3, -1.6519999999999999E-09, 
DataValue, -0.2, -1.4341999999999999E-09, 
DataValue, -0.1, -1.1199999999999999E-09, 
DataValue, 0, -2.902E-10, 
DataValue, 0.1, 1.1136E-09, 
DataValue, 0.2, 1.6700999999999999E-09, 
DataValue, 0.3, 1.9511999999999996E-09, 
DataValue, 0.4, 2.1622E-09, 
DataValue, 0.5, 2.3284E-09, 
DataValue, 0.6, 2.4525999999999996E-09, 
DataValue, 0.70000000000000007, 2.5548E-09, 
DataValue, 0.8, 2.6471999999999997E-09, 
DataValue, 0.9, 2.72154E-09, 
DataValue, 1, 2.77952E-09, 
DataValue, 1.1, 2.84901E-09, 
DataValue, 1.2, 2.872E-09, 
DataValue, 1.3, 2.90922E-09, 
DataValue, 1.4000000000000001, 2.95567E-09, 
DataValue, 1.5, 2.98289E-09, 
DataValue, 1.6, 3.00016E-09, 
DataValue, 1.7, 3.03135E-09, 
DataValue, 1.8, 3.05156E-09, 
DataValue, 1.9000000000000001, 3.06422E-09, 
DataValue, 2, 3.09282E-09, 
DataValue, 2.1, 3.12194E-09, 
DataValue, 2.2, 3.13933E-09, 
DataValue, 2.3000000000000003, 3.16697E-09, 
DataValue, 2.4, 3.17844E-09, 
DataValue, 2.5, 3.19213E-09, 
DataValue, 2.6, 3.22374E-09, 
DataValue, 2.7, 3.2434E-09, 
DataValue, 2.8000000000000003, 3.26264E-09, 
DataValue, 2.9, 3.27237E-09, 
DataValue, 3, 3.29583E-09, 
DataValue, 3.1, 3.30882E-09, 
DataValue, 3.2, 3.33043E-09, 
DataValue, 3.3000000000000003, 3.33716E-09, 
DataValue, 3.4, 3.36289E-09, 
DataValue, 3.5, 3.38902E-09, 
DataValue, 3.6, 3.38988E-09, 
DataValue, 3.7, 3.39408E-09, 
DataValue, 3.8000000000000003, 3.44245E-09, 
DataValue, 3.9, 3.44014E-09, 
DataValue, 4, 3.46805E-09, 
DataValue, 4.1, 3.48083E-09, 
DataValue, 4.2, 3.52617E-09, 
DataValue, 4.3, 3.53815E-09, 
DataValue, 4.4, 3.55014E-09, 
DataValue, 4.5, 3.57762E-09, 
DataValue, 4.6000000000000005, 3.59854E-09, 
DataValue, 4.7, 3.61514E-09, 
DataValue, 4.8, 3.61487E-09, 
DataValue, 4.9, 3.63579E-09, 
DataValue, 5, 3.63111E-09, 