
SetupTitle, WW
PrimitiveTest, I/V Sweep
TestParameter, Context.MainFrame, B1500A
TestParameter, Channel.UnitType, SMU, SMU
TestParameter, Channel.Unit, SMU2:HP, SMU1:HP
TestParameter, Channel.IName, I1, I4
TestParameter, Channel.VName, V1, V4
TestParameter, Channel.Mode, V, COMMON
TestParameter, Channel.Func, VAR1, CONST
TestParameter, Channel.Index, 
TestParameter, Channel.Time, 
TestParameter, Measurement.Port.Unit, SMU2:HP, SMU1:HP
TestParameter, Measurement.Port.SeriesResistor, NONE, NONE
TestParameter, Measurement.Port.Filter, ON, ON
TestParameter, Measurement.Port.OutputVoltageComparison, 0, 0
TestParameter, Measurement.Primary.Locus, Single
TestParameter, Measurement.Primary.Scale, LINEAR
TestParameter, Measurement.Primary.Start, -5
TestParameter, Measurement.Primary.Stop, 5
TestParameter, Measurement.Primary.Step, 0.1
TestParameter, Measurement.Primary.Compliance, 0.1
TestParameter, Measurement.Primary.PowerCompliance, 0
TestParameter, Measurement.Aborting.Condition, CONTINUE AT ANY
TestParameter, Measurement.PostOutput.Value, START
TestParameter, Measurement.PostOutput.Retention, OFF
TestParameter, Measurement.Bias.Source, -5, 0
TestParameter, Measurement.Bias.Compliance, 0.1, 1
TestParameter, Measurement.Monitor.Unit, SMU2:HP, SMU1:HP
TestParameter, Measurement.Monitor.Adc, HR ADC, HR ADC
TestParameter, Measurement.Monitor.Measurement, Compliance Side, Compliance Side
TestParameter, Measurement.Monitor.RangingMode, AUTO, AUTO
TestParameter, Measurement.Monitor.RangeBoundary, , 
TestParameter, Measurement.Monitor.RangeRating, BY FULL RANGE, BY FULL RANGE
TestParameter, Measurement.Monitor.RangeRatingCoeff, 50, 50
TestParameter, Measurement.Timing.Hold, 0
TestParameter, Measurement.Timing.Delay, 0.001
TestParameter, Measurement.Adc.HighSpeed.Mode, AUTO
TestParameter, Measurement.Adc.HighSpeed.Coeff, 1
TestParameter, Measurement.Adc.HighResolution.AutoZero, OFF
TestParameter, Measurement.Adc.HighResolution.Mode, PLC
TestParameter, Measurement.Adc.HighResolution.Coeff, 1
TestParameter, Measurement.WaitTime.Source.Coeff, 1
TestParameter, Measurement.WaitTime.Source.Offset, 0
TestParameter, Measurement.WaitTime.Monitor.Coeff, 1
TestParameter, Measurement.WaitTime.Monitor.Offset, 0
TestParameter, Function.User.Name, Ohmic
TestParameter, Function.User.Unit, ohm
TestParameter, Function.User.Definition, avg(V1/I1)
TestParameter, Output.Graph.Enabled, true
TestParameter, Output.Graph.XAxis.Data, V1
TestParameter, Output.Graph.XAxis.Scale, Linear
TestParameter, Output.Graph.XAxis.Left, -5
TestParameter, Output.Graph.XAxis.Right, 5
TestParameter, Output.Graph.YAxis.Data, I1
TestParameter, Output.Graph.YAxis.Scale, Linear
TestParameter, Output.Graph.YAxis.Bottom, -0.001
TestParameter, Output.Graph.YAxis.Top, 0.001
TestParameter, Output.Graph.YAxis.Group, 
TestParameter, Output.Scalar.Data, Ohmic
TestParameter, AutoAnalysis.Interpolation, false
TestParameter, AutoAnalysis.Line1.Enabled, false
TestParameter, AutoAnalysis.Line1.Type, 1
TestParameter, AutoAnalysis.Line1.Fix, True
TestParameter, AutoAnalysis.Line1.YAxis, 0
TestParameter, AutoAnalysis.Line1.Point1.Type, 0
TestParameter, AutoAnalysis.Line1.Point1.XY.X, 
TestParameter, AutoAnalysis.Line1.Point1.XY.Y, 
TestParameter, AutoAnalysis.Line1.Point1.Data.Var, 
TestParameter, AutoAnalysis.Line1.Point1.Data.Condition, 
TestParameter, AutoAnalysis.Line1.Point1.Data.Start, false
TestParameter, AutoAnalysis.Line1.Point1.Data.StartVar, 
TestParameter, AutoAnalysis.Line1.Point1.Data.StartCondition, 
TestParameter, AutoAnalysis.Line1.Point2.Type, 0
TestParameter, AutoAnalysis.Line1.Point2.XY.X, 
TestParameter, AutoAnalysis.Line1.Point2.XY.Y, 
TestParameter, AutoAnalysis.Line1.Point2.Data.Var, 
TestParameter, AutoAnalysis.Line1.Point2.Data.Condition, 
TestParameter, AutoAnalysis.Line1.Point2.Data.Start, false
TestParameter, AutoAnalysis.Line1.Point2.Data.StartVar, 
TestParameter, AutoAnalysis.Line1.Point2.Data.StartCondition, 
TestParameter, AutoAnalysis.Line1.GradientExpr, 0
TestParameter, AutoAnalysis.Line2.Enabled, false
TestParameter, AutoAnalysis.Line2.Type, 1
TestParameter, AutoAnalysis.Line2.Fix, True
TestParameter, AutoAnalysis.Line2.YAxis, 0
TestParameter, AutoAnalysis.Line2.Point1.Type, 0
TestParameter, AutoAnalysis.Line2.Point1.XY.X, 
TestParameter, AutoAnalysis.Line2.Point1.XY.Y, 
TestParameter, AutoAnalysis.Line2.Point1.Data.Var, 
TestParameter, AutoAnalysis.Line2.Point1.Data.Condition, 
TestParameter, AutoAnalysis.Line2.Point1.Data.Start, false
TestParameter, AutoAnalysis.Line2.Point1.Data.StartVar, 
TestParameter, AutoAnalysis.Line2.Point1.Data.StartCondition, 
TestParameter, AutoAnalysis.Line2.Point2.Type, 0
TestParameter, AutoAnalysis.Line2.Point2.XY.X, 
TestParameter, AutoAnalysis.Line2.Point2.XY.Y, 
TestParameter, AutoAnalysis.Line2.Point2.Data.Var, 
TestParameter, AutoAnalysis.Line2.Point2.Data.Condition, 
TestParameter, AutoAnalysis.Line2.Point2.Data.Start, false
TestParameter, AutoAnalysis.Line2.Point2.Data.StartVar, 
TestParameter, AutoAnalysis.Line2.Point2.Data.StartCondition, 
TestParameter, AutoAnalysis.Line2.GradientExpr, 0
TestParameter, AutoAnalysis.Marker.Enabled, false
TestParameter, AutoAnalysis.Marker.Data.Var, 
TestParameter, AutoAnalysis.Marker.Data.Condition, 
TestParameter, AutoAnalysis.Marker.Data.Start, false
TestParameter, AutoAnalysis.Marker.Data.StartVar, 
TestParameter, AutoAnalysis.Marker.Data.StartCondition, 
MetaData, TestRecord.EntryPoint, true
MetaData, TestRecord.RecordTime, 09/05/2020 14:12:52
MetaData, TestRecord.TestTarget, 
MetaData, TestRecord.IterationIndex, 40
MetaData, TestRecord.Preservation, true
MetaData, TestRecord.Flag, 
MetaData, TestRecord.Remarks, 
MetaData, TestRecord.LinkKey, b4ebd875-bf8d-4a56-9344-590cbfac8dc1
Dimension1, 101, 101, 101
Dimension2, 1, 1, 1
DataName, V1, I1, Ohmic
DataValue, -5, -2.2463999999999996E-09, 1196046240.1357844
DataValue, -4.9, -2.2353E-09, 
DataValue, -4.8, -2.098E-09, 
DataValue, -4.7, -2.0735E-09, 
DataValue, -4.6000000000000005, -2.003E-09, 
DataValue, -4.5, -1.9498999999999996E-09, 
DataValue, -4.4, -1.9106999999999996E-09, 
DataValue, -4.3, -1.9000999999999997E-09, 
DataValue, -4.2, -1.8604E-09, 
DataValue, -4.1, -1.8492999999999998E-09, 
DataValue, -4, -1.7711999999999998E-09, 
DataValue, -3.9, -1.7701E-09, 
DataValue, -3.8000000000000003, -1.7492E-09, 
DataValue, -3.7, -1.6964999999999999E-09, 
DataValue, -3.6, -1.6545999999999999E-09, 
DataValue, -3.5, -1.6433E-09, 
DataValue, -3.4, -1.6238E-09, 
DataValue, -3.3000000000000003, -1.6468999999999998E-09, 
DataValue, -3.2, -1.5560999999999998E-09, 
DataValue, -3.1, -1.5493999999999998E-09, 
DataValue, -3, -1.5433999999999999E-09, 
DataValue, -2.9, -1.5116999999999999E-09, 
DataValue, -2.8000000000000003, -1.4775E-09, 
DataValue, -2.7, -1.491E-09, 
DataValue, -2.6, -1.4616999999999998E-09, 
DataValue, -2.5, -1.452E-09, 
DataValue, -2.4, -1.4209E-09, 
DataValue, -2.3000000000000003, -1.4078999999999999E-09, 
DataValue, -2.2, -1.396E-09, 
DataValue, -2.1, -1.3959E-09, 
DataValue, -2, -1.3909999999999999E-09, 
DataValue, -1.9000000000000001, -1.3565999999999998E-09, 
DataValue, -1.8, -1.3555E-09, 
DataValue, -1.7, -1.3192E-09, 
DataValue, -1.6, -1.3193999999999998E-09, 
DataValue, -1.5, -1.2794E-09, 
DataValue, -1.4000000000000001, -1.2659E-09, 
DataValue, -1.3, -1.2492999999999998E-09, 
DataValue, -1.2, -1.2189999999999998E-09, 
DataValue, -1.1, -1.1697999999999998E-09, 
DataValue, -1, -1.1149E-09, 
DataValue, -0.9, -1.1096999999999998E-09, 
DataValue, -0.8, -1.0811E-09, 
DataValue, -0.70000000000000007, -1.0638E-09, 
DataValue, -0.6, -1.0141999999999999E-09, 
DataValue, -0.5, -9.735E-10, 
DataValue, -0.4, -9.0099999999999989E-10, 
DataValue, -0.3, -8.2999999999999993E-10, 
DataValue, -0.2, -6.8949999999999995E-10, 
DataValue, -0.1, -4.7299999999999992E-10, 
DataValue, 0, 1.0979999999999999E-10, 
DataValue, 0.1, 1.1451E-09, 
DataValue, 0.2, 1.6018999999999998E-09, 
DataValue, 0.3, 1.8346999999999999E-09, 
DataValue, 0.4, 2.0184E-09, 
DataValue, 0.5, 2.1698999999999997E-09, 
DataValue, 0.6, 2.2801999999999996E-09, 
DataValue, 0.70000000000000007, 2.37324E-09, 
DataValue, 0.8, 2.47227E-09, 
DataValue, 0.9, 2.54579E-09, 
DataValue, 1, 2.61153E-09, 
DataValue, 1.1, 2.66551E-09, 
DataValue, 1.2, 2.70509E-09, 
DataValue, 1.3, 2.73984E-09, 
DataValue, 1.4000000000000001, 2.77053E-09, 
DataValue, 1.5, 2.80579E-09, 
DataValue, 1.6, 2.82944E-09, 
DataValue, 1.7, 2.85087E-09, 
DataValue, 1.8, 2.86804E-09, 
DataValue, 1.9000000000000001, 2.88816E-09, 
DataValue, 2, 2.89907E-09, 
DataValue, 2.1, 2.9215E-09, 
DataValue, 2.2, 2.92471E-09, 
DataValue, 2.3000000000000003, 2.94186E-09, 
DataValue, 2.4, 2.95101E-09, 
DataValue, 2.5, 2.96951E-09, 
DataValue, 2.6, 2.98651E-09, 
DataValue, 2.7, 3.00137E-09, 
DataValue, 2.8000000000000003, 3.01365E-09, 
DataValue, 2.9, 3.02346E-09, 
DataValue, 3, 3.03581E-09, 
DataValue, 3.1, 3.0499499999999998E-09, 
DataValue, 3.2, 3.06083E-09, 
DataValue, 3.3000000000000003, 3.07494E-09, 
DataValue, 3.4, 3.08766E-09, 
DataValue, 3.5, 3.09053E-09, 
DataValue, 3.6, 3.10364E-09, 
DataValue, 3.7, 3.12053E-09, 
DataValue, 3.8000000000000003, 3.14092E-09, 
DataValue, 3.9, 3.15071E-09, 
DataValue, 4, 3.15668E-09, 
DataValue, 4.1, 3.17298E-09, 
DataValue, 4.2, 3.17944E-09, 
DataValue, 4.3, 3.19169E-09, 
DataValue, 4.4, 3.1963E-09, 
DataValue, 4.5, 3.21712E-09, 
DataValue, 4.6000000000000005, 3.23303E-09, 
DataValue, 4.7, 3.26029E-09, 
DataValue, 4.8, 3.25802E-09, 
DataValue, 4.9, 3.27276E-09, 
DataValue, 5, 3.28479E-09, 