
SetupTitle, WW
PrimitiveTest, I/V Sweep
TestParameter, Context.MainFrame, B1500A
TestParameter, Channel.UnitType, SMU, SMU
TestParameter, Channel.Unit, SMU2:HP, SMU1:HP
TestParameter, Channel.IName, I1, I4
TestParameter, Channel.VName, V1, V4
TestParameter, Channel.Mode, V, COMMON
TestParameter, Channel.Func, VAR1, CONST
TestParameter, Channel.Index, 
TestParameter, Channel.Time, 
TestParameter, Measurement.Port.Unit, SMU2:HP, SMU1:HP
TestParameter, Measurement.Port.SeriesResistor, NONE, NONE
TestParameter, Measurement.Port.Filter, ON, ON
TestParameter, Measurement.Port.OutputVoltageComparison, 0, 0
TestParameter, Measurement.Primary.Locus, Single
TestParameter, Measurement.Primary.Scale, LINEAR
TestParameter, Measurement.Primary.Start, -5
TestParameter, Measurement.Primary.Stop, 5
TestParameter, Measurement.Primary.Step, 0.1
TestParameter, Measurement.Primary.Compliance, 0.1
TestParameter, Measurement.Primary.PowerCompliance, 0
TestParameter, Measurement.Aborting.Condition, CONTINUE AT ANY
TestParameter, Measurement.PostOutput.Value, START
TestParameter, Measurement.PostOutput.Retention, OFF
TestParameter, Measurement.Bias.Source, -5, 0
TestParameter, Measurement.Bias.Compliance, 0.1, 1
TestParameter, Measurement.Monitor.Unit, SMU2:HP, SMU1:HP
TestParameter, Measurement.Monitor.Adc, HR ADC, HR ADC
TestParameter, Measurement.Monitor.Measurement, Compliance Side, Compliance Side
TestParameter, Measurement.Monitor.RangingMode, AUTO, AUTO
TestParameter, Measurement.Monitor.RangeBoundary, , 
TestParameter, Measurement.Monitor.RangeRating, BY FULL RANGE, BY FULL RANGE
TestParameter, Measurement.Monitor.RangeRatingCoeff, 50, 50
TestParameter, Measurement.Timing.Hold, 0
TestParameter, Measurement.Timing.Delay, 0.001
TestParameter, Measurement.Adc.HighSpeed.Mode, AUTO
TestParameter, Measurement.Adc.HighSpeed.Coeff, 1
TestParameter, Measurement.Adc.HighResolution.AutoZero, OFF
TestParameter, Measurement.Adc.HighResolution.Mode, PLC
TestParameter, Measurement.Adc.HighResolution.Coeff, 1
TestParameter, Measurement.WaitTime.Source.Coeff, 1
TestParameter, Measurement.WaitTime.Source.Offset, 0
TestParameter, Measurement.WaitTime.Monitor.Coeff, 1
TestParameter, Measurement.WaitTime.Monitor.Offset, 0
TestParameter, Function.User.Name, Ohmic
TestParameter, Function.User.Unit, ohm
TestParameter, Function.User.Definition, avg(V1/I1)
TestParameter, Output.Graph.Enabled, true
TestParameter, Output.Graph.XAxis.Data, V1
TestParameter, Output.Graph.XAxis.Scale, Linear
TestParameter, Output.Graph.XAxis.Left, -5
TestParameter, Output.Graph.XAxis.Right, 5
TestParameter, Output.Graph.YAxis.Data, I1
TestParameter, Output.Graph.YAxis.Scale, Linear
TestParameter, Output.Graph.YAxis.Bottom, -0.001
TestParameter, Output.Graph.YAxis.Top, 0.001
TestParameter, Output.Graph.YAxis.Group, 
TestParameter, Output.Scalar.Data, Ohmic
TestParameter, AutoAnalysis.Interpolation, false
TestParameter, AutoAnalysis.Line1.Enabled, false
TestParameter, AutoAnalysis.Line1.Type, 1
TestParameter, AutoAnalysis.Line1.Fix, True
TestParameter, AutoAnalysis.Line1.YAxis, 0
TestParameter, AutoAnalysis.Line1.Point1.Type, 0
TestParameter, AutoAnalysis.Line1.Point1.XY.X, 
TestParameter, AutoAnalysis.Line1.Point1.XY.Y, 
TestParameter, AutoAnalysis.Line1.Point1.Data.Var, 
TestParameter, AutoAnalysis.Line1.Point1.Data.Condition, 
TestParameter, AutoAnalysis.Line1.Point1.Data.Start, false
TestParameter, AutoAnalysis.Line1.Point1.Data.StartVar, 
TestParameter, AutoAnalysis.Line1.Point1.Data.StartCondition, 
TestParameter, AutoAnalysis.Line1.Point2.Type, 0
TestParameter, AutoAnalysis.Line1.Point2.XY.X, 
TestParameter, AutoAnalysis.Line1.Point2.XY.Y, 
TestParameter, AutoAnalysis.Line1.Point2.Data.Var, 
TestParameter, AutoAnalysis.Line1.Point2.Data.Condition, 
TestParameter, AutoAnalysis.Line1.Point2.Data.Start, false
TestParameter, AutoAnalysis.Line1.Point2.Data.StartVar, 
TestParameter, AutoAnalysis.Line1.Point2.Data.StartCondition, 
TestParameter, AutoAnalysis.Line1.GradientExpr, 0
TestParameter, AutoAnalysis.Line2.Enabled, false
TestParameter, AutoAnalysis.Line2.Type, 1
TestParameter, AutoAnalysis.Line2.Fix, True
TestParameter, AutoAnalysis.Line2.YAxis, 0
TestParameter, AutoAnalysis.Line2.Point1.Type, 0
TestParameter, AutoAnalysis.Line2.Point1.XY.X, 
TestParameter, AutoAnalysis.Line2.Point1.XY.Y, 
TestParameter, AutoAnalysis.Line2.Point1.Data.Var, 
TestParameter, AutoAnalysis.Line2.Point1.Data.Condition, 
TestParameter, AutoAnalysis.Line2.Point1.Data.Start, false
TestParameter, AutoAnalysis.Line2.Point1.Data.StartVar, 
TestParameter, AutoAnalysis.Line2.Point1.Data.StartCondition, 
TestParameter, AutoAnalysis.Line2.Point2.Type, 0
TestParameter, AutoAnalysis.Line2.Point2.XY.X, 
TestParameter, AutoAnalysis.Line2.Point2.XY.Y, 
TestParameter, AutoAnalysis.Line2.Point2.Data.Var, 
TestParameter, AutoAnalysis.Line2.Point2.Data.Condition, 
TestParameter, AutoAnalysis.Line2.Point2.Data.Start, false
TestParameter, AutoAnalysis.Line2.Point2.Data.StartVar, 
TestParameter, AutoAnalysis.Line2.Point2.Data.StartCondition, 
TestParameter, AutoAnalysis.Line2.GradientExpr, 0
TestParameter, AutoAnalysis.Marker.Enabled, false
TestParameter, AutoAnalysis.Marker.Data.Var, 
TestParameter, AutoAnalysis.Marker.Data.Condition, 
TestParameter, AutoAnalysis.Marker.Data.Start, false
TestParameter, AutoAnalysis.Marker.Data.StartVar, 
TestParameter, AutoAnalysis.Marker.Data.StartCondition, 
MetaData, TestRecord.EntryPoint, true
MetaData, TestRecord.RecordTime, 09/05/2020 14:11:47
MetaData, TestRecord.TestTarget, 
MetaData, TestRecord.IterationIndex, 38
MetaData, TestRecord.Preservation, true
MetaData, TestRecord.Flag, 
MetaData, TestRecord.Remarks, 
MetaData, TestRecord.LinkKey, 975e5738-0cd6-472b-8604-4de02a047fd9
Dimension1, 101, 101, 101
Dimension2, 1, 1, 1
DataName, V1, I1, Ohmic
DataValue, -5, -1.8690999999999997E-09, 1345315325.5921817
DataValue, -4.9, -1.8020999999999998E-09, 
DataValue, -4.8, -1.7405999999999998E-09, 
DataValue, -4.7, -1.6739999999999998E-09, 
DataValue, -4.6000000000000005, -1.6566999999999999E-09, 
DataValue, -4.5, -1.6310999999999999E-09, 
DataValue, -4.4, -1.5759E-09, 
DataValue, -4.3, -1.5627999999999998E-09, 
DataValue, -4.2, -1.526E-09, 
DataValue, -4.1, -1.5142999999999998E-09, 
DataValue, -4, -1.4789E-09, 
DataValue, -3.9, -1.4683999999999998E-09, 
DataValue, -3.8000000000000003, -1.437E-09, 
DataValue, -3.7, -1.4223E-09, 
DataValue, -3.6, -1.4122999999999998E-09, 
DataValue, -3.5, -1.3768999999999999E-09, 
DataValue, -3.4, -1.3585999999999998E-09, 
DataValue, -3.3000000000000003, -1.3306E-09, 
DataValue, -3.2, -1.3302999999999998E-09, 
DataValue, -3.1, -1.3199E-09, 
DataValue, -3, -1.2796999999999998E-09, 
DataValue, -2.9, -1.2972999999999999E-09, 
DataValue, -2.8000000000000003, -1.2796999999999998E-09, 
DataValue, -2.7, -1.2452999999999998E-09, 
DataValue, -2.6, -1.2249999999999998E-09, 
DataValue, -2.5, -1.2198999999999999E-09, 
DataValue, -2.4, -1.2069999999999999E-09, 
DataValue, -2.3000000000000003, -1.2034999999999998E-09, 
DataValue, -2.2, -1.1853999999999999E-09, 
DataValue, -2.1, -1.1690999999999998E-09, 
DataValue, -2, -1.1191999999999998E-09, 
DataValue, -1.9000000000000001, -1.1050999999999998E-09, 
DataValue, -1.8, -1.0866E-09, 
DataValue, -1.7, -1.0645999999999998E-09, 
DataValue, -1.6, -1.0483E-09, 
DataValue, -1.5, -1.0152E-09, 
DataValue, -1.4000000000000001, -1.0148999999999999E-09, 
DataValue, -1.3, -9.97E-10, 
DataValue, -1.2, -9.781E-10, 
DataValue, -1.1, -9.5129999999999981E-10, 
DataValue, -1, -9.309E-10, 
DataValue, -0.9, -9.0599999999999987E-10, 
DataValue, -0.8, -8.6929999999999988E-10, 
DataValue, -0.70000000000000007, -8.342999999999999E-10, 
DataValue, -0.6, -8.0579999999999995E-10, 
DataValue, -0.5, -7.543E-10, 
DataValue, -0.4, -6.9419999999999994E-10, 
DataValue, -0.3, -6.037E-10, 
DataValue, -0.2, -4.78E-10, 
DataValue, -0.1, -2.5489999999999997E-10, 
DataValue, 0, 2.7949999999999997E-10, 
DataValue, 0.1, 1.2398999999999998E-09, 
DataValue, 0.2, 1.6838E-09, 
DataValue, 0.3, 1.9026999999999996E-09, 
DataValue, 0.4, 2.0905999999999998E-09, 
DataValue, 0.5, 2.2408E-09, 
DataValue, 0.6, 2.3765E-09, 
DataValue, 0.70000000000000007, 2.4711E-09, 
DataValue, 0.8, 2.5559E-09, 
DataValue, 0.9, 2.6502E-09, 
DataValue, 1, 2.703E-09, 
DataValue, 1.1, 2.7680999999999996E-09, 
DataValue, 1.2, 2.81278E-09, 
DataValue, 1.3, 2.85698E-09, 
DataValue, 1.4000000000000001, 2.8939E-09, 
DataValue, 1.5, 2.92553E-09, 
DataValue, 1.6, 2.95856E-09, 
DataValue, 1.7, 2.99006E-09, 
DataValue, 1.8, 3.0095E-09, 
DataValue, 1.9000000000000001, 3.0254E-09, 
DataValue, 2, 3.04123E-09, 
DataValue, 2.1, 3.06071E-09, 
DataValue, 2.2, 3.07237E-09, 
DataValue, 2.3000000000000003, 3.08627E-09, 
DataValue, 2.4, 3.1016E-09, 
DataValue, 2.5, 3.10398E-09, 
DataValue, 2.6, 3.12345E-09, 
DataValue, 2.7, 3.13519E-09, 
DataValue, 2.8000000000000003, 3.13896E-09, 
DataValue, 2.9, 3.16501E-09, 
DataValue, 3, 3.16222E-09, 
DataValue, 3.1, 3.17795E-09, 
DataValue, 3.2, 3.19041E-09, 
DataValue, 3.3000000000000003, 3.20608E-09, 
DataValue, 3.4, 3.22044E-09, 
DataValue, 3.5, 3.22236E-09, 
DataValue, 3.6, 3.23261E-09, 
DataValue, 3.7, 3.246E-09, 
DataValue, 3.8000000000000003, 3.25434E-09, 
DataValue, 3.9, 3.2667E-09, 
DataValue, 4, 3.28147E-09, 
DataValue, 4.1, 3.2909E-09, 
DataValue, 4.2, 3.3051E-09, 
DataValue, 4.3, 3.32147E-09, 
DataValue, 4.4, 3.3282E-09, 
DataValue, 4.5, 3.34275E-09, 
DataValue, 4.6000000000000005, 3.35668E-09, 
DataValue, 4.7, 3.37322E-09, 
DataValue, 4.8, 3.38481E-09, 
DataValue, 4.9, 3.3926899999999998E-09, 
DataValue, 5, 3.39744E-09, 