
SetupTitle, WW
PrimitiveTest, I/V Sweep
TestParameter, Context.MainFrame, B1500A
TestParameter, Channel.UnitType, SMU, SMU
TestParameter, Channel.Unit, SMU2:HP, SMU1:HP
TestParameter, Channel.IName, I1, I4
TestParameter, Channel.VName, V1, V4
TestParameter, Channel.Mode, V, COMMON
TestParameter, Channel.Func, VAR1, CONST
TestParameter, Channel.Index, 
TestParameter, Channel.Time, 
TestParameter, Measurement.Port.Unit, SMU2:HP, SMU1:HP
TestParameter, Measurement.Port.SeriesResistor, NONE, NONE
TestParameter, Measurement.Port.Filter, ON, ON
TestParameter, Measurement.Port.OutputVoltageComparison, 0, 0
TestParameter, Measurement.Primary.Locus, Single
TestParameter, Measurement.Primary.Scale, LINEAR
TestParameter, Measurement.Primary.Start, -5
TestParameter, Measurement.Primary.Stop, 5
TestParameter, Measurement.Primary.Step, 0.1
TestParameter, Measurement.Primary.Compliance, 0.1
TestParameter, Measurement.Primary.PowerCompliance, 0
TestParameter, Measurement.Aborting.Condition, CONTINUE AT ANY
TestParameter, Measurement.PostOutput.Value, START
TestParameter, Measurement.PostOutput.Retention, OFF
TestParameter, Measurement.Bias.Source, -5, 0
TestParameter, Measurement.Bias.Compliance, 0.1, 1
TestParameter, Measurement.Monitor.Unit, SMU2:HP, SMU1:HP
TestParameter, Measurement.Monitor.Adc, HR ADC, HR ADC
TestParameter, Measurement.Monitor.Measurement, Compliance Side, Compliance Side
TestParameter, Measurement.Monitor.RangingMode, AUTO, AUTO
TestParameter, Measurement.Monitor.RangeBoundary, , 
TestParameter, Measurement.Monitor.RangeRating, BY FULL RANGE, BY FULL RANGE
TestParameter, Measurement.Monitor.RangeRatingCoeff, 50, 50
TestParameter, Measurement.Timing.Hold, 0
TestParameter, Measurement.Timing.Delay, 0.001
TestParameter, Measurement.Adc.HighSpeed.Mode, AUTO
TestParameter, Measurement.Adc.HighSpeed.Coeff, 1
TestParameter, Measurement.Adc.HighResolution.AutoZero, OFF
TestParameter, Measurement.Adc.HighResolution.Mode, PLC
TestParameter, Measurement.Adc.HighResolution.Coeff, 1
TestParameter, Measurement.WaitTime.Source.Coeff, 1
TestParameter, Measurement.WaitTime.Source.Offset, 0
TestParameter, Measurement.WaitTime.Monitor.Coeff, 1
TestParameter, Measurement.WaitTime.Monitor.Offset, 0
TestParameter, Function.User.Name, Ohmic
TestParameter, Function.User.Unit, ohm
TestParameter, Function.User.Definition, avg(V1/I1)
TestParameter, Output.Graph.Enabled, true
TestParameter, Output.Graph.XAxis.Data, V1
TestParameter, Output.Graph.XAxis.Scale, Linear
TestParameter, Output.Graph.XAxis.Left, -5
TestParameter, Output.Graph.XAxis.Right, 5
TestParameter, Output.Graph.YAxis.Data, I1
TestParameter, Output.Graph.YAxis.Scale, Linear
TestParameter, Output.Graph.YAxis.Bottom, -0.001
TestParameter, Output.Graph.YAxis.Top, 0.001
TestParameter, Output.Graph.YAxis.Group, 
TestParameter, Output.Scalar.Data, Ohmic
TestParameter, AutoAnalysis.Interpolation, false
TestParameter, AutoAnalysis.Line1.Enabled, false
TestParameter, AutoAnalysis.Line1.Type, 1
TestParameter, AutoAnalysis.Line1.Fix, True
TestParameter, AutoAnalysis.Line1.YAxis, 0
TestParameter, AutoAnalysis.Line1.Point1.Type, 0
TestParameter, AutoAnalysis.Line1.Point1.XY.X, 
TestParameter, AutoAnalysis.Line1.Point1.XY.Y, 
TestParameter, AutoAnalysis.Line1.Point1.Data.Var, 
TestParameter, AutoAnalysis.Line1.Point1.Data.Condition, 
TestParameter, AutoAnalysis.Line1.Point1.Data.Start, false
TestParameter, AutoAnalysis.Line1.Point1.Data.StartVar, 
TestParameter, AutoAnalysis.Line1.Point1.Data.StartCondition, 
TestParameter, AutoAnalysis.Line1.Point2.Type, 0
TestParameter, AutoAnalysis.Line1.Point2.XY.X, 
TestParameter, AutoAnalysis.Line1.Point2.XY.Y, 
TestParameter, AutoAnalysis.Line1.Point2.Data.Var, 
TestParameter, AutoAnalysis.Line1.Point2.Data.Condition, 
TestParameter, AutoAnalysis.Line1.Point2.Data.Start, false
TestParameter, AutoAnalysis.Line1.Point2.Data.StartVar, 
TestParameter, AutoAnalysis.Line1.Point2.Data.StartCondition, 
TestParameter, AutoAnalysis.Line1.GradientExpr, 0
TestParameter, AutoAnalysis.Line2.Enabled, false
TestParameter, AutoAnalysis.Line2.Type, 1
TestParameter, AutoAnalysis.Line2.Fix, True
TestParameter, AutoAnalysis.Line2.YAxis, 0
TestParameter, AutoAnalysis.Line2.Point1.Type, 0
TestParameter, AutoAnalysis.Line2.Point1.XY.X, 
TestParameter, AutoAnalysis.Line2.Point1.XY.Y, 
TestParameter, AutoAnalysis.Line2.Point1.Data.Var, 
TestParameter, AutoAnalysis.Line2.Point1.Data.Condition, 
TestParameter, AutoAnalysis.Line2.Point1.Data.Start, false
TestParameter, AutoAnalysis.Line2.Point1.Data.StartVar, 
TestParameter, AutoAnalysis.Line2.Point1.Data.StartCondition, 
TestParameter, AutoAnalysis.Line2.Point2.Type, 0
TestParameter, AutoAnalysis.Line2.Point2.XY.X, 
TestParameter, AutoAnalysis.Line2.Point2.XY.Y, 
TestParameter, AutoAnalysis.Line2.Point2.Data.Var, 
TestParameter, AutoAnalysis.Line2.Point2.Data.Condition, 
TestParameter, AutoAnalysis.Line2.Point2.Data.Start, false
TestParameter, AutoAnalysis.Line2.Point2.Data.StartVar, 
TestParameter, AutoAnalysis.Line2.Point2.Data.StartCondition, 
TestParameter, AutoAnalysis.Line2.GradientExpr, 0
TestParameter, AutoAnalysis.Marker.Enabled, false
TestParameter, AutoAnalysis.Marker.Data.Var, 
TestParameter, AutoAnalysis.Marker.Data.Condition, 
TestParameter, AutoAnalysis.Marker.Data.Start, false
TestParameter, AutoAnalysis.Marker.Data.StartVar, 
TestParameter, AutoAnalysis.Marker.Data.StartCondition, 
MetaData, TestRecord.EntryPoint, true
MetaData, TestRecord.RecordTime, 09/05/2020 14:11:12
MetaData, TestRecord.TestTarget, 
MetaData, TestRecord.IterationIndex, 37
MetaData, TestRecord.Preservation, true
MetaData, TestRecord.Flag, 
MetaData, TestRecord.Remarks, 
MetaData, TestRecord.LinkKey, b2cf0dbc-f975-4e33-a3ca-2866faf065c5
Dimension1, 101, 101, 101
Dimension2, 1, 1, 1
DataName, V1, I1, Ohmic
DataValue, -5, -2.0186999999999997E-09, 1290631002.2729132
DataValue, -4.9, -1.9292E-09, 
DataValue, -4.8, -1.8675E-09, 
DataValue, -4.7, -1.7917999999999998E-09, 
DataValue, -4.6000000000000005, -1.7515999999999998E-09, 
DataValue, -4.5, -1.7230999999999998E-09, 
DataValue, -4.4, -1.6939E-09, 
DataValue, -4.3, -1.6197E-09, 
DataValue, -4.2, -1.6148999999999999E-09, 
DataValue, -4.1, -1.5597E-09, 
DataValue, -4, -1.5551999999999998E-09, 
DataValue, -3.9, -1.5332999999999999E-09, 
DataValue, -3.8000000000000003, -1.5141999999999998E-09, 
DataValue, -3.7, -1.5056999999999999E-09, 
DataValue, -3.6, -1.4769999999999998E-09, 
DataValue, -3.5, -1.4311E-09, 
DataValue, -3.4, -1.4047E-09, 
DataValue, -3.3000000000000003, -1.4036999999999998E-09, 
DataValue, -3.2, -1.3784E-09, 
DataValue, -3.1, -1.3505999999999999E-09, 
DataValue, -3, -1.3456999999999998E-09, 
DataValue, -2.9, -1.3092999999999998E-09, 
DataValue, -2.8000000000000003, -1.2837999999999999E-09, 
DataValue, -2.7, -1.2687E-09, 
DataValue, -2.6, -1.2593999999999998E-09, 
DataValue, -2.5, -1.2501999999999999E-09, 
DataValue, -2.4, -1.2269E-09, 
DataValue, -2.3000000000000003, -1.2276E-09, 
DataValue, -2.2, -1.1939999999999998E-09, 
DataValue, -2.1, -1.1887999999999999E-09, 
DataValue, -2, -1.1702E-09, 
DataValue, -1.9000000000000001, -1.1559E-09, 
DataValue, -1.8, -1.1234999999999999E-09, 
DataValue, -1.7, -1.0963999999999999E-09, 
DataValue, -1.6, -1.0826E-09, 
DataValue, -1.5, -1.0714999999999999E-09, 
DataValue, -1.4000000000000001, -1.0490999999999998E-09, 
DataValue, -1.3, -1.0239E-09, 
DataValue, -1.2, -1.0078E-09, 
DataValue, -1.1, -9.934E-10, 
DataValue, -1, -9.705E-10, 
DataValue, -0.9, -9.3179999999999982E-10, 
DataValue, -0.8, -9.0959999999999994E-10, 
DataValue, -0.70000000000000007, -8.6199999999999992E-10, 
DataValue, -0.6, -8.2189999999999992E-10, 
DataValue, -0.5, -7.7939999999999991E-10, 
DataValue, -0.4, -7.3589999999999991E-10, 
DataValue, -0.3, -6.3319999999999994E-10, 
DataValue, -0.2, -4.87E-10, 
DataValue, -0.1, -2.7899999999999997E-10, 
DataValue, 0, 2.7749999999999997E-10, 
DataValue, 0.1, 1.2861E-09, 
DataValue, 0.2, 1.7501999999999998E-09, 
DataValue, 0.3, 1.9912E-09, 
DataValue, 0.4, 2.1724999999999997E-09, 
DataValue, 0.5, 2.3212E-09, 
DataValue, 0.6, 2.44562E-09, 
DataValue, 0.70000000000000007, 2.56515E-09, 
DataValue, 0.8, 2.65315E-09, 
DataValue, 0.9, 2.73805E-09, 
DataValue, 1, 2.8104E-09, 
DataValue, 1.1, 2.87515E-09, 
DataValue, 1.2, 2.92448E-09, 
DataValue, 1.3, 2.98022E-09, 
DataValue, 1.4000000000000001, 3.01568E-09, 
DataValue, 1.5, 3.05064E-09, 
DataValue, 1.6, 3.08631E-09, 
DataValue, 1.7, 3.1146E-09, 
DataValue, 1.8, 3.13408E-09, 
DataValue, 1.9000000000000001, 3.16122E-09, 
DataValue, 2, 3.17751E-09, 
DataValue, 2.1, 3.19138E-09, 
DataValue, 2.2, 3.2008E-09, 
DataValue, 2.3000000000000003, 3.22199E-09, 
DataValue, 2.4, 3.23801E-09, 
DataValue, 2.5, 3.24281E-09, 
DataValue, 2.6, 3.25951E-09, 
DataValue, 2.7, 3.26993E-09, 
DataValue, 2.8000000000000003, 3.27937E-09, 
DataValue, 2.9, 3.28408E-09, 
DataValue, 3, 3.30077E-09, 
DataValue, 3.1, 3.3069E-09, 
DataValue, 3.2, 3.32295E-09, 
DataValue, 3.3000000000000003, 3.33317E-09, 
DataValue, 3.4, 3.34982E-09, 
DataValue, 3.5, 3.35475E-09, 
DataValue, 3.6, 3.3808E-09, 
DataValue, 3.7, 3.38757E-09, 
DataValue, 3.8000000000000003, 3.40119E-09, 
DataValue, 3.9, 3.41433E-09, 
DataValue, 4, 3.43043E-09, 
DataValue, 4.1, 3.44127E-09, 
DataValue, 4.2, 3.45222E-09, 
DataValue, 4.3, 3.45522E-09, 
DataValue, 4.4, 3.47059E-09, 
DataValue, 4.5, 3.48738E-09, 
DataValue, 4.6000000000000005, 3.5021E-09, 
DataValue, 4.7, 3.51948E-09, 
DataValue, 4.8, 3.53522E-09, 
DataValue, 4.9, 3.53446E-09, 
DataValue, 5, 3.55473E-09, 