
SetupTitle, WW
PrimitiveTest, I/V Sweep
TestParameter, Context.MainFrame, B1500A
TestParameter, Channel.UnitType, SMU, SMU
TestParameter, Channel.Unit, SMU2:HP, SMU1:HP
TestParameter, Channel.IName, I1, I4
TestParameter, Channel.VName, V1, V4
TestParameter, Channel.Mode, V, COMMON
TestParameter, Channel.Func, VAR1, CONST
TestParameter, Channel.Index, 
TestParameter, Channel.Time, 
TestParameter, Measurement.Port.Unit, SMU2:HP, SMU1:HP
TestParameter, Measurement.Port.SeriesResistor, NONE, NONE
TestParameter, Measurement.Port.Filter, ON, ON
TestParameter, Measurement.Port.OutputVoltageComparison, 0, 0
TestParameter, Measurement.Primary.Locus, Single
TestParameter, Measurement.Primary.Scale, LINEAR
TestParameter, Measurement.Primary.Start, -5
TestParameter, Measurement.Primary.Stop, 5
TestParameter, Measurement.Primary.Step, 0.1
TestParameter, Measurement.Primary.Compliance, 0.1
TestParameter, Measurement.Primary.PowerCompliance, 0
TestParameter, Measurement.Aborting.Condition, CONTINUE AT ANY
TestParameter, Measurement.PostOutput.Value, START
TestParameter, Measurement.PostOutput.Retention, OFF
TestParameter, Measurement.Bias.Source, -5, 0
TestParameter, Measurement.Bias.Compliance, 0.1, 1
TestParameter, Measurement.Monitor.Unit, SMU2:HP, SMU1:HP
TestParameter, Measurement.Monitor.Adc, HR ADC, HR ADC
TestParameter, Measurement.Monitor.Measurement, Compliance Side, Compliance Side
TestParameter, Measurement.Monitor.RangingMode, AUTO, AUTO
TestParameter, Measurement.Monitor.RangeBoundary, , 
TestParameter, Measurement.Monitor.RangeRating, BY FULL RANGE, BY FULL RANGE
TestParameter, Measurement.Monitor.RangeRatingCoeff, 50, 50
TestParameter, Measurement.Timing.Hold, 0
TestParameter, Measurement.Timing.Delay, 0.001
TestParameter, Measurement.Adc.HighSpeed.Mode, AUTO
TestParameter, Measurement.Adc.HighSpeed.Coeff, 1
TestParameter, Measurement.Adc.HighResolution.AutoZero, OFF
TestParameter, Measurement.Adc.HighResolution.Mode, PLC
TestParameter, Measurement.Adc.HighResolution.Coeff, 1
TestParameter, Measurement.WaitTime.Source.Coeff, 1
TestParameter, Measurement.WaitTime.Source.Offset, 0
TestParameter, Measurement.WaitTime.Monitor.Coeff, 1
TestParameter, Measurement.WaitTime.Monitor.Offset, 0
TestParameter, Function.User.Name, Ohmic
TestParameter, Function.User.Unit, ohm
TestParameter, Function.User.Definition, avg(V1/I1)
TestParameter, Output.Graph.Enabled, true
TestParameter, Output.Graph.XAxis.Data, V1
TestParameter, Output.Graph.XAxis.Scale, Linear
TestParameter, Output.Graph.XAxis.Left, -5
TestParameter, Output.Graph.XAxis.Right, 5
TestParameter, Output.Graph.YAxis.Data, I1
TestParameter, Output.Graph.YAxis.Scale, Linear
TestParameter, Output.Graph.YAxis.Bottom, -0.001
TestParameter, Output.Graph.YAxis.Top, 0.001
TestParameter, Output.Graph.YAxis.Group, 
TestParameter, Output.Scalar.Data, Ohmic
TestParameter, AutoAnalysis.Interpolation, false
TestParameter, AutoAnalysis.Line1.Enabled, false
TestParameter, AutoAnalysis.Line1.Type, 1
TestParameter, AutoAnalysis.Line1.Fix, True
TestParameter, AutoAnalysis.Line1.YAxis, 0
TestParameter, AutoAnalysis.Line1.Point1.Type, 0
TestParameter, AutoAnalysis.Line1.Point1.XY.X, 
TestParameter, AutoAnalysis.Line1.Point1.XY.Y, 
TestParameter, AutoAnalysis.Line1.Point1.Data.Var, 
TestParameter, AutoAnalysis.Line1.Point1.Data.Condition, 
TestParameter, AutoAnalysis.Line1.Point1.Data.Start, false
TestParameter, AutoAnalysis.Line1.Point1.Data.StartVar, 
TestParameter, AutoAnalysis.Line1.Point1.Data.StartCondition, 
TestParameter, AutoAnalysis.Line1.Point2.Type, 0
TestParameter, AutoAnalysis.Line1.Point2.XY.X, 
TestParameter, AutoAnalysis.Line1.Point2.XY.Y, 
TestParameter, AutoAnalysis.Line1.Point2.Data.Var, 
TestParameter, AutoAnalysis.Line1.Point2.Data.Condition, 
TestParameter, AutoAnalysis.Line1.Point2.Data.Start, false
TestParameter, AutoAnalysis.Line1.Point2.Data.StartVar, 
TestParameter, AutoAnalysis.Line1.Point2.Data.StartCondition, 
TestParameter, AutoAnalysis.Line1.GradientExpr, 0
TestParameter, AutoAnalysis.Line2.Enabled, false
TestParameter, AutoAnalysis.Line2.Type, 1
TestParameter, AutoAnalysis.Line2.Fix, True
TestParameter, AutoAnalysis.Line2.YAxis, 0
TestParameter, AutoAnalysis.Line2.Point1.Type, 0
TestParameter, AutoAnalysis.Line2.Point1.XY.X, 
TestParameter, AutoAnalysis.Line2.Point1.XY.Y, 
TestParameter, AutoAnalysis.Line2.Point1.Data.Var, 
TestParameter, AutoAnalysis.Line2.Point1.Data.Condition, 
TestParameter, AutoAnalysis.Line2.Point1.Data.Start, false
TestParameter, AutoAnalysis.Line2.Point1.Data.StartVar, 
TestParameter, AutoAnalysis.Line2.Point1.Data.StartCondition, 
TestParameter, AutoAnalysis.Line2.Point2.Type, 0
TestParameter, AutoAnalysis.Line2.Point2.XY.X, 
TestParameter, AutoAnalysis.Line2.Point2.XY.Y, 
TestParameter, AutoAnalysis.Line2.Point2.Data.Var, 
TestParameter, AutoAnalysis.Line2.Point2.Data.Condition, 
TestParameter, AutoAnalysis.Line2.Point2.Data.Start, false
TestParameter, AutoAnalysis.Line2.Point2.Data.StartVar, 
TestParameter, AutoAnalysis.Line2.Point2.Data.StartCondition, 
TestParameter, AutoAnalysis.Line2.GradientExpr, 0
TestParameter, AutoAnalysis.Marker.Enabled, false
TestParameter, AutoAnalysis.Marker.Data.Var, 
TestParameter, AutoAnalysis.Marker.Data.Condition, 
TestParameter, AutoAnalysis.Marker.Data.Start, false
TestParameter, AutoAnalysis.Marker.Data.StartVar, 
TestParameter, AutoAnalysis.Marker.Data.StartCondition, 
MetaData, TestRecord.EntryPoint, true
MetaData, TestRecord.RecordTime, 09/05/2020 14:09:52
MetaData, TestRecord.TestTarget, 
MetaData, TestRecord.IterationIndex, 35
MetaData, TestRecord.Preservation, true
MetaData, TestRecord.Flag, 
MetaData, TestRecord.Remarks, 
MetaData, TestRecord.LinkKey, 87606db6-735d-474a-9c5d-d18bbf9df237
Dimension1, 101, 101, 101
Dimension2, 1, 1, 1
DataName, V1, I1, Ohmic
DataValue, -5, -2.5843E-09, 1026295289.9197109
DataValue, -4.9, -2.4728999999999996E-09, 
DataValue, -4.8, -2.4067E-09, 
DataValue, -4.7, -2.3543999999999996E-09, 
DataValue, -4.6000000000000005, -2.2988999999999996E-09, 
DataValue, -4.5, -2.2481999999999997E-09, 
DataValue, -4.4, -2.1586E-09, 
DataValue, -4.3, -2.1309999999999998E-09, 
DataValue, -4.2, -2.1074999999999996E-09, 
DataValue, -4.1, -2.1075999999999996E-09, 
DataValue, -4, -2.0287E-09, 
DataValue, -3.9, -2.006E-09, 
DataValue, -3.8000000000000003, -1.9809999999999997E-09, 
DataValue, -3.7, -1.921E-09, 
DataValue, -3.6, -1.9384E-09, 
DataValue, -3.5, -1.8331999999999998E-09, 
DataValue, -3.4, -1.8032999999999998E-09, 
DataValue, -3.3000000000000003, -1.8261999999999998E-09, 
DataValue, -3.2, -1.8108999999999998E-09, 
DataValue, -3.1, -1.7959999999999998E-09, 
DataValue, -3, -1.7765999999999998E-09, 
DataValue, -2.9, -1.7630999999999998E-09, 
DataValue, -2.8000000000000003, -1.6959E-09, 
DataValue, -2.7, -1.6764E-09, 
DataValue, -2.6, -1.6542E-09, 
DataValue, -2.5, -1.6525999999999999E-09, 
DataValue, -2.4, -1.6313999999999998E-09, 
DataValue, -2.3000000000000003, -1.6296999999999999E-09, 
DataValue, -2.2, -1.6582999999999997E-09, 
DataValue, -2.1, -1.5645E-09, 
DataValue, -2, -1.5719E-09, 
DataValue, -1.9000000000000001, -1.5314E-09, 
DataValue, -1.8, -1.5181999999999998E-09, 
DataValue, -1.7, -1.4944E-09, 
DataValue, -1.6, -1.479E-09, 
DataValue, -1.5, -1.4340999999999998E-09, 
DataValue, -1.4000000000000001, -1.4549999999999998E-09, 
DataValue, -1.3, -1.3679999999999998E-09, 
DataValue, -1.2, -1.3447E-09, 
DataValue, -1.1, -1.3015E-09, 
DataValue, -1, -1.2544E-09, 
DataValue, -0.9, -1.2399999999999999E-09, 
DataValue, -0.8, -1.1945999999999998E-09, 
DataValue, -0.70000000000000007, -1.1772999999999999E-09, 
DataValue, -0.6, -1.1017999999999999E-09, 
DataValue, -0.5, -1.0625E-09, 
DataValue, -0.4, -1.0057E-09, 
DataValue, -0.3, -8.4779999999999991E-10, 
DataValue, -0.2, -7.034E-10, 
DataValue, -0.1, -4.7029999999999992E-10, 
DataValue, 0, 2.0439999999999999E-10, 
DataValue, 0.1, 1.3883999999999999E-09, 
DataValue, 0.2, 1.9471999999999996E-09, 
DataValue, 0.3, 2.2217E-09, 
DataValue, 0.4, 2.432E-09, 
DataValue, 0.5, 2.6237E-09, 
DataValue, 0.6, 2.7521999999999997E-09, 
DataValue, 0.70000000000000007, 2.8908999999999996E-09, 
DataValue, 0.8, 2.9869999999999997E-09, 
DataValue, 0.9, 3.07905E-09, 
DataValue, 1, 3.17557E-09, 
DataValue, 1.1, 3.23762E-09, 
DataValue, 1.2, 3.30043E-09, 
DataValue, 1.3, 3.35045E-09, 
DataValue, 1.4000000000000001, 3.40258E-09, 
DataValue, 1.5, 3.45203E-09, 
DataValue, 1.6, 3.4828E-09, 
DataValue, 1.7, 3.50945E-09, 
DataValue, 1.8, 3.52715E-09, 
DataValue, 1.9000000000000001, 3.56468E-09, 
DataValue, 2, 3.58551E-09, 
DataValue, 2.1, 3.60541E-09, 
DataValue, 2.2, 3.615E-09, 
DataValue, 2.3000000000000003, 3.63059E-09, 
DataValue, 2.4, 3.64667E-09, 
DataValue, 2.5, 3.66298E-09, 
DataValue, 2.6, 3.67777E-09, 
DataValue, 2.7, 3.69244E-09, 
DataValue, 2.8000000000000003, 3.70344E-09, 
DataValue, 2.9, 3.71843E-09, 
DataValue, 3, 3.73532E-09, 
DataValue, 3.1, 3.75053E-09, 
DataValue, 3.2, 3.75856E-09, 
DataValue, 3.3000000000000003, 3.7824E-09, 
DataValue, 3.4, 3.78578E-09, 
DataValue, 3.5, 3.81987E-09, 
DataValue, 3.6, 3.81886E-09, 
DataValue, 3.7, 3.83506E-09, 
DataValue, 3.8000000000000003, 3.84937E-09, 
DataValue, 3.9, 3.87314E-09, 
DataValue, 4, 3.88261E-09, 
DataValue, 4.1, 3.90499E-09, 
DataValue, 4.2, 3.90928E-09, 
DataValue, 4.3, 3.94168E-09, 
DataValue, 4.4, 3.95488E-09, 
DataValue, 4.5, 3.96917E-09, 
DataValue, 4.6000000000000005, 3.99285E-09, 
DataValue, 4.7, 4.00907E-09, 
DataValue, 4.8, 4.01606E-09, 
DataValue, 4.9, 4.04156E-09, 
DataValue, 5, 4.06865E-09, 