
SetupTitle, WW
PrimitiveTest, I/V Sweep
TestParameter, Context.MainFrame, B1500A
TestParameter, Channel.UnitType, SMU, SMU
TestParameter, Channel.Unit, SMU2:HP, SMU1:HP
TestParameter, Channel.IName, I1, I4
TestParameter, Channel.VName, V1, V4
TestParameter, Channel.Mode, V, COMMON
TestParameter, Channel.Func, VAR1, CONST
TestParameter, Channel.Index, 
TestParameter, Channel.Time, 
TestParameter, Measurement.Port.Unit, SMU2:HP, SMU1:HP
TestParameter, Measurement.Port.SeriesResistor, NONE, NONE
TestParameter, Measurement.Port.Filter, ON, ON
TestParameter, Measurement.Port.OutputVoltageComparison, 0, 0
TestParameter, Measurement.Primary.Locus, Single
TestParameter, Measurement.Primary.Scale, LINEAR
TestParameter, Measurement.Primary.Start, -5
TestParameter, Measurement.Primary.Stop, 5
TestParameter, Measurement.Primary.Step, 0.1
TestParameter, Measurement.Primary.Compliance, 0.1
TestParameter, Measurement.Primary.PowerCompliance, 0
TestParameter, Measurement.Aborting.Condition, CONTINUE AT ANY
TestParameter, Measurement.PostOutput.Value, START
TestParameter, Measurement.PostOutput.Retention, OFF
TestParameter, Measurement.Bias.Source, -5, 0
TestParameter, Measurement.Bias.Compliance, 0.1, 1
TestParameter, Measurement.Monitor.Unit, SMU2:HP, SMU1:HP
TestParameter, Measurement.Monitor.Adc, HR ADC, HR ADC
TestParameter, Measurement.Monitor.Measurement, Compliance Side, Compliance Side
TestParameter, Measurement.Monitor.RangingMode, AUTO, AUTO
TestParameter, Measurement.Monitor.RangeBoundary, , 
TestParameter, Measurement.Monitor.RangeRating, BY FULL RANGE, BY FULL RANGE
TestParameter, Measurement.Monitor.RangeRatingCoeff, 50, 50
TestParameter, Measurement.Timing.Hold, 0
TestParameter, Measurement.Timing.Delay, 0.001
TestParameter, Measurement.Adc.HighSpeed.Mode, AUTO
TestParameter, Measurement.Adc.HighSpeed.Coeff, 1
TestParameter, Measurement.Adc.HighResolution.AutoZero, OFF
TestParameter, Measurement.Adc.HighResolution.Mode, PLC
TestParameter, Measurement.Adc.HighResolution.Coeff, 1
TestParameter, Measurement.WaitTime.Source.Coeff, 1
TestParameter, Measurement.WaitTime.Source.Offset, 0
TestParameter, Measurement.WaitTime.Monitor.Coeff, 1
TestParameter, Measurement.WaitTime.Monitor.Offset, 0
TestParameter, Function.User.Name, Ohmic
TestParameter, Function.User.Unit, ohm
TestParameter, Function.User.Definition, avg(V1/I1)
TestParameter, Output.Graph.Enabled, true
TestParameter, Output.Graph.XAxis.Data, V1
TestParameter, Output.Graph.XAxis.Scale, Linear
TestParameter, Output.Graph.XAxis.Left, -5
TestParameter, Output.Graph.XAxis.Right, 5
TestParameter, Output.Graph.YAxis.Data, I1
TestParameter, Output.Graph.YAxis.Scale, Linear
TestParameter, Output.Graph.YAxis.Bottom, -0.001
TestParameter, Output.Graph.YAxis.Top, 0.001
TestParameter, Output.Graph.YAxis.Group, 
TestParameter, Output.Scalar.Data, Ohmic
TestParameter, AutoAnalysis.Interpolation, false
TestParameter, AutoAnalysis.Line1.Enabled, false
TestParameter, AutoAnalysis.Line1.Type, 1
TestParameter, AutoAnalysis.Line1.Fix, True
TestParameter, AutoAnalysis.Line1.YAxis, 0
TestParameter, AutoAnalysis.Line1.Point1.Type, 0
TestParameter, AutoAnalysis.Line1.Point1.XY.X, 
TestParameter, AutoAnalysis.Line1.Point1.XY.Y, 
TestParameter, AutoAnalysis.Line1.Point1.Data.Var, 
TestParameter, AutoAnalysis.Line1.Point1.Data.Condition, 
TestParameter, AutoAnalysis.Line1.Point1.Data.Start, false
TestParameter, AutoAnalysis.Line1.Point1.Data.StartVar, 
TestParameter, AutoAnalysis.Line1.Point1.Data.StartCondition, 
TestParameter, AutoAnalysis.Line1.Point2.Type, 0
TestParameter, AutoAnalysis.Line1.Point2.XY.X, 
TestParameter, AutoAnalysis.Line1.Point2.XY.Y, 
TestParameter, AutoAnalysis.Line1.Point2.Data.Var, 
TestParameter, AutoAnalysis.Line1.Point2.Data.Condition, 
TestParameter, AutoAnalysis.Line1.Point2.Data.Start, false
TestParameter, AutoAnalysis.Line1.Point2.Data.StartVar, 
TestParameter, AutoAnalysis.Line1.Point2.Data.StartCondition, 
TestParameter, AutoAnalysis.Line1.GradientExpr, 0
TestParameter, AutoAnalysis.Line2.Enabled, false
TestParameter, AutoAnalysis.Line2.Type, 1
TestParameter, AutoAnalysis.Line2.Fix, True
TestParameter, AutoAnalysis.Line2.YAxis, 0
TestParameter, AutoAnalysis.Line2.Point1.Type, 0
TestParameter, AutoAnalysis.Line2.Point1.XY.X, 
TestParameter, AutoAnalysis.Line2.Point1.XY.Y, 
TestParameter, AutoAnalysis.Line2.Point1.Data.Var, 
TestParameter, AutoAnalysis.Line2.Point1.Data.Condition, 
TestParameter, AutoAnalysis.Line2.Point1.Data.Start, false
TestParameter, AutoAnalysis.Line2.Point1.Data.StartVar, 
TestParameter, AutoAnalysis.Line2.Point1.Data.StartCondition, 
TestParameter, AutoAnalysis.Line2.Point2.Type, 0
TestParameter, AutoAnalysis.Line2.Point2.XY.X, 
TestParameter, AutoAnalysis.Line2.Point2.XY.Y, 
TestParameter, AutoAnalysis.Line2.Point2.Data.Var, 
TestParameter, AutoAnalysis.Line2.Point2.Data.Condition, 
TestParameter, AutoAnalysis.Line2.Point2.Data.Start, false
TestParameter, AutoAnalysis.Line2.Point2.Data.StartVar, 
TestParameter, AutoAnalysis.Line2.Point2.Data.StartCondition, 
TestParameter, AutoAnalysis.Line2.GradientExpr, 0
TestParameter, AutoAnalysis.Marker.Enabled, false
TestParameter, AutoAnalysis.Marker.Data.Var, 
TestParameter, AutoAnalysis.Marker.Data.Condition, 
TestParameter, AutoAnalysis.Marker.Data.Start, false
TestParameter, AutoAnalysis.Marker.Data.StartVar, 
TestParameter, AutoAnalysis.Marker.Data.StartCondition, 
MetaData, TestRecord.EntryPoint, true
MetaData, TestRecord.RecordTime, 09/05/2020 14:09:19
MetaData, TestRecord.TestTarget, 
MetaData, TestRecord.IterationIndex, 34
MetaData, TestRecord.Preservation, true
MetaData, TestRecord.Flag, 
MetaData, TestRecord.Remarks, 
MetaData, TestRecord.LinkKey, bd34cfbd-9e4b-4679-bb19-2d7b01702844
Dimension1, 101, 101, 101
Dimension2, 1, 1, 1
DataName, V1, I1, Ohmic
DataValue, -5, -2.9928E-09, 892911078.23284471
DataValue, -4.9, -2.9381999999999996E-09, 
DataValue, -4.8, -2.8107E-09, 
DataValue, -4.7, -2.7631999999999997E-09, 
DataValue, -4.6000000000000005, -2.6641999999999995E-09, 
DataValue, -4.5, -2.5837999999999997E-09, 
DataValue, -4.4, -2.5797999999999997E-09, 
DataValue, -4.3, -2.5284999999999997E-09, 
DataValue, -4.2, -2.451E-09, 
DataValue, -4.1, -2.4349E-09, 
DataValue, -4, -2.3889E-09, 
DataValue, -3.9, -2.363E-09, 
DataValue, -3.8000000000000003, -2.3355999999999997E-09, 
DataValue, -3.7, -2.3015999999999996E-09, 
DataValue, -3.6, -2.2865E-09, 
DataValue, -3.5, -2.2218E-09, 
DataValue, -3.4, -2.2482999999999998E-09, 
DataValue, -3.3000000000000003, -2.2132999999999998E-09, 
DataValue, -3.2, -2.2103999999999997E-09, 
DataValue, -3.1, -2.1414999999999997E-09, 
DataValue, -3, -2.1369E-09, 
DataValue, -2.9, -2.0624E-09, 
DataValue, -2.8000000000000003, -2.061E-09, 
DataValue, -2.7, -2.0346E-09, 
DataValue, -2.6, -2.0219E-09, 
DataValue, -2.5, -2.0141E-09, 
DataValue, -2.4, -1.9295E-09, 
DataValue, -2.3000000000000003, -1.9239E-09, 
DataValue, -2.2, -1.9242999999999997E-09, 
DataValue, -2.1, -1.9104E-09, 
DataValue, -2, -1.8413999999999999E-09, 
DataValue, -1.9000000000000001, -1.8177999999999999E-09, 
DataValue, -1.8, -1.8011999999999997E-09, 
DataValue, -1.7, -1.8146E-09, 
DataValue, -1.6, -1.7573E-09, 
DataValue, -1.5, -1.7448999999999998E-09, 
DataValue, -1.4000000000000001, -1.7003999999999998E-09, 
DataValue, -1.3, -1.6677E-09, 
DataValue, -1.2, -1.6134999999999999E-09, 
DataValue, -1.1, -1.6006999999999999E-09, 
DataValue, -1, -1.5802999999999998E-09, 
DataValue, -0.9, -1.4755E-09, 
DataValue, -0.8, -1.4752999999999999E-09, 
DataValue, -0.70000000000000007, -1.3990999999999999E-09, 
DataValue, -0.6, -1.3555E-09, 
DataValue, -0.5, -1.2598E-09, 
DataValue, -0.4, -1.2295E-09, 
DataValue, -0.3, -1.0752E-09, 
DataValue, -0.2, -9.2669999999999991E-10, 
DataValue, -0.1, -6.195E-10, 
DataValue, 0, 1.269E-10, 
DataValue, 0.1, 1.4541999999999998E-09, 
DataValue, 0.2, 2.0225E-09, 
DataValue, 0.3, 2.3193999999999997E-09, 
DataValue, 0.4, 2.5536E-09, 
DataValue, 0.5, 2.7606999999999998E-09, 
DataValue, 0.6, 2.9165999999999996E-09, 
DataValue, 0.70000000000000007, 3.0574E-09, 
DataValue, 0.8, 3.1738999999999996E-09, 
DataValue, 0.9, 3.2842E-09, 
DataValue, 1, 3.37857E-09, 
DataValue, 1.1, 3.45814E-09, 
DataValue, 1.2, 3.51222E-09, 
DataValue, 1.3, 3.56982E-09, 
DataValue, 1.4000000000000001, 3.62191E-09, 
DataValue, 1.5, 3.66327E-09, 
DataValue, 1.6, 3.69578E-09, 
DataValue, 1.7, 3.73007E-09, 
DataValue, 1.8, 3.76754E-09, 
DataValue, 1.9000000000000001, 3.78829E-09, 
DataValue, 2, 3.81276E-09, 
DataValue, 2.1, 3.83856E-09, 
DataValue, 2.2, 3.85751E-09, 
DataValue, 2.3000000000000003, 3.87096E-09, 
DataValue, 2.4, 3.89309E-09, 
DataValue, 2.5, 3.90978E-09, 
DataValue, 2.6, 3.93385E-09, 
DataValue, 2.7, 3.94495E-09, 
DataValue, 2.8000000000000003, 3.95717E-09, 
DataValue, 2.9, 3.97021E-09, 
DataValue, 3, 4.00095E-09, 
DataValue, 3.1, 4.02307E-09, 
DataValue, 3.2, 4.03278E-09, 
DataValue, 3.3000000000000003, 4.04669E-09, 
DataValue, 3.4, 4.06706E-09, 
DataValue, 3.5, 4.07732E-09, 
DataValue, 3.6, 4.09507E-09, 
DataValue, 3.7, 4.12183E-09, 
DataValue, 3.8000000000000003, 4.13742E-09, 
DataValue, 3.9, 4.16138E-09, 
DataValue, 4, 4.19067E-09, 
DataValue, 4.1, 4.20775E-09, 
DataValue, 4.2, 4.21472E-09, 
DataValue, 4.3, 4.2494E-09, 
DataValue, 4.4, 4.26476E-09, 
DataValue, 4.5, 4.26993E-09, 
DataValue, 4.6000000000000005, 4.28377E-09, 
DataValue, 4.7, 4.31248E-09, 
DataValue, 4.8, 4.33318E-09, 
DataValue, 4.9, 4.34653E-09, 
DataValue, 5, 4.37723E-09, 