
SetupTitle, WW
PrimitiveTest, I/V Sweep
TestParameter, Context.MainFrame, B1500A
TestParameter, Channel.UnitType, SMU, SMU
TestParameter, Channel.Unit, SMU2:HP, SMU1:HP
TestParameter, Channel.IName, I1, I4
TestParameter, Channel.VName, V1, V4
TestParameter, Channel.Mode, V, COMMON
TestParameter, Channel.Func, VAR1, CONST
TestParameter, Channel.Index, 
TestParameter, Channel.Time, 
TestParameter, Measurement.Port.Unit, SMU2:HP, SMU1:HP
TestParameter, Measurement.Port.SeriesResistor, NONE, NONE
TestParameter, Measurement.Port.Filter, ON, ON
TestParameter, Measurement.Port.OutputVoltageComparison, 0, 0
TestParameter, Measurement.Primary.Locus, Single
TestParameter, Measurement.Primary.Scale, LINEAR
TestParameter, Measurement.Primary.Start, -5
TestParameter, Measurement.Primary.Stop, 5
TestParameter, Measurement.Primary.Step, 0.1
TestParameter, Measurement.Primary.Compliance, 0.1
TestParameter, Measurement.Primary.PowerCompliance, 0
TestParameter, Measurement.Aborting.Condition, CONTINUE AT ANY
TestParameter, Measurement.PostOutput.Value, START
TestParameter, Measurement.PostOutput.Retention, OFF
TestParameter, Measurement.Bias.Source, -5, 0
TestParameter, Measurement.Bias.Compliance, 0.1, 1
TestParameter, Measurement.Monitor.Unit, SMU2:HP, SMU1:HP
TestParameter, Measurement.Monitor.Adc, HR ADC, HR ADC
TestParameter, Measurement.Monitor.Measurement, Compliance Side, Compliance Side
TestParameter, Measurement.Monitor.RangingMode, AUTO, AUTO
TestParameter, Measurement.Monitor.RangeBoundary, , 
TestParameter, Measurement.Monitor.RangeRating, BY FULL RANGE, BY FULL RANGE
TestParameter, Measurement.Monitor.RangeRatingCoeff, 50, 50
TestParameter, Measurement.Timing.Hold, 0
TestParameter, Measurement.Timing.Delay, 0.001
TestParameter, Measurement.Adc.HighSpeed.Mode, AUTO
TestParameter, Measurement.Adc.HighSpeed.Coeff, 1
TestParameter, Measurement.Adc.HighResolution.AutoZero, OFF
TestParameter, Measurement.Adc.HighResolution.Mode, PLC
TestParameter, Measurement.Adc.HighResolution.Coeff, 1
TestParameter, Measurement.WaitTime.Source.Coeff, 1
TestParameter, Measurement.WaitTime.Source.Offset, 0
TestParameter, Measurement.WaitTime.Monitor.Coeff, 1
TestParameter, Measurement.WaitTime.Monitor.Offset, 0
TestParameter, Function.User.Name, Ohmic
TestParameter, Function.User.Unit, ohm
TestParameter, Function.User.Definition, avg(V1/I1)
TestParameter, Output.Graph.Enabled, true
TestParameter, Output.Graph.XAxis.Data, V1
TestParameter, Output.Graph.XAxis.Scale, Linear
TestParameter, Output.Graph.XAxis.Left, -5
TestParameter, Output.Graph.XAxis.Right, 5
TestParameter, Output.Graph.YAxis.Data, I1
TestParameter, Output.Graph.YAxis.Scale, Linear
TestParameter, Output.Graph.YAxis.Bottom, -0.001
TestParameter, Output.Graph.YAxis.Top, 0.001
TestParameter, Output.Graph.YAxis.Group, 
TestParameter, Output.Scalar.Data, Ohmic
TestParameter, AutoAnalysis.Interpolation, false
TestParameter, AutoAnalysis.Line1.Enabled, false
TestParameter, AutoAnalysis.Line1.Type, 1
TestParameter, AutoAnalysis.Line1.Fix, True
TestParameter, AutoAnalysis.Line1.YAxis, 0
TestParameter, AutoAnalysis.Line1.Point1.Type, 0
TestParameter, AutoAnalysis.Line1.Point1.XY.X, 
TestParameter, AutoAnalysis.Line1.Point1.XY.Y, 
TestParameter, AutoAnalysis.Line1.Point1.Data.Var, 
TestParameter, AutoAnalysis.Line1.Point1.Data.Condition, 
TestParameter, AutoAnalysis.Line1.Point1.Data.Start, false
TestParameter, AutoAnalysis.Line1.Point1.Data.StartVar, 
TestParameter, AutoAnalysis.Line1.Point1.Data.StartCondition, 
TestParameter, AutoAnalysis.Line1.Point2.Type, 0
TestParameter, AutoAnalysis.Line1.Point2.XY.X, 
TestParameter, AutoAnalysis.Line1.Point2.XY.Y, 
TestParameter, AutoAnalysis.Line1.Point2.Data.Var, 
TestParameter, AutoAnalysis.Line1.Point2.Data.Condition, 
TestParameter, AutoAnalysis.Line1.Point2.Data.Start, false
TestParameter, AutoAnalysis.Line1.Point2.Data.StartVar, 
TestParameter, AutoAnalysis.Line1.Point2.Data.StartCondition, 
TestParameter, AutoAnalysis.Line1.GradientExpr, 0
TestParameter, AutoAnalysis.Line2.Enabled, false
TestParameter, AutoAnalysis.Line2.Type, 1
TestParameter, AutoAnalysis.Line2.Fix, True
TestParameter, AutoAnalysis.Line2.YAxis, 0
TestParameter, AutoAnalysis.Line2.Point1.Type, 0
TestParameter, AutoAnalysis.Line2.Point1.XY.X, 
TestParameter, AutoAnalysis.Line2.Point1.XY.Y, 
TestParameter, AutoAnalysis.Line2.Point1.Data.Var, 
TestParameter, AutoAnalysis.Line2.Point1.Data.Condition, 
TestParameter, AutoAnalysis.Line2.Point1.Data.Start, false
TestParameter, AutoAnalysis.Line2.Point1.Data.StartVar, 
TestParameter, AutoAnalysis.Line2.Point1.Data.StartCondition, 
TestParameter, AutoAnalysis.Line2.Point2.Type, 0
TestParameter, AutoAnalysis.Line2.Point2.XY.X, 
TestParameter, AutoAnalysis.Line2.Point2.XY.Y, 
TestParameter, AutoAnalysis.Line2.Point2.Data.Var, 
TestParameter, AutoAnalysis.Line2.Point2.Data.Condition, 
TestParameter, AutoAnalysis.Line2.Point2.Data.Start, false
TestParameter, AutoAnalysis.Line2.Point2.Data.StartVar, 
TestParameter, AutoAnalysis.Line2.Point2.Data.StartCondition, 
TestParameter, AutoAnalysis.Line2.GradientExpr, 0
TestParameter, AutoAnalysis.Marker.Enabled, false
TestParameter, AutoAnalysis.Marker.Data.Var, 
TestParameter, AutoAnalysis.Marker.Data.Condition, 
TestParameter, AutoAnalysis.Marker.Data.Start, false
TestParameter, AutoAnalysis.Marker.Data.StartVar, 
TestParameter, AutoAnalysis.Marker.Data.StartCondition, 
MetaData, TestRecord.EntryPoint, true
MetaData, TestRecord.RecordTime, 09/05/2020 14:08:37
MetaData, TestRecord.TestTarget, 
MetaData, TestRecord.IterationIndex, 33
MetaData, TestRecord.Preservation, true
MetaData, TestRecord.Flag, 
MetaData, TestRecord.Remarks, 
MetaData, TestRecord.LinkKey, e0d0dd69-28d5-4c31-bbe9-42d0389bf5e1
Dimension1, 101, 101, 101
Dimension2, 1, 1, 1
DataName, V1, I1, Ohmic
DataValue, -5, -3.6676999999999996E-09, 754922395.10735166
DataValue, -4.9, -3.5161999999999995E-09, 
DataValue, -4.8, -3.4256E-09, 
DataValue, -4.7, -3.3461E-09, 
DataValue, -4.6000000000000005, -3.3299E-09, 
DataValue, -4.5, -3.2526999999999997E-09, 
DataValue, -4.4, -3.1995999999999996E-09, 
DataValue, -4.3, -3.1222E-09, 
DataValue, -4.2, -3.0854999999999997E-09, 
DataValue, -4.1, -3.0252E-09, 
DataValue, -4, -2.9909999999999997E-09, 
DataValue, -3.9, -2.9631E-09, 
DataValue, -3.8000000000000003, -2.9371999999999997E-09, 
DataValue, -3.7, -2.8759999999999996E-09, 
DataValue, -3.6, -2.8506999999999997E-09, 
DataValue, -3.5, -2.792E-09, 
DataValue, -3.4, -2.7599999999999996E-09, 
DataValue, -3.3000000000000003, -2.7416999999999997E-09, 
DataValue, -3.2, -2.6938999999999996E-09, 
DataValue, -3.1, -2.7046999999999996E-09, 
DataValue, -3, -2.6318E-09, 
DataValue, -2.9, -2.6477E-09, 
DataValue, -2.8000000000000003, -2.5689999999999997E-09, 
DataValue, -2.7, -2.5973999999999997E-09, 
DataValue, -2.6, -2.4996E-09, 
DataValue, -2.5, -2.4753E-09, 
DataValue, -2.4, -2.3994E-09, 
DataValue, -2.3000000000000003, -2.4297999999999996E-09, 
DataValue, -2.2, -2.3720999999999997E-09, 
DataValue, -2.1, -2.3571999999999997E-09, 
DataValue, -2, -2.2971E-09, 
DataValue, -1.9000000000000001, -2.3018999999999997E-09, 
DataValue, -1.8, -2.2455999999999998E-09, 
DataValue, -1.7, -2.2188E-09, 
DataValue, -1.6, -2.2184999999999997E-09, 
DataValue, -1.5, -2.173E-09, 
DataValue, -1.4000000000000001, -2.1668999999999996E-09, 
DataValue, -1.3, -2.0774E-09, 
DataValue, -1.2, -2.0659999999999997E-09, 
DataValue, -1.1, -2.0486999999999998E-09, 
DataValue, -1, -1.9585E-09, 
DataValue, -0.9, -1.9426E-09, 
DataValue, -0.8, -1.8251999999999999E-09, 
DataValue, -0.70000000000000007, -1.7937E-09, 
DataValue, -0.6, -1.6975999999999998E-09, 
DataValue, -0.5, -1.6726999999999998E-09, 
DataValue, -0.4, -1.5092E-09, 
DataValue, -0.3, -1.3619999999999999E-09, 
DataValue, -0.2, -1.2009999999999999E-09, 
DataValue, -0.1, -8.8319999999999991E-10, 
DataValue, 0, -1.05E-11, 
DataValue, 0.1, 1.4924E-09, 
DataValue, 0.2, 2.1196E-09, 
DataValue, 0.3, 2.4581999999999996E-09, 
DataValue, 0.4, 2.7074999999999996E-09, 
DataValue, 0.5, 2.9003999999999996E-09, 
DataValue, 0.6, 3.0867999999999997E-09, 
DataValue, 0.70000000000000007, 3.2518999999999995E-09, 
DataValue, 0.8, 3.3812E-09, 
DataValue, 0.9, 3.5134999999999995E-09, 
DataValue, 1, 3.6147999999999996E-09, 
DataValue, 1.1, 3.6879E-09, 
DataValue, 1.2, 3.75603E-09, 
DataValue, 1.3, 3.82006E-09, 
DataValue, 1.4000000000000001, 3.86739E-09, 
DataValue, 1.5, 3.91971E-09, 
DataValue, 1.6, 3.95713E-09, 
DataValue, 1.7, 4.01258E-09, 
DataValue, 1.8, 4.04089E-09, 
DataValue, 1.9000000000000001, 4.06833E-09, 
DataValue, 2, 4.08984E-09, 
DataValue, 2.1, 4.11593E-09, 
DataValue, 2.2, 4.15434E-09, 
DataValue, 2.3000000000000003, 4.17302E-09, 
DataValue, 2.4, 4.19229E-09, 
DataValue, 2.5, 4.22287E-09, 
DataValue, 2.6, 4.23194E-09, 
DataValue, 2.7, 4.24448E-09, 
DataValue, 2.8000000000000003, 4.26616E-09, 
DataValue, 2.9, 4.30049E-09, 
DataValue, 3, 4.32374E-09, 
DataValue, 3.1, 4.34291E-09, 
DataValue, 3.2, 4.35193E-09, 
DataValue, 3.3000000000000003, 4.38241E-09, 
DataValue, 3.4, 4.40926E-09, 
DataValue, 3.5, 4.40715E-09, 
DataValue, 3.6, 4.45126E-09, 
DataValue, 3.7, 4.43384E-09, 
DataValue, 3.8000000000000003, 4.48481E-09, 
DataValue, 3.9, 4.50715E-09, 
DataValue, 4, 4.52175E-09, 
DataValue, 4.1, 4.56007E-09, 
DataValue, 4.2, 4.58821E-09, 
DataValue, 4.3, 4.61189E-09, 
DataValue, 4.4, 4.64015E-09, 
DataValue, 4.5, 4.6506E-09, 
DataValue, 4.6000000000000005, 4.6782E-09, 
DataValue, 4.7, 4.72704E-09, 
DataValue, 4.8, 4.76444E-09, 
DataValue, 4.9, 4.77674E-09, 
DataValue, 5, 4.8096E-09, 