
SetupTitle, WW
PrimitiveTest, I/V Sweep
TestParameter, Context.MainFrame, B1500A
TestParameter, Channel.UnitType, SMU, SMU
TestParameter, Channel.Unit, SMU2:HP, SMU1:HP
TestParameter, Channel.IName, I1, I4
TestParameter, Channel.VName, V1, V4
TestParameter, Channel.Mode, V, COMMON
TestParameter, Channel.Func, VAR1, CONST
TestParameter, Channel.Index, 
TestParameter, Channel.Time, 
TestParameter, Measurement.Port.Unit, SMU2:HP, SMU1:HP
TestParameter, Measurement.Port.SeriesResistor, NONE, NONE
TestParameter, Measurement.Port.Filter, ON, ON
TestParameter, Measurement.Port.OutputVoltageComparison, 0, 0
TestParameter, Measurement.Primary.Locus, Single
TestParameter, Measurement.Primary.Scale, LINEAR
TestParameter, Measurement.Primary.Start, -5
TestParameter, Measurement.Primary.Stop, 5
TestParameter, Measurement.Primary.Step, 0.1
TestParameter, Measurement.Primary.Compliance, 0.1
TestParameter, Measurement.Primary.PowerCompliance, 0
TestParameter, Measurement.Aborting.Condition, CONTINUE AT ANY
TestParameter, Measurement.PostOutput.Value, START
TestParameter, Measurement.PostOutput.Retention, OFF
TestParameter, Measurement.Bias.Source, -5, 0
TestParameter, Measurement.Bias.Compliance, 0.1, 1
TestParameter, Measurement.Monitor.Unit, SMU2:HP, SMU1:HP
TestParameter, Measurement.Monitor.Adc, HR ADC, HR ADC
TestParameter, Measurement.Monitor.Measurement, Compliance Side, Compliance Side
TestParameter, Measurement.Monitor.RangingMode, AUTO, AUTO
TestParameter, Measurement.Monitor.RangeBoundary, , 
TestParameter, Measurement.Monitor.RangeRating, BY FULL RANGE, BY FULL RANGE
TestParameter, Measurement.Monitor.RangeRatingCoeff, 50, 50
TestParameter, Measurement.Timing.Hold, 0
TestParameter, Measurement.Timing.Delay, 0.001
TestParameter, Measurement.Adc.HighSpeed.Mode, AUTO
TestParameter, Measurement.Adc.HighSpeed.Coeff, 1
TestParameter, Measurement.Adc.HighResolution.AutoZero, OFF
TestParameter, Measurement.Adc.HighResolution.Mode, PLC
TestParameter, Measurement.Adc.HighResolution.Coeff, 1
TestParameter, Measurement.WaitTime.Source.Coeff, 1
TestParameter, Measurement.WaitTime.Source.Offset, 0
TestParameter, Measurement.WaitTime.Monitor.Coeff, 1
TestParameter, Measurement.WaitTime.Monitor.Offset, 0
TestParameter, Function.User.Name, Ohmic
TestParameter, Function.User.Unit, ohm
TestParameter, Function.User.Definition, avg(V1/I1)
TestParameter, Output.Graph.Enabled, true
TestParameter, Output.Graph.XAxis.Data, V1
TestParameter, Output.Graph.XAxis.Scale, Linear
TestParameter, Output.Graph.XAxis.Left, -5
TestParameter, Output.Graph.XAxis.Right, 5
TestParameter, Output.Graph.YAxis.Data, I1
TestParameter, Output.Graph.YAxis.Scale, Linear
TestParameter, Output.Graph.YAxis.Bottom, -0.001
TestParameter, Output.Graph.YAxis.Top, 0.001
TestParameter, Output.Graph.YAxis.Group, 
TestParameter, Output.Scalar.Data, Ohmic
TestParameter, AutoAnalysis.Interpolation, false
TestParameter, AutoAnalysis.Line1.Enabled, false
TestParameter, AutoAnalysis.Line1.Type, 1
TestParameter, AutoAnalysis.Line1.Fix, True
TestParameter, AutoAnalysis.Line1.YAxis, 0
TestParameter, AutoAnalysis.Line1.Point1.Type, 0
TestParameter, AutoAnalysis.Line1.Point1.XY.X, 
TestParameter, AutoAnalysis.Line1.Point1.XY.Y, 
TestParameter, AutoAnalysis.Line1.Point1.Data.Var, 
TestParameter, AutoAnalysis.Line1.Point1.Data.Condition, 
TestParameter, AutoAnalysis.Line1.Point1.Data.Start, false
TestParameter, AutoAnalysis.Line1.Point1.Data.StartVar, 
TestParameter, AutoAnalysis.Line1.Point1.Data.StartCondition, 
TestParameter, AutoAnalysis.Line1.Point2.Type, 0
TestParameter, AutoAnalysis.Line1.Point2.XY.X, 
TestParameter, AutoAnalysis.Line1.Point2.XY.Y, 
TestParameter, AutoAnalysis.Line1.Point2.Data.Var, 
TestParameter, AutoAnalysis.Line1.Point2.Data.Condition, 
TestParameter, AutoAnalysis.Line1.Point2.Data.Start, false
TestParameter, AutoAnalysis.Line1.Point2.Data.StartVar, 
TestParameter, AutoAnalysis.Line1.Point2.Data.StartCondition, 
TestParameter, AutoAnalysis.Line1.GradientExpr, 0
TestParameter, AutoAnalysis.Line2.Enabled, false
TestParameter, AutoAnalysis.Line2.Type, 1
TestParameter, AutoAnalysis.Line2.Fix, True
TestParameter, AutoAnalysis.Line2.YAxis, 0
TestParameter, AutoAnalysis.Line2.Point1.Type, 0
TestParameter, AutoAnalysis.Line2.Point1.XY.X, 
TestParameter, AutoAnalysis.Line2.Point1.XY.Y, 
TestParameter, AutoAnalysis.Line2.Point1.Data.Var, 
TestParameter, AutoAnalysis.Line2.Point1.Data.Condition, 
TestParameter, AutoAnalysis.Line2.Point1.Data.Start, false
TestParameter, AutoAnalysis.Line2.Point1.Data.StartVar, 
TestParameter, AutoAnalysis.Line2.Point1.Data.StartCondition, 
TestParameter, AutoAnalysis.Line2.Point2.Type, 0
TestParameter, AutoAnalysis.Line2.Point2.XY.X, 
TestParameter, AutoAnalysis.Line2.Point2.XY.Y, 
TestParameter, AutoAnalysis.Line2.Point2.Data.Var, 
TestParameter, AutoAnalysis.Line2.Point2.Data.Condition, 
TestParameter, AutoAnalysis.Line2.Point2.Data.Start, false
TestParameter, AutoAnalysis.Line2.Point2.Data.StartVar, 
TestParameter, AutoAnalysis.Line2.Point2.Data.StartCondition, 
TestParameter, AutoAnalysis.Line2.GradientExpr, 0
TestParameter, AutoAnalysis.Marker.Enabled, false
TestParameter, AutoAnalysis.Marker.Data.Var, 
TestParameter, AutoAnalysis.Marker.Data.Condition, 
TestParameter, AutoAnalysis.Marker.Data.Start, false
TestParameter, AutoAnalysis.Marker.Data.StartVar, 
TestParameter, AutoAnalysis.Marker.Data.StartCondition, 
MetaData, TestRecord.EntryPoint, true
MetaData, TestRecord.RecordTime, 09/05/2020 14:07:44
MetaData, TestRecord.TestTarget, 
MetaData, TestRecord.IterationIndex, 32
MetaData, TestRecord.Preservation, true
MetaData, TestRecord.Flag, 
MetaData, TestRecord.Remarks, 
MetaData, TestRecord.LinkKey, 9d7d8029-e8e6-40fd-ba46-79d60c1fdea4
Dimension1, 101, 101, 101
Dimension2, 1, 1, 1
DataName, V1, I1, Ohmic
DataValue, -5, -4.4078E-09, 640677027.13210285
DataValue, -4.9, -4.3646999999999992E-09, 
DataValue, -4.8, -4.1623E-09, 
DataValue, -4.7, -4.0448999999999995E-09, 
DataValue, -4.6000000000000005, -3.9818E-09, 
DataValue, -4.5, -3.9543999999999995E-09, 
DataValue, -4.4, -3.8906E-09, 
DataValue, -4.3, -3.7701E-09, 
DataValue, -4.2, -3.7338999999999993E-09, 
DataValue, -4.1, -3.6598999999999997E-09, 
DataValue, -4, -3.6310999999999996E-09, 
DataValue, -3.9, -3.5659E-09, 
DataValue, -3.8000000000000003, -3.5476999999999996E-09, 
DataValue, -3.7, -3.4866999999999996E-09, 
DataValue, -3.6, -3.4176999999999995E-09, 
DataValue, -3.5, -3.3697999999999997E-09, 
DataValue, -3.4, -3.3483999999999997E-09, 
DataValue, -3.3000000000000003, -3.2573999999999995E-09, 
DataValue, -3.2, -3.2459999999999998E-09, 
DataValue, -3.1, -3.2200999999999997E-09, 
DataValue, -3, -3.1867999999999998E-09, 
DataValue, -2.9, -3.1572E-09, 
DataValue, -2.8000000000000003, -3.1643999999999995E-09, 
DataValue, -2.7, -3.1085999999999998E-09, 
DataValue, -2.6, -3.0746999999999997E-09, 
DataValue, -2.5, -3.0281E-09, 
DataValue, -2.4, -3.0056999999999997E-09, 
DataValue, -2.3000000000000003, -3.0092999999999995E-09, 
DataValue, -2.2, -2.9206999999999996E-09, 
DataValue, -2.1, -2.8827999999999996E-09, 
DataValue, -2, -2.8597999999999996E-09, 
DataValue, -1.9000000000000001, -2.7945E-09, 
DataValue, -1.8, -2.7596E-09, 
DataValue, -1.7, -2.7064999999999997E-09, 
DataValue, -1.6, -2.6775E-09, 
DataValue, -1.5, -2.6612E-09, 
DataValue, -1.4000000000000001, -2.5992E-09, 
DataValue, -1.3, -2.5346E-09, 
DataValue, -1.2, -2.5444999999999996E-09, 
DataValue, -1.1, -2.4559999999999998E-09, 
DataValue, -1, -2.4031999999999997E-09, 
DataValue, -0.9, -2.3386999999999998E-09, 
DataValue, -0.8, -2.2755E-09, 
DataValue, -0.70000000000000007, -2.1623E-09, 
DataValue, -0.6, -2.0915999999999997E-09, 
DataValue, -0.5, -1.9972999999999997E-09, 
DataValue, -0.4, -1.875E-09, 
DataValue, -0.3, -1.7366999999999998E-09, 
DataValue, -0.2, -1.4721E-09, 
DataValue, -0.1, -1.055E-09, 
DataValue, 0, -1.001E-10, 
DataValue, 0.1, 1.5786E-09, 
DataValue, 0.2, 2.3228E-09, 
DataValue, 0.3, 2.6766999999999997E-09, 
DataValue, 0.4, 2.9588999999999998E-09, 
DataValue, 0.5, 3.2160999999999997E-09, 
DataValue, 0.6, 3.4003999999999995E-09, 
DataValue, 0.70000000000000007, 3.5910999999999997E-09, 
DataValue, 0.8, 3.7218999999999997E-09, 
DataValue, 0.9, 3.8727E-09, 
DataValue, 1, 3.9608E-09, 
DataValue, 1.1, 4.0593E-09, 
DataValue, 1.2, 4.1585999999999993E-09, 
DataValue, 1.3, 4.22995E-09, 
DataValue, 1.4000000000000001, 4.28864E-09, 
DataValue, 1.5, 4.34687E-09, 
DataValue, 1.6, 4.39002E-09, 
DataValue, 1.7, 4.45791E-09, 
DataValue, 1.8, 4.49565E-09, 
DataValue, 1.9000000000000001, 4.53434E-09, 
DataValue, 2, 4.55794E-09, 
DataValue, 2.1, 4.60821E-09, 
DataValue, 2.2, 4.65131E-09, 
DataValue, 2.3000000000000003, 4.65961E-09, 
DataValue, 2.4, 4.68601E-09, 
DataValue, 2.5, 4.72507E-09, 
DataValue, 2.6, 4.74163E-09, 
DataValue, 2.7, 4.78246E-09, 
DataValue, 2.8000000000000003, 4.77434E-09, 
DataValue, 2.9, 4.82947E-09, 
DataValue, 3, 4.84989E-09, 
DataValue, 3.1, 4.87092E-09, 
DataValue, 3.2, 4.90364E-09, 
DataValue, 3.3000000000000003, 4.94636E-09, 
DataValue, 3.4, 4.98619E-09, 
DataValue, 3.5, 4.99703E-09, 
DataValue, 3.6, 5.00635E-09, 
DataValue, 3.7, 5.0529E-09, 
DataValue, 3.8000000000000003, 5.08374E-09, 
DataValue, 3.9, 5.13728E-09, 
DataValue, 4, 5.13885E-09, 
DataValue, 4.1, 5.16921E-09, 
DataValue, 4.2, 5.20791E-09, 
DataValue, 4.3, 5.21536E-09, 
DataValue, 4.4, 5.26763E-09, 
DataValue, 4.5, 5.3045E-09, 
DataValue, 4.6000000000000005, 5.3343E-09, 
DataValue, 4.7, 5.3629E-09, 
DataValue, 4.8, 5.39485E-09, 
DataValue, 4.9, 5.42501E-09, 
DataValue, 5, 5.45389E-09, 