
SetupTitle, WW
PrimitiveTest, I/V Sweep
TestParameter, Context.MainFrame, B1500A
TestParameter, Channel.UnitType, SMU, SMU
TestParameter, Channel.Unit, SMU2:HP, SMU1:HP
TestParameter, Channel.IName, I1, I4
TestParameter, Channel.VName, V1, V4
TestParameter, Channel.Mode, V, COMMON
TestParameter, Channel.Func, VAR1, CONST
TestParameter, Channel.Index, 
TestParameter, Channel.Time, 
TestParameter, Measurement.Port.Unit, SMU2:HP, SMU1:HP
TestParameter, Measurement.Port.SeriesResistor, NONE, NONE
TestParameter, Measurement.Port.Filter, ON, ON
TestParameter, Measurement.Port.OutputVoltageComparison, 0, 0
TestParameter, Measurement.Primary.Locus, Single
TestParameter, Measurement.Primary.Scale, LINEAR
TestParameter, Measurement.Primary.Start, -5
TestParameter, Measurement.Primary.Stop, 5
TestParameter, Measurement.Primary.Step, 0.1
TestParameter, Measurement.Primary.Compliance, 0.1
TestParameter, Measurement.Primary.PowerCompliance, 0
TestParameter, Measurement.Aborting.Condition, CONTINUE AT ANY
TestParameter, Measurement.PostOutput.Value, START
TestParameter, Measurement.PostOutput.Retention, OFF
TestParameter, Measurement.Bias.Source, -5, 0
TestParameter, Measurement.Bias.Compliance, 0.1, 1
TestParameter, Measurement.Monitor.Unit, SMU2:HP, SMU1:HP
TestParameter, Measurement.Monitor.Adc, HR ADC, HR ADC
TestParameter, Measurement.Monitor.Measurement, Compliance Side, Compliance Side
TestParameter, Measurement.Monitor.RangingMode, AUTO, AUTO
TestParameter, Measurement.Monitor.RangeBoundary, , 
TestParameter, Measurement.Monitor.RangeRating, BY FULL RANGE, BY FULL RANGE
TestParameter, Measurement.Monitor.RangeRatingCoeff, 50, 50
TestParameter, Measurement.Timing.Hold, 0
TestParameter, Measurement.Timing.Delay, 0.001
TestParameter, Measurement.Adc.HighSpeed.Mode, AUTO
TestParameter, Measurement.Adc.HighSpeed.Coeff, 1
TestParameter, Measurement.Adc.HighResolution.AutoZero, OFF
TestParameter, Measurement.Adc.HighResolution.Mode, PLC
TestParameter, Measurement.Adc.HighResolution.Coeff, 1
TestParameter, Measurement.WaitTime.Source.Coeff, 1
TestParameter, Measurement.WaitTime.Source.Offset, 0
TestParameter, Measurement.WaitTime.Monitor.Coeff, 1
TestParameter, Measurement.WaitTime.Monitor.Offset, 0
TestParameter, Function.User.Name, Ohmic
TestParameter, Function.User.Unit, ohm
TestParameter, Function.User.Definition, avg(V1/I1)
TestParameter, Output.Graph.Enabled, true
TestParameter, Output.Graph.XAxis.Data, V1
TestParameter, Output.Graph.XAxis.Scale, Linear
TestParameter, Output.Graph.XAxis.Left, -5
TestParameter, Output.Graph.XAxis.Right, 5
TestParameter, Output.Graph.YAxis.Data, I1
TestParameter, Output.Graph.YAxis.Scale, Linear
TestParameter, Output.Graph.YAxis.Bottom, -0.001
TestParameter, Output.Graph.YAxis.Top, 0.001
TestParameter, Output.Graph.YAxis.Group, 
TestParameter, Output.Scalar.Data, Ohmic
TestParameter, AutoAnalysis.Interpolation, false
TestParameter, AutoAnalysis.Line1.Enabled, false
TestParameter, AutoAnalysis.Line1.Type, 1
TestParameter, AutoAnalysis.Line1.Fix, True
TestParameter, AutoAnalysis.Line1.YAxis, 0
TestParameter, AutoAnalysis.Line1.Point1.Type, 0
TestParameter, AutoAnalysis.Line1.Point1.XY.X, 
TestParameter, AutoAnalysis.Line1.Point1.XY.Y, 
TestParameter, AutoAnalysis.Line1.Point1.Data.Var, 
TestParameter, AutoAnalysis.Line1.Point1.Data.Condition, 
TestParameter, AutoAnalysis.Line1.Point1.Data.Start, false
TestParameter, AutoAnalysis.Line1.Point1.Data.StartVar, 
TestParameter, AutoAnalysis.Line1.Point1.Data.StartCondition, 
TestParameter, AutoAnalysis.Line1.Point2.Type, 0
TestParameter, AutoAnalysis.Line1.Point2.XY.X, 
TestParameter, AutoAnalysis.Line1.Point2.XY.Y, 
TestParameter, AutoAnalysis.Line1.Point2.Data.Var, 
TestParameter, AutoAnalysis.Line1.Point2.Data.Condition, 
TestParameter, AutoAnalysis.Line1.Point2.Data.Start, false
TestParameter, AutoAnalysis.Line1.Point2.Data.StartVar, 
TestParameter, AutoAnalysis.Line1.Point2.Data.StartCondition, 
TestParameter, AutoAnalysis.Line1.GradientExpr, 0
TestParameter, AutoAnalysis.Line2.Enabled, false
TestParameter, AutoAnalysis.Line2.Type, 1
TestParameter, AutoAnalysis.Line2.Fix, True
TestParameter, AutoAnalysis.Line2.YAxis, 0
TestParameter, AutoAnalysis.Line2.Point1.Type, 0
TestParameter, AutoAnalysis.Line2.Point1.XY.X, 
TestParameter, AutoAnalysis.Line2.Point1.XY.Y, 
TestParameter, AutoAnalysis.Line2.Point1.Data.Var, 
TestParameter, AutoAnalysis.Line2.Point1.Data.Condition, 
TestParameter, AutoAnalysis.Line2.Point1.Data.Start, false
TestParameter, AutoAnalysis.Line2.Point1.Data.StartVar, 
TestParameter, AutoAnalysis.Line2.Point1.Data.StartCondition, 
TestParameter, AutoAnalysis.Line2.Point2.Type, 0
TestParameter, AutoAnalysis.Line2.Point2.XY.X, 
TestParameter, AutoAnalysis.Line2.Point2.XY.Y, 
TestParameter, AutoAnalysis.Line2.Point2.Data.Var, 
TestParameter, AutoAnalysis.Line2.Point2.Data.Condition, 
TestParameter, AutoAnalysis.Line2.Point2.Data.Start, false
TestParameter, AutoAnalysis.Line2.Point2.Data.StartVar, 
TestParameter, AutoAnalysis.Line2.Point2.Data.StartCondition, 
TestParameter, AutoAnalysis.Line2.GradientExpr, 0
TestParameter, AutoAnalysis.Marker.Enabled, false
TestParameter, AutoAnalysis.Marker.Data.Var, 
TestParameter, AutoAnalysis.Marker.Data.Condition, 
TestParameter, AutoAnalysis.Marker.Data.Start, false
TestParameter, AutoAnalysis.Marker.Data.StartVar, 
TestParameter, AutoAnalysis.Marker.Data.StartCondition, 
MetaData, TestRecord.EntryPoint, true
MetaData, TestRecord.RecordTime, 09/05/2020 14:07:07
MetaData, TestRecord.TestTarget, 
MetaData, TestRecord.IterationIndex, 31
MetaData, TestRecord.Preservation, true
MetaData, TestRecord.Flag, 
MetaData, TestRecord.Remarks, 
MetaData, TestRecord.LinkKey, bc576cc9-01d8-44d9-82b5-465c40252b05
Dimension1, 101, 101, 101
Dimension2, 1, 1, 1
DataName, V1, I1, Ohmic
DataValue, -5, -4.7970999999999995E-09, 582997800.00282788
DataValue, -4.9, -4.6847E-09, 
DataValue, -4.8, -4.503E-09, 
DataValue, -4.7, -4.4326E-09, 
DataValue, -4.6000000000000005, -4.3715999999999993E-09, 
DataValue, -4.5, -4.3144E-09, 
DataValue, -4.4, -4.2319999999999994E-09, 
DataValue, -4.3, -4.1516E-09, 
DataValue, -4.2, -4.0844E-09, 
DataValue, -4.1, -4.0671999999999994E-09, 
DataValue, -4, -4.0276999999999992E-09, 
DataValue, -3.9, -3.9543999999999995E-09, 
DataValue, -3.8000000000000003, -3.8999999999999994E-09, 
DataValue, -3.7, -3.8377999999999993E-09, 
DataValue, -3.6, -3.8422E-09, 
DataValue, -3.5, -3.7923999999999994E-09, 
DataValue, -3.4, -3.7135999999999997E-09, 
DataValue, -3.3000000000000003, -3.6945999999999996E-09, 
DataValue, -3.2, -3.6918999999999996E-09, 
DataValue, -3.1, -3.6114999999999998E-09, 
DataValue, -3, -3.6420999999999997E-09, 
DataValue, -2.9, -3.5686E-09, 
DataValue, -2.8000000000000003, -3.5700999999999995E-09, 
DataValue, -2.7, -3.5439999999999998E-09, 
DataValue, -2.6, -3.5005999999999997E-09, 
DataValue, -2.5, -3.4383999999999996E-09, 
DataValue, -2.4, -3.4559999999999996E-09, 
DataValue, -2.3000000000000003, -3.4019999999999996E-09, 
DataValue, -2.2, -3.3449999999999995E-09, 
DataValue, -2.1, -3.2935E-09, 
DataValue, -2, -3.2525999999999997E-09, 
DataValue, -1.9000000000000001, -3.2341E-09, 
DataValue, -1.8, -3.2006E-09, 
DataValue, -1.7, -3.1468999999999995E-09, 
DataValue, -1.6, -3.0943999999999996E-09, 
DataValue, -1.5, -3.0022E-09, 
DataValue, -1.4000000000000001, -2.9517999999999997E-09, 
DataValue, -1.3, -2.9451999999999997E-09, 
DataValue, -1.2, -2.87E-09, 
DataValue, -1.1, -2.7390999999999998E-09, 
DataValue, -1, -2.6713999999999997E-09, 
DataValue, -0.9, -2.6429999999999997E-09, 
DataValue, -0.8, -2.5474999999999997E-09, 
DataValue, -0.70000000000000007, -2.4472999999999996E-09, 
DataValue, -0.6, -2.3008999999999998E-09, 
DataValue, -0.5, -2.1829999999999996E-09, 
DataValue, -0.4, -2.0975E-09, 
DataValue, -0.3, -1.9472999999999997E-09, 
DataValue, -0.2, -1.6580999999999999E-09, 
DataValue, -0.1, -1.2479999999999998E-09, 
DataValue, 0, -2.1399999999999999E-10, 
DataValue, 0.1, 1.6180999999999998E-09, 
DataValue, 0.2, 2.3986999999999996E-09, 
DataValue, 0.3, 2.7938999999999996E-09, 
DataValue, 0.4, 3.0928E-09, 
DataValue, 0.5, 3.3691E-09, 
DataValue, 0.6, 3.5999999999999996E-09, 
DataValue, 0.70000000000000007, 3.8057E-09, 
DataValue, 0.8, 3.9431999999999994E-09, 
DataValue, 0.9, 4.112E-09, 
DataValue, 1, 4.2373E-09, 
DataValue, 1.1, 4.3153999999999994E-09, 
DataValue, 1.2, 4.4106999999999993E-09, 
DataValue, 1.3, 4.4991999999999995E-09, 
DataValue, 1.4000000000000001, 4.5724999999999993E-09, 
DataValue, 1.5, 4.6158E-09, 
DataValue, 1.6, 4.6707E-09, 
DataValue, 1.7, 4.7115999999999993E-09, 
DataValue, 1.8, 4.7661999999999995E-09, 
DataValue, 1.9000000000000001, 4.8078E-09, 
DataValue, 2, 4.84772E-09, 
DataValue, 2.1, 4.86412E-09, 
DataValue, 2.2, 4.92617E-09, 
DataValue, 2.3000000000000003, 4.9895E-09, 
DataValue, 2.4, 5.01041E-09, 
DataValue, 2.5, 4.97692E-09, 
DataValue, 2.6, 5.05474E-09, 
DataValue, 2.7, 5.06087E-09, 
DataValue, 2.8000000000000003, 5.11137E-09, 
DataValue, 2.9, 5.14726E-09, 
DataValue, 3, 5.17946E-09, 
DataValue, 3.1, 5.19568E-09, 
DataValue, 3.2, 5.25692E-09, 
DataValue, 3.3000000000000003, 5.27189E-09, 
DataValue, 3.4, 5.3221E-09, 
DataValue, 3.5, 5.36012E-09, 
DataValue, 3.6, 5.38992E-09, 
DataValue, 3.7, 5.41429E-09, 
DataValue, 3.8000000000000003, 5.42339E-09, 
DataValue, 3.9, 5.47967E-09, 
DataValue, 4, 5.52889E-09, 
DataValue, 4.1, 5.57619E-09, 
DataValue, 4.2, 5.62741E-09, 
DataValue, 4.3, 5.6588E-09, 
DataValue, 4.4, 5.7196E-09, 
DataValue, 4.5, 5.71556E-09, 
DataValue, 4.6000000000000005, 5.72884E-09, 
DataValue, 4.7, 5.82781E-09, 
DataValue, 4.8, 5.8921E-09, 
DataValue, 4.9, 5.93355E-09, 
DataValue, 5, 6.00638E-09, 