
SetupTitle, WW
PrimitiveTest, I/V Sweep
TestParameter, Context.MainFrame, B1500A
TestParameter, Channel.UnitType, SMU, SMU
TestParameter, Channel.Unit, SMU2:HP, SMU1:HP
TestParameter, Channel.IName, I1, I4
TestParameter, Channel.VName, V1, V4
TestParameter, Channel.Mode, V, COMMON
TestParameter, Channel.Func, VAR1, CONST
TestParameter, Channel.Index, 
TestParameter, Channel.Time, 
TestParameter, Measurement.Port.Unit, SMU2:HP, SMU1:HP
TestParameter, Measurement.Port.SeriesResistor, NONE, NONE
TestParameter, Measurement.Port.Filter, ON, ON
TestParameter, Measurement.Port.OutputVoltageComparison, 0, 0
TestParameter, Measurement.Primary.Locus, Single
TestParameter, Measurement.Primary.Scale, LINEAR
TestParameter, Measurement.Primary.Start, -5
TestParameter, Measurement.Primary.Stop, 5
TestParameter, Measurement.Primary.Step, 0.1
TestParameter, Measurement.Primary.Compliance, 0.1
TestParameter, Measurement.Primary.PowerCompliance, 0
TestParameter, Measurement.Aborting.Condition, CONTINUE AT ANY
TestParameter, Measurement.PostOutput.Value, START
TestParameter, Measurement.PostOutput.Retention, OFF
TestParameter, Measurement.Bias.Source, -5, 0
TestParameter, Measurement.Bias.Compliance, 0.1, 1
TestParameter, Measurement.Monitor.Unit, SMU2:HP, SMU1:HP
TestParameter, Measurement.Monitor.Adc, HR ADC, HR ADC
TestParameter, Measurement.Monitor.Measurement, Compliance Side, Compliance Side
TestParameter, Measurement.Monitor.RangingMode, AUTO, AUTO
TestParameter, Measurement.Monitor.RangeBoundary, , 
TestParameter, Measurement.Monitor.RangeRating, BY FULL RANGE, BY FULL RANGE
TestParameter, Measurement.Monitor.RangeRatingCoeff, 50, 50
TestParameter, Measurement.Timing.Hold, 0
TestParameter, Measurement.Timing.Delay, 0.001
TestParameter, Measurement.Adc.HighSpeed.Mode, AUTO
TestParameter, Measurement.Adc.HighSpeed.Coeff, 1
TestParameter, Measurement.Adc.HighResolution.AutoZero, OFF
TestParameter, Measurement.Adc.HighResolution.Mode, PLC
TestParameter, Measurement.Adc.HighResolution.Coeff, 1
TestParameter, Measurement.WaitTime.Source.Coeff, 1
TestParameter, Measurement.WaitTime.Source.Offset, 0
TestParameter, Measurement.WaitTime.Monitor.Coeff, 1
TestParameter, Measurement.WaitTime.Monitor.Offset, 0
TestParameter, Function.User.Name, Ohmic
TestParameter, Function.User.Unit, ohm
TestParameter, Function.User.Definition, avg(V1/I1)
TestParameter, Output.Graph.Enabled, true
TestParameter, Output.Graph.XAxis.Data, V1
TestParameter, Output.Graph.XAxis.Scale, Linear
TestParameter, Output.Graph.XAxis.Left, -5
TestParameter, Output.Graph.XAxis.Right, 5
TestParameter, Output.Graph.YAxis.Data, I1
TestParameter, Output.Graph.YAxis.Scale, Linear
TestParameter, Output.Graph.YAxis.Bottom, -0.001
TestParameter, Output.Graph.YAxis.Top, 0.001
TestParameter, Output.Graph.YAxis.Group, 
TestParameter, Output.Scalar.Data, Ohmic
TestParameter, AutoAnalysis.Interpolation, false
TestParameter, AutoAnalysis.Line1.Enabled, false
TestParameter, AutoAnalysis.Line1.Type, 1
TestParameter, AutoAnalysis.Line1.Fix, True
TestParameter, AutoAnalysis.Line1.YAxis, 0
TestParameter, AutoAnalysis.Line1.Point1.Type, 0
TestParameter, AutoAnalysis.Line1.Point1.XY.X, 
TestParameter, AutoAnalysis.Line1.Point1.XY.Y, 
TestParameter, AutoAnalysis.Line1.Point1.Data.Var, 
TestParameter, AutoAnalysis.Line1.Point1.Data.Condition, 
TestParameter, AutoAnalysis.Line1.Point1.Data.Start, false
TestParameter, AutoAnalysis.Line1.Point1.Data.StartVar, 
TestParameter, AutoAnalysis.Line1.Point1.Data.StartCondition, 
TestParameter, AutoAnalysis.Line1.Point2.Type, 0
TestParameter, AutoAnalysis.Line1.Point2.XY.X, 
TestParameter, AutoAnalysis.Line1.Point2.XY.Y, 
TestParameter, AutoAnalysis.Line1.Point2.Data.Var, 
TestParameter, AutoAnalysis.Line1.Point2.Data.Condition, 
TestParameter, AutoAnalysis.Line1.Point2.Data.Start, false
TestParameter, AutoAnalysis.Line1.Point2.Data.StartVar, 
TestParameter, AutoAnalysis.Line1.Point2.Data.StartCondition, 
TestParameter, AutoAnalysis.Line1.GradientExpr, 0
TestParameter, AutoAnalysis.Line2.Enabled, false
TestParameter, AutoAnalysis.Line2.Type, 1
TestParameter, AutoAnalysis.Line2.Fix, True
TestParameter, AutoAnalysis.Line2.YAxis, 0
TestParameter, AutoAnalysis.Line2.Point1.Type, 0
TestParameter, AutoAnalysis.Line2.Point1.XY.X, 
TestParameter, AutoAnalysis.Line2.Point1.XY.Y, 
TestParameter, AutoAnalysis.Line2.Point1.Data.Var, 
TestParameter, AutoAnalysis.Line2.Point1.Data.Condition, 
TestParameter, AutoAnalysis.Line2.Point1.Data.Start, false
TestParameter, AutoAnalysis.Line2.Point1.Data.StartVar, 
TestParameter, AutoAnalysis.Line2.Point1.Data.StartCondition, 
TestParameter, AutoAnalysis.Line2.Point2.Type, 0
TestParameter, AutoAnalysis.Line2.Point2.XY.X, 
TestParameter, AutoAnalysis.Line2.Point2.XY.Y, 
TestParameter, AutoAnalysis.Line2.Point2.Data.Var, 
TestParameter, AutoAnalysis.Line2.Point2.Data.Condition, 
TestParameter, AutoAnalysis.Line2.Point2.Data.Start, false
TestParameter, AutoAnalysis.Line2.Point2.Data.StartVar, 
TestParameter, AutoAnalysis.Line2.Point2.Data.StartCondition, 
TestParameter, AutoAnalysis.Line2.GradientExpr, 0
TestParameter, AutoAnalysis.Marker.Enabled, false
TestParameter, AutoAnalysis.Marker.Data.Var, 
TestParameter, AutoAnalysis.Marker.Data.Condition, 
TestParameter, AutoAnalysis.Marker.Data.Start, false
TestParameter, AutoAnalysis.Marker.Data.StartVar, 
TestParameter, AutoAnalysis.Marker.Data.StartCondition, 
MetaData, TestRecord.EntryPoint, true
MetaData, TestRecord.RecordTime, 09/05/2020 14:06:36
MetaData, TestRecord.TestTarget, 
MetaData, TestRecord.IterationIndex, 30
MetaData, TestRecord.Preservation, true
MetaData, TestRecord.Flag, 
MetaData, TestRecord.Remarks, 
MetaData, TestRecord.LinkKey, 26fb028c-e136-448f-994c-f53af1c47f11
Dimension1, 101, 101, 101
Dimension2, 1, 1, 1
DataName, V1, I1, Ohmic
DataValue, -5, -5.0776999999999995E-09, 545305409.20393133
DataValue, -4.9, -4.9699999999999992E-09, 
DataValue, -4.8, -4.8698E-09, 
DataValue, -4.7, -4.7720999999999993E-09, 
DataValue, -4.6000000000000005, -4.6977E-09, 
DataValue, -4.5, -4.5763E-09, 
DataValue, -4.4, -4.5462999999999995E-09, 
DataValue, -4.3, -4.4762999999999995E-09, 
DataValue, -4.2, -4.4445E-09, 
DataValue, -4.1, -4.4088E-09, 
DataValue, -4, -4.3745999999999993E-09, 
DataValue, -3.9, -4.3157999999999995E-09, 
DataValue, -3.8000000000000003, -4.2706E-09, 
DataValue, -3.7, -4.1902999999999995E-09, 
DataValue, -3.6, -4.1570999999999992E-09, 
DataValue, -3.5, -4.1155999999999993E-09, 
DataValue, -3.4, -4.1181999999999993E-09, 
DataValue, -3.3000000000000003, -4.0649E-09, 
DataValue, -3.2, -4.0524999999999994E-09, 
DataValue, -3.1, -3.9608999999999994E-09, 
DataValue, -3, -3.9571E-09, 
DataValue, -2.9, -3.8748999999999995E-09, 
DataValue, -2.8000000000000003, -3.8439999999999995E-09, 
DataValue, -2.7, -3.7953E-09, 
DataValue, -2.6, -3.7515E-09, 
DataValue, -2.5, -3.7379E-09, 
DataValue, -2.4, -3.6728999999999996E-09, 
DataValue, -2.3000000000000003, -3.6292E-09, 
DataValue, -2.2, -3.6242999999999996E-09, 
DataValue, -2.1, -3.6001999999999996E-09, 
DataValue, -2, -3.5467999999999998E-09, 
DataValue, -1.9000000000000001, -3.4891999999999995E-09, 
DataValue, -1.8, -3.4340999999999995E-09, 
DataValue, -1.7, -3.3990999999999996E-09, 
DataValue, -1.6, -3.3361999999999997E-09, 
DataValue, -1.5, -3.2606999999999997E-09, 
DataValue, -1.4000000000000001, -3.2297999999999997E-09, 
DataValue, -1.3, -3.1597999999999998E-09, 
DataValue, -1.2, -3.0719999999999997E-09, 
DataValue, -1.1, -2.9971E-09, 
DataValue, -1, -2.9034999999999997E-09, 
DataValue, -0.9, -2.8320999999999998E-09, 
DataValue, -0.8, -2.7841999999999995E-09, 
DataValue, -0.70000000000000007, -2.6594999999999998E-09, 
DataValue, -0.6, -2.5521E-09, 
DataValue, -0.5, -2.4138999999999997E-09, 
DataValue, -0.4, -2.3517999999999997E-09, 
DataValue, -0.3, -2.1251999999999997E-09, 
DataValue, -0.2, -1.8767E-09, 
DataValue, -0.1, -1.3936999999999999E-09, 
DataValue, 0, -2.363E-10, 
DataValue, 0.1, 1.6642E-09, 
DataValue, 0.2, 2.4865999999999997E-09, 
DataValue, 0.3, 2.8772999999999996E-09, 
DataValue, 0.4, 3.2169999999999995E-09, 
DataValue, 0.5, 3.4893999999999996E-09, 
DataValue, 0.6, 3.7249E-09, 
DataValue, 0.70000000000000007, 3.8971E-09, 
DataValue, 0.8, 4.0787E-09, 
DataValue, 0.9, 4.2429999999999995E-09, 
DataValue, 1, 4.3533E-09, 
DataValue, 1.1, 4.4899999999999992E-09, 
DataValue, 1.2, 4.597E-09, 
DataValue, 1.3, 4.6795999999999994E-09, 
DataValue, 1.4000000000000001, 4.7279999999999994E-09, 
DataValue, 1.5, 4.8219999999999993E-09, 
DataValue, 1.6, 4.8798E-09, 
DataValue, 1.7, 4.913E-09, 
DataValue, 1.8, 4.9608E-09, 
DataValue, 1.9000000000000001, 5.0399999999999991E-09, 
DataValue, 2, 5.0567E-09, 
DataValue, 2.1, 5.1286E-09, 
DataValue, 2.2, 5.1718E-09, 
DataValue, 2.3000000000000003, 5.1904E-09, 
DataValue, 2.4, 5.2137999999999995E-09, 
DataValue, 2.5, 5.2626999999999992E-09, 
DataValue, 2.6, 5.3041999999999991E-09, 
DataValue, 2.7, 5.325E-09, 
DataValue, 2.8000000000000003, 5.37016E-09, 
DataValue, 2.9, 5.41022E-09, 
DataValue, 3, 5.45316E-09, 
DataValue, 3.1, 5.47108E-09, 
DataValue, 3.2, 5.5295E-09, 
DataValue, 3.3000000000000003, 5.52602E-09, 
DataValue, 3.4, 5.61751E-09, 
DataValue, 3.5, 5.63479E-09, 
DataValue, 3.6, 5.69317E-09, 
DataValue, 3.7, 5.72387E-09, 
DataValue, 3.8000000000000003, 5.7576E-09, 
DataValue, 3.9, 5.78953E-09, 
DataValue, 4, 5.84073E-09, 
DataValue, 4.1, 5.85875E-09, 
DataValue, 4.2, 5.89967E-09, 
DataValue, 4.3, 5.97948E-09, 
DataValue, 4.4, 6.01223E-09, 
DataValue, 4.5, 6.06277E-09, 
DataValue, 4.6000000000000005, 6.08256E-09, 
DataValue, 4.7, 6.15492E-09, 
DataValue, 4.8, 6.20941E-09, 
DataValue, 4.9, 6.25764E-09, 
DataValue, 5, 6.32708E-09, 