
SetupTitle, WW
PrimitiveTest, I/V Sweep
TestParameter, Context.MainFrame, B1500A
TestParameter, Channel.UnitType, SMU, SMU
TestParameter, Channel.Unit, SMU2:HP, SMU1:HP
TestParameter, Channel.IName, I1, I4
TestParameter, Channel.VName, V1, V4
TestParameter, Channel.Mode, V, COMMON
TestParameter, Channel.Func, VAR1, CONST
TestParameter, Channel.Index, 
TestParameter, Channel.Time, 
TestParameter, Measurement.Port.Unit, SMU2:HP, SMU1:HP
TestParameter, Measurement.Port.SeriesResistor, NONE, NONE
TestParameter, Measurement.Port.Filter, ON, ON
TestParameter, Measurement.Port.OutputVoltageComparison, 0, 0
TestParameter, Measurement.Primary.Locus, Single
TestParameter, Measurement.Primary.Scale, LINEAR
TestParameter, Measurement.Primary.Start, -5
TestParameter, Measurement.Primary.Stop, 5
TestParameter, Measurement.Primary.Step, 0.1
TestParameter, Measurement.Primary.Compliance, 0.1
TestParameter, Measurement.Primary.PowerCompliance, 0
TestParameter, Measurement.Aborting.Condition, CONTINUE AT ANY
TestParameter, Measurement.PostOutput.Value, START
TestParameter, Measurement.PostOutput.Retention, OFF
TestParameter, Measurement.Bias.Source, -5, 0
TestParameter, Measurement.Bias.Compliance, 0.1, 1
TestParameter, Measurement.Monitor.Unit, SMU2:HP, SMU1:HP
TestParameter, Measurement.Monitor.Adc, HR ADC, HR ADC
TestParameter, Measurement.Monitor.Measurement, Compliance Side, Compliance Side
TestParameter, Measurement.Monitor.RangingMode, AUTO, AUTO
TestParameter, Measurement.Monitor.RangeBoundary, , 
TestParameter, Measurement.Monitor.RangeRating, BY FULL RANGE, BY FULL RANGE
TestParameter, Measurement.Monitor.RangeRatingCoeff, 50, 50
TestParameter, Measurement.Timing.Hold, 0
TestParameter, Measurement.Timing.Delay, 0.001
TestParameter, Measurement.Adc.HighSpeed.Mode, AUTO
TestParameter, Measurement.Adc.HighSpeed.Coeff, 1
TestParameter, Measurement.Adc.HighResolution.AutoZero, OFF
TestParameter, Measurement.Adc.HighResolution.Mode, PLC
TestParameter, Measurement.Adc.HighResolution.Coeff, 1
TestParameter, Measurement.WaitTime.Source.Coeff, 1
TestParameter, Measurement.WaitTime.Source.Offset, 0
TestParameter, Measurement.WaitTime.Monitor.Coeff, 1
TestParameter, Measurement.WaitTime.Monitor.Offset, 0
TestParameter, Function.User.Name, Ohmic
TestParameter, Function.User.Unit, ohm
TestParameter, Function.User.Definition, avg(V1/I1)
TestParameter, Output.Graph.Enabled, true
TestParameter, Output.Graph.XAxis.Data, V1
TestParameter, Output.Graph.XAxis.Scale, Linear
TestParameter, Output.Graph.XAxis.Left, -5
TestParameter, Output.Graph.XAxis.Right, 5
TestParameter, Output.Graph.YAxis.Data, I1
TestParameter, Output.Graph.YAxis.Scale, Linear
TestParameter, Output.Graph.YAxis.Bottom, -0.001
TestParameter, Output.Graph.YAxis.Top, 0.001
TestParameter, Output.Graph.YAxis.Group, 
TestParameter, Output.Scalar.Data, Ohmic
TestParameter, AutoAnalysis.Interpolation, false
TestParameter, AutoAnalysis.Line1.Enabled, false
TestParameter, AutoAnalysis.Line1.Type, 1
TestParameter, AutoAnalysis.Line1.Fix, True
TestParameter, AutoAnalysis.Line1.YAxis, 0
TestParameter, AutoAnalysis.Line1.Point1.Type, 0
TestParameter, AutoAnalysis.Line1.Point1.XY.X, 
TestParameter, AutoAnalysis.Line1.Point1.XY.Y, 
TestParameter, AutoAnalysis.Line1.Point1.Data.Var, 
TestParameter, AutoAnalysis.Line1.Point1.Data.Condition, 
TestParameter, AutoAnalysis.Line1.Point1.Data.Start, false
TestParameter, AutoAnalysis.Line1.Point1.Data.StartVar, 
TestParameter, AutoAnalysis.Line1.Point1.Data.StartCondition, 
TestParameter, AutoAnalysis.Line1.Point2.Type, 0
TestParameter, AutoAnalysis.Line1.Point2.XY.X, 
TestParameter, AutoAnalysis.Line1.Point2.XY.Y, 
TestParameter, AutoAnalysis.Line1.Point2.Data.Var, 
TestParameter, AutoAnalysis.Line1.Point2.Data.Condition, 
TestParameter, AutoAnalysis.Line1.Point2.Data.Start, false
TestParameter, AutoAnalysis.Line1.Point2.Data.StartVar, 
TestParameter, AutoAnalysis.Line1.Point2.Data.StartCondition, 
TestParameter, AutoAnalysis.Line1.GradientExpr, 0
TestParameter, AutoAnalysis.Line2.Enabled, false
TestParameter, AutoAnalysis.Line2.Type, 1
TestParameter, AutoAnalysis.Line2.Fix, True
TestParameter, AutoAnalysis.Line2.YAxis, 0
TestParameter, AutoAnalysis.Line2.Point1.Type, 0
TestParameter, AutoAnalysis.Line2.Point1.XY.X, 
TestParameter, AutoAnalysis.Line2.Point1.XY.Y, 
TestParameter, AutoAnalysis.Line2.Point1.Data.Var, 
TestParameter, AutoAnalysis.Line2.Point1.Data.Condition, 
TestParameter, AutoAnalysis.Line2.Point1.Data.Start, false
TestParameter, AutoAnalysis.Line2.Point1.Data.StartVar, 
TestParameter, AutoAnalysis.Line2.Point1.Data.StartCondition, 
TestParameter, AutoAnalysis.Line2.Point2.Type, 0
TestParameter, AutoAnalysis.Line2.Point2.XY.X, 
TestParameter, AutoAnalysis.Line2.Point2.XY.Y, 
TestParameter, AutoAnalysis.Line2.Point2.Data.Var, 
TestParameter, AutoAnalysis.Line2.Point2.Data.Condition, 
TestParameter, AutoAnalysis.Line2.Point2.Data.Start, false
TestParameter, AutoAnalysis.Line2.Point2.Data.StartVar, 
TestParameter, AutoAnalysis.Line2.Point2.Data.StartCondition, 
TestParameter, AutoAnalysis.Line2.GradientExpr, 0
TestParameter, AutoAnalysis.Marker.Enabled, false
TestParameter, AutoAnalysis.Marker.Data.Var, 
TestParameter, AutoAnalysis.Marker.Data.Condition, 
TestParameter, AutoAnalysis.Marker.Data.Start, false
TestParameter, AutoAnalysis.Marker.Data.StartVar, 
TestParameter, AutoAnalysis.Marker.Data.StartCondition, 
MetaData, TestRecord.EntryPoint, true
MetaData, TestRecord.RecordTime, 09/05/2020 14:06:04
MetaData, TestRecord.TestTarget, 
MetaData, TestRecord.IterationIndex, 29
MetaData, TestRecord.Preservation, true
MetaData, TestRecord.Flag, 
MetaData, TestRecord.Remarks, 
MetaData, TestRecord.LinkKey, 6920ba07-a49e-4cea-8026-e789a46998f9
Dimension1, 101, 101, 101
Dimension2, 1, 1, 1
DataName, V1, I1, Ohmic
DataValue, -5, -5.4698999999999991E-09, 517501204.64770424
DataValue, -4.9, -5.3574E-09, 
DataValue, -4.8, -5.1949999999999995E-09, 
DataValue, -4.7, -5.1191999999999994E-09, 
DataValue, -4.6000000000000005, -5.0020999999999995E-09, 
DataValue, -4.5, -4.9552E-09, 
DataValue, -4.4, -4.8374E-09, 
DataValue, -4.3, -4.7402999999999994E-09, 
DataValue, -4.2, -4.6851E-09, 
DataValue, -4.1, -4.6130999999999993E-09, 
DataValue, -4, -4.6192999999999995E-09, 
DataValue, -3.9, -4.5933E-09, 
DataValue, -3.8000000000000003, -4.5132999999999993E-09, 
DataValue, -3.7, -4.4168E-09, 
DataValue, -3.6, -4.3417E-09, 
DataValue, -3.5, -4.3291999999999995E-09, 
DataValue, -3.4, -4.303E-09, 
DataValue, -3.3000000000000003, -4.2905999999999992E-09, 
DataValue, -3.2, -4.2338E-09, 
DataValue, -3.1, -4.2285999999999992E-09, 
DataValue, -3, -4.1550999999999994E-09, 
DataValue, -2.9, -4.1304E-09, 
DataValue, -2.8000000000000003, -4.0664999999999996E-09, 
DataValue, -2.7, -4.0358999999999993E-09, 
DataValue, -2.6, -4.0042E-09, 
DataValue, -2.5, -3.9638E-09, 
DataValue, -2.4, -3.8353E-09, 
DataValue, -2.3000000000000003, -3.8532E-09, 
DataValue, -2.2, -3.7849E-09, 
DataValue, -2.1, -3.8076E-09, 
DataValue, -2, -3.6993999999999994E-09, 
DataValue, -1.9000000000000001, -3.6638999999999997E-09, 
DataValue, -1.8, -3.5929999999999995E-09, 
DataValue, -1.7, -3.5759999999999996E-09, 
DataValue, -1.6, -3.5609999999999996E-09, 
DataValue, -1.5, -3.5175999999999995E-09, 
DataValue, -1.4000000000000001, -3.4195999999999996E-09, 
DataValue, -1.3, -3.3886999999999997E-09, 
DataValue, -1.2, -3.2521999999999996E-09, 
DataValue, -1.1, -3.2208999999999995E-09, 
DataValue, -1, -3.0886E-09, 
DataValue, -0.9, -3.0176999999999996E-09, 
DataValue, -0.8, -2.9329999999999997E-09, 
DataValue, -0.70000000000000007, -2.8371999999999997E-09, 
DataValue, -0.6, -2.7448E-09, 
DataValue, -0.5, -2.6455999999999996E-09, 
DataValue, -0.4, -2.4553999999999996E-09, 
DataValue, -0.3, -2.2803999999999997E-09, 
DataValue, -0.2, -1.9521E-09, 
DataValue, -0.1, -1.5236999999999998E-09, 
DataValue, 0, -2.956E-10, 
DataValue, 0.1, 1.6684999999999998E-09, 
DataValue, 0.2, 2.5374999999999996E-09, 
DataValue, 0.3, 2.9922999999999997E-09, 
DataValue, 0.4, 3.3119999999999997E-09, 
DataValue, 0.5, 3.6257999999999996E-09, 
DataValue, 0.6, 3.8601999999999996E-09, 
DataValue, 0.70000000000000007, 4.0883999999999992E-09, 
DataValue, 0.8, 4.2902999999999995E-09, 
DataValue, 0.9, 4.4279999999999992E-09, 
DataValue, 1, 4.5810999999999994E-09, 
DataValue, 1.1, 4.6583E-09, 
DataValue, 1.2, 4.8026E-09, 
DataValue, 1.3, 4.8608E-09, 
DataValue, 1.4000000000000001, 4.9701999999999992E-09, 
DataValue, 1.5, 5.0224999999999991E-09, 
DataValue, 1.6, 5.0869999999999995E-09, 
DataValue, 1.7, 5.161E-09, 
DataValue, 1.8, 5.2036999999999993E-09, 
DataValue, 1.9000000000000001, 5.2451E-09, 
DataValue, 2, 5.277E-09, 
DataValue, 2.1, 5.3269E-09, 
DataValue, 2.2, 5.3565999999999995E-09, 
DataValue, 2.3000000000000003, 5.3617E-09, 
DataValue, 2.4, 5.4572999999999993E-09, 
DataValue, 2.5, 5.4684E-09, 
DataValue, 2.6, 5.5313999999999993E-09, 
DataValue, 2.7, 5.5583999999999993E-09, 
DataValue, 2.8000000000000003, 5.6036999999999996E-09, 
DataValue, 2.9, 5.6622E-09, 
DataValue, 3, 5.6844999999999996E-09, 
DataValue, 3.1, 5.7222999999999996E-09, 
DataValue, 3.2, 5.7335E-09, 
DataValue, 3.3000000000000003, 5.8292999999999993E-09, 
DataValue, 3.4, 5.8545999999999992E-09, 
DataValue, 3.5, 5.8858999999999993E-09, 
DataValue, 3.6, 5.9214E-09, 
DataValue, 3.7, 5.9497999999999995E-09, 
DataValue, 3.8000000000000003, 6.0154999999999993E-09, 
DataValue, 3.9, 6.0525999999999996E-09, 
DataValue, 4, 6.1329999999999994E-09, 
DataValue, 4.1, 6.1390999999999992E-09, 
DataValue, 4.2, 6.212E-09, 
DataValue, 4.3, 6.2636999999999994E-09, 
DataValue, 4.4, 6.2949999999999995E-09, 
DataValue, 4.5, 6.3692999999999995E-09, 
DataValue, 4.6000000000000005, 6.4053E-09, 
DataValue, 4.7, 6.436399999999999E-09, 
DataValue, 4.8, 6.533399999999999E-09, 
DataValue, 4.9, 6.5671999999999994E-09, 
DataValue, 5, 6.6222E-09, 