
SetupTitle, WW
PrimitiveTest, I/V Sweep
TestParameter, Context.MainFrame, B1500A
TestParameter, Channel.UnitType, SMU, SMU
TestParameter, Channel.Unit, SMU2:HP, SMU1:HP
TestParameter, Channel.IName, I1, I4
TestParameter, Channel.VName, V1, V4
TestParameter, Channel.Mode, V, COMMON
TestParameter, Channel.Func, VAR1, CONST
TestParameter, Channel.Index, 
TestParameter, Channel.Time, 
TestParameter, Measurement.Port.Unit, SMU2:HP, SMU1:HP
TestParameter, Measurement.Port.SeriesResistor, NONE, NONE
TestParameter, Measurement.Port.Filter, ON, ON
TestParameter, Measurement.Port.OutputVoltageComparison, 0, 0
TestParameter, Measurement.Primary.Locus, Single
TestParameter, Measurement.Primary.Scale, LINEAR
TestParameter, Measurement.Primary.Start, -5
TestParameter, Measurement.Primary.Stop, 5
TestParameter, Measurement.Primary.Step, 0.1
TestParameter, Measurement.Primary.Compliance, 0.1
TestParameter, Measurement.Primary.PowerCompliance, 0
TestParameter, Measurement.Aborting.Condition, CONTINUE AT ANY
TestParameter, Measurement.PostOutput.Value, START
TestParameter, Measurement.PostOutput.Retention, OFF
TestParameter, Measurement.Bias.Source, -5, 0
TestParameter, Measurement.Bias.Compliance, 0.1, 1
TestParameter, Measurement.Monitor.Unit, SMU2:HP, SMU1:HP
TestParameter, Measurement.Monitor.Adc, HR ADC, HR ADC
TestParameter, Measurement.Monitor.Measurement, Compliance Side, Compliance Side
TestParameter, Measurement.Monitor.RangingMode, AUTO, AUTO
TestParameter, Measurement.Monitor.RangeBoundary, , 
TestParameter, Measurement.Monitor.RangeRating, BY FULL RANGE, BY FULL RANGE
TestParameter, Measurement.Monitor.RangeRatingCoeff, 50, 50
TestParameter, Measurement.Timing.Hold, 0
TestParameter, Measurement.Timing.Delay, 0.001
TestParameter, Measurement.Adc.HighSpeed.Mode, AUTO
TestParameter, Measurement.Adc.HighSpeed.Coeff, 1
TestParameter, Measurement.Adc.HighResolution.AutoZero, OFF
TestParameter, Measurement.Adc.HighResolution.Mode, PLC
TestParameter, Measurement.Adc.HighResolution.Coeff, 1
TestParameter, Measurement.WaitTime.Source.Coeff, 1
TestParameter, Measurement.WaitTime.Source.Offset, 0
TestParameter, Measurement.WaitTime.Monitor.Coeff, 1
TestParameter, Measurement.WaitTime.Monitor.Offset, 0
TestParameter, Function.User.Name, Ohmic
TestParameter, Function.User.Unit, ohm
TestParameter, Function.User.Definition, avg(V1/I1)
TestParameter, Output.Graph.Enabled, true
TestParameter, Output.Graph.XAxis.Data, V1
TestParameter, Output.Graph.XAxis.Scale, Linear
TestParameter, Output.Graph.XAxis.Left, -5
TestParameter, Output.Graph.XAxis.Right, 5
TestParameter, Output.Graph.YAxis.Data, I1
TestParameter, Output.Graph.YAxis.Scale, Linear
TestParameter, Output.Graph.YAxis.Bottom, -0.001
TestParameter, Output.Graph.YAxis.Top, 0.001
TestParameter, Output.Graph.YAxis.Group, 
TestParameter, Output.Scalar.Data, Ohmic
TestParameter, AutoAnalysis.Interpolation, false
TestParameter, AutoAnalysis.Line1.Enabled, false
TestParameter, AutoAnalysis.Line1.Type, 1
TestParameter, AutoAnalysis.Line1.Fix, True
TestParameter, AutoAnalysis.Line1.YAxis, 0
TestParameter, AutoAnalysis.Line1.Point1.Type, 0
TestParameter, AutoAnalysis.Line1.Point1.XY.X, 
TestParameter, AutoAnalysis.Line1.Point1.XY.Y, 
TestParameter, AutoAnalysis.Line1.Point1.Data.Var, 
TestParameter, AutoAnalysis.Line1.Point1.Data.Condition, 
TestParameter, AutoAnalysis.Line1.Point1.Data.Start, false
TestParameter, AutoAnalysis.Line1.Point1.Data.StartVar, 
TestParameter, AutoAnalysis.Line1.Point1.Data.StartCondition, 
TestParameter, AutoAnalysis.Line1.Point2.Type, 0
TestParameter, AutoAnalysis.Line1.Point2.XY.X, 
TestParameter, AutoAnalysis.Line1.Point2.XY.Y, 
TestParameter, AutoAnalysis.Line1.Point2.Data.Var, 
TestParameter, AutoAnalysis.Line1.Point2.Data.Condition, 
TestParameter, AutoAnalysis.Line1.Point2.Data.Start, false
TestParameter, AutoAnalysis.Line1.Point2.Data.StartVar, 
TestParameter, AutoAnalysis.Line1.Point2.Data.StartCondition, 
TestParameter, AutoAnalysis.Line1.GradientExpr, 0
TestParameter, AutoAnalysis.Line2.Enabled, false
TestParameter, AutoAnalysis.Line2.Type, 1
TestParameter, AutoAnalysis.Line2.Fix, True
TestParameter, AutoAnalysis.Line2.YAxis, 0
TestParameter, AutoAnalysis.Line2.Point1.Type, 0
TestParameter, AutoAnalysis.Line2.Point1.XY.X, 
TestParameter, AutoAnalysis.Line2.Point1.XY.Y, 
TestParameter, AutoAnalysis.Line2.Point1.Data.Var, 
TestParameter, AutoAnalysis.Line2.Point1.Data.Condition, 
TestParameter, AutoAnalysis.Line2.Point1.Data.Start, false
TestParameter, AutoAnalysis.Line2.Point1.Data.StartVar, 
TestParameter, AutoAnalysis.Line2.Point1.Data.StartCondition, 
TestParameter, AutoAnalysis.Line2.Point2.Type, 0
TestParameter, AutoAnalysis.Line2.Point2.XY.X, 
TestParameter, AutoAnalysis.Line2.Point2.XY.Y, 
TestParameter, AutoAnalysis.Line2.Point2.Data.Var, 
TestParameter, AutoAnalysis.Line2.Point2.Data.Condition, 
TestParameter, AutoAnalysis.Line2.Point2.Data.Start, false
TestParameter, AutoAnalysis.Line2.Point2.Data.StartVar, 
TestParameter, AutoAnalysis.Line2.Point2.Data.StartCondition, 
TestParameter, AutoAnalysis.Line2.GradientExpr, 0
TestParameter, AutoAnalysis.Marker.Enabled, false
TestParameter, AutoAnalysis.Marker.Data.Var, 
TestParameter, AutoAnalysis.Marker.Data.Condition, 
TestParameter, AutoAnalysis.Marker.Data.Start, false
TestParameter, AutoAnalysis.Marker.Data.StartVar, 
TestParameter, AutoAnalysis.Marker.Data.StartCondition, 
MetaData, TestRecord.EntryPoint, true
MetaData, TestRecord.RecordTime, 09/05/2020 14:04:36
MetaData, TestRecord.TestTarget, 
MetaData, TestRecord.IterationIndex, 26
MetaData, TestRecord.Preservation, true
MetaData, TestRecord.Flag, 
MetaData, TestRecord.Remarks, 
MetaData, TestRecord.LinkKey, 792f4414-505c-4f12-a723-21d7ff90db66
Dimension1, 101, 101, 101
Dimension2, 1, 1, 1
DataName, V1, I1, Ohmic
DataValue, -5, -5.8677999999999991E-09, 484100423.83259726
DataValue, -4.9, -5.7329999999999991E-09, 
DataValue, -4.8, -5.6415E-09, 
DataValue, -4.7, -5.5248E-09, 
DataValue, -4.6000000000000005, -5.3902E-09, 
DataValue, -4.5, -5.3278E-09, 
DataValue, -4.4, -5.223E-09, 
DataValue, -4.3, -5.1969999999999993E-09, 
DataValue, -4.2, -5.0729999999999993E-09, 
DataValue, -4.1, -5.0841E-09, 
DataValue, -4, -5.0025999999999992E-09, 
DataValue, -3.9, -4.9452E-09, 
DataValue, -3.8000000000000003, -4.8716E-09, 
DataValue, -3.7, -4.8258E-09, 
DataValue, -3.6, -4.7173999999999994E-09, 
DataValue, -3.5, -4.6800999999999992E-09, 
DataValue, -3.4, -4.6089999999999993E-09, 
DataValue, -3.3000000000000003, -4.6011999999999994E-09, 
DataValue, -3.2, -4.5428999999999993E-09, 
DataValue, -3.1, -4.5426999999999992E-09, 
DataValue, -3, -4.4845999999999992E-09, 
DataValue, -2.9, -4.4021999999999995E-09, 
DataValue, -2.8000000000000003, -4.3648999999999993E-09, 
DataValue, -2.7, -4.3518E-09, 
DataValue, -2.6, -4.3010999999999996E-09, 
DataValue, -2.5, -4.2505E-09, 
DataValue, -2.4, -4.2183E-09, 
DataValue, -2.3000000000000003, -4.1567999999999995E-09, 
DataValue, -2.2, -4.0941E-09, 
DataValue, -2.1, -4.0155999999999992E-09, 
DataValue, -2, -3.9692E-09, 
DataValue, -1.9000000000000001, -3.9269999999999994E-09, 
DataValue, -1.8, -3.8223999999999995E-09, 
DataValue, -1.7, -3.8619E-09, 
DataValue, -1.6, -3.801E-09, 
DataValue, -1.5, -3.7325999999999993E-09, 
DataValue, -1.4000000000000001, -3.6046999999999998E-09, 
DataValue, -1.3, -3.5841999999999997E-09, 
DataValue, -1.2, -3.4715E-09, 
DataValue, -1.1, -3.4155999999999997E-09, 
DataValue, -1, -3.3061999999999996E-09, 
DataValue, -0.9, -3.2540999999999998E-09, 
DataValue, -0.8, -3.1121999999999997E-09, 
DataValue, -0.70000000000000007, -2.9827999999999997E-09, 
DataValue, -0.6, -2.8533999999999997E-09, 
DataValue, -0.5, -2.7203E-09, 
DataValue, -0.4, -2.5983999999999996E-09, 
DataValue, -0.3, -2.3973999999999996E-09, 
DataValue, -0.2, -2.0889999999999997E-09, 
DataValue, -0.1, -1.5756999999999998E-09, 
DataValue, 0, -3.3189999999999996E-10, 
DataValue, 0.1, 1.7505E-09, 
DataValue, 0.2, 2.6761E-09, 
DataValue, 0.3, 3.1016999999999997E-09, 
DataValue, 0.4, 3.4552E-09, 
DataValue, 0.5, 3.7657E-09, 
DataValue, 0.6, 4.0051E-09, 
DataValue, 0.70000000000000007, 4.2533999999999994E-09, 
DataValue, 0.8, 4.4818E-09, 
DataValue, 0.9, 4.6190999999999995E-09, 
DataValue, 1, 4.7925E-09, 
DataValue, 1.1, 4.9076999999999995E-09, 
DataValue, 1.2, 5.0371999999999991E-09, 
DataValue, 1.3, 5.1094999999999994E-09, 
DataValue, 1.4000000000000001, 5.193E-09, 
DataValue, 1.5, 5.2788E-09, 
DataValue, 1.6, 5.3699999999999994E-09, 
DataValue, 1.7, 5.4058999999999993E-09, 
DataValue, 1.8, 5.4604E-09, 
DataValue, 1.9000000000000001, 5.5045999999999994E-09, 
DataValue, 2, 5.5274999999999994E-09, 
DataValue, 2.1, 5.6028999999999993E-09, 
DataValue, 2.2, 5.6246E-09, 
DataValue, 2.3000000000000003, 5.7061999999999992E-09, 
DataValue, 2.4, 5.7376999999999993E-09, 
DataValue, 2.5, 5.7685E-09, 
DataValue, 2.6, 5.8545999999999992E-09, 
DataValue, 2.7, 5.890499999999999E-09, 
DataValue, 2.8000000000000003, 5.9247E-09, 
DataValue, 2.9, 5.9629E-09, 
DataValue, 3, 6.0074999999999994E-09, 
DataValue, 3.1, 6.0333999999999995E-09, 
DataValue, 3.2, 6.0880999999999993E-09, 
DataValue, 3.3000000000000003, 6.161E-09, 
DataValue, 3.4, 6.1649999999999993E-09, 
DataValue, 3.5, 6.2416999999999992E-09, 
DataValue, 3.6, 6.2776999999999995E-09, 
DataValue, 3.7, 6.3526E-09, 
DataValue, 3.8000000000000003, 6.3891999999999994E-09, 
DataValue, 3.9, 6.4712999999999994E-09, 
DataValue, 4, 6.5004999999999992E-09, 
DataValue, 4.1, 6.5352999999999991E-09, 
DataValue, 4.2, 6.6142999999999994E-09, 
DataValue, 4.3, 6.65389E-09, 
DataValue, 4.4, 6.72431E-09, 
DataValue, 4.5, 6.78744E-09, 
DataValue, 4.6000000000000005, 6.87726E-09, 
DataValue, 4.7, 6.91147E-09, 
DataValue, 4.8, 6.95935E-09, 
DataValue, 4.9, 7.0669E-09, 
DataValue, 5, 7.15243E-09, 