
SetupTitle, WW
PrimitiveTest, I/V Sweep
TestParameter, Context.MainFrame, B1500A
TestParameter, Channel.UnitType, SMU, SMU
TestParameter, Channel.Unit, SMU2:HP, SMU1:HP
TestParameter, Channel.IName, I1, I4
TestParameter, Channel.VName, V1, V4
TestParameter, Channel.Mode, V, COMMON
TestParameter, Channel.Func, VAR1, CONST
TestParameter, Channel.Index, 
TestParameter, Channel.Time, 
TestParameter, Measurement.Port.Unit, SMU2:HP, SMU1:HP
TestParameter, Measurement.Port.SeriesResistor, NONE, NONE
TestParameter, Measurement.Port.Filter, ON, ON
TestParameter, Measurement.Port.OutputVoltageComparison, 0, 0
TestParameter, Measurement.Primary.Locus, Single
TestParameter, Measurement.Primary.Scale, LINEAR
TestParameter, Measurement.Primary.Start, -5
TestParameter, Measurement.Primary.Stop, 5
TestParameter, Measurement.Primary.Step, 0.1
TestParameter, Measurement.Primary.Compliance, 0.1
TestParameter, Measurement.Primary.PowerCompliance, 0
TestParameter, Measurement.Aborting.Condition, CONTINUE AT ANY
TestParameter, Measurement.PostOutput.Value, START
TestParameter, Measurement.PostOutput.Retention, OFF
TestParameter, Measurement.Bias.Source, -5, 0
TestParameter, Measurement.Bias.Compliance, 0.1, 1
TestParameter, Measurement.Monitor.Unit, SMU2:HP, SMU1:HP
TestParameter, Measurement.Monitor.Adc, HR ADC, HR ADC
TestParameter, Measurement.Monitor.Measurement, Compliance Side, Compliance Side
TestParameter, Measurement.Monitor.RangingMode, AUTO, AUTO
TestParameter, Measurement.Monitor.RangeBoundary, , 
TestParameter, Measurement.Monitor.RangeRating, BY FULL RANGE, BY FULL RANGE
TestParameter, Measurement.Monitor.RangeRatingCoeff, 50, 50
TestParameter, Measurement.Timing.Hold, 0
TestParameter, Measurement.Timing.Delay, 0.001
TestParameter, Measurement.Adc.HighSpeed.Mode, AUTO
TestParameter, Measurement.Adc.HighSpeed.Coeff, 1
TestParameter, Measurement.Adc.HighResolution.AutoZero, OFF
TestParameter, Measurement.Adc.HighResolution.Mode, PLC
TestParameter, Measurement.Adc.HighResolution.Coeff, 1
TestParameter, Measurement.WaitTime.Source.Coeff, 1
TestParameter, Measurement.WaitTime.Source.Offset, 0
TestParameter, Measurement.WaitTime.Monitor.Coeff, 1
TestParameter, Measurement.WaitTime.Monitor.Offset, 0
TestParameter, Function.User.Name, Ohmic
TestParameter, Function.User.Unit, ohm
TestParameter, Function.User.Definition, avg(V1/I1)
TestParameter, Output.Graph.Enabled, true
TestParameter, Output.Graph.XAxis.Data, V1
TestParameter, Output.Graph.XAxis.Scale, Linear
TestParameter, Output.Graph.XAxis.Left, -5
TestParameter, Output.Graph.XAxis.Right, 5
TestParameter, Output.Graph.YAxis.Data, I1
TestParameter, Output.Graph.YAxis.Scale, Linear
TestParameter, Output.Graph.YAxis.Bottom, -0.001
TestParameter, Output.Graph.YAxis.Top, 0.001
TestParameter, Output.Graph.YAxis.Group, 
TestParameter, Output.Scalar.Data, Ohmic
TestParameter, AutoAnalysis.Interpolation, false
TestParameter, AutoAnalysis.Line1.Enabled, false
TestParameter, AutoAnalysis.Line1.Type, 1
TestParameter, AutoAnalysis.Line1.Fix, True
TestParameter, AutoAnalysis.Line1.YAxis, 0
TestParameter, AutoAnalysis.Line1.Point1.Type, 0
TestParameter, AutoAnalysis.Line1.Point1.XY.X, 
TestParameter, AutoAnalysis.Line1.Point1.XY.Y, 
TestParameter, AutoAnalysis.Line1.Point1.Data.Var, 
TestParameter, AutoAnalysis.Line1.Point1.Data.Condition, 
TestParameter, AutoAnalysis.Line1.Point1.Data.Start, false
TestParameter, AutoAnalysis.Line1.Point1.Data.StartVar, 
TestParameter, AutoAnalysis.Line1.Point1.Data.StartCondition, 
TestParameter, AutoAnalysis.Line1.Point2.Type, 0
TestParameter, AutoAnalysis.Line1.Point2.XY.X, 
TestParameter, AutoAnalysis.Line1.Point2.XY.Y, 
TestParameter, AutoAnalysis.Line1.Point2.Data.Var, 
TestParameter, AutoAnalysis.Line1.Point2.Data.Condition, 
TestParameter, AutoAnalysis.Line1.Point2.Data.Start, false
TestParameter, AutoAnalysis.Line1.Point2.Data.StartVar, 
TestParameter, AutoAnalysis.Line1.Point2.Data.StartCondition, 
TestParameter, AutoAnalysis.Line1.GradientExpr, 0
TestParameter, AutoAnalysis.Line2.Enabled, false
TestParameter, AutoAnalysis.Line2.Type, 1
TestParameter, AutoAnalysis.Line2.Fix, True
TestParameter, AutoAnalysis.Line2.YAxis, 0
TestParameter, AutoAnalysis.Line2.Point1.Type, 0
TestParameter, AutoAnalysis.Line2.Point1.XY.X, 
TestParameter, AutoAnalysis.Line2.Point1.XY.Y, 
TestParameter, AutoAnalysis.Line2.Point1.Data.Var, 
TestParameter, AutoAnalysis.Line2.Point1.Data.Condition, 
TestParameter, AutoAnalysis.Line2.Point1.Data.Start, false
TestParameter, AutoAnalysis.Line2.Point1.Data.StartVar, 
TestParameter, AutoAnalysis.Line2.Point1.Data.StartCondition, 
TestParameter, AutoAnalysis.Line2.Point2.Type, 0
TestParameter, AutoAnalysis.Line2.Point2.XY.X, 
TestParameter, AutoAnalysis.Line2.Point2.XY.Y, 
TestParameter, AutoAnalysis.Line2.Point2.Data.Var, 
TestParameter, AutoAnalysis.Line2.Point2.Data.Condition, 
TestParameter, AutoAnalysis.Line2.Point2.Data.Start, false
TestParameter, AutoAnalysis.Line2.Point2.Data.StartVar, 
TestParameter, AutoAnalysis.Line2.Point2.Data.StartCondition, 
TestParameter, AutoAnalysis.Line2.GradientExpr, 0
TestParameter, AutoAnalysis.Marker.Enabled, false
TestParameter, AutoAnalysis.Marker.Data.Var, 
TestParameter, AutoAnalysis.Marker.Data.Condition, 
TestParameter, AutoAnalysis.Marker.Data.Start, false
TestParameter, AutoAnalysis.Marker.Data.StartVar, 
TestParameter, AutoAnalysis.Marker.Data.StartCondition, 
MetaData, TestRecord.EntryPoint, true
MetaData, TestRecord.RecordTime, 09/05/2020 14:03:02
MetaData, TestRecord.TestTarget, 
MetaData, TestRecord.IterationIndex, 23
MetaData, TestRecord.Preservation, true
MetaData, TestRecord.Flag, 
MetaData, TestRecord.Remarks, 
MetaData, TestRecord.LinkKey, dfcb7eb6-a1ee-4fb1-a0a2-74ea165e127a
Dimension1, 101, 101, 101
Dimension2, 1, 1, 1
DataName, V1, I1, Ohmic
DataValue, -5, -5.6090999999999996E-09, 508185045.06275833
DataValue, -4.9, -5.4842999999999994E-09, 
DataValue, -4.8, -5.3183E-09, 
DataValue, -4.7, -5.2373E-09, 
DataValue, -4.6000000000000005, -5.1109999999999994E-09, 
DataValue, -4.5, -5.0558999999999995E-09, 
DataValue, -4.4, -4.9379999999999993E-09, 
DataValue, -4.3, -4.9137999999999993E-09, 
DataValue, -4.2, -4.8372E-09, 
DataValue, -4.1, -4.7873999999999994E-09, 
DataValue, -4, -4.7337999999999995E-09, 
DataValue, -3.9, -4.6823999999999995E-09, 
DataValue, -3.8000000000000003, -4.6072999999999992E-09, 
DataValue, -3.7, -4.5642999999999992E-09, 
DataValue, -3.6, -4.5162999999999994E-09, 
DataValue, -3.5, -4.4875999999999993E-09, 
DataValue, -3.4, -4.4339999999999994E-09, 
DataValue, -3.3000000000000003, -4.3738E-09, 
DataValue, -3.2, -4.3369999999999994E-09, 
DataValue, -3.1, -4.2652E-09, 
DataValue, -3, -4.2684999999999995E-09, 
DataValue, -2.9, -4.1919999999999996E-09, 
DataValue, -2.8000000000000003, -4.1714999999999995E-09, 
DataValue, -2.7, -4.1341E-09, 
DataValue, -2.6, -4.0630999999999993E-09, 
DataValue, -2.5, -4.06E-09, 
DataValue, -2.4, -4.0585999999999992E-09, 
DataValue, -2.3000000000000003, -3.9911E-09, 
DataValue, -2.2, -3.9627E-09, 
DataValue, -2.1, -3.9334999999999993E-09, 
DataValue, -2, -3.8290999999999995E-09, 
DataValue, -1.9000000000000001, -3.7696999999999995E-09, 
DataValue, -1.8, -3.7286E-09, 
DataValue, -1.7, -3.6557999999999997E-09, 
DataValue, -1.6, -3.5969999999999995E-09, 
DataValue, -1.5, -3.5210999999999998E-09, 
DataValue, -1.4000000000000001, -3.4785999999999995E-09, 
DataValue, -1.3, -3.3986E-09, 
DataValue, -1.2, -3.3251999999999996E-09, 
DataValue, -1.1, -3.2018E-09, 
DataValue, -1, -3.1314999999999998E-09, 
DataValue, -0.9, -3.0312999999999997E-09, 
DataValue, -0.8, -2.97E-09, 
DataValue, -0.70000000000000007, -2.8747999999999996E-09, 
DataValue, -0.6, -2.7811E-09, 
DataValue, -0.5, -2.6169999999999995E-09, 
DataValue, -0.4, -2.4730999999999997E-09, 
DataValue, -0.3, -2.2314999999999996E-09, 
DataValue, -0.2, -1.9339999999999997E-09, 
DataValue, -0.1, -1.5015999999999999E-09, 
DataValue, 0, -3.298E-10, 
DataValue, 0.1, 1.6758999999999998E-09, 
DataValue, 0.2, 2.5281999999999996E-09, 
DataValue, 0.3, 2.9420999999999996E-09, 
DataValue, 0.4, 3.2893E-09, 
DataValue, 0.5, 3.5688999999999995E-09, 
DataValue, 0.6, 3.8234999999999995E-09, 
DataValue, 0.70000000000000007, 4.0005E-09, 
DataValue, 0.8, 4.2168999999999994E-09, 
DataValue, 0.9, 4.3978E-09, 
DataValue, 1, 4.5439999999999992E-09, 
DataValue, 1.1, 4.6763999999999993E-09, 
DataValue, 1.2, 4.8052E-09, 
DataValue, 1.3, 4.9096999999999993E-09, 
DataValue, 1.4000000000000001, 4.9865E-09, 
DataValue, 1.5, 5.058E-09, 
DataValue, 1.6, 5.0867999999999994E-09, 
DataValue, 1.7, 5.1755E-09, 
DataValue, 1.8, 5.2578E-09, 
DataValue, 1.9000000000000001, 5.2974999999999991E-09, 
DataValue, 2, 5.3185E-09, 
DataValue, 2.1, 5.3274E-09, 
DataValue, 2.2, 5.4274E-09, 
DataValue, 2.3000000000000003, 5.4587999999999994E-09, 
DataValue, 2.4, 5.5177999999999993E-09, 
DataValue, 2.5, 5.5067999999999992E-09, 
DataValue, 2.6, 5.5574E-09, 
DataValue, 2.7, 5.5888999999999992E-09, 
DataValue, 2.8000000000000003, 5.6361E-09, 
DataValue, 2.9, 5.7007999999999992E-09, 
DataValue, 3, 5.7205999999999995E-09, 
DataValue, 3.1, 5.7469E-09, 
DataValue, 3.2, 5.8067999999999994E-09, 
DataValue, 3.3000000000000003, 5.8257E-09, 
DataValue, 3.4, 5.9186999999999994E-09, 
DataValue, 3.5, 5.9461999999999992E-09, 
DataValue, 3.6, 6.0059999999999993E-09, 
DataValue, 3.7, 6.041499999999999E-09, 
DataValue, 3.8000000000000003, 6.1260999999999993E-09, 
DataValue, 3.9, 6.1571999999999994E-09, 
DataValue, 4, 6.2092E-09, 
DataValue, 4.1, 6.2511E-09, 
DataValue, 4.2, 6.2971999999999993E-09, 
DataValue, 4.3, 6.3395999999999991E-09, 
DataValue, 4.4, 6.3526E-09, 
DataValue, 4.5, 6.4686E-09, 
DataValue, 4.6000000000000005, 6.5155999999999993E-09, 
DataValue, 4.7, 6.5933999999999992E-09, 
DataValue, 4.8, 6.6177999999999992E-09, 
DataValue, 4.9, 6.7267999999999996E-09, 
DataValue, 5, 6.7691E-09, 