
SetupTitle, WW
PrimitiveTest, I/V Sweep
TestParameter, Context.MainFrame, B1500A
TestParameter, Channel.UnitType, SMU, SMU
TestParameter, Channel.Unit, SMU2:HP, SMU1:HP
TestParameter, Channel.IName, I1, I4
TestParameter, Channel.VName, V1, V4
TestParameter, Channel.Mode, V, COMMON
TestParameter, Channel.Func, VAR1, CONST
TestParameter, Channel.Index, 
TestParameter, Channel.Time, 
TestParameter, Measurement.Port.Unit, SMU2:HP, SMU1:HP
TestParameter, Measurement.Port.SeriesResistor, NONE, NONE
TestParameter, Measurement.Port.Filter, ON, ON
TestParameter, Measurement.Port.OutputVoltageComparison, 0, 0
TestParameter, Measurement.Primary.Locus, Single
TestParameter, Measurement.Primary.Scale, LINEAR
TestParameter, Measurement.Primary.Start, -5
TestParameter, Measurement.Primary.Stop, 5
TestParameter, Measurement.Primary.Step, 0.1
TestParameter, Measurement.Primary.Compliance, 0.1
TestParameter, Measurement.Primary.PowerCompliance, 0
TestParameter, Measurement.Aborting.Condition, CONTINUE AT ANY
TestParameter, Measurement.PostOutput.Value, START
TestParameter, Measurement.PostOutput.Retention, OFF
TestParameter, Measurement.Bias.Source, -5, 0
TestParameter, Measurement.Bias.Compliance, 0.1, 1
TestParameter, Measurement.Monitor.Unit, SMU2:HP, SMU1:HP
TestParameter, Measurement.Monitor.Adc, HR ADC, HR ADC
TestParameter, Measurement.Monitor.Measurement, Compliance Side, Compliance Side
TestParameter, Measurement.Monitor.RangingMode, AUTO, AUTO
TestParameter, Measurement.Monitor.RangeBoundary, , 
TestParameter, Measurement.Monitor.RangeRating, BY FULL RANGE, BY FULL RANGE
TestParameter, Measurement.Monitor.RangeRatingCoeff, 50, 50
TestParameter, Measurement.Timing.Hold, 0
TestParameter, Measurement.Timing.Delay, 0.001
TestParameter, Measurement.Adc.HighSpeed.Mode, AUTO
TestParameter, Measurement.Adc.HighSpeed.Coeff, 1
TestParameter, Measurement.Adc.HighResolution.AutoZero, OFF
TestParameter, Measurement.Adc.HighResolution.Mode, PLC
TestParameter, Measurement.Adc.HighResolution.Coeff, 1
TestParameter, Measurement.WaitTime.Source.Coeff, 1
TestParameter, Measurement.WaitTime.Source.Offset, 0
TestParameter, Measurement.WaitTime.Monitor.Coeff, 1
TestParameter, Measurement.WaitTime.Monitor.Offset, 0
TestParameter, Function.User.Name, Ohmic
TestParameter, Function.User.Unit, ohm
TestParameter, Function.User.Definition, avg(V1/I1)
TestParameter, Output.Graph.Enabled, true
TestParameter, Output.Graph.XAxis.Data, V1
TestParameter, Output.Graph.XAxis.Scale, Linear
TestParameter, Output.Graph.XAxis.Left, -5
TestParameter, Output.Graph.XAxis.Right, 5
TestParameter, Output.Graph.YAxis.Data, I1
TestParameter, Output.Graph.YAxis.Scale, Linear
TestParameter, Output.Graph.YAxis.Bottom, -0.001
TestParameter, Output.Graph.YAxis.Top, 0.001
TestParameter, Output.Graph.YAxis.Group, 
TestParameter, Output.Scalar.Data, Ohmic
TestParameter, AutoAnalysis.Interpolation, false
TestParameter, AutoAnalysis.Line1.Enabled, false
TestParameter, AutoAnalysis.Line1.Type, 1
TestParameter, AutoAnalysis.Line1.Fix, True
TestParameter, AutoAnalysis.Line1.YAxis, 0
TestParameter, AutoAnalysis.Line1.Point1.Type, 0
TestParameter, AutoAnalysis.Line1.Point1.XY.X, 
TestParameter, AutoAnalysis.Line1.Point1.XY.Y, 
TestParameter, AutoAnalysis.Line1.Point1.Data.Var, 
TestParameter, AutoAnalysis.Line1.Point1.Data.Condition, 
TestParameter, AutoAnalysis.Line1.Point1.Data.Start, false
TestParameter, AutoAnalysis.Line1.Point1.Data.StartVar, 
TestParameter, AutoAnalysis.Line1.Point1.Data.StartCondition, 
TestParameter, AutoAnalysis.Line1.Point2.Type, 0
TestParameter, AutoAnalysis.Line1.Point2.XY.X, 
TestParameter, AutoAnalysis.Line1.Point2.XY.Y, 
TestParameter, AutoAnalysis.Line1.Point2.Data.Var, 
TestParameter, AutoAnalysis.Line1.Point2.Data.Condition, 
TestParameter, AutoAnalysis.Line1.Point2.Data.Start, false
TestParameter, AutoAnalysis.Line1.Point2.Data.StartVar, 
TestParameter, AutoAnalysis.Line1.Point2.Data.StartCondition, 
TestParameter, AutoAnalysis.Line1.GradientExpr, 0
TestParameter, AutoAnalysis.Line2.Enabled, false
TestParameter, AutoAnalysis.Line2.Type, 1
TestParameter, AutoAnalysis.Line2.Fix, True
TestParameter, AutoAnalysis.Line2.YAxis, 0
TestParameter, AutoAnalysis.Line2.Point1.Type, 0
TestParameter, AutoAnalysis.Line2.Point1.XY.X, 
TestParameter, AutoAnalysis.Line2.Point1.XY.Y, 
TestParameter, AutoAnalysis.Line2.Point1.Data.Var, 
TestParameter, AutoAnalysis.Line2.Point1.Data.Condition, 
TestParameter, AutoAnalysis.Line2.Point1.Data.Start, false
TestParameter, AutoAnalysis.Line2.Point1.Data.StartVar, 
TestParameter, AutoAnalysis.Line2.Point1.Data.StartCondition, 
TestParameter, AutoAnalysis.Line2.Point2.Type, 0
TestParameter, AutoAnalysis.Line2.Point2.XY.X, 
TestParameter, AutoAnalysis.Line2.Point2.XY.Y, 
TestParameter, AutoAnalysis.Line2.Point2.Data.Var, 
TestParameter, AutoAnalysis.Line2.Point2.Data.Condition, 
TestParameter, AutoAnalysis.Line2.Point2.Data.Start, false
TestParameter, AutoAnalysis.Line2.Point2.Data.StartVar, 
TestParameter, AutoAnalysis.Line2.Point2.Data.StartCondition, 
TestParameter, AutoAnalysis.Line2.GradientExpr, 0
TestParameter, AutoAnalysis.Marker.Enabled, false
TestParameter, AutoAnalysis.Marker.Data.Var, 
TestParameter, AutoAnalysis.Marker.Data.Condition, 
TestParameter, AutoAnalysis.Marker.Data.Start, false
TestParameter, AutoAnalysis.Marker.Data.StartVar, 
TestParameter, AutoAnalysis.Marker.Data.StartCondition, 
MetaData, TestRecord.EntryPoint, true
MetaData, TestRecord.RecordTime, 09/05/2020 14:01:17
MetaData, TestRecord.TestTarget, 
MetaData, TestRecord.IterationIndex, 20
MetaData, TestRecord.Preservation, true
MetaData, TestRecord.Flag, 
MetaData, TestRecord.Remarks, 
MetaData, TestRecord.LinkKey, 718f5b0d-a52a-4de9-b172-fac4f6c634e4
Dimension1, 101, 101, 101
Dimension2, 1, 1, 1
DataName, V1, I1, Ohmic
DataValue, -5, -4.6156999999999993E-09, 619131525.78641069
DataValue, -4.9, -4.486E-09, 
DataValue, -4.8, -4.4194999999999995E-09, 
DataValue, -4.7, -4.3632E-09, 
DataValue, -4.6000000000000005, -4.3354999999999993E-09, 
DataValue, -4.5, -4.2354E-09, 
DataValue, -4.4, -4.2088E-09, 
DataValue, -4.3, -4.1529E-09, 
DataValue, -4.2, -4.1515E-09, 
DataValue, -4.1, -4.0468E-09, 
DataValue, -4, -4.0297999999999995E-09, 
DataValue, -3.9, -4.0405E-09, 
DataValue, -3.8000000000000003, -3.9567999999999994E-09, 
DataValue, -3.7, -3.9558999999999995E-09, 
DataValue, -3.6, -3.926E-09, 
DataValue, -3.5, -3.9005999999999995E-09, 
DataValue, -3.4, -3.8880999999999994E-09, 
DataValue, -3.3000000000000003, -3.8359999999999996E-09, 
DataValue, -3.2, -3.7519E-09, 
DataValue, -3.1, -3.7541999999999993E-09, 
DataValue, -3, -3.7351999999999993E-09, 
DataValue, -2.9, -3.7127E-09, 
DataValue, -2.8000000000000003, -3.6423999999999997E-09, 
DataValue, -2.7, -3.5889999999999995E-09, 
DataValue, -2.6, -3.5976999999999997E-09, 
DataValue, -2.5, -3.5700999999999995E-09, 
DataValue, -2.4, -3.5039999999999995E-09, 
DataValue, -2.3000000000000003, -3.5130999999999998E-09, 
DataValue, -2.2, -3.4403E-09, 
DataValue, -2.1, -3.4031999999999996E-09, 
DataValue, -2, -3.3322999999999998E-09, 
DataValue, -1.9000000000000001, -3.2788999999999995E-09, 
DataValue, -1.8, -3.2769999999999997E-09, 
DataValue, -1.7, -3.2006E-09, 
DataValue, -1.6, -3.1725999999999996E-09, 
DataValue, -1.5, -3.1175999999999997E-09, 
DataValue, -1.4000000000000001, -3.0656E-09, 
DataValue, -1.3, -3.0146999999999995E-09, 
DataValue, -1.2, -2.935E-09, 
DataValue, -1.1, -2.8392E-09, 
DataValue, -1, -2.7520999999999996E-09, 
DataValue, -0.9, -2.714E-09, 
DataValue, -0.8, -2.6804999999999996E-09, 
DataValue, -0.70000000000000007, -2.5472999999999997E-09, 
DataValue, -0.6, -2.4356999999999998E-09, 
DataValue, -0.5, -2.3561999999999998E-09, 
DataValue, -0.4, -2.1783E-09, 
DataValue, -0.3, -1.9588E-09, 
DataValue, -0.2, -1.6664999999999998E-09, 
DataValue, -0.1, -1.3232E-09, 
DataValue, 0, -4.127E-10, 
DataValue, 0.1, 1.1447E-09, 
DataValue, 0.2, 1.8129999999999998E-09, 
DataValue, 0.3, 2.1883E-09, 
DataValue, 0.4, 2.4792E-09, 
DataValue, 0.5, 2.6710999999999996E-09, 
DataValue, 0.6, 2.8489999999999996E-09, 
DataValue, 0.70000000000000007, 3.0429999999999995E-09, 
DataValue, 0.8, 3.1839999999999998E-09, 
DataValue, 0.9, 3.3163E-09, 
DataValue, 1, 3.4369999999999996E-09, 
DataValue, 1.1, 3.5336999999999995E-09, 
DataValue, 1.2, 3.6230999999999996E-09, 
DataValue, 1.3, 3.75516E-09, 
DataValue, 1.4000000000000001, 3.77146E-09, 
DataValue, 1.5, 3.8473E-09, 
DataValue, 1.6, 3.91413E-09, 
DataValue, 1.7, 3.97216E-09, 
DataValue, 1.8, 4.02785E-09, 
DataValue, 1.9000000000000001, 4.02939E-09, 
DataValue, 2, 4.15987E-09, 
DataValue, 2.1, 4.12216E-09, 
DataValue, 2.2, 4.15555E-09, 
DataValue, 2.3000000000000003, 4.20293E-09, 
DataValue, 2.4, 4.24649E-09, 
DataValue, 2.5, 4.2779E-09, 
DataValue, 2.6, 4.30838E-09, 
DataValue, 2.7, 4.34466E-09, 
DataValue, 2.8000000000000003, 4.37304E-09, 
DataValue, 2.9, 4.40788E-09, 
DataValue, 3, 4.42014E-09, 
DataValue, 3.1, 4.45959E-09, 
DataValue, 3.2, 4.51276E-09, 
DataValue, 3.3000000000000003, 4.54207E-09, 
DataValue, 3.4, 4.581E-09, 
DataValue, 3.5, 4.61455E-09, 
DataValue, 3.6, 4.64413E-09, 
DataValue, 3.7, 4.67928E-09, 
DataValue, 3.8000000000000003, 4.72141E-09, 
DataValue, 3.9, 4.75248E-09, 
DataValue, 4, 4.78123E-09, 
DataValue, 4.1, 4.82148E-09, 
DataValue, 4.2, 4.8583E-09, 
DataValue, 4.3, 4.9194E-09, 
DataValue, 4.4, 4.95278E-09, 
DataValue, 4.5, 4.97027E-09, 
DataValue, 4.6000000000000005, 5.04981E-09, 
DataValue, 4.7, 5.09166E-09, 
DataValue, 4.8, 5.14825E-09, 
DataValue, 4.9, 5.19209E-09, 
DataValue, 5, 5.22546E-09, 