
SetupTitle, WW
PrimitiveTest, I/V Sweep
TestParameter, Context.MainFrame, B1500A
TestParameter, Channel.UnitType, SMU, SMU
TestParameter, Channel.Unit, SMU2:HP, SMU1:HP
TestParameter, Channel.IName, I1, I4
TestParameter, Channel.VName, V1, V4
TestParameter, Channel.Mode, V, COMMON
TestParameter, Channel.Func, VAR1, CONST
TestParameter, Channel.Index, 
TestParameter, Channel.Time, 
TestParameter, Measurement.Port.Unit, SMU2:HP, SMU1:HP
TestParameter, Measurement.Port.SeriesResistor, NONE, NONE
TestParameter, Measurement.Port.Filter, ON, ON
TestParameter, Measurement.Port.OutputVoltageComparison, 0, 0
TestParameter, Measurement.Primary.Locus, Single
TestParameter, Measurement.Primary.Scale, LINEAR
TestParameter, Measurement.Primary.Start, -5
TestParameter, Measurement.Primary.Stop, 5
TestParameter, Measurement.Primary.Step, 0.1
TestParameter, Measurement.Primary.Compliance, 0.1
TestParameter, Measurement.Primary.PowerCompliance, 0
TestParameter, Measurement.Aborting.Condition, CONTINUE AT ANY
TestParameter, Measurement.PostOutput.Value, START
TestParameter, Measurement.PostOutput.Retention, OFF
TestParameter, Measurement.Bias.Source, -5, 0
TestParameter, Measurement.Bias.Compliance, 0.1, 1
TestParameter, Measurement.Monitor.Unit, SMU2:HP, SMU1:HP
TestParameter, Measurement.Monitor.Adc, HR ADC, HR ADC
TestParameter, Measurement.Monitor.Measurement, Compliance Side, Compliance Side
TestParameter, Measurement.Monitor.RangingMode, AUTO, AUTO
TestParameter, Measurement.Monitor.RangeBoundary, , 
TestParameter, Measurement.Monitor.RangeRating, BY FULL RANGE, BY FULL RANGE
TestParameter, Measurement.Monitor.RangeRatingCoeff, 50, 50
TestParameter, Measurement.Timing.Hold, 0
TestParameter, Measurement.Timing.Delay, 0.001
TestParameter, Measurement.Adc.HighSpeed.Mode, AUTO
TestParameter, Measurement.Adc.HighSpeed.Coeff, 1
TestParameter, Measurement.Adc.HighResolution.AutoZero, OFF
TestParameter, Measurement.Adc.HighResolution.Mode, PLC
TestParameter, Measurement.Adc.HighResolution.Coeff, 1
TestParameter, Measurement.WaitTime.Source.Coeff, 1
TestParameter, Measurement.WaitTime.Source.Offset, 0
TestParameter, Measurement.WaitTime.Monitor.Coeff, 1
TestParameter, Measurement.WaitTime.Monitor.Offset, 0
TestParameter, Function.User.Name, Ohmic
TestParameter, Function.User.Unit, ohm
TestParameter, Function.User.Definition, avg(V1/I1)
TestParameter, Output.Graph.Enabled, true
TestParameter, Output.Graph.XAxis.Data, V1
TestParameter, Output.Graph.XAxis.Scale, Linear
TestParameter, Output.Graph.XAxis.Left, -5
TestParameter, Output.Graph.XAxis.Right, 5
TestParameter, Output.Graph.YAxis.Data, I1
TestParameter, Output.Graph.YAxis.Scale, Linear
TestParameter, Output.Graph.YAxis.Bottom, -0.001
TestParameter, Output.Graph.YAxis.Top, 0.001
TestParameter, Output.Graph.YAxis.Group, 
TestParameter, Output.Scalar.Data, Ohmic
TestParameter, AutoAnalysis.Interpolation, false
TestParameter, AutoAnalysis.Line1.Enabled, false
TestParameter, AutoAnalysis.Line1.Type, 1
TestParameter, AutoAnalysis.Line1.Fix, True
TestParameter, AutoAnalysis.Line1.YAxis, 0
TestParameter, AutoAnalysis.Line1.Point1.Type, 0
TestParameter, AutoAnalysis.Line1.Point1.XY.X, 
TestParameter, AutoAnalysis.Line1.Point1.XY.Y, 
TestParameter, AutoAnalysis.Line1.Point1.Data.Var, 
TestParameter, AutoAnalysis.Line1.Point1.Data.Condition, 
TestParameter, AutoAnalysis.Line1.Point1.Data.Start, false
TestParameter, AutoAnalysis.Line1.Point1.Data.StartVar, 
TestParameter, AutoAnalysis.Line1.Point1.Data.StartCondition, 
TestParameter, AutoAnalysis.Line1.Point2.Type, 0
TestParameter, AutoAnalysis.Line1.Point2.XY.X, 
TestParameter, AutoAnalysis.Line1.Point2.XY.Y, 
TestParameter, AutoAnalysis.Line1.Point2.Data.Var, 
TestParameter, AutoAnalysis.Line1.Point2.Data.Condition, 
TestParameter, AutoAnalysis.Line1.Point2.Data.Start, false
TestParameter, AutoAnalysis.Line1.Point2.Data.StartVar, 
TestParameter, AutoAnalysis.Line1.Point2.Data.StartCondition, 
TestParameter, AutoAnalysis.Line1.GradientExpr, 0
TestParameter, AutoAnalysis.Line2.Enabled, false
TestParameter, AutoAnalysis.Line2.Type, 1
TestParameter, AutoAnalysis.Line2.Fix, True
TestParameter, AutoAnalysis.Line2.YAxis, 0
TestParameter, AutoAnalysis.Line2.Point1.Type, 0
TestParameter, AutoAnalysis.Line2.Point1.XY.X, 
TestParameter, AutoAnalysis.Line2.Point1.XY.Y, 
TestParameter, AutoAnalysis.Line2.Point1.Data.Var, 
TestParameter, AutoAnalysis.Line2.Point1.Data.Condition, 
TestParameter, AutoAnalysis.Line2.Point1.Data.Start, false
TestParameter, AutoAnalysis.Line2.Point1.Data.StartVar, 
TestParameter, AutoAnalysis.Line2.Point1.Data.StartCondition, 
TestParameter, AutoAnalysis.Line2.Point2.Type, 0
TestParameter, AutoAnalysis.Line2.Point2.XY.X, 
TestParameter, AutoAnalysis.Line2.Point2.XY.Y, 
TestParameter, AutoAnalysis.Line2.Point2.Data.Var, 
TestParameter, AutoAnalysis.Line2.Point2.Data.Condition, 
TestParameter, AutoAnalysis.Line2.Point2.Data.Start, false
TestParameter, AutoAnalysis.Line2.Point2.Data.StartVar, 
TestParameter, AutoAnalysis.Line2.Point2.Data.StartCondition, 
TestParameter, AutoAnalysis.Line2.GradientExpr, 0
TestParameter, AutoAnalysis.Marker.Enabled, false
TestParameter, AutoAnalysis.Marker.Data.Var, 
TestParameter, AutoAnalysis.Marker.Data.Condition, 
TestParameter, AutoAnalysis.Marker.Data.Start, false
TestParameter, AutoAnalysis.Marker.Data.StartVar, 
TestParameter, AutoAnalysis.Marker.Data.StartCondition, 
MetaData, TestRecord.EntryPoint, true
MetaData, TestRecord.RecordTime, 09/05/2020 14:00:49
MetaData, TestRecord.TestTarget, 
MetaData, TestRecord.IterationIndex, 19
MetaData, TestRecord.Preservation, true
MetaData, TestRecord.Flag, 
MetaData, TestRecord.Remarks, 
MetaData, TestRecord.LinkKey, 3d4a9595-6d7e-4a29-b81f-138e22672d52
Dimension1, 101, 101, 101
Dimension2, 1, 1, 1
DataName, V1, I1, Ohmic
DataValue, -5, -3.6516999999999997E-09, 777160596.36856651
DataValue, -4.9, -3.5726E-09, 
DataValue, -4.8, -3.4980999999999997E-09, 
DataValue, -4.7, -3.4586999999999996E-09, 
DataValue, -4.6000000000000005, -3.3919E-09, 
DataValue, -4.5, -3.3662E-09, 
DataValue, -4.4, -3.3109E-09, 
DataValue, -4.3, -3.3168999999999996E-09, 
DataValue, -4.2, -3.2687999999999997E-09, 
DataValue, -4.1, -3.2159999999999996E-09, 
DataValue, -4, -3.1485999999999997E-09, 
DataValue, -3.9, -3.1976E-09, 
DataValue, -3.8000000000000003, -3.0935999999999997E-09, 
DataValue, -3.7, -3.1353999999999997E-09, 
DataValue, -3.6, -3.0934999999999997E-09, 
DataValue, -3.5, -3.0225E-09, 
DataValue, -3.4, -3.0397999999999998E-09, 
DataValue, -3.3000000000000003, -2.9977999999999997E-09, 
DataValue, -3.2, -2.9754E-09, 
DataValue, -3.1, -2.9362E-09, 
DataValue, -3, -2.9314999999999996E-09, 
DataValue, -2.9, -2.8929E-09, 
DataValue, -2.8000000000000003, -2.8622E-09, 
DataValue, -2.7, -2.8322E-09, 
DataValue, -2.6, -2.8083E-09, 
DataValue, -2.5, -2.7361999999999997E-09, 
DataValue, -2.4, -2.7412999999999996E-09, 
DataValue, -2.3000000000000003, -2.7139E-09, 
DataValue, -2.2, -2.6956999999999997E-09, 
DataValue, -2.1, -2.6192E-09, 
DataValue, -2, -2.6275E-09, 
DataValue, -1.9000000000000001, -2.5626E-09, 
DataValue, -1.8, -2.5302E-09, 
DataValue, -1.7, -2.4866999999999997E-09, 
DataValue, -1.6, -2.4404E-09, 
DataValue, -1.5, -2.42E-09, 
DataValue, -1.4000000000000001, -2.3658E-09, 
DataValue, -1.3, -2.281E-09, 
DataValue, -1.2, -2.2655999999999997E-09, 
DataValue, -1.1, -2.1869E-09, 
DataValue, -1, -2.1405E-09, 
DataValue, -0.9, -2.0673999999999997E-09, 
DataValue, -0.8, -1.9969999999999996E-09, 
DataValue, -0.70000000000000007, -1.9136999999999997E-09, 
DataValue, -0.6, -1.8025E-09, 
DataValue, -0.5, -1.6705999999999998E-09, 
DataValue, -0.4, -1.4503999999999999E-09, 
DataValue, -0.3, -1.3039999999999998E-09, 
DataValue, -0.2, -1.0984999999999999E-09, 
DataValue, -0.1, -8.143E-10, 
DataValue, 0, -2.5249999999999996E-10, 
DataValue, 0.1, 6.6689999999999994E-10, 
DataValue, 0.2, 1.098E-09, 
DataValue, 0.3, 1.3935999999999998E-09, 
DataValue, 0.4, 1.6383999999999998E-09, 
DataValue, 0.5, 1.8705999999999997E-09, 
DataValue, 0.6, 2.0338999999999998E-09, 
DataValue, 0.70000000000000007, 2.1851E-09, 
DataValue, 0.8, 2.3137E-09, 
DataValue, 0.9, 2.4579999999999996E-09, 
DataValue, 1, 2.5676E-09, 
DataValue, 1.1, 2.66986E-09, 
DataValue, 1.2, 2.76936E-09, 
DataValue, 1.3, 2.85227E-09, 
DataValue, 1.4000000000000001, 2.92981E-09, 
DataValue, 1.5, 3.01611E-09, 
DataValue, 1.6, 3.09576E-09, 
DataValue, 1.7, 3.1786E-09, 
DataValue, 1.8, 3.22121E-09, 
DataValue, 1.9000000000000001, 3.28425E-09, 
DataValue, 2, 3.35479E-09, 
DataValue, 2.1, 3.3922E-09, 
DataValue, 2.2, 3.45963E-09, 
DataValue, 2.3000000000000003, 3.49362E-09, 
DataValue, 2.4, 3.53119E-09, 
DataValue, 2.5, 3.57106E-09, 
DataValue, 2.6, 3.5982E-09, 
DataValue, 2.7, 3.65102E-09, 
DataValue, 2.8000000000000003, 3.66603E-09, 
DataValue, 2.9, 3.70315E-09, 
DataValue, 3, 3.74127E-09, 
DataValue, 3.1, 3.74743E-09, 
DataValue, 3.2, 3.78847E-09, 
DataValue, 3.3000000000000003, 3.82069E-09, 
DataValue, 3.4, 3.845E-09, 
DataValue, 3.5, 3.88812E-09, 
DataValue, 3.6, 3.90583E-09, 
DataValue, 3.7, 3.92305E-09, 
DataValue, 3.8000000000000003, 3.94561E-09, 
DataValue, 3.9, 3.97519E-09, 
DataValue, 4, 4.00546E-09, 
DataValue, 4.1, 4.05483E-09, 
DataValue, 4.2, 4.05222E-09, 
DataValue, 4.3, 4.077E-09, 
DataValue, 4.4, 4.10453E-09, 
DataValue, 4.5, 4.14008E-09, 
DataValue, 4.6000000000000005, 4.17975E-09, 
DataValue, 4.7, 4.22E-09, 
DataValue, 4.8, 4.25926E-09, 
DataValue, 4.9, 4.31126E-09, 
DataValue, 5, 4.35583E-09, 