
SetupTitle, WW
PrimitiveTest, I/V Sweep
TestParameter, Context.MainFrame, B1500A
TestParameter, Channel.UnitType, SMU, SMU
TestParameter, Channel.Unit, SMU2:HP, SMU1:HP
TestParameter, Channel.IName, I1, I4
TestParameter, Channel.VName, V1, V4
TestParameter, Channel.Mode, V, COMMON
TestParameter, Channel.Func, VAR1, CONST
TestParameter, Channel.Index, 
TestParameter, Channel.Time, 
TestParameter, Measurement.Port.Unit, SMU2:HP, SMU1:HP
TestParameter, Measurement.Port.SeriesResistor, NONE, NONE
TestParameter, Measurement.Port.Filter, ON, ON
TestParameter, Measurement.Port.OutputVoltageComparison, 0, 0
TestParameter, Measurement.Primary.Locus, Single
TestParameter, Measurement.Primary.Scale, LINEAR
TestParameter, Measurement.Primary.Start, -5
TestParameter, Measurement.Primary.Stop, 5
TestParameter, Measurement.Primary.Step, 0.1
TestParameter, Measurement.Primary.Compliance, 0.1
TestParameter, Measurement.Primary.PowerCompliance, 0
TestParameter, Measurement.Aborting.Condition, CONTINUE AT ANY
TestParameter, Measurement.PostOutput.Value, START
TestParameter, Measurement.PostOutput.Retention, OFF
TestParameter, Measurement.Bias.Source, -5, 0
TestParameter, Measurement.Bias.Compliance, 0.1, 1
TestParameter, Measurement.Monitor.Unit, SMU2:HP, SMU1:HP
TestParameter, Measurement.Monitor.Adc, HR ADC, HR ADC
TestParameter, Measurement.Monitor.Measurement, Compliance Side, Compliance Side
TestParameter, Measurement.Monitor.RangingMode, AUTO, AUTO
TestParameter, Measurement.Monitor.RangeBoundary, , 
TestParameter, Measurement.Monitor.RangeRating, BY FULL RANGE, BY FULL RANGE
TestParameter, Measurement.Monitor.RangeRatingCoeff, 50, 50
TestParameter, Measurement.Timing.Hold, 0
TestParameter, Measurement.Timing.Delay, 0.001
TestParameter, Measurement.Adc.HighSpeed.Mode, AUTO
TestParameter, Measurement.Adc.HighSpeed.Coeff, 1
TestParameter, Measurement.Adc.HighResolution.AutoZero, OFF
TestParameter, Measurement.Adc.HighResolution.Mode, PLC
TestParameter, Measurement.Adc.HighResolution.Coeff, 1
TestParameter, Measurement.WaitTime.Source.Coeff, 1
TestParameter, Measurement.WaitTime.Source.Offset, 0
TestParameter, Measurement.WaitTime.Monitor.Coeff, 1
TestParameter, Measurement.WaitTime.Monitor.Offset, 0
TestParameter, Function.User.Name, Ohmic
TestParameter, Function.User.Unit, ohm
TestParameter, Function.User.Definition, avg(V1/I1)
TestParameter, Output.Graph.Enabled, true
TestParameter, Output.Graph.XAxis.Data, V1
TestParameter, Output.Graph.XAxis.Scale, Linear
TestParameter, Output.Graph.XAxis.Left, -5
TestParameter, Output.Graph.XAxis.Right, 5
TestParameter, Output.Graph.YAxis.Data, I1
TestParameter, Output.Graph.YAxis.Scale, Linear
TestParameter, Output.Graph.YAxis.Bottom, -0.001
TestParameter, Output.Graph.YAxis.Top, 0.001
TestParameter, Output.Graph.YAxis.Group, 
TestParameter, Output.Scalar.Data, Ohmic
TestParameter, AutoAnalysis.Interpolation, false
TestParameter, AutoAnalysis.Line1.Enabled, false
TestParameter, AutoAnalysis.Line1.Type, 1
TestParameter, AutoAnalysis.Line1.Fix, True
TestParameter, AutoAnalysis.Line1.YAxis, 0
TestParameter, AutoAnalysis.Line1.Point1.Type, 0
TestParameter, AutoAnalysis.Line1.Point1.XY.X, 
TestParameter, AutoAnalysis.Line1.Point1.XY.Y, 
TestParameter, AutoAnalysis.Line1.Point1.Data.Var, 
TestParameter, AutoAnalysis.Line1.Point1.Data.Condition, 
TestParameter, AutoAnalysis.Line1.Point1.Data.Start, false
TestParameter, AutoAnalysis.Line1.Point1.Data.StartVar, 
TestParameter, AutoAnalysis.Line1.Point1.Data.StartCondition, 
TestParameter, AutoAnalysis.Line1.Point2.Type, 0
TestParameter, AutoAnalysis.Line1.Point2.XY.X, 
TestParameter, AutoAnalysis.Line1.Point2.XY.Y, 
TestParameter, AutoAnalysis.Line1.Point2.Data.Var, 
TestParameter, AutoAnalysis.Line1.Point2.Data.Condition, 
TestParameter, AutoAnalysis.Line1.Point2.Data.Start, false
TestParameter, AutoAnalysis.Line1.Point2.Data.StartVar, 
TestParameter, AutoAnalysis.Line1.Point2.Data.StartCondition, 
TestParameter, AutoAnalysis.Line1.GradientExpr, 0
TestParameter, AutoAnalysis.Line2.Enabled, false
TestParameter, AutoAnalysis.Line2.Type, 1
TestParameter, AutoAnalysis.Line2.Fix, True
TestParameter, AutoAnalysis.Line2.YAxis, 0
TestParameter, AutoAnalysis.Line2.Point1.Type, 0
TestParameter, AutoAnalysis.Line2.Point1.XY.X, 
TestParameter, AutoAnalysis.Line2.Point1.XY.Y, 
TestParameter, AutoAnalysis.Line2.Point1.Data.Var, 
TestParameter, AutoAnalysis.Line2.Point1.Data.Condition, 
TestParameter, AutoAnalysis.Line2.Point1.Data.Start, false
TestParameter, AutoAnalysis.Line2.Point1.Data.StartVar, 
TestParameter, AutoAnalysis.Line2.Point1.Data.StartCondition, 
TestParameter, AutoAnalysis.Line2.Point2.Type, 0
TestParameter, AutoAnalysis.Line2.Point2.XY.X, 
TestParameter, AutoAnalysis.Line2.Point2.XY.Y, 
TestParameter, AutoAnalysis.Line2.Point2.Data.Var, 
TestParameter, AutoAnalysis.Line2.Point2.Data.Condition, 
TestParameter, AutoAnalysis.Line2.Point2.Data.Start, false
TestParameter, AutoAnalysis.Line2.Point2.Data.StartVar, 
TestParameter, AutoAnalysis.Line2.Point2.Data.StartCondition, 
TestParameter, AutoAnalysis.Line2.GradientExpr, 0
TestParameter, AutoAnalysis.Marker.Enabled, false
TestParameter, AutoAnalysis.Marker.Data.Var, 
TestParameter, AutoAnalysis.Marker.Data.Condition, 
TestParameter, AutoAnalysis.Marker.Data.Start, false
TestParameter, AutoAnalysis.Marker.Data.StartVar, 
TestParameter, AutoAnalysis.Marker.Data.StartCondition, 
MetaData, TestRecord.EntryPoint, true
MetaData, TestRecord.RecordTime, 09/05/2020 14:00:18
MetaData, TestRecord.TestTarget, 
MetaData, TestRecord.IterationIndex, 18
MetaData, TestRecord.Preservation, true
MetaData, TestRecord.Flag, 
MetaData, TestRecord.Remarks, 
MetaData, TestRecord.LinkKey, 28235f40-a778-4abd-bf7f-b30e62b11a20
Dimension1, 101, 101, 101
Dimension2, 1, 1, 1
DataName, V1, I1, Ohmic
DataValue, -5, -2.8090999999999997E-09, 968593200.23294842
DataValue, -4.9, -2.7360999999999997E-09, 
DataValue, -4.8, -2.7047999999999996E-09, 
DataValue, -4.7, -2.7037999999999997E-09, 
DataValue, -4.6000000000000005, -2.6440999999999996E-09, 
DataValue, -4.5, -2.6141E-09, 
DataValue, -4.4, -2.5668E-09, 
DataValue, -4.3, -2.5205999999999998E-09, 
DataValue, -4.2, -2.5196E-09, 
DataValue, -4.1, -2.5181E-09, 
DataValue, -4, -2.4902E-09, 
DataValue, -3.9, -2.4637999999999997E-09, 
DataValue, -3.8000000000000003, -2.4704999999999997E-09, 
DataValue, -3.7, -2.4383999999999998E-09, 
DataValue, -3.6, -2.3995E-09, 
DataValue, -3.5, -2.3793E-09, 
DataValue, -3.4, -2.3162E-09, 
DataValue, -3.3000000000000003, -2.3097999999999996E-09, 
DataValue, -3.2, -2.2904E-09, 
DataValue, -3.1, -2.2725999999999998E-09, 
DataValue, -3, -2.2737999999999997E-09, 
DataValue, -2.9, -2.2543E-09, 
DataValue, -2.8000000000000003, -2.2725999999999998E-09, 
DataValue, -2.7, -2.2542E-09, 
DataValue, -2.6, -2.2292999999999997E-09, 
DataValue, -2.5, -2.2033999999999996E-09, 
DataValue, -2.4, -2.1801E-09, 
DataValue, -2.3000000000000003, -2.1102999999999996E-09, 
DataValue, -2.2, -2.0967999999999996E-09, 
DataValue, -2.1, -2.0341E-09, 
DataValue, -2, -2.0144999999999996E-09, 
DataValue, -1.9000000000000001, -1.9968E-09, 
DataValue, -1.8, -1.9229999999999997E-09, 
DataValue, -1.7, -1.9349E-09, 
DataValue, -1.6, -1.8992E-09, 
DataValue, -1.5, -1.914E-09, 
DataValue, -1.4000000000000001, -1.8234E-09, 
DataValue, -1.3, -1.7988999999999999E-09, 
DataValue, -1.2, -1.7359999999999998E-09, 
DataValue, -1.1, -1.6690999999999998E-09, 
DataValue, -1, -1.6119999999999998E-09, 
DataValue, -0.9, -1.5437999999999998E-09, 
DataValue, -0.8, -1.4985999999999998E-09, 
DataValue, -0.70000000000000007, -1.4413999999999998E-09, 
DataValue, -0.6, -1.2901E-09, 
DataValue, -0.5, -1.2026E-09, 
DataValue, -0.4, -1.0912E-09, 
DataValue, -0.3, -9.2629999999999989E-10, 
DataValue, -0.2, -7.5649999999999992E-10, 
DataValue, -0.1, -6.151999999999999E-10, 
DataValue, 0, -2.0299999999999997E-10, 
DataValue, 0.1, 5.1449999999999993E-10, 
DataValue, 0.2, 8.605999999999999E-10, 
DataValue, 0.3, 1.0874999999999998E-09, 
DataValue, 0.4, 1.2869999999999998E-09, 
DataValue, 0.5, 1.4603999999999998E-09, 
DataValue, 0.6, 1.6239E-09, 
DataValue, 0.70000000000000007, 1.7465E-09, 
DataValue, 0.8, 1.8560999999999998E-09, 
DataValue, 0.9, 1.9742E-09, 
DataValue, 1, 2.07242E-09, 
DataValue, 1.1, 2.15166E-09, 
DataValue, 1.2, 2.2512E-09, 
DataValue, 1.3, 2.3264299999999998E-09, 
DataValue, 1.4000000000000001, 2.41916E-09, 
DataValue, 1.5, 2.52155E-09, 
DataValue, 1.6, 2.56651E-09, 
DataValue, 1.7, 2.60283E-09, 
DataValue, 1.8, 2.66883E-09, 
DataValue, 1.9000000000000001, 2.73238E-09, 
DataValue, 2, 2.78088E-09, 
DataValue, 2.1, 2.83696E-09, 
DataValue, 2.2, 2.90174E-09, 
DataValue, 2.3000000000000003, 2.94571E-09, 
DataValue, 2.4, 2.9686399999999998E-09, 
DataValue, 2.5, 3.04356E-09, 
DataValue, 2.6, 3.05938E-09, 
DataValue, 2.7, 3.09225E-09, 
DataValue, 2.8000000000000003, 3.10025E-09, 
DataValue, 2.9, 3.13964E-09, 
DataValue, 3, 3.17653E-09, 
DataValue, 3.1, 3.1892E-09, 
DataValue, 3.2, 3.22941E-09, 
DataValue, 3.3000000000000003, 3.23099E-09, 
DataValue, 3.4, 3.26937E-09, 
DataValue, 3.5, 3.29994E-09, 
DataValue, 3.6, 3.33999E-09, 
DataValue, 3.7, 3.33927E-09, 
DataValue, 3.8000000000000003, 3.36633E-09, 
DataValue, 3.9, 3.3784E-09, 
DataValue, 4, 3.40685E-09, 
DataValue, 4.1, 3.41451E-09, 
DataValue, 4.2, 3.44055E-09, 
DataValue, 4.3, 3.47551E-09, 
DataValue, 4.4, 3.48214E-09, 
DataValue, 4.5, 3.50738E-09, 
DataValue, 4.6000000000000005, 3.54101E-09, 
DataValue, 4.7, 3.57891E-09, 
DataValue, 4.8, 3.58057E-09, 
DataValue, 4.9, 3.64827E-09, 
DataValue, 5, 3.65584E-09, 