
SetupTitle, WW
PrimitiveTest, I/V Sweep
TestParameter, Context.MainFrame, B1500A
TestParameter, Channel.UnitType, SMU, SMU
TestParameter, Channel.Unit, SMU2:HP, SMU1:HP
TestParameter, Channel.IName, I1, I4
TestParameter, Channel.VName, V1, V4
TestParameter, Channel.Mode, V, COMMON
TestParameter, Channel.Func, VAR1, CONST
TestParameter, Channel.Index, 
TestParameter, Channel.Time, 
TestParameter, Measurement.Port.Unit, SMU2:HP, SMU1:HP
TestParameter, Measurement.Port.SeriesResistor, NONE, NONE
TestParameter, Measurement.Port.Filter, ON, ON
TestParameter, Measurement.Port.OutputVoltageComparison, 0, 0
TestParameter, Measurement.Primary.Locus, Single
TestParameter, Measurement.Primary.Scale, LINEAR
TestParameter, Measurement.Primary.Start, -5
TestParameter, Measurement.Primary.Stop, 5
TestParameter, Measurement.Primary.Step, 0.1
TestParameter, Measurement.Primary.Compliance, 0.1
TestParameter, Measurement.Primary.PowerCompliance, 0
TestParameter, Measurement.Aborting.Condition, CONTINUE AT ANY
TestParameter, Measurement.PostOutput.Value, START
TestParameter, Measurement.PostOutput.Retention, OFF
TestParameter, Measurement.Bias.Source, -5, 0
TestParameter, Measurement.Bias.Compliance, 0.1, 1
TestParameter, Measurement.Monitor.Unit, SMU2:HP, SMU1:HP
TestParameter, Measurement.Monitor.Adc, HR ADC, HR ADC
TestParameter, Measurement.Monitor.Measurement, Compliance Side, Compliance Side
TestParameter, Measurement.Monitor.RangingMode, AUTO, AUTO
TestParameter, Measurement.Monitor.RangeBoundary, , 
TestParameter, Measurement.Monitor.RangeRating, BY FULL RANGE, BY FULL RANGE
TestParameter, Measurement.Monitor.RangeRatingCoeff, 50, 50
TestParameter, Measurement.Timing.Hold, 0
TestParameter, Measurement.Timing.Delay, 0.001
TestParameter, Measurement.Adc.HighSpeed.Mode, AUTO
TestParameter, Measurement.Adc.HighSpeed.Coeff, 1
TestParameter, Measurement.Adc.HighResolution.AutoZero, OFF
TestParameter, Measurement.Adc.HighResolution.Mode, PLC
TestParameter, Measurement.Adc.HighResolution.Coeff, 1
TestParameter, Measurement.WaitTime.Source.Coeff, 1
TestParameter, Measurement.WaitTime.Source.Offset, 0
TestParameter, Measurement.WaitTime.Monitor.Coeff, 1
TestParameter, Measurement.WaitTime.Monitor.Offset, 0
TestParameter, Function.User.Name, Ohmic
TestParameter, Function.User.Unit, ohm
TestParameter, Function.User.Definition, avg(V1/I1)
TestParameter, Output.Graph.Enabled, true
TestParameter, Output.Graph.XAxis.Data, V1
TestParameter, Output.Graph.XAxis.Scale, Linear
TestParameter, Output.Graph.XAxis.Left, -5
TestParameter, Output.Graph.XAxis.Right, 5
TestParameter, Output.Graph.YAxis.Data, I1
TestParameter, Output.Graph.YAxis.Scale, Linear
TestParameter, Output.Graph.YAxis.Bottom, -0.001
TestParameter, Output.Graph.YAxis.Top, 0.001
TestParameter, Output.Graph.YAxis.Group, 
TestParameter, Output.Scalar.Data, Ohmic
TestParameter, AutoAnalysis.Interpolation, false
TestParameter, AutoAnalysis.Line1.Enabled, false
TestParameter, AutoAnalysis.Line1.Type, 1
TestParameter, AutoAnalysis.Line1.Fix, True
TestParameter, AutoAnalysis.Line1.YAxis, 0
TestParameter, AutoAnalysis.Line1.Point1.Type, 0
TestParameter, AutoAnalysis.Line1.Point1.XY.X, 
TestParameter, AutoAnalysis.Line1.Point1.XY.Y, 
TestParameter, AutoAnalysis.Line1.Point1.Data.Var, 
TestParameter, AutoAnalysis.Line1.Point1.Data.Condition, 
TestParameter, AutoAnalysis.Line1.Point1.Data.Start, false
TestParameter, AutoAnalysis.Line1.Point1.Data.StartVar, 
TestParameter, AutoAnalysis.Line1.Point1.Data.StartCondition, 
TestParameter, AutoAnalysis.Line1.Point2.Type, 0
TestParameter, AutoAnalysis.Line1.Point2.XY.X, 
TestParameter, AutoAnalysis.Line1.Point2.XY.Y, 
TestParameter, AutoAnalysis.Line1.Point2.Data.Var, 
TestParameter, AutoAnalysis.Line1.Point2.Data.Condition, 
TestParameter, AutoAnalysis.Line1.Point2.Data.Start, false
TestParameter, AutoAnalysis.Line1.Point2.Data.StartVar, 
TestParameter, AutoAnalysis.Line1.Point2.Data.StartCondition, 
TestParameter, AutoAnalysis.Line1.GradientExpr, 0
TestParameter, AutoAnalysis.Line2.Enabled, false
TestParameter, AutoAnalysis.Line2.Type, 1
TestParameter, AutoAnalysis.Line2.Fix, True
TestParameter, AutoAnalysis.Line2.YAxis, 0
TestParameter, AutoAnalysis.Line2.Point1.Type, 0
TestParameter, AutoAnalysis.Line2.Point1.XY.X, 
TestParameter, AutoAnalysis.Line2.Point1.XY.Y, 
TestParameter, AutoAnalysis.Line2.Point1.Data.Var, 
TestParameter, AutoAnalysis.Line2.Point1.Data.Condition, 
TestParameter, AutoAnalysis.Line2.Point1.Data.Start, false
TestParameter, AutoAnalysis.Line2.Point1.Data.StartVar, 
TestParameter, AutoAnalysis.Line2.Point1.Data.StartCondition, 
TestParameter, AutoAnalysis.Line2.Point2.Type, 0
TestParameter, AutoAnalysis.Line2.Point2.XY.X, 
TestParameter, AutoAnalysis.Line2.Point2.XY.Y, 
TestParameter, AutoAnalysis.Line2.Point2.Data.Var, 
TestParameter, AutoAnalysis.Line2.Point2.Data.Condition, 
TestParameter, AutoAnalysis.Line2.Point2.Data.Start, false
TestParameter, AutoAnalysis.Line2.Point2.Data.StartVar, 
TestParameter, AutoAnalysis.Line2.Point2.Data.StartCondition, 
TestParameter, AutoAnalysis.Line2.GradientExpr, 0
TestParameter, AutoAnalysis.Marker.Enabled, false
TestParameter, AutoAnalysis.Marker.Data.Var, 
TestParameter, AutoAnalysis.Marker.Data.Condition, 
TestParameter, AutoAnalysis.Marker.Data.Start, false
TestParameter, AutoAnalysis.Marker.Data.StartVar, 
TestParameter, AutoAnalysis.Marker.Data.StartCondition, 
MetaData, TestRecord.EntryPoint, true
MetaData, TestRecord.RecordTime, 09/05/2020 13:59:39
MetaData, TestRecord.TestTarget, 
MetaData, TestRecord.IterationIndex, 17
MetaData, TestRecord.Preservation, true
MetaData, TestRecord.Flag, 
MetaData, TestRecord.Remarks, 
MetaData, TestRecord.LinkKey, 3f91a841-d8f7-4b2d-b161-daa987a5bbf6
Dimension1, 101, 101, 101
Dimension2, 1, 1, 1
DataName, V1, I1, Ohmic
DataValue, -5, -2.3043999999999996E-09, 1142056081.5439212
DataValue, -4.9, -2.2166E-09, 
DataValue, -4.8, -2.2047999999999997E-09, 
DataValue, -4.7, -2.1280999999999997E-09, 
DataValue, -4.6000000000000005, -2.0851999999999998E-09, 
DataValue, -4.5, -2.0301E-09, 
DataValue, -4.4, -2.0147999999999997E-09, 
DataValue, -4.3, -2.0069999999999998E-09, 
DataValue, -4.2, -2.0513999999999998E-09, 
DataValue, -4.1, -1.9905999999999997E-09, 
DataValue, -4, -1.9901E-09, 
DataValue, -3.9, -1.9753E-09, 
DataValue, -3.8000000000000003, -1.9246999999999998E-09, 
DataValue, -3.7, -1.9373E-09, 
DataValue, -3.6, -1.8905999999999997E-09, 
DataValue, -3.5, -1.9199E-09, 
DataValue, -3.4, -1.8896999999999998E-09, 
DataValue, -3.3000000000000003, -1.8580999999999998E-09, 
DataValue, -3.2, -1.8389E-09, 
DataValue, -3.1, -1.8526999999999998E-09, 
DataValue, -3, -1.8620999999999998E-09, 
DataValue, -2.9, -1.8193999999999997E-09, 
DataValue, -2.8000000000000003, -1.7777999999999998E-09, 
DataValue, -2.7, -1.7492E-09, 
DataValue, -2.6, -1.7330999999999997E-09, 
DataValue, -2.5, -1.7142E-09, 
DataValue, -2.4, -1.7101999999999997E-09, 
DataValue, -2.3000000000000003, -1.7117999999999998E-09, 
DataValue, -2.2, -1.7158999999999998E-09, 
DataValue, -2.1, -1.7004999999999999E-09, 
DataValue, -2, -1.6631999999999998E-09, 
DataValue, -1.9000000000000001, -1.6855999999999999E-09, 
DataValue, -1.8, -1.6425999999999999E-09, 
DataValue, -1.7, -1.5870999999999998E-09, 
DataValue, -1.6, -1.5519999999999998E-09, 
DataValue, -1.5, -1.5265999999999999E-09, 
DataValue, -1.4000000000000001, -1.4901999999999999E-09, 
DataValue, -1.3, -1.4815E-09, 
DataValue, -1.2, -1.4586E-09, 
DataValue, -1.1, -1.4089E-09, 
DataValue, -1, -1.365E-09, 
DataValue, -0.9, -1.3281999999999998E-09, 
DataValue, -0.8, -1.2537E-09, 
DataValue, -0.70000000000000007, -1.1741E-09, 
DataValue, -0.6, -1.1011999999999999E-09, 
DataValue, -0.5, -1.0148999999999999E-09, 
DataValue, -0.4, -9.0679999999999991E-10, 
DataValue, -0.3, -7.9589999999999991E-10, 
DataValue, -0.2, -6.3589999999999994E-10, 
DataValue, -0.1, -4.5259999999999997E-10, 
DataValue, 0, -7.65E-11, 
DataValue, 0.1, 6.225999999999999E-10, 
DataValue, 0.2, 9.6169999999999989E-10, 
DataValue, 0.3, 1.1719999999999999E-09, 
DataValue, 0.4, 1.3402999999999998E-09, 
DataValue, 0.5, 1.4994999999999998E-09, 
DataValue, 0.6, 1.6064999999999998E-09, 
DataValue, 0.70000000000000007, 1.7258999999999998E-09, 
DataValue, 0.8, 1.83942E-09, 
DataValue, 0.9, 1.93351E-09, 
DataValue, 1, 2.00418E-09, 
DataValue, 1.1, 2.0941E-09, 
DataValue, 1.2, 2.17147E-09, 
DataValue, 1.3, 2.24591E-09, 
DataValue, 1.4000000000000001, 2.30536E-09, 
DataValue, 1.5, 2.34374E-09, 
DataValue, 1.6, 2.42709E-09, 
DataValue, 1.7, 2.47034E-09, 
DataValue, 1.8, 2.51121E-09, 
DataValue, 1.9000000000000001, 2.56628E-09, 
DataValue, 2, 2.59344E-09, 
DataValue, 2.1, 2.62794E-09, 
DataValue, 2.2, 2.66854E-09, 
DataValue, 2.3000000000000003, 2.68747E-09, 
DataValue, 2.4, 2.73027E-09, 
DataValue, 2.5, 2.76157E-09, 
DataValue, 2.6, 2.77046E-09, 
DataValue, 2.7, 2.78211E-09, 
DataValue, 2.8000000000000003, 2.82338E-09, 
DataValue, 2.9, 2.83152E-09, 
DataValue, 3, 2.85248E-09, 
DataValue, 3.1, 2.86987E-09, 
DataValue, 3.2, 2.88871E-09, 
DataValue, 3.3000000000000003, 2.9035E-09, 
DataValue, 3.4, 2.92079E-09, 
DataValue, 3.5, 2.94104E-09, 
DataValue, 3.6, 2.96241E-09, 
DataValue, 3.7, 2.97808E-09, 
DataValue, 3.8000000000000003, 2.99128E-09, 
DataValue, 3.9, 3.00585E-09, 
DataValue, 4, 3.02982E-09, 
DataValue, 4.1, 3.04008E-09, 
DataValue, 4.2, 3.08577E-09, 
DataValue, 4.3, 3.09581E-09, 
DataValue, 4.4, 3.11154E-09, 
DataValue, 4.5, 3.13304E-09, 
DataValue, 4.6000000000000005, 3.14478E-09, 
DataValue, 4.7, 3.1635E-09, 
DataValue, 4.8, 3.20216E-09, 
DataValue, 4.9, 3.22465E-09, 
DataValue, 5, 3.26E-09, 