
SetupTitle, WW
PrimitiveTest, I/V Sweep
TestParameter, Context.MainFrame, B1500A
TestParameter, Channel.UnitType, SMU, SMU
TestParameter, Channel.Unit, SMU2:HP, SMU1:HP
TestParameter, Channel.IName, I1, I4
TestParameter, Channel.VName, V1, V4
TestParameter, Channel.Mode, V, COMMON
TestParameter, Channel.Func, VAR1, CONST
TestParameter, Channel.Index, 
TestParameter, Channel.Time, 
TestParameter, Measurement.Port.Unit, SMU2:HP, SMU1:HP
TestParameter, Measurement.Port.SeriesResistor, NONE, NONE
TestParameter, Measurement.Port.Filter, ON, ON
TestParameter, Measurement.Port.OutputVoltageComparison, 0, 0
TestParameter, Measurement.Primary.Locus, Single
TestParameter, Measurement.Primary.Scale, LINEAR
TestParameter, Measurement.Primary.Start, -5
TestParameter, Measurement.Primary.Stop, 5
TestParameter, Measurement.Primary.Step, 0.1
TestParameter, Measurement.Primary.Compliance, 0.1
TestParameter, Measurement.Primary.PowerCompliance, 0
TestParameter, Measurement.Aborting.Condition, CONTINUE AT ANY
TestParameter, Measurement.PostOutput.Value, START
TestParameter, Measurement.PostOutput.Retention, OFF
TestParameter, Measurement.Bias.Source, -5, 0
TestParameter, Measurement.Bias.Compliance, 0.1, 1
TestParameter, Measurement.Monitor.Unit, SMU2:HP, SMU1:HP
TestParameter, Measurement.Monitor.Adc, HR ADC, HR ADC
TestParameter, Measurement.Monitor.Measurement, Compliance Side, Compliance Side
TestParameter, Measurement.Monitor.RangingMode, AUTO, AUTO
TestParameter, Measurement.Monitor.RangeBoundary, , 
TestParameter, Measurement.Monitor.RangeRating, BY FULL RANGE, BY FULL RANGE
TestParameter, Measurement.Monitor.RangeRatingCoeff, 50, 50
TestParameter, Measurement.Timing.Hold, 0
TestParameter, Measurement.Timing.Delay, 0.001
TestParameter, Measurement.Adc.HighSpeed.Mode, AUTO
TestParameter, Measurement.Adc.HighSpeed.Coeff, 1
TestParameter, Measurement.Adc.HighResolution.AutoZero, OFF
TestParameter, Measurement.Adc.HighResolution.Mode, PLC
TestParameter, Measurement.Adc.HighResolution.Coeff, 1
TestParameter, Measurement.WaitTime.Source.Coeff, 1
TestParameter, Measurement.WaitTime.Source.Offset, 0
TestParameter, Measurement.WaitTime.Monitor.Coeff, 1
TestParameter, Measurement.WaitTime.Monitor.Offset, 0
TestParameter, Function.User.Name, Ohmic
TestParameter, Function.User.Unit, ohm
TestParameter, Function.User.Definition, avg(V1/I1)
TestParameter, Output.Graph.Enabled, true
TestParameter, Output.Graph.XAxis.Data, V1
TestParameter, Output.Graph.XAxis.Scale, Linear
TestParameter, Output.Graph.XAxis.Left, -5
TestParameter, Output.Graph.XAxis.Right, 5
TestParameter, Output.Graph.YAxis.Data, I1
TestParameter, Output.Graph.YAxis.Scale, Linear
TestParameter, Output.Graph.YAxis.Bottom, -0.001
TestParameter, Output.Graph.YAxis.Top, 0.001
TestParameter, Output.Graph.YAxis.Group, 
TestParameter, Output.Scalar.Data, Ohmic
TestParameter, AutoAnalysis.Interpolation, false
TestParameter, AutoAnalysis.Line1.Enabled, false
TestParameter, AutoAnalysis.Line1.Type, 1
TestParameter, AutoAnalysis.Line1.Fix, True
TestParameter, AutoAnalysis.Line1.YAxis, 0
TestParameter, AutoAnalysis.Line1.Point1.Type, 0
TestParameter, AutoAnalysis.Line1.Point1.XY.X, 
TestParameter, AutoAnalysis.Line1.Point1.XY.Y, 
TestParameter, AutoAnalysis.Line1.Point1.Data.Var, 
TestParameter, AutoAnalysis.Line1.Point1.Data.Condition, 
TestParameter, AutoAnalysis.Line1.Point1.Data.Start, false
TestParameter, AutoAnalysis.Line1.Point1.Data.StartVar, 
TestParameter, AutoAnalysis.Line1.Point1.Data.StartCondition, 
TestParameter, AutoAnalysis.Line1.Point2.Type, 0
TestParameter, AutoAnalysis.Line1.Point2.XY.X, 
TestParameter, AutoAnalysis.Line1.Point2.XY.Y, 
TestParameter, AutoAnalysis.Line1.Point2.Data.Var, 
TestParameter, AutoAnalysis.Line1.Point2.Data.Condition, 
TestParameter, AutoAnalysis.Line1.Point2.Data.Start, false
TestParameter, AutoAnalysis.Line1.Point2.Data.StartVar, 
TestParameter, AutoAnalysis.Line1.Point2.Data.StartCondition, 
TestParameter, AutoAnalysis.Line1.GradientExpr, 0
TestParameter, AutoAnalysis.Line2.Enabled, false
TestParameter, AutoAnalysis.Line2.Type, 1
TestParameter, AutoAnalysis.Line2.Fix, True
TestParameter, AutoAnalysis.Line2.YAxis, 0
TestParameter, AutoAnalysis.Line2.Point1.Type, 0
TestParameter, AutoAnalysis.Line2.Point1.XY.X, 
TestParameter, AutoAnalysis.Line2.Point1.XY.Y, 
TestParameter, AutoAnalysis.Line2.Point1.Data.Var, 
TestParameter, AutoAnalysis.Line2.Point1.Data.Condition, 
TestParameter, AutoAnalysis.Line2.Point1.Data.Start, false
TestParameter, AutoAnalysis.Line2.Point1.Data.StartVar, 
TestParameter, AutoAnalysis.Line2.Point1.Data.StartCondition, 
TestParameter, AutoAnalysis.Line2.Point2.Type, 0
TestParameter, AutoAnalysis.Line2.Point2.XY.X, 
TestParameter, AutoAnalysis.Line2.Point2.XY.Y, 
TestParameter, AutoAnalysis.Line2.Point2.Data.Var, 
TestParameter, AutoAnalysis.Line2.Point2.Data.Condition, 
TestParameter, AutoAnalysis.Line2.Point2.Data.Start, false
TestParameter, AutoAnalysis.Line2.Point2.Data.StartVar, 
TestParameter, AutoAnalysis.Line2.Point2.Data.StartCondition, 
TestParameter, AutoAnalysis.Line2.GradientExpr, 0
TestParameter, AutoAnalysis.Marker.Enabled, false
TestParameter, AutoAnalysis.Marker.Data.Var, 
TestParameter, AutoAnalysis.Marker.Data.Condition, 
TestParameter, AutoAnalysis.Marker.Data.Start, false
TestParameter, AutoAnalysis.Marker.Data.StartVar, 
TestParameter, AutoAnalysis.Marker.Data.StartCondition, 
MetaData, TestRecord.EntryPoint, true
MetaData, TestRecord.RecordTime, 09/05/2020 13:58:40
MetaData, TestRecord.TestTarget, 
MetaData, TestRecord.IterationIndex, 15
MetaData, TestRecord.Preservation, true
MetaData, TestRecord.Flag, 
MetaData, TestRecord.Remarks, 
MetaData, TestRecord.LinkKey, 0b27ce63-b5f8-433e-961c-d8b257cda0dd
Dimension1, 101, 101, 101
Dimension2, 1, 1, 1
DataName, V1, I1, Ohmic
DataValue, -5, -1.4923E-09, 1668713534.0753532
DataValue, -4.9, -1.4269E-09, 
DataValue, -4.8, -1.4049999999999998E-09, 
DataValue, -4.7, -1.3157E-09, 
DataValue, -4.6000000000000005, -1.2991999999999998E-09, 
DataValue, -4.5, -1.2438999999999998E-09, 
DataValue, -4.4, -1.2458E-09, 
DataValue, -4.3, -1.2042999999999999E-09, 
DataValue, -4.2, -1.2047E-09, 
DataValue, -4.1, -1.1878E-09, 
DataValue, -4, -1.1844E-09, 
DataValue, -3.9, -1.1871999999999998E-09, 
DataValue, -3.8000000000000003, -1.1487E-09, 
DataValue, -3.7, -1.1568E-09, 
DataValue, -3.6, -1.1591999999999999E-09, 
DataValue, -3.5, -1.1415999999999999E-09, 
DataValue, -3.4, -1.1031999999999999E-09, 
DataValue, -3.3000000000000003, -1.1116999999999998E-09, 
DataValue, -3.2, -1.0687999999999999E-09, 
DataValue, -3.1, -1.0791E-09, 
DataValue, -3, -1.0306E-09, 
DataValue, -2.9, -1.0208999999999999E-09, 
DataValue, -2.8000000000000003, -1.0000999999999999E-09, 
DataValue, -2.7, -9.8719999999999986E-10, 
DataValue, -2.6, -1.0080999999999999E-09, 
DataValue, -2.5, -1.0015E-09, 
DataValue, -2.4, -9.546E-10, 
DataValue, -2.3000000000000003, -9.2909999999999992E-10, 
DataValue, -2.2, -9.369E-10, 
DataValue, -2.1, -9.5609999999999983E-10, 
DataValue, -2, -9.5139999999999984E-10, 
DataValue, -1.9000000000000001, -9.2859999999999987E-10, 
DataValue, -1.8, -8.921E-10, 
DataValue, -1.7, -8.689E-10, 
DataValue, -1.6, -8.6589999999999987E-10, 
DataValue, -1.5, -8.409E-10, 
DataValue, -1.4000000000000001, -8.119E-10, 
DataValue, -1.3, -8.045E-10, 
DataValue, -1.2, -7.8469999999999989E-10, 
DataValue, -1.1, -7.8549999999999992E-10, 
DataValue, -1, -7.701E-10, 
DataValue, -0.9, -7.448E-10, 
DataValue, -0.8, -7.1439999999999993E-10, 
DataValue, -0.70000000000000007, -7.0289999999999992E-10, 
DataValue, -0.6, -6.529E-10, 
DataValue, -0.5, -6.0349999999999993E-10, 
DataValue, -0.4, -5.059E-10, 
DataValue, -0.3, -4.2879999999999996E-10, 
DataValue, -0.2, -3.1489999999999997E-10, 
DataValue, -0.1, -1.503E-10, 
DataValue, 0, 2.3079999999999997E-10, 
DataValue, 0.1, 9.1939999999999995E-10, 
DataValue, 0.2, 1.2469E-09, 
DataValue, 0.3, 1.42307E-09, 
DataValue, 0.4, 1.56575E-09, 
DataValue, 0.5, 1.68093E-09, 
DataValue, 0.6, 1.79822E-09, 
DataValue, 0.70000000000000007, 1.88729E-09, 
DataValue, 0.8, 1.96297E-09, 
DataValue, 0.9, 2.03491E-09, 
DataValue, 1, 2.10176E-09, 
DataValue, 1.1, 2.14263E-09, 
DataValue, 1.2, 2.20847E-09, 
DataValue, 1.3, 2.2625E-09, 
DataValue, 1.4000000000000001, 2.29862E-09, 
DataValue, 1.5, 2.33511E-09, 
DataValue, 1.6, 2.37274E-09, 
DataValue, 1.7, 2.39919E-09, 
DataValue, 1.8, 2.43766E-09, 
DataValue, 1.9000000000000001, 2.4623E-09, 
DataValue, 2, 2.4821E-09, 
DataValue, 2.1, 2.48739E-09, 
DataValue, 2.2, 2.51412E-09, 
DataValue, 2.3000000000000003, 2.51736E-09, 
DataValue, 2.4, 2.54603E-09, 
DataValue, 2.5, 2.55058E-09, 
DataValue, 2.6, 2.56429E-09, 
DataValue, 2.7, 2.56503E-09, 
DataValue, 2.8000000000000003, 2.58632E-09, 
DataValue, 2.9, 2.59309E-09, 
DataValue, 3, 2.60502E-09, 
DataValue, 3.1, 2.61996E-09, 
DataValue, 3.2, 2.62629E-09, 
DataValue, 3.3000000000000003, 2.62827E-09, 
DataValue, 3.4, 2.64435E-09, 
DataValue, 3.5, 2.64543E-09, 
DataValue, 3.6, 2.66393E-09, 
DataValue, 3.7, 2.67945E-09, 
DataValue, 3.8000000000000003, 2.68931E-09, 
DataValue, 3.9, 2.69207E-09, 
DataValue, 4, 2.71824E-09, 
DataValue, 4.1, 2.72165E-09, 
DataValue, 4.2, 2.73196E-09, 
DataValue, 4.3, 2.75409E-09, 
DataValue, 4.4, 2.78482E-09, 
DataValue, 4.5, 2.78392E-09, 
DataValue, 4.6000000000000005, 2.7977E-09, 
DataValue, 4.7, 2.81381E-09, 
DataValue, 4.8, 2.82651E-09, 
DataValue, 4.9, 2.85276E-09, 
DataValue, 5, 2.86205E-09, 