
SetupTitle, WW
PrimitiveTest, I/V Sweep
TestParameter, Context.MainFrame, B1500A
TestParameter, Channel.UnitType, SMU, SMU
TestParameter, Channel.Unit, SMU2:HP, SMU1:HP
TestParameter, Channel.IName, I1, I4
TestParameter, Channel.VName, V1, V4
TestParameter, Channel.Mode, V, COMMON
TestParameter, Channel.Func, VAR1, CONST
TestParameter, Channel.Index, 
TestParameter, Channel.Time, 
TestParameter, Measurement.Port.Unit, SMU2:HP, SMU1:HP
TestParameter, Measurement.Port.SeriesResistor, NONE, NONE
TestParameter, Measurement.Port.Filter, ON, ON
TestParameter, Measurement.Port.OutputVoltageComparison, 0, 0
TestParameter, Measurement.Primary.Locus, Single
TestParameter, Measurement.Primary.Scale, LINEAR
TestParameter, Measurement.Primary.Start, -5
TestParameter, Measurement.Primary.Stop, 5
TestParameter, Measurement.Primary.Step, 0.1
TestParameter, Measurement.Primary.Compliance, 0.1
TestParameter, Measurement.Primary.PowerCompliance, 0
TestParameter, Measurement.Aborting.Condition, CONTINUE AT ANY
TestParameter, Measurement.PostOutput.Value, START
TestParameter, Measurement.PostOutput.Retention, OFF
TestParameter, Measurement.Bias.Source, -5, 0
TestParameter, Measurement.Bias.Compliance, 0.1, 1
TestParameter, Measurement.Monitor.Unit, SMU2:HP, SMU1:HP
TestParameter, Measurement.Monitor.Adc, HR ADC, HR ADC
TestParameter, Measurement.Monitor.Measurement, Compliance Side, Compliance Side
TestParameter, Measurement.Monitor.RangingMode, AUTO, AUTO
TestParameter, Measurement.Monitor.RangeBoundary, , 
TestParameter, Measurement.Monitor.RangeRating, BY FULL RANGE, BY FULL RANGE
TestParameter, Measurement.Monitor.RangeRatingCoeff, 50, 50
TestParameter, Measurement.Timing.Hold, 0
TestParameter, Measurement.Timing.Delay, 0.001
TestParameter, Measurement.Adc.HighSpeed.Mode, AUTO
TestParameter, Measurement.Adc.HighSpeed.Coeff, 1
TestParameter, Measurement.Adc.HighResolution.AutoZero, OFF
TestParameter, Measurement.Adc.HighResolution.Mode, PLC
TestParameter, Measurement.Adc.HighResolution.Coeff, 1
TestParameter, Measurement.WaitTime.Source.Coeff, 1
TestParameter, Measurement.WaitTime.Source.Offset, 0
TestParameter, Measurement.WaitTime.Monitor.Coeff, 1
TestParameter, Measurement.WaitTime.Monitor.Offset, 0
TestParameter, Function.User.Name, Ohmic
TestParameter, Function.User.Unit, ohm
TestParameter, Function.User.Definition, avg(V1/I1)
TestParameter, Output.Graph.Enabled, true
TestParameter, Output.Graph.XAxis.Data, V1
TestParameter, Output.Graph.XAxis.Scale, Linear
TestParameter, Output.Graph.XAxis.Left, -5
TestParameter, Output.Graph.XAxis.Right, 5
TestParameter, Output.Graph.YAxis.Data, I1
TestParameter, Output.Graph.YAxis.Scale, Linear
TestParameter, Output.Graph.YAxis.Bottom, -0.001
TestParameter, Output.Graph.YAxis.Top, 0.001
TestParameter, Output.Graph.YAxis.Group, 
TestParameter, Output.Scalar.Data, Ohmic
TestParameter, AutoAnalysis.Interpolation, false
TestParameter, AutoAnalysis.Line1.Enabled, false
TestParameter, AutoAnalysis.Line1.Type, 1
TestParameter, AutoAnalysis.Line1.Fix, True
TestParameter, AutoAnalysis.Line1.YAxis, 0
TestParameter, AutoAnalysis.Line1.Point1.Type, 0
TestParameter, AutoAnalysis.Line1.Point1.XY.X, 
TestParameter, AutoAnalysis.Line1.Point1.XY.Y, 
TestParameter, AutoAnalysis.Line1.Point1.Data.Var, 
TestParameter, AutoAnalysis.Line1.Point1.Data.Condition, 
TestParameter, AutoAnalysis.Line1.Point1.Data.Start, false
TestParameter, AutoAnalysis.Line1.Point1.Data.StartVar, 
TestParameter, AutoAnalysis.Line1.Point1.Data.StartCondition, 
TestParameter, AutoAnalysis.Line1.Point2.Type, 0
TestParameter, AutoAnalysis.Line1.Point2.XY.X, 
TestParameter, AutoAnalysis.Line1.Point2.XY.Y, 
TestParameter, AutoAnalysis.Line1.Point2.Data.Var, 
TestParameter, AutoAnalysis.Line1.Point2.Data.Condition, 
TestParameter, AutoAnalysis.Line1.Point2.Data.Start, false
TestParameter, AutoAnalysis.Line1.Point2.Data.StartVar, 
TestParameter, AutoAnalysis.Line1.Point2.Data.StartCondition, 
TestParameter, AutoAnalysis.Line1.GradientExpr, 0
TestParameter, AutoAnalysis.Line2.Enabled, false
TestParameter, AutoAnalysis.Line2.Type, 1
TestParameter, AutoAnalysis.Line2.Fix, True
TestParameter, AutoAnalysis.Line2.YAxis, 0
TestParameter, AutoAnalysis.Line2.Point1.Type, 0
TestParameter, AutoAnalysis.Line2.Point1.XY.X, 
TestParameter, AutoAnalysis.Line2.Point1.XY.Y, 
TestParameter, AutoAnalysis.Line2.Point1.Data.Var, 
TestParameter, AutoAnalysis.Line2.Point1.Data.Condition, 
TestParameter, AutoAnalysis.Line2.Point1.Data.Start, false
TestParameter, AutoAnalysis.Line2.Point1.Data.StartVar, 
TestParameter, AutoAnalysis.Line2.Point1.Data.StartCondition, 
TestParameter, AutoAnalysis.Line2.Point2.Type, 0
TestParameter, AutoAnalysis.Line2.Point2.XY.X, 
TestParameter, AutoAnalysis.Line2.Point2.XY.Y, 
TestParameter, AutoAnalysis.Line2.Point2.Data.Var, 
TestParameter, AutoAnalysis.Line2.Point2.Data.Condition, 
TestParameter, AutoAnalysis.Line2.Point2.Data.Start, false
TestParameter, AutoAnalysis.Line2.Point2.Data.StartVar, 
TestParameter, AutoAnalysis.Line2.Point2.Data.StartCondition, 
TestParameter, AutoAnalysis.Line2.GradientExpr, 0
TestParameter, AutoAnalysis.Marker.Enabled, false
TestParameter, AutoAnalysis.Marker.Data.Var, 
TestParameter, AutoAnalysis.Marker.Data.Condition, 
TestParameter, AutoAnalysis.Marker.Data.Start, false
TestParameter, AutoAnalysis.Marker.Data.StartVar, 
TestParameter, AutoAnalysis.Marker.Data.StartCondition, 
MetaData, TestRecord.EntryPoint, true
MetaData, TestRecord.RecordTime, 09/05/2020 13:57:35
MetaData, TestRecord.TestTarget, 
MetaData, TestRecord.IterationIndex, 13
MetaData, TestRecord.Preservation, true
MetaData, TestRecord.Flag, 
MetaData, TestRecord.Remarks, 
MetaData, TestRecord.LinkKey, f9b99c99-1fdf-41d3-ba8b-3978313cf33e
Dimension1, 101, 101, 101
Dimension2, 1, 1, 1
DataName, V1, I1, Ohmic
DataValue, -5, -1.2282999999999998E-09, 2094368047.4816263
DataValue, -4.9, -1.1015E-09, 
DataValue, -4.8, -1.0555E-09, 
DataValue, -4.7, -1.03E-09, 
DataValue, -4.6000000000000005, -1.0146E-09, 
DataValue, -4.5, -9.7559999999999982E-10, 
DataValue, -4.4, -9.896E-10, 
DataValue, -4.3, -9.5199999999999981E-10, 
DataValue, -4.2, -9.1899999999999993E-10, 
DataValue, -4.1, -9.0139999999999991E-10, 
DataValue, -4, -9.1119999999999991E-10, 
DataValue, -3.9, -8.871E-10, 
DataValue, -3.8000000000000003, -8.8079999999999989E-10, 
DataValue, -3.7, -8.6679999999999994E-10, 
DataValue, -3.6, -8.517E-10, 
DataValue, -3.5, -8.2389999999999992E-10, 
DataValue, -3.4, -8.0779999999999994E-10, 
DataValue, -3.3000000000000003, -8.2659999999999992E-10, 
DataValue, -3.2, -8.0589999999999987E-10, 
DataValue, -3.1, -7.9689999999999991E-10, 
DataValue, -3, -7.8669999999999988E-10, 
DataValue, -2.9, -7.715E-10, 
DataValue, -2.8000000000000003, -7.721E-10, 
DataValue, -2.7, -7.711E-10, 
DataValue, -2.6, -7.6209999999999988E-10, 
DataValue, -2.5, -7.3399999999999995E-10, 
DataValue, -2.4, -7.074E-10, 
DataValue, -2.3000000000000003, -6.9789999999999994E-10, 
DataValue, -2.2, -6.977E-10, 
DataValue, -2.1, -6.943999999999999E-10, 
DataValue, -2, -6.5939999999999991E-10, 
DataValue, -1.9000000000000001, -6.8069999999999993E-10, 
DataValue, -1.8, -6.7659999999999992E-10, 
DataValue, -1.7, -6.6269999999999989E-10, 
DataValue, -1.6, -6.2809999999999993E-10, 
DataValue, -1.5, -6.2089999999999989E-10, 
DataValue, -1.4000000000000001, -6.3309999999999991E-10, 
DataValue, -1.3, -6.1659999999999992E-10, 
DataValue, -1.2, -6.05E-10, 
DataValue, -1.1, -5.5659999999999992E-10, 
DataValue, -1, -5.558E-10, 
DataValue, -0.9, -5.4479999999999992E-10, 
DataValue, -0.8, -5.187E-10, 
DataValue, -0.70000000000000007, -4.891E-10, 
DataValue, -0.6, -4.4779999999999994E-10, 
DataValue, -0.5, -4.0719999999999995E-10, 
DataValue, -0.4, -3.4169999999999997E-10, 
DataValue, -0.3, -2.796E-10, 
DataValue, -0.2, -1.788E-10, 
DataValue, -0.1, -3.91E-11, 
DataValue, 0, 2.8639999999999996E-10, 
DataValue, 0.1, 9.3929999999999985E-10, 
DataValue, 0.2, 1.2659E-09, 
DataValue, 0.3, 1.4223E-09, 
DataValue, 0.4, 1.545E-09, 
DataValue, 0.5, 1.66132E-09, 
DataValue, 0.6, 1.7652E-09, 
DataValue, 0.70000000000000007, 1.82488E-09, 
DataValue, 0.8, 1.90873E-09, 
DataValue, 0.9, 1.9723E-09, 
DataValue, 1, 2.03285E-09, 
DataValue, 1.1, 2.07934E-09, 
DataValue, 1.2, 2.14634E-09, 
DataValue, 1.3, 2.18004E-09, 
DataValue, 1.4000000000000001, 2.22677E-09, 
DataValue, 1.5, 2.26495E-09, 
DataValue, 1.6, 2.29814E-09, 
DataValue, 1.7, 2.32487E-09, 
DataValue, 1.8, 2.35651E-09, 
DataValue, 1.9000000000000001, 2.37856E-09, 
DataValue, 2, 2.38787E-09, 
DataValue, 2.1, 2.40202E-09, 
DataValue, 2.2, 2.4357E-09, 
DataValue, 2.3000000000000003, 2.43548E-09, 
DataValue, 2.4, 2.44589E-09, 
DataValue, 2.5, 2.46772E-09, 
DataValue, 2.6, 2.48477E-09, 
DataValue, 2.7, 2.48359E-09, 
DataValue, 2.8000000000000003, 2.49942E-09, 
DataValue, 2.9, 2.51375E-09, 
DataValue, 3, 2.51463E-09, 
DataValue, 3.1, 2.51397E-09, 
DataValue, 3.2, 2.54988E-09, 
DataValue, 3.3000000000000003, 2.54226E-09, 
DataValue, 3.4, 2.55427E-09, 
DataValue, 3.5, 2.55427E-09, 
DataValue, 3.6, 2.57266E-09, 
DataValue, 3.7, 2.57023E-09, 
DataValue, 3.8000000000000003, 2.59279E-09, 
DataValue, 3.9, 2.6068E-09, 
DataValue, 4, 2.61293E-09, 
DataValue, 4.1, 2.61281E-09, 
DataValue, 4.2, 2.61997E-09, 
DataValue, 4.3, 2.62154E-09, 
DataValue, 4.4, 2.63484E-09, 
DataValue, 4.5, 2.65433E-09, 
DataValue, 4.6000000000000005, 2.66772E-09, 
DataValue, 4.7, 2.66998E-09, 
DataValue, 4.8, 2.68594E-09, 
DataValue, 4.9, 2.69972E-09, 
DataValue, 5, 2.7031E-09, 