
SetupTitle, WW
PrimitiveTest, I/V Sweep
TestParameter, Context.MainFrame, B1500A
TestParameter, Channel.UnitType, SMU, SMU
TestParameter, Channel.Unit, SMU2:HP, SMU1:HP
TestParameter, Channel.IName, I1, I4
TestParameter, Channel.VName, V1, V4
TestParameter, Channel.Mode, V, COMMON
TestParameter, Channel.Func, VAR1, CONST
TestParameter, Channel.Index, 
TestParameter, Channel.Time, 
TestParameter, Measurement.Port.Unit, SMU2:HP, SMU1:HP
TestParameter, Measurement.Port.SeriesResistor, NONE, NONE
TestParameter, Measurement.Port.Filter, ON, ON
TestParameter, Measurement.Port.OutputVoltageComparison, 0, 0
TestParameter, Measurement.Primary.Locus, Single
TestParameter, Measurement.Primary.Scale, LINEAR
TestParameter, Measurement.Primary.Start, -5
TestParameter, Measurement.Primary.Stop, 5
TestParameter, Measurement.Primary.Step, 0.1
TestParameter, Measurement.Primary.Compliance, 0.1
TestParameter, Measurement.Primary.PowerCompliance, 0
TestParameter, Measurement.Aborting.Condition, CONTINUE AT ANY
TestParameter, Measurement.PostOutput.Value, START
TestParameter, Measurement.PostOutput.Retention, OFF
TestParameter, Measurement.Bias.Source, -5, 0
TestParameter, Measurement.Bias.Compliance, 0.1, 1
TestParameter, Measurement.Monitor.Unit, SMU2:HP, SMU1:HP
TestParameter, Measurement.Monitor.Adc, HR ADC, HR ADC
TestParameter, Measurement.Monitor.Measurement, Compliance Side, Compliance Side
TestParameter, Measurement.Monitor.RangingMode, AUTO, AUTO
TestParameter, Measurement.Monitor.RangeBoundary, , 
TestParameter, Measurement.Monitor.RangeRating, BY FULL RANGE, BY FULL RANGE
TestParameter, Measurement.Monitor.RangeRatingCoeff, 50, 50
TestParameter, Measurement.Timing.Hold, 0
TestParameter, Measurement.Timing.Delay, 0.001
TestParameter, Measurement.Adc.HighSpeed.Mode, AUTO
TestParameter, Measurement.Adc.HighSpeed.Coeff, 1
TestParameter, Measurement.Adc.HighResolution.AutoZero, OFF
TestParameter, Measurement.Adc.HighResolution.Mode, PLC
TestParameter, Measurement.Adc.HighResolution.Coeff, 1
TestParameter, Measurement.WaitTime.Source.Coeff, 1
TestParameter, Measurement.WaitTime.Source.Offset, 0
TestParameter, Measurement.WaitTime.Monitor.Coeff, 1
TestParameter, Measurement.WaitTime.Monitor.Offset, 0
TestParameter, Function.User.Name, Ohmic
TestParameter, Function.User.Unit, ohm
TestParameter, Function.User.Definition, avg(V1/I1)
TestParameter, Output.Graph.Enabled, true
TestParameter, Output.Graph.XAxis.Data, V1
TestParameter, Output.Graph.XAxis.Scale, Linear
TestParameter, Output.Graph.XAxis.Left, -5
TestParameter, Output.Graph.XAxis.Right, 5
TestParameter, Output.Graph.YAxis.Data, I1
TestParameter, Output.Graph.YAxis.Scale, Linear
TestParameter, Output.Graph.YAxis.Bottom, -0.001
TestParameter, Output.Graph.YAxis.Top, 0.001
TestParameter, Output.Graph.YAxis.Group, 
TestParameter, Output.Scalar.Data, Ohmic
TestParameter, AutoAnalysis.Interpolation, false
TestParameter, AutoAnalysis.Line1.Enabled, false
TestParameter, AutoAnalysis.Line1.Type, 1
TestParameter, AutoAnalysis.Line1.Fix, True
TestParameter, AutoAnalysis.Line1.YAxis, 0
TestParameter, AutoAnalysis.Line1.Point1.Type, 0
TestParameter, AutoAnalysis.Line1.Point1.XY.X, 
TestParameter, AutoAnalysis.Line1.Point1.XY.Y, 
TestParameter, AutoAnalysis.Line1.Point1.Data.Var, 
TestParameter, AutoAnalysis.Line1.Point1.Data.Condition, 
TestParameter, AutoAnalysis.Line1.Point1.Data.Start, false
TestParameter, AutoAnalysis.Line1.Point1.Data.StartVar, 
TestParameter, AutoAnalysis.Line1.Point1.Data.StartCondition, 
TestParameter, AutoAnalysis.Line1.Point2.Type, 0
TestParameter, AutoAnalysis.Line1.Point2.XY.X, 
TestParameter, AutoAnalysis.Line1.Point2.XY.Y, 
TestParameter, AutoAnalysis.Line1.Point2.Data.Var, 
TestParameter, AutoAnalysis.Line1.Point2.Data.Condition, 
TestParameter, AutoAnalysis.Line1.Point2.Data.Start, false
TestParameter, AutoAnalysis.Line1.Point2.Data.StartVar, 
TestParameter, AutoAnalysis.Line1.Point2.Data.StartCondition, 
TestParameter, AutoAnalysis.Line1.GradientExpr, 0
TestParameter, AutoAnalysis.Line2.Enabled, false
TestParameter, AutoAnalysis.Line2.Type, 1
TestParameter, AutoAnalysis.Line2.Fix, True
TestParameter, AutoAnalysis.Line2.YAxis, 0
TestParameter, AutoAnalysis.Line2.Point1.Type, 0
TestParameter, AutoAnalysis.Line2.Point1.XY.X, 
TestParameter, AutoAnalysis.Line2.Point1.XY.Y, 
TestParameter, AutoAnalysis.Line2.Point1.Data.Var, 
TestParameter, AutoAnalysis.Line2.Point1.Data.Condition, 
TestParameter, AutoAnalysis.Line2.Point1.Data.Start, false
TestParameter, AutoAnalysis.Line2.Point1.Data.StartVar, 
TestParameter, AutoAnalysis.Line2.Point1.Data.StartCondition, 
TestParameter, AutoAnalysis.Line2.Point2.Type, 0
TestParameter, AutoAnalysis.Line2.Point2.XY.X, 
TestParameter, AutoAnalysis.Line2.Point2.XY.Y, 
TestParameter, AutoAnalysis.Line2.Point2.Data.Var, 
TestParameter, AutoAnalysis.Line2.Point2.Data.Condition, 
TestParameter, AutoAnalysis.Line2.Point2.Data.Start, false
TestParameter, AutoAnalysis.Line2.Point2.Data.StartVar, 
TestParameter, AutoAnalysis.Line2.Point2.Data.StartCondition, 
TestParameter, AutoAnalysis.Line2.GradientExpr, 0
TestParameter, AutoAnalysis.Marker.Enabled, false
TestParameter, AutoAnalysis.Marker.Data.Var, 
TestParameter, AutoAnalysis.Marker.Data.Condition, 
TestParameter, AutoAnalysis.Marker.Data.Start, false
TestParameter, AutoAnalysis.Marker.Data.StartVar, 
TestParameter, AutoAnalysis.Marker.Data.StartCondition, 
MetaData, TestRecord.EntryPoint, true
MetaData, TestRecord.RecordTime, 09/05/2020 13:56:06
MetaData, TestRecord.TestTarget, 
MetaData, TestRecord.IterationIndex, 10
MetaData, TestRecord.Preservation, true
MetaData, TestRecord.Flag, 
MetaData, TestRecord.Remarks, 
MetaData, TestRecord.LinkKey, c5355e1f-174e-452e-a015-3f74cada52ca
Dimension1, 101, 101, 101
Dimension2, 1, 1, 1
DataName, V1, I1, Ohmic
DataValue, -5, -1.0229999999999999E-09, 2216173269.8953962
DataValue, -4.9, -9.7489999999999981E-10, 
DataValue, -4.8, -9.382E-10, 
DataValue, -4.7, -9.157E-10, 
DataValue, -4.6000000000000005, -8.682E-10, 
DataValue, -4.5, -8.7209999999999991E-10, 
DataValue, -4.4, -8.4469999999999989E-10, 
DataValue, -4.3, -8.2629999999999993E-10, 
DataValue, -4.2, -8.116E-10, 
DataValue, -4.1, -7.9499999999999994E-10, 
DataValue, -4, -7.9559999999999992E-10, 
DataValue, -3.9, -7.944E-10, 
DataValue, -3.8000000000000003, -7.7089999999999989E-10, 
DataValue, -3.7, -7.553E-10, 
DataValue, -3.6, -7.4979999999999993E-10, 
DataValue, -3.5, -7.3659999999999992E-10, 
DataValue, -3.4, -7.4599999999999991E-10, 
DataValue, -3.3000000000000003, -7.213E-10, 
DataValue, -3.2, -7.1659999999999988E-10, 
DataValue, -3.1, -7.085E-10, 
DataValue, -3, -6.9249999999999994E-10, 
DataValue, -2.9, -6.7449999999999989E-10, 
DataValue, -2.8000000000000003, -6.801E-10, 
DataValue, -2.7, -6.822E-10, 
DataValue, -2.6, -6.7749999999999988E-10, 
DataValue, -2.5, -6.5499999999999991E-10, 
DataValue, -2.4, -6.4629999999999993E-10, 
DataValue, -2.3000000000000003, -6.3209999999999992E-10, 
DataValue, -2.2, -6.289999999999999E-10, 
DataValue, -2.1, -6.151E-10, 
DataValue, -2, -6.134999999999999E-10, 
DataValue, -1.9000000000000001, -6.0679999999999991E-10, 
DataValue, -1.8, -6.1429999999999994E-10, 
DataValue, -1.7, -5.989999999999999E-10, 
DataValue, -1.6, -5.851999999999999E-10, 
DataValue, -1.5, -5.8419999999999991E-10, 
DataValue, -1.4000000000000001, -5.821E-10, 
DataValue, -1.3, -5.5399999999999995E-10, 
DataValue, -1.2, -5.282E-10, 
DataValue, -1.1, -5.1719999999999993E-10, 
DataValue, -1, -5.096999999999999E-10, 
DataValue, -0.9, -4.843E-10, 
DataValue, -0.8, -4.5669999999999993E-10, 
DataValue, -0.70000000000000007, -4.1719999999999997E-10, 
DataValue, -0.6, -3.896E-10, 
DataValue, -0.5, -3.3159999999999997E-10, 
DataValue, -0.4, -2.669E-10, 
DataValue, -0.3, -1.9289999999999998E-10, 
DataValue, -0.2, -1.0559999999999999E-10, 
DataValue, -0.1, 3.9799999999999994E-11, 
DataValue, 0, 3.596E-10, 
DataValue, 0.1, 1.0382999999999998E-09, 
DataValue, 0.2, 1.3483999999999998E-09, 
DataValue, 0.3, 1.5189999999999998E-09, 
DataValue, 0.4, 1.65879E-09, 
DataValue, 0.5, 1.7757E-09, 
DataValue, 0.6, 1.86089E-09, 
DataValue, 0.70000000000000007, 1.95502E-09, 
DataValue, 0.8, 2.02416E-09, 
DataValue, 0.9, 2.0877E-09, 
DataValue, 1, 2.14292E-09, 
DataValue, 1.1, 2.19349E-09, 
DataValue, 1.2, 2.25258E-09, 
DataValue, 1.3, 2.30486E-09, 
DataValue, 1.4000000000000001, 2.35006E-09, 
DataValue, 1.5, 2.38073E-09, 
DataValue, 1.6, 2.44604E-09, 
DataValue, 1.7, 2.45315E-09, 
DataValue, 1.8, 2.49812E-09, 
DataValue, 1.9000000000000001, 2.5368E-09, 
DataValue, 2, 2.55903E-09, 
DataValue, 2.1, 2.59185E-09, 
DataValue, 2.2, 2.61265E-09, 
DataValue, 2.3000000000000003, 2.64259E-09, 
DataValue, 2.4, 2.64112E-09, 
DataValue, 2.5, 2.67749E-09, 
DataValue, 2.6, 2.69502E-09, 
DataValue, 2.7, 2.69735E-09, 
DataValue, 2.8000000000000003, 2.72924E-09, 
DataValue, 2.9, 2.72812E-09, 
DataValue, 3, 2.75557E-09, 
DataValue, 3.1, 2.76076E-09, 
DataValue, 3.2, 2.76659E-09, 
DataValue, 3.3000000000000003, 2.77604E-09, 
DataValue, 3.4, 2.78602E-09, 
DataValue, 3.5, 2.81996E-09, 
DataValue, 3.6, 2.81263E-09, 
DataValue, 3.7, 2.83752E-09, 
DataValue, 3.8000000000000003, 2.82934E-09, 
DataValue, 3.9, 2.83047E-09, 
DataValue, 4, 2.84621E-09, 
DataValue, 4.1, 2.85764E-09, 
DataValue, 4.2, 2.87878E-09, 
DataValue, 4.3, 2.89108E-09, 
DataValue, 4.4, 2.87856E-09, 
DataValue, 4.5, 2.89112E-09, 
DataValue, 4.6000000000000005, 2.88846E-09, 
DataValue, 4.7, 2.91258E-09, 
DataValue, 4.8, 2.91949E-09, 
DataValue, 4.9, 2.9194E-09, 
DataValue, 5, 2.9359E-09, 