
SetupTitle, WW
PrimitiveTest, I/V Sweep
TestParameter, Context.MainFrame, B1500A
TestParameter, Channel.UnitType, SMU, SMU
TestParameter, Channel.Unit, SMU2:HP, SMU1:HP
TestParameter, Channel.IName, I1, I4
TestParameter, Channel.VName, V1, V4
TestParameter, Channel.Mode, V, COMMON
TestParameter, Channel.Func, VAR1, CONST
TestParameter, Channel.Index, 
TestParameter, Channel.Time, 
TestParameter, Measurement.Port.Unit, SMU2:HP, SMU1:HP
TestParameter, Measurement.Port.SeriesResistor, NONE, NONE
TestParameter, Measurement.Port.Filter, ON, ON
TestParameter, Measurement.Port.OutputVoltageComparison, 0, 0
TestParameter, Measurement.Primary.Locus, Single
TestParameter, Measurement.Primary.Scale, LINEAR
TestParameter, Measurement.Primary.Start, -5
TestParameter, Measurement.Primary.Stop, 5
TestParameter, Measurement.Primary.Step, 0.1
TestParameter, Measurement.Primary.Compliance, 0.1
TestParameter, Measurement.Primary.PowerCompliance, 0
TestParameter, Measurement.Aborting.Condition, CONTINUE AT ANY
TestParameter, Measurement.PostOutput.Value, START
TestParameter, Measurement.PostOutput.Retention, OFF
TestParameter, Measurement.Bias.Source, -5, 0
TestParameter, Measurement.Bias.Compliance, 0.1, 1
TestParameter, Measurement.Monitor.Unit, SMU2:HP, SMU1:HP
TestParameter, Measurement.Monitor.Adc, HR ADC, HR ADC
TestParameter, Measurement.Monitor.Measurement, Compliance Side, Compliance Side
TestParameter, Measurement.Monitor.RangingMode, AUTO, AUTO
TestParameter, Measurement.Monitor.RangeBoundary, , 
TestParameter, Measurement.Monitor.RangeRating, BY FULL RANGE, BY FULL RANGE
TestParameter, Measurement.Monitor.RangeRatingCoeff, 50, 50
TestParameter, Measurement.Timing.Hold, 0
TestParameter, Measurement.Timing.Delay, 0.001
TestParameter, Measurement.Adc.HighSpeed.Mode, AUTO
TestParameter, Measurement.Adc.HighSpeed.Coeff, 1
TestParameter, Measurement.Adc.HighResolution.AutoZero, OFF
TestParameter, Measurement.Adc.HighResolution.Mode, PLC
TestParameter, Measurement.Adc.HighResolution.Coeff, 1
TestParameter, Measurement.WaitTime.Source.Coeff, 1
TestParameter, Measurement.WaitTime.Source.Offset, 0
TestParameter, Measurement.WaitTime.Monitor.Coeff, 1
TestParameter, Measurement.WaitTime.Monitor.Offset, 0
TestParameter, Function.User.Name, Ohmic
TestParameter, Function.User.Unit, ohm
TestParameter, Function.User.Definition, avg(V1/I1)
TestParameter, Output.Graph.Enabled, true
TestParameter, Output.Graph.XAxis.Data, V1
TestParameter, Output.Graph.XAxis.Scale, Linear
TestParameter, Output.Graph.XAxis.Left, -5
TestParameter, Output.Graph.XAxis.Right, 5
TestParameter, Output.Graph.YAxis.Data, I1
TestParameter, Output.Graph.YAxis.Scale, Linear
TestParameter, Output.Graph.YAxis.Bottom, -0.001
TestParameter, Output.Graph.YAxis.Top, 0.001
TestParameter, Output.Graph.YAxis.Group, 
TestParameter, Output.Scalar.Data, Ohmic
TestParameter, AutoAnalysis.Interpolation, false
TestParameter, AutoAnalysis.Line1.Enabled, false
TestParameter, AutoAnalysis.Line1.Type, 1
TestParameter, AutoAnalysis.Line1.Fix, True
TestParameter, AutoAnalysis.Line1.YAxis, 0
TestParameter, AutoAnalysis.Line1.Point1.Type, 0
TestParameter, AutoAnalysis.Line1.Point1.XY.X, 
TestParameter, AutoAnalysis.Line1.Point1.XY.Y, 
TestParameter, AutoAnalysis.Line1.Point1.Data.Var, 
TestParameter, AutoAnalysis.Line1.Point1.Data.Condition, 
TestParameter, AutoAnalysis.Line1.Point1.Data.Start, false
TestParameter, AutoAnalysis.Line1.Point1.Data.StartVar, 
TestParameter, AutoAnalysis.Line1.Point1.Data.StartCondition, 
TestParameter, AutoAnalysis.Line1.Point2.Type, 0
TestParameter, AutoAnalysis.Line1.Point2.XY.X, 
TestParameter, AutoAnalysis.Line1.Point2.XY.Y, 
TestParameter, AutoAnalysis.Line1.Point2.Data.Var, 
TestParameter, AutoAnalysis.Line1.Point2.Data.Condition, 
TestParameter, AutoAnalysis.Line1.Point2.Data.Start, false
TestParameter, AutoAnalysis.Line1.Point2.Data.StartVar, 
TestParameter, AutoAnalysis.Line1.Point2.Data.StartCondition, 
TestParameter, AutoAnalysis.Line1.GradientExpr, 0
TestParameter, AutoAnalysis.Line2.Enabled, false
TestParameter, AutoAnalysis.Line2.Type, 1
TestParameter, AutoAnalysis.Line2.Fix, True
TestParameter, AutoAnalysis.Line2.YAxis, 0
TestParameter, AutoAnalysis.Line2.Point1.Type, 0
TestParameter, AutoAnalysis.Line2.Point1.XY.X, 
TestParameter, AutoAnalysis.Line2.Point1.XY.Y, 
TestParameter, AutoAnalysis.Line2.Point1.Data.Var, 
TestParameter, AutoAnalysis.Line2.Point1.Data.Condition, 
TestParameter, AutoAnalysis.Line2.Point1.Data.Start, false
TestParameter, AutoAnalysis.Line2.Point1.Data.StartVar, 
TestParameter, AutoAnalysis.Line2.Point1.Data.StartCondition, 
TestParameter, AutoAnalysis.Line2.Point2.Type, 0
TestParameter, AutoAnalysis.Line2.Point2.XY.X, 
TestParameter, AutoAnalysis.Line2.Point2.XY.Y, 
TestParameter, AutoAnalysis.Line2.Point2.Data.Var, 
TestParameter, AutoAnalysis.Line2.Point2.Data.Condition, 
TestParameter, AutoAnalysis.Line2.Point2.Data.Start, false
TestParameter, AutoAnalysis.Line2.Point2.Data.StartVar, 
TestParameter, AutoAnalysis.Line2.Point2.Data.StartCondition, 
TestParameter, AutoAnalysis.Line2.GradientExpr, 0
TestParameter, AutoAnalysis.Marker.Enabled, false
TestParameter, AutoAnalysis.Marker.Data.Var, 
TestParameter, AutoAnalysis.Marker.Data.Condition, 
TestParameter, AutoAnalysis.Marker.Data.Start, false
TestParameter, AutoAnalysis.Marker.Data.StartVar, 
TestParameter, AutoAnalysis.Marker.Data.StartCondition, 
MetaData, TestRecord.EntryPoint, true
MetaData, TestRecord.RecordTime, 09/05/2020 13:55:27
MetaData, TestRecord.TestTarget, 
MetaData, TestRecord.IterationIndex, 9
MetaData, TestRecord.Preservation, true
MetaData, TestRecord.Flag, 
MetaData, TestRecord.Remarks, 
MetaData, TestRecord.LinkKey, d7cd9ace-98f9-4d95-9c40-fa6a7e382cb3
Dimension1, 101, 101, 101
Dimension2, 1, 1, 1
DataName, V1, I1, Ohmic
DataValue, -5, -1.0396999999999998E-09, 2066322085.4778898
DataValue, -4.9, -9.977999999999998E-10, 
DataValue, -4.8, -9.6229999999999987E-10, 
DataValue, -4.7, -9.5019999999999988E-10, 
DataValue, -4.6000000000000005, -9.0619999999999993E-10, 
DataValue, -4.5, -8.9869999999999991E-10, 
DataValue, -4.4, -8.7279999999999992E-10, 
DataValue, -4.3, -8.4549999999999992E-10, 
DataValue, -4.2, -8.359999999999999E-10, 
DataValue, -4.1, -8.1449999999999993E-10, 
DataValue, -4, -7.9359999999999993E-10, 
DataValue, -3.9, -7.7409999999999994E-10, 
DataValue, -3.8000000000000003, -7.802E-10, 
DataValue, -3.7, -7.6549999999999989E-10, 
DataValue, -3.6, -7.4869999999999991E-10, 
DataValue, -3.5, -7.3799999999999993E-10, 
DataValue, -3.4, -7.378E-10, 
DataValue, -3.3000000000000003, -7.2589999999999994E-10, 
DataValue, -3.2, -7.1669999999999991E-10, 
DataValue, -3.1, -7.1609999999999994E-10, 
DataValue, -3, -7.185E-10, 
DataValue, -2.9, -6.953E-10, 
DataValue, -2.8000000000000003, -7.1459999999999989E-10, 
DataValue, -2.7, -6.9009999999999992E-10, 
DataValue, -2.6, -6.8019999999999988E-10, 
DataValue, -2.5, -6.8459999999999989E-10, 
DataValue, -2.4, -6.717E-10, 
DataValue, -2.3000000000000003, -6.683E-10, 
DataValue, -2.2, -6.875E-10, 
DataValue, -2.1, -6.6959999999999994E-10, 
DataValue, -2, -6.434E-10, 
DataValue, -1.9000000000000001, -6.2939999999999992E-10, 
DataValue, -1.8, -6.1819999999999989E-10, 
DataValue, -1.7, -6.006999999999999E-10, 
DataValue, -1.6, -5.922E-10, 
DataValue, -1.5, -5.905E-10, 
DataValue, -1.4000000000000001, -5.7479999999999992E-10, 
DataValue, -1.3, -5.75E-10, 
DataValue, -1.2, -5.739E-10, 
DataValue, -1.1, -5.709E-10, 
DataValue, -1, -5.3739999999999992E-10, 
DataValue, -0.9, -5.0599999999999991E-10, 
DataValue, -0.8, -4.709E-10, 
DataValue, -0.70000000000000007, -4.4699999999999996E-10, 
DataValue, -0.6, -4.1109999999999996E-10, 
DataValue, -0.5, -3.832E-10, 
DataValue, -0.4, -2.964E-10, 
DataValue, -0.3, -2.2699999999999997E-10, 
DataValue, -0.2, -1.237E-10, 
DataValue, -0.1, 8.3E-12, 
DataValue, 0, 3.4519999999999996E-10, 
DataValue, 0.1, 1.0292E-09, 
DataValue, 0.2, 1.3423999999999998E-09, 
DataValue, 0.3, 1.5282E-09, 
DataValue, 0.4, 1.6542999999999998E-09, 
DataValue, 0.5, 1.77255E-09, 
DataValue, 0.6, 1.87353E-09, 
DataValue, 0.70000000000000007, 1.94453E-09, 
DataValue, 0.8, 2.0448E-09, 
DataValue, 0.9, 2.10199E-09, 
DataValue, 1, 2.16226E-09, 
DataValue, 1.1, 2.19899E-09, 
DataValue, 1.2, 2.24524E-09, 
DataValue, 1.3, 2.29602E-09, 
DataValue, 1.4000000000000001, 2.3453E-09, 
DataValue, 1.5, 2.38882E-09, 
DataValue, 1.6, 2.43658E-09, 
DataValue, 1.7, 2.48239E-09, 
DataValue, 1.8, 2.51347E-09, 
DataValue, 1.9000000000000001, 2.52726E-09, 
DataValue, 2, 2.5773E-09, 
DataValue, 2.1, 2.5979E-09, 
DataValue, 2.2, 2.61674E-09, 
DataValue, 2.3000000000000003, 2.64304E-09, 
DataValue, 2.4, 2.66612E-09, 
DataValue, 2.5, 2.68896E-09, 
DataValue, 2.6, 2.71451E-09, 
DataValue, 2.7, 2.72745E-09, 
DataValue, 2.8000000000000003, 2.74822E-09, 
DataValue, 2.9, 2.76533E-09, 
DataValue, 3, 2.79087E-09, 
DataValue, 3.1, 2.78778E-09, 
DataValue, 3.2, 2.80308E-09, 
DataValue, 3.3000000000000003, 2.8047E-09, 
DataValue, 3.4, 2.82438E-09, 
DataValue, 3.5, 2.8333E-09, 
DataValue, 3.6, 2.86374E-09, 
DataValue, 3.7, 2.85685E-09, 
DataValue, 3.8000000000000003, 2.88164E-09, 
DataValue, 3.9, 2.86634E-09, 
DataValue, 4, 2.89467E-09, 
DataValue, 4.1, 2.90154E-09, 
DataValue, 4.2, 2.90124E-09, 
DataValue, 4.3, 2.91021E-09, 
DataValue, 4.4, 2.91925E-09, 
DataValue, 4.5, 2.93587E-09, 
DataValue, 4.6000000000000005, 2.92912E-09, 
DataValue, 4.7, 2.93249E-09, 
DataValue, 4.8, 2.95054E-09, 
DataValue, 4.9, 2.97622E-09, 
DataValue, 5, 2.98916E-09, 