
SetupTitle, WW
PrimitiveTest, I/V Sweep
TestParameter, Context.MainFrame, B1500A
TestParameter, Channel.UnitType, SMU, SMU
TestParameter, Channel.Unit, SMU2:HP, SMU1:HP
TestParameter, Channel.IName, I1, I4
TestParameter, Channel.VName, V1, V4
TestParameter, Channel.Mode, V, COMMON
TestParameter, Channel.Func, VAR1, CONST
TestParameter, Channel.Index, 
TestParameter, Channel.Time, 
TestParameter, Measurement.Port.Unit, SMU2:HP, SMU1:HP
TestParameter, Measurement.Port.SeriesResistor, NONE, NONE
TestParameter, Measurement.Port.Filter, ON, ON
TestParameter, Measurement.Port.OutputVoltageComparison, 0, 0
TestParameter, Measurement.Primary.Locus, Single
TestParameter, Measurement.Primary.Scale, LINEAR
TestParameter, Measurement.Primary.Start, -5
TestParameter, Measurement.Primary.Stop, 5
TestParameter, Measurement.Primary.Step, 0.1
TestParameter, Measurement.Primary.Compliance, 0.1
TestParameter, Measurement.Primary.PowerCompliance, 0
TestParameter, Measurement.Aborting.Condition, CONTINUE AT ANY
TestParameter, Measurement.PostOutput.Value, START
TestParameter, Measurement.PostOutput.Retention, OFF
TestParameter, Measurement.Bias.Source, -5, 0
TestParameter, Measurement.Bias.Compliance, 0.1, 1
TestParameter, Measurement.Monitor.Unit, SMU2:HP, SMU1:HP
TestParameter, Measurement.Monitor.Adc, HR ADC, HR ADC
TestParameter, Measurement.Monitor.Measurement, Compliance Side, Compliance Side
TestParameter, Measurement.Monitor.RangingMode, AUTO, AUTO
TestParameter, Measurement.Monitor.RangeBoundary, , 
TestParameter, Measurement.Monitor.RangeRating, BY FULL RANGE, BY FULL RANGE
TestParameter, Measurement.Monitor.RangeRatingCoeff, 50, 50
TestParameter, Measurement.Timing.Hold, 0
TestParameter, Measurement.Timing.Delay, 0.001
TestParameter, Measurement.Adc.HighSpeed.Mode, AUTO
TestParameter, Measurement.Adc.HighSpeed.Coeff, 1
TestParameter, Measurement.Adc.HighResolution.AutoZero, OFF
TestParameter, Measurement.Adc.HighResolution.Mode, PLC
TestParameter, Measurement.Adc.HighResolution.Coeff, 1
TestParameter, Measurement.WaitTime.Source.Coeff, 1
TestParameter, Measurement.WaitTime.Source.Offset, 0
TestParameter, Measurement.WaitTime.Monitor.Coeff, 1
TestParameter, Measurement.WaitTime.Monitor.Offset, 0
TestParameter, Function.User.Name, Ohmic
TestParameter, Function.User.Unit, ohm
TestParameter, Function.User.Definition, avg(V1/I1)
TestParameter, Output.Graph.Enabled, true
TestParameter, Output.Graph.XAxis.Data, V1
TestParameter, Output.Graph.XAxis.Scale, Linear
TestParameter, Output.Graph.XAxis.Left, -5
TestParameter, Output.Graph.XAxis.Right, 5
TestParameter, Output.Graph.YAxis.Data, I1
TestParameter, Output.Graph.YAxis.Scale, Linear
TestParameter, Output.Graph.YAxis.Bottom, -0.001
TestParameter, Output.Graph.YAxis.Top, 0.001
TestParameter, Output.Graph.YAxis.Group, 
TestParameter, Output.Scalar.Data, Ohmic
TestParameter, AutoAnalysis.Interpolation, false
TestParameter, AutoAnalysis.Line1.Enabled, false
TestParameter, AutoAnalysis.Line1.Type, 1
TestParameter, AutoAnalysis.Line1.Fix, True
TestParameter, AutoAnalysis.Line1.YAxis, 0
TestParameter, AutoAnalysis.Line1.Point1.Type, 0
TestParameter, AutoAnalysis.Line1.Point1.XY.X, 
TestParameter, AutoAnalysis.Line1.Point1.XY.Y, 
TestParameter, AutoAnalysis.Line1.Point1.Data.Var, 
TestParameter, AutoAnalysis.Line1.Point1.Data.Condition, 
TestParameter, AutoAnalysis.Line1.Point1.Data.Start, false
TestParameter, AutoAnalysis.Line1.Point1.Data.StartVar, 
TestParameter, AutoAnalysis.Line1.Point1.Data.StartCondition, 
TestParameter, AutoAnalysis.Line1.Point2.Type, 0
TestParameter, AutoAnalysis.Line1.Point2.XY.X, 
TestParameter, AutoAnalysis.Line1.Point2.XY.Y, 
TestParameter, AutoAnalysis.Line1.Point2.Data.Var, 
TestParameter, AutoAnalysis.Line1.Point2.Data.Condition, 
TestParameter, AutoAnalysis.Line1.Point2.Data.Start, false
TestParameter, AutoAnalysis.Line1.Point2.Data.StartVar, 
TestParameter, AutoAnalysis.Line1.Point2.Data.StartCondition, 
TestParameter, AutoAnalysis.Line1.GradientExpr, 0
TestParameter, AutoAnalysis.Line2.Enabled, false
TestParameter, AutoAnalysis.Line2.Type, 1
TestParameter, AutoAnalysis.Line2.Fix, True
TestParameter, AutoAnalysis.Line2.YAxis, 0
TestParameter, AutoAnalysis.Line2.Point1.Type, 0
TestParameter, AutoAnalysis.Line2.Point1.XY.X, 
TestParameter, AutoAnalysis.Line2.Point1.XY.Y, 
TestParameter, AutoAnalysis.Line2.Point1.Data.Var, 
TestParameter, AutoAnalysis.Line2.Point1.Data.Condition, 
TestParameter, AutoAnalysis.Line2.Point1.Data.Start, false
TestParameter, AutoAnalysis.Line2.Point1.Data.StartVar, 
TestParameter, AutoAnalysis.Line2.Point1.Data.StartCondition, 
TestParameter, AutoAnalysis.Line2.Point2.Type, 0
TestParameter, AutoAnalysis.Line2.Point2.XY.X, 
TestParameter, AutoAnalysis.Line2.Point2.XY.Y, 
TestParameter, AutoAnalysis.Line2.Point2.Data.Var, 
TestParameter, AutoAnalysis.Line2.Point2.Data.Condition, 
TestParameter, AutoAnalysis.Line2.Point2.Data.Start, false
TestParameter, AutoAnalysis.Line2.Point2.Data.StartVar, 
TestParameter, AutoAnalysis.Line2.Point2.Data.StartCondition, 
TestParameter, AutoAnalysis.Line2.GradientExpr, 0
TestParameter, AutoAnalysis.Marker.Enabled, false
TestParameter, AutoAnalysis.Marker.Data.Var, 
TestParameter, AutoAnalysis.Marker.Data.Condition, 
TestParameter, AutoAnalysis.Marker.Data.Start, false
TestParameter, AutoAnalysis.Marker.Data.StartVar, 
TestParameter, AutoAnalysis.Marker.Data.StartCondition, 
MetaData, TestRecord.EntryPoint, true
MetaData, TestRecord.RecordTime, 09/05/2020 13:54:52
MetaData, TestRecord.TestTarget, 
MetaData, TestRecord.IterationIndex, 8
MetaData, TestRecord.Preservation, true
MetaData, TestRecord.Flag, 
MetaData, TestRecord.Remarks, 
MetaData, TestRecord.LinkKey, 1397669e-3281-4d67-80aa-ab66c79da3d9
Dimension1, 101, 101, 101
Dimension2, 1, 1, 1
DataName, V1, I1, Ohmic
DataValue, -5, -9.9589999999999984E-10, 2365839370.2949982
DataValue, -4.9, -8.9739999999999992E-10, 
DataValue, -4.8, -8.7779999999999991E-10, 
DataValue, -4.7, -8.5239999999999987E-10, 
DataValue, -4.6000000000000005, -8.2989999999999989E-10, 
DataValue, -4.5, -8.234999999999999E-10, 
DataValue, -4.4, -8.0879999999999994E-10, 
DataValue, -4.3, -7.8579999999999991E-10, 
DataValue, -4.2, -7.8139999999999991E-10, 
DataValue, -4.1, -7.5749999999999992E-10, 
DataValue, -4, -7.6009999999999989E-10, 
DataValue, -3.9, -7.3969999999999994E-10, 
DataValue, -3.8000000000000003, -7.233999999999999E-10, 
DataValue, -3.7, -7.189999999999999E-10, 
DataValue, -3.6, -7.0969999999999994E-10, 
DataValue, -3.5, -7.081E-10, 
DataValue, -3.4, -6.879999999999999E-10, 
DataValue, -3.3000000000000003, -6.876E-10, 
DataValue, -3.2, -6.794E-10, 
DataValue, -3.1, -6.6419999999999994E-10, 
DataValue, -3, -6.582E-10, 
DataValue, -2.9, -6.403E-10, 
DataValue, -2.8000000000000003, -6.471999999999999E-10, 
DataValue, -2.7, -6.4319999999999991E-10, 
DataValue, -2.6, -6.3949999999999991E-10, 
DataValue, -2.5, -6.42E-10, 
DataValue, -2.4, -6.4229999999999994E-10, 
DataValue, -2.3000000000000003, -6.3639999999999989E-10, 
DataValue, -2.2, -6.107999999999999E-10, 
DataValue, -2.1, -6.158E-10, 
DataValue, -2, -6.0219999999999995E-10, 
DataValue, -1.9000000000000001, -5.83E-10, 
DataValue, -1.8, -5.6709999999999993E-10, 
DataValue, -1.7, -5.71E-10, 
DataValue, -1.6, -5.501E-10, 
DataValue, -1.5, -5.2699999999999994E-10, 
DataValue, -1.4000000000000001, -5.352E-10, 
DataValue, -1.3, -5.133E-10, 
DataValue, -1.2, -4.876E-10, 
DataValue, -1.1, -4.699E-10, 
DataValue, -1, -4.624E-10, 
DataValue, -0.9, -4.4179999999999996E-10, 
DataValue, -0.8, -4.1869999999999996E-10, 
DataValue, -0.70000000000000007, -3.6359999999999996E-10, 
DataValue, -0.6, -3.2939999999999997E-10, 
DataValue, -0.5, -2.7E-10, 
DataValue, -0.4, -2.1499999999999998E-10, 
DataValue, -0.3, -1.3409999999999998E-10, 
DataValue, -0.2, -4.5999999999999996E-11, 
DataValue, -0.1, 6.489999999999999E-11, 
DataValue, 0, 3.6639999999999994E-10, 
DataValue, 0.1, 1.0189999999999999E-09, 
DataValue, 0.2, 1.3012999999999998E-09, 
DataValue, 0.3, 1.4623999999999998E-09, 
DataValue, 0.4, 1.6147999999999998E-09, 
DataValue, 0.5, 1.70063E-09, 
DataValue, 0.6, 1.78848E-09, 
DataValue, 0.70000000000000007, 1.88068E-09, 
DataValue, 0.8, 1.95365E-09, 
DataValue, 0.9, 1.99572E-09, 
DataValue, 1, 2.07117E-09, 
DataValue, 1.1, 2.12529E-09, 
DataValue, 1.2, 2.18233E-09, 
DataValue, 1.3, 2.22267E-09, 
DataValue, 1.4000000000000001, 2.25282E-09, 
DataValue, 1.5, 2.30016E-09, 
DataValue, 1.6, 2.3507E-09, 
DataValue, 1.7, 2.37792E-09, 
DataValue, 1.8, 2.42138E-09, 
DataValue, 1.9000000000000001, 2.45096E-09, 
DataValue, 2, 2.48231E-09, 
DataValue, 2.1, 2.54012E-09, 
DataValue, 2.2, 2.54479E-09, 
DataValue, 2.3000000000000003, 2.57708E-09, 
DataValue, 2.4, 2.62247E-09, 
DataValue, 2.5, 2.63648E-09, 
DataValue, 2.6, 2.64799E-09, 
DataValue, 2.7, 2.65761E-09, 
DataValue, 2.8000000000000003, 2.681E-09, 
DataValue, 2.9, 2.69746E-09, 
DataValue, 3, 2.70353E-09, 
DataValue, 3.1, 2.72544E-09, 
DataValue, 3.2, 2.74686E-09, 
DataValue, 3.3000000000000003, 2.7665E-09, 
DataValue, 3.4, 2.78495E-09, 
DataValue, 3.5, 2.79412E-09, 
DataValue, 3.6, 2.81196E-09, 
DataValue, 3.7, 2.83027E-09, 
DataValue, 3.8000000000000003, 2.82628E-09, 
DataValue, 3.9, 2.82745E-09, 
DataValue, 4, 2.84857E-09, 
DataValue, 4.1, 2.85089E-09, 
DataValue, 4.2, 2.8735899999999998E-09, 
DataValue, 4.3, 2.88034E-09, 
DataValue, 4.4, 2.88933E-09, 
DataValue, 4.5, 2.88625E-09, 
DataValue, 4.6000000000000005, 2.90181E-09, 
DataValue, 4.7, 2.90924E-09, 
DataValue, 4.8, 2.92446E-09, 
DataValue, 4.9, 2.94998E-09, 
DataValue, 5, 2.94683E-09, 