
SetupTitle, WW
PrimitiveTest, I/V Sweep
TestParameter, Context.MainFrame, B1500A
TestParameter, Channel.UnitType, SMU, SMU
TestParameter, Channel.Unit, SMU2:HP, SMU1:HP
TestParameter, Channel.IName, I1, I4
TestParameter, Channel.VName, V1, V4
TestParameter, Channel.Mode, V, COMMON
TestParameter, Channel.Func, VAR1, CONST
TestParameter, Channel.Index, 
TestParameter, Channel.Time, 
TestParameter, Measurement.Port.Unit, SMU2:HP, SMU1:HP
TestParameter, Measurement.Port.SeriesResistor, NONE, NONE
TestParameter, Measurement.Port.Filter, ON, ON
TestParameter, Measurement.Port.OutputVoltageComparison, 0, 0
TestParameter, Measurement.Primary.Locus, Single
TestParameter, Measurement.Primary.Scale, LINEAR
TestParameter, Measurement.Primary.Start, -5
TestParameter, Measurement.Primary.Stop, 5
TestParameter, Measurement.Primary.Step, 0.1
TestParameter, Measurement.Primary.Compliance, 0.1
TestParameter, Measurement.Primary.PowerCompliance, 0
TestParameter, Measurement.Aborting.Condition, CONTINUE AT ANY
TestParameter, Measurement.PostOutput.Value, START
TestParameter, Measurement.PostOutput.Retention, OFF
TestParameter, Measurement.Bias.Source, -5, 0
TestParameter, Measurement.Bias.Compliance, 0.1, 1
TestParameter, Measurement.Monitor.Unit, SMU2:HP, SMU1:HP
TestParameter, Measurement.Monitor.Adc, HR ADC, HR ADC
TestParameter, Measurement.Monitor.Measurement, Compliance Side, Compliance Side
TestParameter, Measurement.Monitor.RangingMode, AUTO, AUTO
TestParameter, Measurement.Monitor.RangeBoundary, , 
TestParameter, Measurement.Monitor.RangeRating, BY FULL RANGE, BY FULL RANGE
TestParameter, Measurement.Monitor.RangeRatingCoeff, 50, 50
TestParameter, Measurement.Timing.Hold, 0
TestParameter, Measurement.Timing.Delay, 0.001
TestParameter, Measurement.Adc.HighSpeed.Mode, AUTO
TestParameter, Measurement.Adc.HighSpeed.Coeff, 1
TestParameter, Measurement.Adc.HighResolution.AutoZero, OFF
TestParameter, Measurement.Adc.HighResolution.Mode, PLC
TestParameter, Measurement.Adc.HighResolution.Coeff, 1
TestParameter, Measurement.WaitTime.Source.Coeff, 1
TestParameter, Measurement.WaitTime.Source.Offset, 0
TestParameter, Measurement.WaitTime.Monitor.Coeff, 1
TestParameter, Measurement.WaitTime.Monitor.Offset, 0
TestParameter, Function.User.Name, Ohmic
TestParameter, Function.User.Unit, ohm
TestParameter, Function.User.Definition, avg(V1/I1)
TestParameter, Output.Graph.Enabled, true
TestParameter, Output.Graph.XAxis.Data, V1
TestParameter, Output.Graph.XAxis.Scale, Linear
TestParameter, Output.Graph.XAxis.Left, -5
TestParameter, Output.Graph.XAxis.Right, 5
TestParameter, Output.Graph.YAxis.Data, I1
TestParameter, Output.Graph.YAxis.Scale, Linear
TestParameter, Output.Graph.YAxis.Bottom, -0.001
TestParameter, Output.Graph.YAxis.Top, 0.001
TestParameter, Output.Graph.YAxis.Group, 
TestParameter, Output.Scalar.Data, Ohmic
TestParameter, AutoAnalysis.Interpolation, false
TestParameter, AutoAnalysis.Line1.Enabled, false
TestParameter, AutoAnalysis.Line1.Type, 1
TestParameter, AutoAnalysis.Line1.Fix, True
TestParameter, AutoAnalysis.Line1.YAxis, 0
TestParameter, AutoAnalysis.Line1.Point1.Type, 0
TestParameter, AutoAnalysis.Line1.Point1.XY.X, 
TestParameter, AutoAnalysis.Line1.Point1.XY.Y, 
TestParameter, AutoAnalysis.Line1.Point1.Data.Var, 
TestParameter, AutoAnalysis.Line1.Point1.Data.Condition, 
TestParameter, AutoAnalysis.Line1.Point1.Data.Start, false
TestParameter, AutoAnalysis.Line1.Point1.Data.StartVar, 
TestParameter, AutoAnalysis.Line1.Point1.Data.StartCondition, 
TestParameter, AutoAnalysis.Line1.Point2.Type, 0
TestParameter, AutoAnalysis.Line1.Point2.XY.X, 
TestParameter, AutoAnalysis.Line1.Point2.XY.Y, 
TestParameter, AutoAnalysis.Line1.Point2.Data.Var, 
TestParameter, AutoAnalysis.Line1.Point2.Data.Condition, 
TestParameter, AutoAnalysis.Line1.Point2.Data.Start, false
TestParameter, AutoAnalysis.Line1.Point2.Data.StartVar, 
TestParameter, AutoAnalysis.Line1.Point2.Data.StartCondition, 
TestParameter, AutoAnalysis.Line1.GradientExpr, 0
TestParameter, AutoAnalysis.Line2.Enabled, false
TestParameter, AutoAnalysis.Line2.Type, 1
TestParameter, AutoAnalysis.Line2.Fix, True
TestParameter, AutoAnalysis.Line2.YAxis, 0
TestParameter, AutoAnalysis.Line2.Point1.Type, 0
TestParameter, AutoAnalysis.Line2.Point1.XY.X, 
TestParameter, AutoAnalysis.Line2.Point1.XY.Y, 
TestParameter, AutoAnalysis.Line2.Point1.Data.Var, 
TestParameter, AutoAnalysis.Line2.Point1.Data.Condition, 
TestParameter, AutoAnalysis.Line2.Point1.Data.Start, false
TestParameter, AutoAnalysis.Line2.Point1.Data.StartVar, 
TestParameter, AutoAnalysis.Line2.Point1.Data.StartCondition, 
TestParameter, AutoAnalysis.Line2.Point2.Type, 0
TestParameter, AutoAnalysis.Line2.Point2.XY.X, 
TestParameter, AutoAnalysis.Line2.Point2.XY.Y, 
TestParameter, AutoAnalysis.Line2.Point2.Data.Var, 
TestParameter, AutoAnalysis.Line2.Point2.Data.Condition, 
TestParameter, AutoAnalysis.Line2.Point2.Data.Start, false
TestParameter, AutoAnalysis.Line2.Point2.Data.StartVar, 
TestParameter, AutoAnalysis.Line2.Point2.Data.StartCondition, 
TestParameter, AutoAnalysis.Line2.GradientExpr, 0
TestParameter, AutoAnalysis.Marker.Enabled, false
TestParameter, AutoAnalysis.Marker.Data.Var, 
TestParameter, AutoAnalysis.Marker.Data.Condition, 
TestParameter, AutoAnalysis.Marker.Data.Start, false
TestParameter, AutoAnalysis.Marker.Data.StartVar, 
TestParameter, AutoAnalysis.Marker.Data.StartCondition, 
MetaData, TestRecord.EntryPoint, true
MetaData, TestRecord.RecordTime, 09/05/2020 13:54:14
MetaData, TestRecord.TestTarget, 
MetaData, TestRecord.IterationIndex, 7
MetaData, TestRecord.Preservation, true
MetaData, TestRecord.Flag, 
MetaData, TestRecord.Remarks, 
MetaData, TestRecord.LinkKey, 13ca0a22-a1f8-43a5-b086-b51219e2b08c
Dimension1, 101, 101, 101
Dimension2, 1, 1, 1
DataName, V1, I1, Ohmic
DataValue, -5, -8.7569999999999988E-10, 2706094057.6045375
DataValue, -4.9, -8.443E-10, 
DataValue, -4.8, -7.603E-10, 
DataValue, -4.7, -7.3499999999999994E-10, 
DataValue, -4.6000000000000005, -7.125E-10, 
DataValue, -4.5, -7.1499999999999991E-10, 
DataValue, -4.4, -7.0829999999999992E-10, 
DataValue, -4.3, -6.855E-10, 
DataValue, -4.2, -6.6009999999999992E-10, 
DataValue, -4.1, -6.498999999999999E-10, 
DataValue, -4, -6.3959999999999994E-10, 
DataValue, -3.9, -6.3639999999999989E-10, 
DataValue, -3.8000000000000003, -6.3039999999999991E-10, 
DataValue, -3.7, -6.2669999999999991E-10, 
DataValue, -3.6, -6.056E-10, 
DataValue, -3.5, -5.9999999999999989E-10, 
DataValue, -3.4, -5.9709999999999993E-10, 
DataValue, -3.3000000000000003, -5.7049999999999994E-10, 
DataValue, -3.2, -5.726E-10, 
DataValue, -3.1, -5.682E-10, 
DataValue, -3, -5.514E-10, 
DataValue, -2.9, -5.555E-10, 
DataValue, -2.8000000000000003, -5.645E-10, 
DataValue, -2.7, -5.621E-10, 
DataValue, -2.6, -5.3779999999999994E-10, 
DataValue, -2.5, -5.255E-10, 
DataValue, -2.4, -5.2699999999999994E-10, 
DataValue, -2.3000000000000003, -5.042999999999999E-10, 
DataValue, -2.2, -5.052E-10, 
DataValue, -2.1, -4.803E-10, 
DataValue, -2, -4.817E-10, 
DataValue, -1.9000000000000001, -4.745E-10, 
DataValue, -1.8, -4.92E-10, 
DataValue, -1.7, -4.646E-10, 
DataValue, -1.6, -4.4849999999999995E-10, 
DataValue, -1.5, -4.2239999999999996E-10, 
DataValue, -1.4000000000000001, -4.1749999999999995E-10, 
DataValue, -1.3, -3.9309999999999997E-10, 
DataValue, -1.2, -3.9509999999999996E-10, 
DataValue, -1.1, -3.6809999999999995E-10, 
DataValue, -1, -3.3749999999999997E-10, 
DataValue, -0.9, -3.2519999999999997E-10, 
DataValue, -0.8, -3.0089999999999996E-10, 
DataValue, -0.70000000000000007, -2.5959999999999996E-10, 
DataValue, -0.6, -2.2439999999999997E-10, 
DataValue, -0.5, -1.7249999999999997E-10, 
DataValue, -0.4, -1.2329999999999998E-10, 
DataValue, -0.3, -5.2899999999999993E-11, 
DataValue, -0.2, 3.64E-11, 
DataValue, -0.1, 1.2399999999999999E-10, 
DataValue, 0, 3.9799999999999997E-10, 
DataValue, 0.1, 9.727E-10, 
DataValue, 0.2, 1.2309999999999998E-09, 
DataValue, 0.3, 1.3731E-09, 
DataValue, 0.4, 1.4877E-09, 
DataValue, 0.5, 1.5780999999999998E-09, 
DataValue, 0.6, 1.6710999999999997E-09, 
DataValue, 0.70000000000000007, 1.7448999999999998E-09, 
DataValue, 0.8, 1.79408E-09, 
DataValue, 0.9, 1.84765E-09, 
DataValue, 1, 1.90675E-09, 
DataValue, 1.1, 1.96557E-09, 
DataValue, 1.2, 1.99536E-09, 
DataValue, 1.3, 2.0412E-09, 
DataValue, 1.4000000000000001, 2.0774E-09, 
DataValue, 1.5, 2.1373E-09, 
DataValue, 1.6, 2.18273E-09, 
DataValue, 1.7, 2.1987E-09, 
DataValue, 1.8, 2.22978E-09, 
DataValue, 1.9000000000000001, 2.2683E-09, 
DataValue, 2, 2.30226E-09, 
DataValue, 2.1, 2.33224E-09, 
DataValue, 2.2, 2.37588E-09, 
DataValue, 2.3000000000000003, 2.39325E-09, 
DataValue, 2.4, 2.42033E-09, 
DataValue, 2.5, 2.44528E-09, 
DataValue, 2.6, 2.47344E-09, 
DataValue, 2.7, 2.50875E-09, 
DataValue, 2.8000000000000003, 2.51835E-09, 
DataValue, 2.9, 2.55368E-09, 
DataValue, 3, 2.55937E-09, 
DataValue, 3.1, 2.60479E-09, 
DataValue, 3.2, 2.60653E-09, 
DataValue, 3.3000000000000003, 2.62428E-09, 
DataValue, 3.4, 2.668E-09, 
DataValue, 3.5, 2.6817E-09, 
DataValue, 3.6, 2.68178E-09, 
DataValue, 3.7, 2.7102E-09, 
DataValue, 3.8000000000000003, 2.71917E-09, 
DataValue, 3.9, 2.73603E-09, 
DataValue, 4, 2.73593E-09, 
DataValue, 4.1, 2.76266E-09, 
DataValue, 4.2, 2.77338E-09, 
DataValue, 4.3, 2.82529E-09, 
DataValue, 4.4, 2.80706E-09, 
DataValue, 4.5, 2.81342E-09, 
DataValue, 4.6000000000000005, 2.82778E-09, 
DataValue, 4.7, 2.84237E-09, 
DataValue, 4.8, 2.83714E-09, 
DataValue, 4.9, 2.87199E-09, 
DataValue, 5, 2.90273E-09, 